! Infineon Technologies  Discrete & RF Semiconductors
! BFP840ESD
! VCE =  1.0 V,  IC =  35 mA
! Common Emitter S-Parameters:                            May 2012
# GHz  S  MA  R  50
!  f         S11            S21            S12            S22
! GHz     MAG   ANG      MAG   ANG      MAG   ANG      MAG   ANG
 0.030  0.1977  -14.7  12.887  177.0  0.0047   24.3  0.2460    1.2
 0.080  0.2091  -35.5  12.714  171.3  0.0062   32.0  0.2519   -3.1
 0.130  0.2370  -53.1  12.577  165.7  0.0076   34.8  0.2516   -7.2
 0.180  0.2685  -67.9  12.223  160.4  0.0094   43.0  0.2484  -10.7
 0.230  0.3042  -79.6  11.849  155.2  0.0107   44.0  0.2451  -13.9
 0.280  0.3396  -89.4  11.427  150.3  0.0122   45.2  0.2407  -16.9
 0.330  0.3732  -97.7  11.004  145.8  0.0139   47.3  0.2352  -19.7
 0.380  0.4055 -105.1  10.532  141.5  0.0151   47.1  0.2293  -22.6
 0.430  0.4353 -111.5  10.082  137.4  0.0163   46.2  0.2235  -25.2
 0.500  0.4734 -119.3   9.479  132.1  0.0179   45.4  0.2150  -28.4
 0.600  0.5189 -128.7   8.651  125.5  0.0199   43.6  0.2028  -32.9
 0.700  0.5550 -136.7   7.948  119.7  0.0219   40.7  0.1908  -36.8
 0.800  0.5854 -143.5   7.311  114.4  0.0232   39.5  0.1794  -40.4
 0.900  0.6100 -149.5   6.743  109.7  0.0244   38.2  0.1691  -43.5
 1.000  0.6309 -154.8   6.240  105.4  0.0255   36.5  0.1599  -46.7
 1.100  0.6481 -159.6   5.798  101.5  0.0265   35.3  0.1511  -49.4
 1.200  0.6633 -163.9   5.407   97.9  0.0273   34.2  0.1438  -52.4
 1.300  0.6751 -167.8   5.063   94.5  0.0280   33.0  0.1361  -55.0
 1.400  0.6864 -171.5   4.754   91.3  0.0286   32.8  0.1298  -58.1
 1.500  0.6956 -174.9   4.476   88.3  0.0292   32.2  0.1238  -60.7
 1.600  0.7036 -178.1   4.225   85.5  0.0299   31.7  0.1187  -63.9
 1.700  0.7109  178.9   4.002   82.8  0.0303   31.2  0.1137  -66.7
 1.800  0.7174  176.0   3.796   80.2  0.0311   31.0  0.1097  -69.8
 1.900  0.7233  173.3   3.608   77.6  0.0316   30.9  0.1051  -73.0
 2.000  0.7284  170.7   3.436   75.3  0.0321   30.3  0.1015  -76.5
 2.100  0.7322  168.1   3.279   72.8  0.0326   30.5  0.0987  -79.3
 2.200  0.7370  165.8   3.138   70.5  0.0331   30.4  0.0953  -82.8
 2.300  0.7419  163.5   3.004   68.3  0.0336   29.8  0.0919  -86.3
 2.400  0.7454  161.3   2.883   66.1  0.0339   29.9  0.0888  -90.3
 2.500  0.7499  159.1   2.769   64.0  0.0347   30.1  0.0855  -94.4
 2.600  0.7518  156.9   2.659   61.9  0.0351   29.9  0.0829  -99.0
 2.700  0.7555  154.9   2.560   59.8  0.0356   30.0  0.0805 -104.1
 2.800  0.7579  152.8   2.465   57.8  0.0363   29.7  0.0786 -109.4
 2.900  0.7613  150.8   2.379   55.7  0.0368   29.5  0.0771 -115.1
 3.000  0.7634  148.9   2.293   53.8  0.0375   29.8  0.0767 -120.8
 3.100  0.7662  147.0   2.215   51.9  0.0382   29.4  0.0767 -127.4
 3.200  0.7683  145.2   2.140   50.0  0.0388   29.5  0.0780 -133.5
 3.300  0.7706  143.3   2.070   48.1  0.0395   29.2  0.0797 -139.8
 3.400  0.7726  141.6   2.002   46.3  0.0400   29.2  0.0825 -145.4
 3.500  0.7750  139.8   1.940   44.5  0.0407   28.9  0.0860 -151.0
 3.600  0.7776  138.0   1.880   42.7  0.0413   28.8  0.0903 -156.2
 3.700  0.7801  136.4   1.822   41.0  0.0421   28.4  0.0948 -161.1
 3.800  0.7823  134.7   1.766   39.2  0.0427   28.2  0.1002 -165.2
 3.900  0.7853  133.1   1.713   37.5  0.0432   28.3  0.1059 -169.1
 4.000  0.7878  131.5   1.663   35.8  0.0439   28.0  0.1117 -172.5
 4.100  0.7904  129.9   1.615   34.1  0.0445   27.8  0.1182 -175.8
 4.200  0.7937  128.5   1.571   32.5  0.0452   27.5  0.1241 -178.6
 4.300  0.7964  127.2   1.527   30.9  0.0460   27.1  0.1307  178.9
 4.400  0.7990  125.8   1.486   29.3  0.0465   27.1  0.1369  176.6
 4.500  0.8015  124.5   1.446   27.8  0.0472   26.8  0.1427  174.4
 4.600  0.8039  123.3   1.409   26.2  0.0479   26.6  0.1490  172.4
 4.700  0.8064  122.1   1.375   24.7  0.0487   26.0  0.1545  170.5
 4.800  0.8087  120.9   1.340   23.3  0.0494   26.0  0.1599  168.6
 4.900  0.8107  119.7   1.306   21.7  0.0501   25.7  0.1653  166.8
 5.000  0.8124  118.7   1.274   20.3  0.0511   25.4  0.1701  165.0
 5.100  0.8139  117.6   1.245   18.8  0.0516   25.0  0.1757  163.3
 5.200  0.8159  116.5   1.217   17.4  0.0525   24.6  0.1804  161.5
 5.300  0.8162  115.5   1.188   16.0  0.0530   24.5  0.1857  159.5
 5.400  0.8175  114.5   1.162   14.6  0.0540   24.1  0.1901  157.9
 5.500  0.8184  113.4   1.136   13.2  0.0548   23.9  0.1957  155.9
 5.600  0.8190  112.5   1.111   11.8  0.0556   23.6  0.2002  154.2
 5.700  0.8189  111.6   1.087   10.5  0.0565   23.2  0.2056  152.4
 5.800  0.8192  110.6   1.065    9.1  0.0575   22.9  0.2110  150.6
 5.900  0.8200  109.7   1.044    7.8  0.0583   22.6  0.2170  148.9
 6.000  0.8208  108.8   1.024    6.4  0.0594   22.1  0.2224  147.1
 6.100  0.8216  107.9   1.004    5.1  0.0605   21.6  0.2293  145.7
 6.200  0.8226  107.0   0.985    3.8  0.0614   20.8  0.2349  144.1
 6.300  0.8243  106.0   0.968    2.4  0.0625   20.3  0.2422  142.6
 6.400  0.8258  105.0   0.950    1.1  0.0635   19.7  0.2482  141.1
 6.500  0.8271  104.0   0.933   -0.4  0.0646   18.9  0.2557  139.6
 6.600  0.8284  103.0   0.917   -1.7  0.0654   18.2  0.2621  138.3
 6.700  0.8306  101.9   0.902   -3.2  0.0665   17.5  0.2693  137.0
 6.800  0.8311  100.8   0.886   -4.5  0.0673   16.7  0.2755  135.8
 6.900  0.8321   99.7   0.870   -5.9  0.0682   15.9  0.2824  134.7
 7.000  0.8336   98.6   0.856   -7.3  0.0691   15.2  0.2878  133.3
 7.100  0.8356   97.5   0.843   -8.7  0.0701   14.3  0.2946  132.2
 7.200  0.8366   96.3   0.828  -10.1  0.0710   13.3  0.2998  130.8
 7.300  0.8381   95.2   0.815  -11.5  0.0718   12.7  0.3060  129.5
 7.400  0.8384   93.8   0.800  -13.0  0.0724   11.6  0.3110  128.1
 7.500  0.8412   92.5   0.787  -14.5  0.0733   10.6  0.3168  126.7
 7.600  0.8417   91.2   0.773  -16.0  0.0739    9.7  0.3219  125.2
 7.700  0.8447   89.9   0.760  -17.4  0.0748    8.8  0.3268  123.7
 7.800  0.8464   88.6   0.746  -18.9  0.0753    7.8  0.3318  122.0
 7.900  0.8494   87.2   0.732  -20.4  0.0758    6.9  0.3371  120.3
 8.000  0.8513   85.8   0.718  -21.9  0.0763    6.0  0.3424  118.4
 8.500  0.8659   79.5   0.649  -29.0  0.0783    1.6  0.3762  109.1
 9.000  0.8772   74.0   0.579  -35.4  0.0795   -2.8  0.4262  100.6
 9.500  0.8825   69.8   0.513  -40.3  0.0800   -6.1  0.4845   94.6
10.000  0.8838   67.1   0.464  -43.8  0.0809   -9.0  0.5372   91.5
10.500  0.8884   65.3   0.431  -46.6  0.0814  -11.8  0.5737   90.3
11.000  0.9018   63.7   0.407  -50.0  0.0825  -13.4  0.5970   89.7
11.500  0.9216   62.0   0.387  -54.5  0.0853  -15.8  0.6066   88.2
12.000  0.9285   60.3   0.360  -59.6  0.0888  -18.6  0.6140   85.5
!
!  f       NFmin   Gammaopt  rn/50
! GHz       dB    MAG  ANG    -
!
! noise parameter not available yet for this operation point!
!
! (c) 2012  Infineon Technologies AG, Munich
