! Infineon Technologies  Discrete & RF Semiconductors
! BFP843
! VCE =  0.5 V,  IC =  37 mA
! Common Emitter S-Parameters:                            Aug 2013
# GHz  S  MA  R  50
!  f         S11            S21            S12            S22
! GHz     MAG   ANG      MAG   ANG      MAG   ANG      MAG   ANG
 0.030  0.1554 -121.4   8.333  168.5  0.0212   25.2  0.2520 -164.4
 0.040  0.1715 -131.3   8.020  167.9  0.0223   18.5  0.2687 -168.3
 0.050  0.1803 -134.2   7.863  168.5  0.0232   16.5  0.2805 -170.5
 0.060  0.1873 -136.7   7.729  167.6  0.0259   20.5  0.2843 -172.7
 0.070  0.1935 -139.8   7.588  167.3  0.0247   16.5  0.2846 -173.1
 0.080  0.1969 -141.4   7.563  166.6  0.0258   12.2  0.2891 -174.0
 0.090  0.2029 -141.0   7.514  165.7  0.0267   12.1  0.2878 -175.7
 0.100  0.2073 -141.8   7.456  165.1  0.0272   11.2  0.2868 -177.4
 0.110  0.2184 -141.1   7.416  164.1  0.0245   14.2  0.2900 -177.3
 0.120  0.2218 -140.6   7.370  163.3  0.0274   15.3  0.2863 -178.1
 0.130  0.2285 -140.4   7.354  162.6  0.0286   15.1  0.2887 -178.9
 0.140  0.2389 -141.0   7.297  161.4  0.0273   15.1  0.2847 -179.6
 0.150  0.2434 -140.0   7.264  160.4  0.0287   13.3  0.2849 -179.5
 0.200  0.2826 -139.1   7.038  156.0  0.0271   12.7  0.2804  179.1
 0.250  0.3198 -139.2   6.864  151.2  0.0288   13.9  0.2793  178.5
 0.300  0.3590 -139.9   6.622  147.0  0.0303   13.7  0.2756  178.5
 0.350  0.3990 -141.8   6.383  142.6  0.0295   14.1  0.2760  178.1
 0.400  0.4355 -143.9   6.143  138.6  0.0319   14.2  0.2769  178.1
 0.450  0.4680 -146.0   5.932  134.9  0.0323   15.5  0.2793  177.7
 0.500  0.4987 -148.4   5.709  131.2  0.0323   13.9  0.2797  177.8
 0.600  0.5488 -153.0   5.267  124.4  0.0334   15.0  0.2848  177.1
 0.700  0.5907 -157.6   4.860  118.2  0.0345   14.9  0.2884  176.3
 0.800  0.6249 -161.6   4.492  112.9  0.0352   14.2  0.2926  175.4
 0.900  0.6514 -165.6   4.162  107.8  0.0357   14.4  0.2976  174.3
 1.000  0.6741 -169.3   3.868  103.3  0.0360   14.5  0.3032  173.5
 1.100  0.6931 -172.8   3.607   99.1  0.0366   15.5  0.3074  172.5
 1.200  0.7093 -175.9   3.368   95.2  0.0379   14.9  0.3111  171.6
 1.300  0.7216 -179.2   3.156   91.5  0.0382   15.7  0.3157  170.5
 1.400  0.7338  178.2   2.971   88.1  0.0388   15.8  0.3198  169.4
 1.500  0.7435  175.5   2.797   84.9  0.0396   16.4  0.3240  168.5
 1.600  0.7520  172.9   2.644   81.8  0.0398   16.4  0.3276  167.4
 1.700  0.7584  170.4   2.503   78.7  0.0406   16.3  0.3324  166.3
 1.800  0.7653  168.0   2.373   75.9  0.0411   17.4  0.3355  165.2
 1.900  0.7721  165.8   2.256   73.2  0.0419   16.9  0.3404  164.1
 2.000  0.7776  163.6   2.150   70.5  0.0423   16.4  0.3442  163.0
 2.100  0.7812  161.5   2.048   67.9  0.0434   16.7  0.3479  162.0
 2.200  0.7868  159.5   1.958   65.5  0.0439   17.3  0.3518  161.0
 2.300  0.7911  157.6   1.877   63.0  0.0437   17.3  0.3558  159.6
 2.400  0.7924  155.6   1.797   60.6  0.0449   17.4  0.3593  158.7
 2.500  0.7964  153.6   1.723   58.3  0.0455   17.9  0.3651  157.4
 2.600  0.7984  151.7   1.654   56.0  0.0459   17.1  0.3687  156.3
 2.700  0.8011  149.8   1.589   53.8  0.0464   17.4  0.3732  154.9
 2.800  0.8037  148.0   1.530   51.6  0.0477   17.6  0.3770  153.7
 2.900  0.8071  146.3   1.474   49.4  0.0476   16.2  0.3830  152.6
 3.000  0.8085  144.3   1.421   47.2  0.0488   17.3  0.3872  151.2
 3.100  0.8125  142.7   1.371   45.2  0.0498   16.9  0.3938  150.0
 3.200  0.8149  141.0   1.323   43.1  0.0494   17.0  0.3995  148.9
 3.300  0.8165  139.3   1.277   41.1  0.0509   16.5  0.4048  147.7
 3.400  0.8186  137.8   1.234   39.2  0.0514   15.7  0.4102  146.8
 3.500  0.8205  136.1   1.193   37.2  0.0516   17.0  0.4151  145.6
 3.600  0.8217  134.5   1.155   35.4  0.0530   16.2  0.4208  144.5
 3.700  0.8257  132.9   1.119   33.5  0.0533   15.7  0.4271  143.3
 3.800  0.8279  131.3   1.085   31.6  0.0541   15.4  0.4328  142.4
 3.900  0.8281  129.8   1.051   29.8  0.0544   14.7  0.4378  141.2
 4.000  0.8305  128.4   1.019   28.1  0.0563   15.3  0.4445  140.4
 4.100  0.8324  126.9   0.988   26.4  0.0563   15.1  0.4503  139.3
 4.200  0.8337  125.6   0.960   24.7  0.0570   14.5  0.4552  138.6
 4.300  0.8369  124.3   0.933   23.0  0.0578   14.9  0.4613  137.6
 4.400  0.8397  123.0   0.905   21.4  0.0581   14.2  0.4660  136.7
 4.500  0.8397  121.8   0.881   19.8  0.0590   14.2  0.4712  135.9
 4.600  0.8429  120.6   0.857   18.3  0.0595   13.3  0.4759  135.2
 4.700  0.8436  119.4   0.837   16.6  0.0600   12.7  0.4817  134.2
 4.800  0.8464  118.4   0.814   15.2  0.0610   13.0  0.4860  133.5
 4.900  0.8465  117.3   0.793   13.7  0.0619   12.7  0.4898  132.5
 5.000  0.8480  116.3   0.774   12.2  0.0623   11.8  0.4943  131.7
 5.100  0.8493  115.2   0.755   10.8  0.0628   11.5  0.4991  130.7
 5.200  0.8509  114.3   0.739    9.3  0.0639   11.4  0.5027  130.0
 5.300  0.8526  113.4   0.722    7.9  0.0646   11.0  0.5071  129.0
 5.400  0.8524  112.4   0.706    6.4  0.0656   10.6  0.5102  128.1
 5.500  0.8545  111.4   0.690    4.9  0.0661   10.1  0.5141  127.1
 5.600  0.8548  110.7   0.676    3.7  0.0668   10.0  0.5174  126.3
 5.700  0.8524  109.8   0.661    2.3  0.0682    9.3  0.5219  125.3
 5.800  0.8542  108.9   0.648    0.9  0.0690    9.1  0.5250  124.4
 5.900  0.8541  108.1   0.636   -0.4  0.0699    8.9  0.5296  123.5
 6.000  0.8549  107.1   0.622   -1.7  0.0709    8.1  0.5335  122.5
 6.100  0.8552  106.3   0.611   -3.1  0.0712    7.4  0.5369  121.5
 6.200  0.8559  105.3   0.600   -4.5  0.0723    6.8  0.5412  120.4
 6.300  0.8564  104.4   0.588   -5.8  0.0730    6.1  0.5450  119.5
 6.400  0.8560  103.4   0.577   -7.3  0.0743    5.6  0.5492  118.6
 6.500  0.8575  102.5   0.567   -8.4  0.0747    5.0  0.5522  117.5
 6.600  0.8573  101.3   0.557  -10.0  0.0757    4.4  0.5564  116.6
 6.700  0.8592  100.4   0.548  -11.2  0.0762    3.6  0.5602  115.6
 6.800  0.8591   99.2   0.539  -12.7  0.0771    2.6  0.5636  114.6
 6.900  0.8597   98.2   0.529  -13.9  0.0780    2.1  0.5678  113.5
 7.000  0.8594   96.9   0.520  -15.3  0.0792    1.5  0.5730  112.6
 7.100  0.8617   95.8   0.511  -16.7  0.0795    0.5  0.5768  111.6
 7.200  0.8622   94.6   0.503  -18.0  0.0804    0.0  0.5806  110.6
 7.300  0.8644   93.4   0.495  -19.6  0.0819   -1.2  0.5853  109.5
 7.400  0.8663   92.2   0.487  -20.9  0.0819   -2.1  0.5898  108.5
 7.500  0.8673   90.9   0.478  -22.2  0.0827   -2.6  0.5941  107.4
 7.600  0.8696   89.7   0.471  -23.7  0.0831   -3.5  0.5987  106.2
 7.700  0.8722   88.4   0.463  -25.2  0.0839   -4.7  0.6038  105.0
 7.800  0.8748   87.2   0.454  -26.7  0.0841   -5.7  0.6084  103.8
 7.900  0.8782   85.9   0.446  -28.1  0.0850   -6.2  0.6141  102.7
 8.000  0.8798   84.7   0.438  -29.5  0.0850   -7.6  0.6192  101.4
 8.500  0.8933   78.5   0.394  -36.8  0.0858  -12.4  0.6460   95.0
 9.000  0.8988   70.0   0.350  -42.6  0.0848  -16.5  0.6770   88.7
 9.500  0.8986   65.6   0.308  -46.4  0.0830  -19.3  0.7057   84.0
10.000  0.9071   63.1   0.282  -48.7  0.0830  -20.6  0.7307   80.9
10.500  0.9236   60.6   0.265  -51.7  0.0829  -22.0  0.7502   79.8
11.000  0.9249   58.3   0.248  -54.7  0.0850  -22.6  0.7690   79.5
11.500  0.9194   56.7   0.236  -57.2  0.0877  -25.4  0.7783   78.6
12.000  0.9115   55.5   0.226  -60.1  0.0906  -28.3  0.7826   76.7
!
!  f       NFmin   Gammaopt  rn/50
! GHz       dB    MAG  ANG    -
!
! noise parameter not available yet for this operation point!
!
! (c) 2013  Infineon Technologies AG, Munich
