! Infineon Technologies  Discrete & RF Semiconductors
! BFP840FESD
! VCE =  2.0 V,  IC =  8.0 mA
! Common Emitter S-Parameters:                            May 2012
# GHz  S  MA  R  50
!  f         S11            S21            S12            S22
! GHz     MAG   ANG      MAG   ANG      MAG   ANG      MAG   ANG
 0.030  0.9213   -1.1  21.719  176.4  0.0009   89.7  0.9876   -0.5
 0.040  0.9216   -1.6  21.707  176.2  0.0010   59.6  0.9896   -0.9
 0.050  0.9199   -2.0  21.782  177.5  0.0014   56.5  0.9915   -1.2
 0.060  0.9205   -2.3  21.691  177.2  0.0011   81.5  0.9910   -1.4
 0.070  0.9218   -2.7  21.712  177.0  0.0021  105.5  0.9930   -1.8
 0.080  0.9198   -3.1  21.731  176.6  0.0021   81.2  0.9922   -2.2
 0.090  0.9195   -3.5  21.712  176.2  0.0021   76.1  0.9927   -2.5
 0.100  0.9207   -3.9  21.703  176.0  0.0026   82.6  0.9929   -2.9
 0.110  0.9204   -4.3  21.647  175.6  0.0028   87.1  0.9924   -3.2
 0.120  0.9200   -4.7  21.652  175.4  0.0032   82.6  0.9922   -3.5
 0.130  0.9205   -5.1  21.608  175.0  0.0033   81.2  0.9925   -3.9
 0.140  0.9200   -5.5  21.613  174.7  0.0035   79.7  0.9922   -4.2
 0.150  0.9195   -5.9  21.606  174.3  0.0038   79.8  0.9920   -4.5
 0.200  0.9173   -7.9  21.547  172.5  0.0047   83.1  0.9905   -6.1
 0.250  0.9158   -9.8  21.501  170.8  0.0061   83.6  0.9885   -7.7
 0.300  0.9129  -11.8  21.428  169.0  0.0072   81.1  0.9849   -9.2
 0.350  0.9095  -13.7  21.318  167.2  0.0083   79.6  0.9817  -10.8
 0.400  0.9058  -15.6  21.216  165.6  0.0096   77.8  0.9772  -12.3
 0.450  0.9025  -17.5  21.056  163.9  0.0107   77.8  0.9733  -13.8
 0.500  0.8984  -19.4  20.951  162.3  0.0117   76.3  0.9684  -15.3
 0.600  0.8896  -23.1  20.633  159.0  0.0141   73.8  0.9578  -18.2
 0.700  0.8799  -26.7  20.331  156.0  0.0162   72.0  0.9466  -21.1
 0.800  0.8688  -30.5  20.187  153.0  0.0183   69.5  0.9341  -24.0
 0.900  0.8581  -34.1  19.825  150.1  0.0205   67.2  0.9207  -26.8
 1.000  0.8467  -37.6  19.436  147.3  0.0224   64.9  0.9067  -29.6
 1.100  0.8348  -41.1  19.113  144.5  0.0242   62.9  0.8923  -32.4
 1.200  0.8223  -44.6  18.804  141.7  0.0260   60.6  0.8770  -35.1
 1.300  0.8092  -48.1  18.503  138.9  0.0278   58.8  0.8618  -37.8
 1.400  0.7968  -51.5  18.154  136.3  0.0293   56.5  0.8459  -40.4
 1.500  0.7831  -54.8  17.871  133.8  0.0307   54.7  0.8300  -43.1
 1.600  0.7689  -58.4  17.676  131.0  0.0322   52.6  0.8142  -45.7
 1.700  0.7553  -61.4  17.222  128.5  0.0334   50.6  0.7978  -48.2
 1.800  0.7441  -64.5  16.838  126.1  0.0346   48.9  0.7829  -50.8
 1.900  0.7304  -67.5  16.473  123.9  0.0357   47.2  0.7672  -53.2
 2.000  0.7187  -70.6  16.176  121.4  0.0367   45.3  0.7529  -55.6
 2.100  0.7065  -73.7  15.840  119.1  0.0377   44.0  0.7390  -58.0
 2.200  0.6948  -76.5  15.493  116.9  0.0385   42.3  0.7257  -60.3
 2.300  0.6831  -79.3  15.153  114.8  0.0393   40.6  0.7116  -62.4
 2.400  0.6729  -81.9  14.817  112.7  0.0399   39.0  0.7002  -64.6
 2.500  0.6613  -84.6  14.486  110.6  0.0406   37.9  0.6874  -66.6
 2.600  0.6509  -87.2  14.155  108.7  0.0411   36.5  0.6754  -68.7
 2.700  0.6399  -89.8  13.849  106.7  0.0416   35.3  0.6635  -70.6
 2.800  0.6309  -92.2  13.557  104.9  0.0421   34.3  0.6522  -72.5
 2.900  0.6217  -94.7  13.269  103.1  0.0425   33.2  0.6432  -74.3
 3.000  0.6133  -97.0  12.993  101.3  0.0428   32.1  0.6332  -76.0
 3.100  0.6029  -99.5  12.747   99.5  0.0432   31.3  0.6243  -77.8
 3.200  0.5960 -101.8  12.477   97.8  0.0434   30.2  0.6150  -79.5
 3.300  0.5893 -103.9  12.206   96.2  0.0438   29.4  0.6069  -81.2
 3.400  0.5827 -106.1  11.954   94.6  0.0440   28.5  0.5997  -82.9
 3.500  0.5767 -108.2  11.717   93.1  0.0441   27.7  0.5925  -84.4
 3.600  0.5698 -110.4  11.490   91.5  0.0443   27.0  0.5851  -85.9
 3.700  0.5636 -112.5  11.267   90.0  0.0445   26.4  0.5788  -87.3
 3.800  0.5581 -114.6  11.052   88.5  0.0446   25.5  0.5725  -88.8
 3.900  0.5532 -116.7  10.850   87.0  0.0448   24.9  0.5672  -90.2
 4.000  0.5493 -118.7  10.652   85.6  0.0449   24.2  0.5617  -91.5
 4.100  0.5457 -120.7  10.464   84.2  0.0451   23.7  0.5562  -92.9
 4.200  0.5415 -122.7  10.281   82.7  0.0451   23.2  0.5508  -94.2
 4.300  0.5385 -124.8  10.108   81.3  0.0453   22.7  0.5456  -95.7
 4.400  0.5349 -126.7   9.928   79.9  0.0453   22.1  0.5406  -96.9
 4.500  0.5324 -128.6   9.765   78.5  0.0454   21.6  0.5362  -98.2
 4.600  0.5294 -130.6   9.609   77.2  0.0455   21.2  0.5306  -99.4
 4.700  0.5273 -132.4   9.450   75.8  0.0454   20.7  0.5263 -100.6
 4.800  0.5251 -134.3   9.296   74.4  0.0455   20.3  0.5212 -101.9
 4.900  0.5233 -136.0   9.148   73.1  0.0455   19.9  0.5172 -103.0
 5.000  0.5213 -137.7   9.005   71.8  0.0455   19.4  0.5117 -104.1
 5.100  0.5192 -139.4   8.862   70.5  0.0455   19.1  0.5067 -105.4
 5.200  0.5174 -141.1   8.727   69.2  0.0454   18.6  0.5013 -106.4
 5.300  0.5155 -142.8   8.600   67.9  0.0454   18.3  0.4962 -107.6
 5.400  0.5138 -144.4   8.469   66.6  0.0453   18.1  0.4911 -108.7
 5.500  0.5118 -146.1   8.348   65.3  0.0454   17.7  0.4859 -109.9
 5.600  0.5093 -147.7   8.221   64.0  0.0452   17.5  0.4796 -111.0
 5.700  0.5064 -149.4   8.101   62.7  0.0451   17.1  0.4738 -112.2
 5.800  0.5045 -151.1   7.985   61.4  0.0450   16.8  0.4673 -113.4
 5.900  0.5018 -152.8   7.868   60.1  0.0449   16.7  0.4614 -114.5
 6.000  0.5000 -154.4   7.756   58.9  0.0448   16.5  0.4545 -115.7
 6.100  0.4965 -156.1   7.648   57.6  0.0447   16.1  0.4483 -117.0
 6.200  0.4943 -157.8   7.534   56.3  0.0444   16.0  0.4417 -118.2
 6.300  0.4918 -159.5   7.427   55.1  0.0442   15.9  0.4350 -119.4
 6.400  0.4902 -161.2   7.324   53.8  0.0440   16.0  0.4289 -120.7
 6.500  0.4869 -163.0   7.219   52.6  0.0437   16.0  0.4212 -122.0
 6.600  0.4842 -164.6   7.109   51.3  0.0434   15.9  0.4148 -123.2
 6.700  0.4817 -166.3   7.008   50.1  0.0431   16.1  0.4077 -124.5
 6.800  0.4793 -168.0   6.911   48.9  0.0428   16.3  0.4017 -125.7
 6.900  0.4767 -169.6   6.809   47.7  0.0426   16.8  0.3951 -127.1
 7.000  0.4748 -171.3   6.715   46.6  0.0424   17.3  0.3893 -128.2
 7.100  0.4732 -172.9   6.617   45.4  0.0424   17.9  0.3832 -129.5
 7.200  0.4727 -174.5   6.528   44.2  0.0422   18.6  0.3783 -130.7
 7.300  0.4727 -175.9   6.439   43.1  0.0423   19.2  0.3735 -132.0
 7.400  0.4734 -177.3   6.358   42.0  0.0426   19.9  0.3697 -133.4
 7.500  0.4748 -178.7   6.280   40.9  0.0429   20.6  0.3664 -134.8
 7.600  0.4773  179.9   6.203   39.8  0.0432   21.2  0.3632 -136.3
 7.700  0.4795  178.4   6.131   38.7  0.0437   21.7  0.3607 -137.9
 7.800  0.4837  176.8   6.064   37.4  0.0443   21.9  0.3591 -139.8
 7.900  0.4878  175.3   5.994   36.3  0.0448   22.2  0.3564 -141.6
 8.000  0.4928  173.8   5.930   35.0  0.0453   22.2  0.3543 -143.6
 8.500  0.5183  166.0   5.582   28.8  0.0476   22.0  0.3413 -155.6
 9.000  0.5446  158.7   5.215   22.5  0.0490   21.3  0.3315 -169.9
 9.500  0.5727  152.1   4.847   16.4  0.0501   20.8  0.3396  174.1
10.000  0.5991  146.2   4.472   10.6  0.0511   20.5  0.3755  159.1
10.500  0.6248  141.2   4.117    5.3  0.0520   20.1  0.4381  148.9
11.000  0.6446  136.3   3.774    0.3  0.0528   19.8  0.5063  143.2
11.500  0.6598  132.3   3.458   -3.9  0.0533   19.9  0.5710  141.9
12.000  0.6695  128.8   3.157   -7.3  0.0534   20.8  0.6167  143.6
!
!  f       NFmin   Gammaopt  rn/50
! GHz       dB    MAG  ANG    -
 0.450      0.61  0.39    5   0.15
 0.900      0.64  0.38   12   0.15
 1.500      0.65  0.35   17   0.14
 1.900      0.66  0.31   26   0.15
 2.400      0.68  0.30   34   0.15
 3.500      0.70  0.28   55   0.15
 5.500      0.76  0.19   96   0.12
 8.000      0.89  0.16  156   0.12
10.000      1.03  0.24 -142   0.12
12.000      1.25  0.41 -119   0.13
!
! (c) 2012  Infineon Technologies AG, Munich
