! Infineon Technologies  Discrete & RF Semiconductors
! BFP843
! VCE =  1.5 V,  IC =  37 mA
! Common Emitter S-Parameters:                            Aug 2013
# GHz  S  MA  R  50
!  f         S11            S21            S12            S22
! GHz     MAG   ANG      MAG   ANG      MAG   ANG      MAG   ANG
 0.030  0.3373 -121.0  29.338  154.8  0.0278   28.4  0.3202  -90.4
 0.040  0.3213 -134.9  26.770  157.2  0.0304   16.1  0.2624 -104.1
 0.050  0.3088 -141.7  25.452  160.4  0.0348   17.3  0.2245 -112.8
 0.060  0.2969 -150.1  24.610  161.3  0.0312   18.0  0.1971 -121.7
 0.070  0.2838 -156.7  23.868  162.8  0.0291   12.4  0.1718 -130.3
 0.080  0.2811 -161.1  23.609  163.6  0.0359   10.2  0.1677 -136.2
 0.090  0.2793 -163.5  23.346  163.9  0.0324   18.0  0.1552 -139.6
 0.100  0.2669 -167.0  23.097  164.4  0.0328    9.8  0.1390 -147.4
 0.110  0.2723 -168.4  22.944  164.5  0.0320   12.0  0.1330 -150.9
 0.120  0.2661 -171.0  22.751  164.7  0.0304   12.3  0.1275 -152.9
 0.130  0.2626 -172.3  22.707  164.9  0.0351   12.2  0.1255 -158.8
 0.140  0.2656 -174.3  22.538  164.6  0.0331    9.5  0.1156 -159.9
 0.150  0.2584 -175.1  22.449  164.5  0.0314   10.9  0.1128 -163.2
 0.200  0.2438  179.6  21.913  163.7  0.0323    8.2  0.1003 -173.2
 0.250  0.2335  176.4  21.669  162.2  0.0333    8.9  0.0891 -179.2
 0.300  0.2251  175.1  21.287  160.8  0.0339    7.6  0.0835  175.6
 0.350  0.2222  174.3  20.999  159.1  0.0346    6.1  0.0776  171.4
 0.400  0.2171  174.3  20.745  157.5  0.0349    6.8  0.0750  170.3
 0.450  0.2146  173.8  20.579  155.8  0.0343    6.0  0.0715  170.8
 0.500  0.2136  173.6  20.377  154.0  0.0352    5.4  0.0699  169.6
 0.600  0.2131  173.9  19.954  150.4  0.0353    5.4  0.0672  168.0
 0.700  0.2118  173.2  19.535  146.7  0.0354    5.4  0.0651  168.0
 0.800  0.2143  173.3  19.143  143.1  0.0351    4.7  0.0633  169.1
 0.900  0.2166  172.7  18.723  139.4  0.0355    6.0  0.0646  169.6
 1.000  0.2194  172.4  18.304  135.9  0.0353    5.5  0.0650  171.5
 1.100  0.2233  171.8  17.882  132.4  0.0359    5.4  0.0656  173.6
 1.200  0.2274  171.5  17.444  129.0  0.0364    5.9  0.0677  174.8
 1.300  0.2329  170.1  17.022  125.6  0.0359    5.9  0.0696  175.7
 1.400  0.2373  169.9  16.606  122.4  0.0358    6.1  0.0707  176.4
 1.500  0.2424  169.0  16.163  119.3  0.0362    5.9  0.0740  177.5
 1.600  0.2476  168.0  15.769  116.1  0.0363    6.5  0.0756  178.4
 1.700  0.2526  167.2  15.350  113.1  0.0361    5.9  0.0796  178.4
 1.800  0.2576  166.0  14.933  110.1  0.0361    6.6  0.0831  179.6
 1.900  0.2620  164.9  14.543  107.3  0.0368    7.2  0.0863  178.4
 2.000  0.2680  164.0  14.171  104.4  0.0366    7.8  0.0897  178.5
 2.100  0.2741  162.8  13.786  101.6  0.0368    8.5  0.0930  178.6
 2.200  0.2788  161.9  13.425   99.1  0.0375    8.5  0.0965  179.1
 2.300  0.2842  160.6  13.094   96.4  0.0368    8.5  0.1017  178.1
 2.400  0.2876  159.5  12.756   93.9  0.0373    9.1  0.1050  178.0
 2.500  0.2944  157.9  12.418   91.3  0.0373   10.4  0.1104  176.7
 2.600  0.2979  156.8  12.111   88.9  0.0378    9.2  0.1133  176.1
 2.700  0.3036  155.4  11.785   86.5  0.0377    9.9  0.1184  174.7
 2.800  0.3091  154.1  11.494   84.1  0.0377   10.2  0.1220  174.1
 2.900  0.3154  152.9  11.210   81.8  0.0376   11.3  0.1286  173.0
 3.000  0.3193  151.4  10.935   79.5  0.0378   10.8  0.1328  171.9
 3.100  0.3260  150.3  10.678   77.3  0.0389   11.9  0.1391  170.6
 3.200  0.3312  149.1  10.416   75.0  0.0388   11.7  0.1454  169.4
 3.300  0.3377  147.6  10.167   72.8  0.0393   11.8  0.1515  168.5
 3.400  0.3438  146.4   9.930   70.8  0.0394   12.5  0.1586  167.7
 3.500  0.3489  145.1   9.701   68.6  0.0395   12.6  0.1642  166.6
 3.600  0.3550  143.7   9.467   66.5  0.0401   13.1  0.1706  165.6
 3.700  0.3609  142.3   9.261   64.5  0.0406   12.5  0.1776  164.4
 3.800  0.3677  140.9   9.057   62.4  0.0411   13.2  0.1851  163.6
 3.900  0.3729  139.7   8.842   60.4  0.0416   13.5  0.1918  162.4
 4.000  0.3791  138.5   8.653   58.4  0.0415   13.5  0.1985  161.8
 4.100  0.3864  137.3   8.450   56.5  0.0417   14.6  0.2064  160.7
 4.200  0.3918  136.1   8.276   54.5  0.0429   14.7  0.2134  160.1
 4.300  0.3988  135.1   8.091   52.6  0.0426   14.0  0.2210  159.1
 4.400  0.4056  133.9   7.915   50.8  0.0440   14.6  0.2270  158.3
 4.500  0.4110  132.9   7.744   48.9  0.0441   15.0  0.2343  157.6
 4.600  0.4194  131.9   7.583   47.1  0.0444   15.3  0.2413  157.0
 4.700  0.4231  131.0   7.442   45.2  0.0451   15.4  0.2477  156.0
 4.800  0.4305  130.1   7.286   43.4  0.0458   15.9  0.2547  155.4
 4.900  0.4344  129.3   7.139   41.7  0.0464   14.9  0.2602  154.5
 5.000  0.4413  128.5   6.998   39.9  0.0467   15.6  0.2666  153.8
 5.100  0.4461  127.7   6.860   38.2  0.0472   15.6  0.2730  152.8
 5.200  0.4515  127.0   6.731   36.5  0.0479   15.6  0.2783  152.2
 5.300  0.4570  126.3   6.605   34.8  0.0490   15.6  0.2846  151.3
 5.400  0.4609  125.5   6.483   33.0  0.0497   16.0  0.2895  150.4
 5.500  0.4664  124.8   6.358   31.3  0.0500   15.4  0.2952  149.4
 5.600  0.4712  124.2   6.247   29.7  0.0506   15.9  0.3001  148.7
 5.700  0.4730  123.4   6.127   28.0  0.0514   15.8  0.3051  147.6
 5.800  0.4777  122.8   6.019   26.4  0.0521   15.7  0.3099  146.8
 5.900  0.4791  122.3   5.926   24.9  0.0534   15.9  0.3163  145.9
 6.000  0.4847  121.5   5.818   23.2  0.0541   16.2  0.3213  145.2
 6.100  0.4883  120.9   5.724   21.5  0.0551   15.6  0.3269  144.1
 6.200  0.4934  120.0   5.629   19.9  0.0559   15.7  0.3329  143.1
 6.300  0.4968  119.4   5.540   18.3  0.0567   15.3  0.3386  142.1
 6.400  0.5003  118.6   5.451   16.6  0.0579   14.9  0.3453  141.2
 6.500  0.5057  117.7   5.362   15.0  0.0584   14.1  0.3502  140.2
 6.600  0.5086  116.7   5.278   13.3  0.0594   13.7  0.3568  139.3
 6.700  0.5139  115.9   5.200   11.8  0.0602   13.5  0.3619  138.4
 6.800  0.5168  114.7   5.124   10.1  0.0609   13.4  0.3683  137.3
 6.900  0.5205  113.8   5.041    8.5  0.0622   13.0  0.3745  136.3
 7.000  0.5241  112.4   4.964    6.8  0.0631   12.5  0.3819  135.4
 7.100  0.5293  111.4   4.892    5.2  0.0640   12.0  0.3879  134.3
 7.200  0.5331  110.2   4.822    3.6  0.0650   11.8  0.3944  133.4
 7.300  0.5387  109.0   4.757    1.8  0.0660   11.1  0.4017  132.3
 7.400  0.5438  107.8   4.687    0.2  0.0666   10.2  0.4082  131.2
 7.500  0.5491  106.7   4.616   -1.5  0.0677    9.6  0.4147  130.0
 7.600  0.5556  105.3   4.550   -3.3  0.0686    9.5  0.4227  128.8
 7.700  0.5631  104.1   4.482   -5.1  0.0700    8.3  0.4308  127.5
 7.800  0.5691  102.9   4.418   -6.8  0.0704    7.1  0.4383  126.3
 7.900  0.5774  101.6   4.350   -8.6  0.0714    6.9  0.4467  125.0
 8.000  0.5841  100.4   4.286  -10.4  0.0719    6.0  0.4549  123.6
 8.500  0.6291   94.0   3.917  -19.5  0.0754    2.0  0.5010  116.1
 9.000  0.6731   85.1   3.526  -28.2  0.0774   -2.4  0.5557  108.2
 9.500  0.7072   79.5   3.121  -35.1  0.0785   -5.9  0.6081  101.2
10.000  0.7392   75.9   2.811  -40.6  0.0788   -8.1  0.6538   96.6
10.500  0.7727   72.7   2.591  -46.1  0.0801  -10.3  0.6891   94.3
11.000  0.7873   70.0   2.395  -51.7  0.0824  -11.7  0.7260   93.2
11.500  0.7930   68.2   2.233  -56.9  0.0860  -13.9  0.7459   91.7
12.000  0.7931   66.9   2.098  -62.0  0.0898  -16.9  0.7590   89.4
!
!  f       NFmin   Gammaopt  rn/50
! GHz       dB    MAG  ANG    -
!
! noise parameter not available yet for this operation point!
!
! (c) 2013  Infineon Technologies AG, Munich
