! Infineon Technologies  Discrete & RF Semiconductors
! BFP840FESD
! VCE =  1.0 V,  IC =  8.0 mA
! Common Emitter S-Parameters:                            May 2012
# GHz  S  MA  R  50
!  f         S11            S21            S12            S22
! GHz     MAG   ANG      MAG   ANG      MAG   ANG      MAG   ANG
 0.030  0.9253   -1.2  21.751  177.2  0.0008   77.5  0.9897   -0.5
 0.040  0.9252   -1.6  21.792  176.9  0.0011   97.1  0.9913   -0.9
 0.050  0.9239   -2.0  21.908  178.0  0.0009  138.5  0.9926   -1.2
 0.060  0.9252   -2.4  21.851  177.6  0.0019  107.2  0.9940   -1.6
 0.070  0.9250   -2.9  21.896  177.4  0.0017   97.4  0.9939   -1.9
 0.080  0.9242   -3.3  21.933  176.9  0.0025   89.3  0.9949   -2.4
 0.090  0.9236   -3.7  21.918  176.5  0.0022   86.8  0.9951   -2.7
 0.100  0.9242   -4.1  21.917  176.2  0.0026   92.3  0.9953   -3.2
 0.110  0.9240   -4.5  21.866  175.8  0.0027   93.2  0.9955   -3.6
 0.120  0.9237   -4.9  21.868  175.5  0.0032   84.7  0.9950   -3.9
 0.130  0.9235   -5.4  21.834  175.1  0.0030   89.9  0.9946   -4.3
 0.140  0.9226   -5.8  21.837  174.7  0.0040   89.3  0.9946   -4.6
 0.150  0.9229   -6.2  21.835  174.3  0.0040   84.5  0.9942   -5.0
 0.200  0.9204   -8.3  21.778  172.3  0.0052   86.8  0.9928   -6.7
 0.250  0.9189  -10.3  21.727  170.5  0.0066   82.3  0.9899   -8.5
 0.300  0.9150  -12.3  21.643  168.5  0.0081   82.9  0.9862  -10.2
 0.350  0.9113  -14.3  21.510  166.7  0.0093   81.8  0.9825  -11.9
 0.400  0.9073  -16.3  21.403  164.9  0.0106   79.4  0.9775  -13.6
 0.450  0.9035  -18.3  21.232  163.2  0.0118   78.5  0.9730  -15.2
 0.500  0.8987  -20.2  21.104  161.5  0.0130   77.3  0.9675  -16.9
 0.600  0.8894  -24.1  20.760  158.1  0.0155   74.1  0.9553  -20.1
 0.700  0.8788  -27.9  20.421  155.0  0.0179   71.9  0.9426  -23.3
 0.800  0.8668  -31.8  20.229  151.8  0.0202   69.4  0.9289  -26.5
 0.900  0.8549  -35.5  19.842  148.8  0.0224   66.9  0.9136  -29.6
 1.000  0.8426  -39.1  19.427  145.8  0.0244   64.4  0.8981  -32.7
 1.100  0.8295  -42.7  19.068  143.0  0.0266   62.1  0.8820  -35.7
 1.200  0.8162  -46.3  18.729  140.1  0.0283   59.9  0.8651  -38.7
 1.300  0.8025  -49.8  18.387  137.3  0.0301   57.5  0.8483  -41.6
 1.400  0.7894  -53.3  18.018  134.6  0.0318   55.5  0.8312  -44.5
 1.500  0.7747  -56.8  17.694  132.0  0.0334   53.6  0.8136  -47.3
 1.600  0.7601  -60.4  17.459  129.2  0.0348   51.4  0.7967  -50.2
 1.700  0.7457  -63.5  16.985  126.6  0.0360   49.3  0.7791  -53.0
 1.800  0.7337  -66.7  16.587  124.2  0.0373   47.5  0.7635  -55.7
 1.900  0.7196  -69.7  16.195  121.9  0.0385   45.7  0.7470  -58.4
 2.000  0.7075  -72.8  15.875  119.5  0.0395   43.9  0.7318  -60.9
 2.100  0.6956  -75.9  15.517  117.1  0.0405   42.2  0.7174  -63.5
 2.200  0.6834  -78.8  15.148  115.0  0.0414   40.6  0.7035  -66.0
 2.300  0.6714  -81.6  14.798  112.9  0.0421   39.1  0.6890  -68.3
 2.400  0.6616  -84.2  14.450  110.7  0.0427   37.6  0.6771  -70.6
 2.500  0.6500  -86.9  14.106  108.7  0.0434   36.2  0.6641  -72.8
 2.600  0.6399  -89.5  13.770  106.8  0.0439   35.1  0.6521  -74.9
 2.700  0.6288  -92.1  13.449  104.9  0.0443   33.9  0.6401  -77.0
 2.800  0.6200  -94.5  13.152  103.1  0.0447   32.7  0.6288  -79.0
 2.900  0.6110  -96.9  12.857  101.3  0.0452   31.6  0.6197  -81.0
 3.000  0.6028  -99.3  12.578   99.5  0.0456   30.7  0.6097  -82.8
 3.100  0.5929 -101.8  12.322   97.7  0.0458   29.6  0.6010  -84.7
 3.200  0.5863 -104.1  12.053   96.1  0.0461   28.8  0.5919  -86.5
 3.300  0.5800 -106.2  11.782   94.5  0.0463   27.9  0.5840  -88.3
 3.400  0.5735 -108.5  11.531   92.9  0.0466   27.1  0.5769  -90.1
 3.500  0.5680 -110.5  11.293   91.4  0.0468   26.4  0.5698  -91.7
 3.600  0.5615 -112.7  11.067   89.8  0.0470   25.6  0.5625  -93.3
 3.700  0.5557 -114.8  10.845   88.3  0.0472   24.9  0.5564  -94.8
 3.800  0.5507 -116.9  10.631   86.9  0.0473   24.1  0.5502  -96.4
 3.900  0.5465 -118.9  10.429   85.4  0.0475   23.6  0.5452  -97.9
 4.000  0.5426 -120.9  10.236   84.0  0.0476   22.8  0.5396  -99.3
 4.100  0.5397 -122.9  10.051   82.6  0.0479   22.4  0.5345 -100.8
 4.200  0.5357 -124.9   9.870   81.2  0.0478   21.9  0.5290 -102.2
 4.300  0.5332 -127.0   9.698   79.7  0.0479   21.3  0.5239 -103.7
 4.400  0.5301 -128.9   9.522   78.4  0.0481   20.8  0.5190 -105.0
 4.500  0.5278 -130.8   9.360   77.0  0.0481   20.4  0.5147 -106.4
 4.600  0.5253 -132.8   9.208   75.7  0.0482   19.9  0.5092 -107.7
 4.700  0.5238 -134.6   9.051   74.3  0.0483   19.4  0.5049 -109.0
 4.800  0.5218 -136.4   8.899   73.0  0.0482   19.0  0.4998 -110.3
 4.900  0.5204 -138.2   8.754   71.7  0.0483   18.6  0.4956 -111.6
 5.000  0.5187 -139.9   8.614   70.4  0.0482   18.2  0.4901 -112.8
 5.100  0.5170 -141.6   8.476   69.1  0.0483   17.8  0.4853 -114.1
 5.200  0.5155 -143.2   8.343   67.8  0.0483   17.4  0.4797 -115.2
 5.300  0.5140 -144.9   8.218   66.5  0.0483   17.1  0.4745 -116.5
 5.400  0.5126 -146.5   8.090   65.2  0.0483   16.7  0.4694 -117.7
 5.500  0.5109 -148.2   7.970   63.9  0.0483   16.3  0.4641 -119.0
 5.600  0.5087 -149.8   7.847   62.6  0.0482   16.1  0.4577 -120.1
 5.700  0.5062 -151.5   7.730   61.3  0.0481   15.7  0.4520 -121.5
 5.800  0.5045 -153.2   7.615   60.1  0.0480   15.4  0.4454 -122.8
 5.900  0.5023 -154.8   7.501   58.8  0.0478   15.1  0.4396 -124.1
 6.000  0.5008 -156.5   7.391   57.6  0.0477   14.8  0.4325 -125.3
 6.100  0.4977 -158.2   7.286   56.2  0.0475   14.7  0.4266 -126.8
 6.200  0.4959 -159.9   7.175   55.0  0.0474   14.5  0.4200 -128.1
 6.300  0.4937 -161.6   7.071   53.8  0.0472   14.5  0.4136 -129.5
 6.400  0.4923 -163.3   6.970   52.5  0.0469   14.3  0.4076 -130.9
 6.500  0.4894 -165.0   6.868   51.3  0.0467   14.2  0.4003 -132.4
 6.600  0.4873 -166.6   6.762   50.1  0.0465   14.3  0.3940 -133.7
 6.700  0.4850 -168.3   6.664   48.9  0.0462   14.5  0.3872 -135.2
 6.800  0.4831 -170.0   6.569   47.6  0.0459   14.6  0.3814 -136.6
 6.900  0.4809 -171.6   6.471   46.5  0.0458   14.9  0.3752 -138.1
 7.000  0.4794 -173.3   6.380   45.3  0.0455   15.4  0.3696 -139.4
 7.100  0.4784 -174.9   6.286   44.1  0.0455   15.8  0.3639 -140.9
 7.200  0.4781 -176.5   6.199   43.0  0.0455   16.4  0.3592 -142.3
 7.300  0.4787 -177.9   6.113   41.9  0.0456   17.0  0.3548 -143.8
 7.400  0.4796 -179.3   6.034   40.8  0.0458   17.6  0.3514 -145.3
 7.500  0.4812  179.2   5.958   39.7  0.0462   18.2  0.3484 -146.9
 7.600  0.4839  177.7   5.883   38.6  0.0465   18.5  0.3457 -148.5
 7.700  0.4865  176.2   5.811   37.4  0.0471   18.8  0.3437 -150.3
 7.800  0.4909  174.6   5.745   36.2  0.0476   19.1  0.3427 -152.3
 7.900  0.4952  173.0   5.674   35.0  0.0482   19.2  0.3407 -154.2
 8.000  0.5002  171.6   5.611   33.8  0.0487   19.2  0.3393 -156.3
 8.500  0.5262  163.8   5.262   27.5  0.0507   18.3  0.3323 -168.9
 9.000  0.5521  156.6   4.895   21.4  0.0519   17.4  0.3314  176.7
 9.500  0.5797  150.1   4.530   15.4  0.0527   16.6  0.3492  161.3
10.000  0.6051  144.3   4.166    9.9  0.0532   16.3  0.3915  148.1
10.500  0.6297  139.4   3.830    4.9  0.0538   16.0  0.4554  140.0
11.000  0.6485  134.6   3.512    0.2  0.0543   15.7  0.5211  135.8
11.500  0.6631  130.7   3.224   -3.7  0.0545   15.8  0.5814  135.6
12.000  0.6719  127.4   2.949   -6.8  0.0545   16.8  0.6215  138.0
!
!  f       NFmin   Gammaopt  rn/50
! GHz       dB    MAG  ANG    -
 0.450      0.61  0.39    5   0.15
 0.900      0.64  0.38   12   0.15
 1.500      0.65  0.35   17   0.14
 1.900      0.66  0.31   26   0.15
 2.400      0.68  0.30   34   0.15
 3.500      0.70  0.28   55   0.15
 5.500      0.76  0.19   96   0.12
 8.000      0.89  0.16  156   0.12
10.000      1.03  0.24 -142   0.12
12.000      1.25  0.41 -119   0.13
!
! (c) 2012  Infineon Technologies AG, Munich
