! Infineon Technologies  Discrete & RF Semiconductors
! BFP840ESD
! VCE =  0.5 V,  IC =  26 mA
! Common Emitter S-Parameters:                            May 2012
# GHz  S  MA  R  50
!  f         S11            S21            S12            S22
! GHz     MAG   ANG      MAG   ANG      MAG   ANG      MAG   ANG
 0.030  0.2253  -13.4   8.966  176.8  0.0078   16.3  0.0280    3.6
 0.080  0.2385  -33.7   8.905  170.9  0.0084   25.6  0.0316  -20.7
 0.130  0.2674  -51.7   8.775  165.2  0.0105   34.1  0.0352  -38.4
 0.180  0.3003  -66.3   8.546  159.8  0.0123   37.7  0.0400  -54.6
 0.230  0.3372  -78.2   8.303  154.5  0.0142   41.9  0.0447  -66.1
 0.280  0.3741  -88.4   8.024  149.5  0.0161   44.0  0.0489  -76.4
 0.330  0.4093  -97.0   7.729  144.8  0.0177   44.7  0.0537  -86.0
 0.380  0.4423 -104.5   7.414  140.4  0.0195   44.4  0.0587  -94.5
 0.430  0.4724 -111.1   7.108  136.2  0.0209   43.5  0.0636 -101.4
 0.500  0.5112 -119.2   6.686  130.8  0.0234   42.8  0.0698 -110.2
 0.600  0.5564 -128.9   6.115  124.0  0.0257   40.2  0.0780 -121.2
 0.700  0.5918 -137.1   5.611  118.1  0.0280   37.9  0.0852 -130.3
 0.800  0.6215 -144.0   5.156  112.8  0.0298   36.1  0.0926 -137.8
 0.900  0.6450 -150.1   4.755  108.0  0.0312   34.5  0.0981 -144.6
 1.000  0.6649 -155.5   4.399  103.7  0.0326   32.7  0.1045 -150.1
 1.100  0.6809 -160.3   4.088   99.7  0.0339   31.4  0.1092 -155.5
 1.200  0.6953 -164.6   3.810   96.1  0.0348   30.4  0.1144 -159.5
 1.300  0.7063 -168.6   3.565   92.7  0.0355   29.3  0.1187 -163.9
 1.400  0.7167 -172.2   3.344   89.5  0.0364   28.5  0.1239 -167.3
 1.500  0.7252 -175.7   3.149   86.5  0.0372   27.7  0.1279 -170.8
 1.600  0.7325 -178.8   2.973   83.6  0.0378   27.0  0.1325 -173.7
 1.700  0.7392  178.1   2.813   80.8  0.0385   26.1  0.1365 -176.6
 1.800  0.7451  175.3   2.668   78.2  0.0391   25.8  0.1408 -179.1
 1.900  0.7504  172.6   2.536   75.7  0.0398   25.1  0.1447  178.2
 2.000  0.7554  170.0   2.416   73.3  0.0404   25.0  0.1489  175.9
 2.100  0.7582  167.5   2.304   70.9  0.0408   24.5  0.1517  173.7
 2.200  0.7629  165.1   2.203   68.5  0.0415   24.0  0.1551  171.6
 2.300  0.7671  162.8   2.109   66.3  0.0420   23.8  0.1593  169.2
 2.400  0.7703  160.5   2.023   64.0  0.0428   23.3  0.1633  167.0
 2.500  0.7745  158.4   1.943   61.9  0.0431   23.1  0.1676  164.7
 2.600  0.7764  156.2   1.865   59.7  0.0438   23.0  0.1720  162.7
 2.700  0.7796  154.2   1.794   57.6  0.0443   22.6  0.1767  160.7
 2.800  0.7813  152.1   1.726   55.6  0.0449   22.2  0.1818  158.6
 2.900  0.7845  150.1   1.665   53.5  0.0454   22.1  0.1873  156.8
 3.000  0.7858  148.2   1.604   51.6  0.0463   21.6  0.1924  154.9
 3.100  0.7890  146.3   1.549   49.7  0.0468   21.6  0.1985  153.3
 3.200  0.7907  144.5   1.496   47.8  0.0475   21.1  0.2043  151.6
 3.300  0.7924  142.6   1.446   45.8  0.0480   20.8  0.2106  150.1
 3.400  0.7941  140.9   1.399   44.1  0.0484   20.3  0.2167  148.7
 3.500  0.7962  139.1   1.354   42.3  0.0491   19.9  0.2230  147.3
 3.600  0.7987  137.3   1.312   40.5  0.0498   19.6  0.2292  146.1
 3.700  0.8009  135.7   1.271   38.7  0.0504   19.4  0.2356  144.9
 3.800  0.8024  134.0   1.232   37.0  0.0508   18.8  0.2421  143.8
 3.900  0.8048  132.4   1.195   35.3  0.0515   18.7  0.2486  142.6
 4.000  0.8073  130.8   1.159   33.7  0.0521   18.4  0.2543  141.6
 4.100  0.8095  129.3   1.126   32.0  0.0526   17.9  0.2605  140.5
 4.200  0.8127  127.8   1.094   30.5  0.0532   17.7  0.2661  139.6
 4.300  0.8149  126.5   1.064   28.9  0.0537   17.1  0.2719  138.7
 4.400  0.8173  125.1   1.036   27.3  0.0543   17.1  0.2770  137.8
 4.500  0.8193  123.8   1.009   25.8  0.0548   16.4  0.2820  136.9
 4.600  0.8216  122.6   0.982   24.3  0.0554   16.2  0.2868  136.0
 4.700  0.8237  121.4   0.958   22.8  0.0559   15.9  0.2913  135.1
 4.800  0.8256  120.2   0.935   21.4  0.0566   15.5  0.2955  134.1
 4.900  0.8272  119.1   0.912   19.9  0.0571   15.3  0.2999  133.2
 5.000  0.8290  118.0   0.890   18.5  0.0578   14.8  0.3039  132.2
 5.100  0.8301  116.9   0.869   17.1  0.0586   14.5  0.3083  131.3
 5.200  0.8314  115.8   0.850   15.7  0.0589   14.1  0.3117  130.2
 5.300  0.8320  114.8   0.830   14.3  0.0596   13.8  0.3163  129.1
 5.400  0.8326  113.8   0.812   13.0  0.0605   13.5  0.3199  128.1
 5.500  0.8331  112.8   0.795   11.6  0.0610   13.2  0.3247  126.9
 5.600  0.8339  111.8   0.778   10.3  0.0617   12.8  0.3284  125.8
 5.700  0.8333  110.9   0.761    9.0  0.0624   12.5  0.3330  124.8
 5.800  0.8334  109.9   0.746    7.7  0.0632   12.1  0.3376  123.6
 5.900  0.8343  109.0   0.731    6.4  0.0641   11.7  0.3427  122.7
 6.000  0.8347  108.2   0.718    5.1  0.0648   11.4  0.3476  121.5
 6.100  0.8352  107.2   0.704    3.9  0.0658   10.7  0.3532  120.7
 6.200  0.8363  106.3   0.692    2.5  0.0665   10.1  0.3579  119.5
 6.300  0.8377  105.3   0.680    1.3  0.0674    9.5  0.3642  118.6
 6.400  0.8388  104.3   0.668   -0.1  0.0684    8.8  0.3692  117.6
 6.500  0.8401  103.3   0.657   -1.4  0.0692    8.2  0.3753  116.6
 6.600  0.8411  102.3   0.646   -2.7  0.0698    7.5  0.3807  115.8
 6.700  0.8428  101.2   0.636   -4.1  0.0708    6.7  0.3864  114.9
 6.800  0.8433  100.2   0.625   -5.4  0.0716    6.0  0.3913  114.0
 6.900  0.8443   99.0   0.615   -6.7  0.0724    5.2  0.3966  113.3
 7.000  0.8455   97.9   0.605   -8.1  0.0731    4.4  0.4008  112.2
 7.100  0.8472   96.8   0.595   -9.4  0.0739    3.6  0.4061  111.4
 7.200  0.8479   95.6   0.586  -10.8  0.0745    2.8  0.4099  110.3
 7.300  0.8494   94.4   0.577  -12.1  0.0753    2.0  0.4150  109.3
 7.400  0.8494   93.2   0.567  -13.6  0.0757    1.1  0.4188  108.2
 7.500  0.8520   91.9   0.558  -15.0  0.0761    0.2  0.4234  107.1
 7.600  0.8525   90.5   0.549  -16.4  0.0767   -0.7  0.4271  105.9
 7.700  0.8551   89.3   0.539  -17.8  0.0771   -1.6  0.4309  104.7
 7.800  0.8566   87.9   0.530  -19.2  0.0775   -2.5  0.4346  103.4
 7.900  0.8591   86.6   0.521  -20.7  0.0777   -3.4  0.4388  102.1
 8.000  0.8610   85.2   0.511  -22.2  0.0780   -4.3  0.4433  100.6
 8.500  0.8738   78.9   0.462  -28.9  0.0789   -8.3  0.4719   93.4
 9.000  0.8841   73.3   0.413  -34.8  0.0792  -12.0  0.5141   87.0
 9.500  0.8874   69.3   0.369  -39.0  0.0788  -14.9  0.5612   82.6
10.000  0.8877   66.6   0.336  -41.9  0.0789  -17.2  0.6010   80.6
10.500  0.8920   64.8   0.316  -44.3  0.0792  -19.4  0.6256   80.0
11.000  0.9045   63.3   0.302  -47.4  0.0802  -20.6  0.6392   79.8
11.500  0.9241   61.6   0.289  -51.6  0.0826  -22.7  0.6422   78.7
12.000  0.9303   59.9   0.271  -56.4  0.0855  -25.1  0.6450   76.5
!
!  f       NFmin   Gammaopt  rn/50
! GHz       dB    MAG  ANG    -
!
! noise parameter not available yet for this operation point!
!
! (c) 2012  Infineon Technologies AG, Munich
