! Infineon Technologies  Discrete & RF Semiconductors
! BFP843
! VCE =  1.0 V,  IC =  3.0 mA
! Common Emitter S-Parameters:                            Aug 2013
# GHz  S  MA  R  50
!  f         S11            S21            S12            S22
! GHz     MAG   ANG      MAG   ANG      MAG   ANG      MAG   ANG
 0.030  0.7188  -16.7   8.328  169.4  0.0567   36.0  0.7467  -16.2
 0.040  0.6656  -16.2   8.006  169.6  0.0614   29.6  0.6944  -16.0
 0.050  0.6391  -15.2   7.786  171.3  0.0622   24.3  0.6590  -14.7
 0.060  0.6115  -14.1   7.724  171.3  0.0658   20.3  0.6372  -14.2
 0.070  0.5956  -12.9   7.547  171.7  0.0658   14.2  0.6249  -13.2
 0.080  0.5861  -12.3   7.535  171.9  0.0700   18.7  0.6168  -13.0
 0.090  0.5801  -11.5   7.467  171.9  0.0669   11.7  0.6073  -12.4
 0.100  0.5747  -11.0   7.405  172.0  0.0687   12.2  0.6037  -11.9
 0.110  0.5723  -11.1   7.430  172.1  0.0692    9.2  0.5995  -11.5
 0.120  0.5673  -10.6   7.409  172.0  0.0660    9.5  0.5984  -11.5
 0.130  0.5678  -10.0   7.412  172.1  0.0699    9.5  0.5923  -11.4
 0.140  0.5597  -10.2   7.419  171.6  0.0695    8.1  0.5953  -11.1
 0.150  0.5642  -10.3   7.359  171.6  0.0695    6.5  0.5900  -11.3
 0.200  0.5592  -10.0   7.281  170.5  0.0702    5.6  0.5869  -12.0
 0.250  0.5585  -10.6   7.268  169.1  0.0712    3.6  0.5848  -13.1
 0.300  0.5555  -11.5   7.236  168.0  0.0703    3.7  0.5839  -14.4
 0.350  0.5529  -12.7   7.195  166.5  0.0694    3.3  0.5812  -15.9
 0.400  0.5502  -14.0   7.190  165.1  0.0709    2.5  0.5790  -17.6
 0.450  0.5511  -15.1   7.138  163.6  0.0714    2.0  0.5773  -19.3
 0.500  0.5493  -16.4   7.141  162.2  0.0717    1.5  0.5762  -21.1
 0.600  0.5447  -19.1   7.115  159.1  0.0715    1.2  0.5723  -24.5
 0.700  0.5406  -21.8   7.049  156.0  0.0718    0.2  0.5674  -28.3
 0.800  0.5374  -24.6   6.996  152.8  0.0728   -0.2  0.5630  -32.0
 0.900  0.5333  -27.3   6.927  149.7  0.0727   -1.0  0.5568  -35.7
 1.000  0.5268  -30.3   6.894  146.6  0.0739   -2.4  0.5534  -39.5
 1.100  0.5230  -33.0   6.814  143.6  0.0745   -2.9  0.5478  -43.4
 1.200  0.5188  -36.1   6.728  140.5  0.0743   -3.9  0.5430  -47.1
 1.300  0.5117  -38.9   6.672  137.4  0.0746   -4.6  0.5378  -50.9
 1.400  0.5092  -41.8   6.584  134.5  0.0755   -4.9  0.5324  -54.6
 1.500  0.4999  -44.9   6.538  131.6  0.0753   -6.1  0.5289  -58.4
 1.600  0.4962  -47.7   6.444  128.6  0.0758   -6.9  0.5231  -62.1
 1.700  0.4902  -50.7   6.359  125.7  0.0757   -7.7  0.5174  -65.9
 1.800  0.4824  -53.8   6.296  122.8  0.0767   -8.6  0.5142  -69.5
 1.900  0.4774  -56.6   6.198  120.0  0.0764   -9.9  0.5072  -73.4
 2.000  0.4714  -59.7   6.131  117.1  0.0770  -11.0  0.5026  -77.1
 2.100  0.4675  -62.7   6.022  114.3  0.0769  -12.1  0.4963  -80.8
 2.200  0.4622  -65.8   5.949  111.7  0.0773  -12.9  0.4944  -84.4
 2.300  0.4560  -68.7   5.866  108.9  0.0767  -14.3  0.4881  -88.1
 2.400  0.4501  -71.8   5.802  106.1  0.0772  -15.6  0.4859  -91.5
 2.500  0.4435  -74.8   5.708  103.5  0.0762  -16.3  0.4804  -95.2
 2.600  0.4387  -77.8   5.626  100.9  0.0765  -17.5  0.4768  -98.7
 2.700  0.4337  -80.9   5.532   98.2  0.0758  -18.7  0.4700 -102.4
 2.800  0.4281  -83.9   5.453   95.7  0.0760  -20.2  0.4686 -105.8
 2.900  0.4213  -87.3   5.391   93.0  0.0756  -20.7  0.4644 -109.6
 3.000  0.4158  -90.3   5.301   90.4  0.0746  -22.8  0.4615 -113.1
 3.100  0.4118  -93.4   5.228   87.8  0.0743  -23.3  0.4581 -116.7
 3.200  0.4070  -96.5   5.137   85.2  0.0741  -24.7  0.4551 -120.3
 3.300  0.4011 -100.0   5.080   82.6  0.0735  -26.2  0.4543 -123.8
 3.400  0.3970 -103.2   4.990   80.2  0.0727  -27.0  0.4526 -127.2
 3.500  0.3933 -106.4   4.918   77.6  0.0716  -28.2  0.4513 -130.7
 3.600  0.3907 -109.4   4.817   75.1  0.0702  -29.5  0.4491 -134.1
 3.700  0.3861 -112.8   4.749   72.7  0.0698  -30.7  0.4501 -137.5
 3.800  0.3839 -116.3   4.670   70.2  0.0684  -31.6  0.4505 -140.8
 3.900  0.3796 -119.6   4.593   67.7  0.0678  -32.5  0.4507 -144.0
 4.000  0.3791 -123.0   4.515   65.3  0.0665  -34.0  0.4537 -147.0
 4.100  0.3778 -126.3   4.429   62.9  0.0651  -34.7  0.4540 -150.2
 4.200  0.3770 -129.8   4.358   60.6  0.0646  -35.4  0.4569 -153.0
 4.300  0.3771 -133.2   4.281   58.3  0.0620  -36.8  0.4589 -155.9
 4.400  0.3777 -136.8   4.204   56.0  0.0609  -37.7  0.4626 -158.4
 4.500  0.3793 -139.9   4.126   53.7  0.0602  -38.6  0.4648 -161.1
 4.600  0.3815 -143.3   4.050   51.4  0.0580  -39.2  0.4683 -163.6
 4.700  0.3851 -146.2   3.979   49.1  0.0570  -39.8  0.4714 -166.2
 4.800  0.3880 -149.8   3.919   46.9  0.0556  -40.6  0.4759 -168.5
 4.900  0.3915 -152.6   3.845   44.8  0.0539  -41.3  0.4784 -170.8
 5.000  0.3972 -155.5   3.762   42.6  0.0521  -41.1  0.4811 -173.1
 5.100  0.4003 -158.5   3.700   40.4  0.0506  -41.5  0.4851 -175.3
 5.200  0.4060 -161.2   3.630   38.4  0.0497  -41.5  0.4893 -177.4
 5.300  0.4102 -164.2   3.574   36.2  0.0479  -41.9  0.4938 -179.4
 5.400  0.4161 -166.6   3.505   34.1  0.0463  -42.0  0.4957  178.5
 5.500  0.4209 -169.3   3.440   32.0  0.0446  -42.0  0.5002  176.5
 5.600  0.4272 -171.5   3.372   30.1  0.0431  -42.1  0.5031  174.6
 5.700  0.4301 -173.7   3.310   28.0  0.0418  -40.9  0.5068  172.7
 5.800  0.4366 -176.1   3.251   26.0  0.0402  -40.4  0.5100  170.9
 5.900  0.4406 -178.1   3.202   24.1  0.0389  -40.1  0.5149  169.0
 6.000  0.4468  179.7   3.143   22.2  0.0375  -39.1  0.5188  167.3
 6.100  0.4526  177.7   3.085   20.1  0.0363  -37.7  0.5233  165.3
 6.200  0.4573  175.6   3.037   18.2  0.0356  -36.3  0.5277  163.5
 6.300  0.4641  173.7   2.984   16.3  0.0344  -33.6  0.5321  161.7
 6.400  0.4684  171.7   2.936   14.4  0.0338  -33.4  0.5366  160.0
 6.500  0.4739  169.8   2.879   12.6  0.0325  -30.7  0.5405  158.2
 6.600  0.4776  167.9   2.828   10.6  0.0323  -27.7  0.5453  156.5
 6.700  0.4829  165.8   2.790    8.9  0.0318  -27.3  0.5507  154.8
 6.800  0.4868  163.9   2.741    6.9  0.0314  -24.3  0.5545  153.0
 6.900  0.4912  161.9   2.698    5.1  0.0309  -22.0  0.5593  151.3
 7.000  0.4947  160.0   2.644    3.2  0.0308  -19.2  0.5649  149.6
 7.100  0.5007  157.7   2.609    1.3  0.0306  -17.2  0.5700  147.9
 7.200  0.5044  155.8   2.566   -0.5  0.0312  -15.2  0.5752  146.3
 7.300  0.5096  153.4   2.538   -2.4  0.0314  -12.3  0.5808  144.7
 7.400  0.5138  151.4   2.491   -4.3  0.0321   -9.5  0.5862  143.0
 7.500  0.5186  149.1   2.455   -6.2  0.0324   -7.2  0.5913  141.3
 7.600  0.5259  147.0   2.412   -8.2  0.0335   -5.9  0.5961  139.5
 7.700  0.5324  144.6   2.380  -10.2  0.0341   -4.2  0.6030  137.7
 7.800  0.5385  142.4   2.345  -12.2  0.0350   -2.7  0.6087  136.0
 7.900  0.5461  140.1   2.307  -14.2  0.0365   -1.5  0.6151  134.2
 8.000  0.5531  138.0   2.268  -16.2  0.0373   -0.4  0.6213  132.4
 8.500  0.5968  126.5   2.062  -26.7  0.0431    2.6  0.6543  122.9
 9.000  0.6427  113.9   1.828  -36.8  0.0494    1.7  0.6932  113.4
 9.500  0.6830  104.5   1.580  -45.1  0.0538    0.2  0.7316  105.3
10.000  0.7210   98.0   1.381  -51.0  0.0582   -1.7  0.7658   99.5
10.500  0.7661   92.6   1.238  -56.5  0.0618   -3.0  0.7936   96.2
11.000  0.7932   87.8   1.120  -62.0  0.0669   -4.3  0.8235   94.3
11.500  0.8066   84.4   1.018  -66.9  0.0724   -6.7  0.8393   92.2
12.000  0.8107   82.0   0.937  -71.4  0.0776  -10.4  0.8484   89.3
!
!  f       NFmin   Gammaopt  rn/50
! GHz       dB    MAG  ANG    -
 0.450      1.03  0.27    8   0.03
 0.900      1.05  0.28   18   0.05
 1.500      1.10  0.27   30   0.12
 1.900      1.13  0.26   40   0.21
 2.400      1.19  0.25   50   0.29
 3.500      1.32  0.20   69   0.40
 5.500      1.54  0.16  173   0.49
10.000      2.44  0.54  -80   0.55
!
! (c) 2013  Infineon Technologies AG, Munich
