! Infineon Technologies  Discrete & RF Semiconductors
! BFP842ESD
! VCE =  1.5 V,  IC =  6.0 mA
! Common Emitter S-Parameters:                            May 2012
# GHz  S  MA  R  50
!  f         S11            S21            S12            S22
! GHz     MAG   ANG      MAG   ANG      MAG   ANG      MAG   ANG
 0.030  0.9269   -1.5  18.286  177.9  0.0023  108.2  0.9966   -1.0
 0.040  0.9263   -2.2  18.259  177.1  0.0012   54.1  0.9975   -1.4
 0.050  0.9225   -2.4  18.156  176.1  0.0054  153.7  0.9953   -2.0
 0.060  0.9221   -3.2  18.440  175.6  0.0015 -129.5  0.9959   -2.3
 0.070  0.9238   -3.9  18.254  175.1  0.0030   81.0  0.9951   -2.8
 0.080  0.9202   -4.5  18.291  174.3  0.0042   68.7  0.9937   -3.3
 0.090  0.9254   -5.0  18.057  174.0  0.0040   97.0  0.9978   -3.6
 0.100  0.9235   -5.6  18.225  173.4  0.0032  109.2  0.9957   -4.5
 0.110  0.9208   -6.1  18.373  172.4  0.0056   78.5  0.9921   -4.5
 0.120  0.9214   -6.7  18.275  172.0  0.0057   77.3  0.9960   -5.2
 0.130  0.9208   -7.2  18.109  171.2  0.0044   86.5  0.9936   -5.7
 0.140  0.9174   -7.7  18.169  170.7  0.0071   82.4  0.9924   -6.0
 0.150  0.9152   -8.3  18.214  169.9  0.0063   84.5  0.9916   -6.5
 0.200  0.9119  -11.1  18.050  166.9  0.0070   73.9  0.9874   -8.7
 0.250  0.9026  -13.6  17.991  163.5  0.0090   79.7  0.9768  -10.8
 0.300  0.8932  -16.3  17.714  160.3  0.0125   78.1  0.9739  -12.9
 0.350  0.8830  -18.9  17.555  157.3  0.0150   76.8  0.9633  -15.0
 0.400  0.8707  -21.4  17.275  154.1  0.0168   77.0  0.9532  -16.9
 0.450  0.8572  -23.9  17.019  151.1  0.0188   72.0  0.9419  -18.9
 0.500  0.8435  -26.3  16.794  148.3  0.0202   71.9  0.9312  -20.8
 0.600  0.8128  -30.9  16.160  142.6  0.0235   69.4  0.9070  -24.4
 0.700  0.7813  -35.1  15.557  137.4  0.0263   65.1  0.8808  -27.8
 0.800  0.7457  -39.2  14.930  132.1  0.0300   63.9  0.8547  -31.0
 0.900  0.7125  -43.0  14.305  127.4  0.0325   61.3  0.8280  -34.0
 1.000  0.6801  -46.5  13.696  122.9  0.0348   57.9  0.8033  -36.7
 1.100  0.6483  -49.8  13.098  118.6  0.0373   57.1  0.7793  -39.4
 1.200  0.6169  -53.0  12.509  114.6  0.0395   55.2  0.7562  -41.8
 1.300  0.5880  -56.0  11.980  110.9  0.0419   53.7  0.7348  -44.3
 1.400  0.5597  -58.6  11.472  107.1  0.0442   52.2  0.7138  -46.3
 1.500  0.5347  -61.1  10.976  103.7  0.0459   50.8  0.6959  -48.5
 1.600  0.5098  -63.6  10.517  100.4  0.0482   49.2  0.6788  -50.7
 1.700  0.4859  -66.0  10.099   97.2  0.0500   48.6  0.6606  -52.6
 1.800  0.4649  -68.3   9.721   94.3  0.0518   47.0  0.6468  -54.6
 1.900  0.4446  -70.6   9.342   91.2  0.0534   45.9  0.6324  -56.6
 2.000  0.4246  -72.6   8.962   88.4  0.0558   44.0  0.6180  -58.6
 2.100  0.4053  -74.7   8.649   85.5  0.0574   44.2  0.6051  -60.5
 2.200  0.3882  -76.7   8.352   82.9  0.0587   42.5  0.5941  -62.5
 2.300  0.3706  -78.7   8.055   80.2  0.0606   41.7  0.5835  -64.2
 2.400  0.3560  -80.4   7.762   77.7  0.0624   40.8  0.5710  -66.2
 2.500  0.3390  -82.2   7.510   75.2  0.0645   39.8  0.5604  -68.1
 2.600  0.3255  -83.9   7.278   72.8  0.0660   38.8  0.5516  -70.0
 2.700  0.3092  -85.8   7.044   70.3  0.0680   37.4  0.5412  -72.0
 2.800  0.2973  -87.6   6.830   68.0  0.0692   36.8  0.5318  -74.0
 2.900  0.2827  -89.5   6.622   65.7  0.0714   35.5  0.5243  -76.2
 3.000  0.2708  -91.3   6.428   63.4  0.0731   35.1  0.5149  -78.2
 3.100  0.2577  -93.1   6.253   61.1  0.0750   33.3  0.5070  -80.3
 3.200  0.2463  -95.2   6.069   58.9  0.0765   32.8  0.4991  -82.6
 3.300  0.2358  -97.2   5.897   56.6  0.0782   31.7  0.4919  -84.8
 3.400  0.2241  -99.3   5.739   54.5  0.0800   30.6  0.4837  -87.1
 3.500  0.2134 -101.2   5.585   52.2  0.0810   29.3  0.4771  -89.6
 3.600  0.2023 -103.2   5.435   50.0  0.0827   28.5  0.4711  -91.8
 3.700  0.1924 -105.4   5.302   47.9  0.0846   27.3  0.4658  -94.4
 3.800  0.1830 -107.6   5.159   45.7  0.0862   26.4  0.4599  -96.7
 3.900  0.1742 -109.7   5.025   43.6  0.0880   25.2  0.4544  -99.1
 4.000  0.1646 -112.4   4.889   41.4  0.0899   24.3  0.4487 -101.6
 4.100  0.1571 -114.7   4.771   39.3  0.0912   22.7  0.4455 -104.1
 4.200  0.1496 -117.6   4.650   37.2  0.0923   21.7  0.4412 -106.8
 4.300  0.1437 -119.5   4.535   35.2  0.0941   20.9  0.4381 -109.3
 4.400  0.1370 -122.0   4.420   33.1  0.0960   19.6  0.4344 -111.8
 4.500  0.1315 -124.8   4.313   31.0  0.0970   18.4  0.4333 -114.2
 4.600  0.1267 -127.3   4.213   29.0  0.0989   17.1  0.4299 -116.8
 4.700  0.1220 -129.4   4.108   27.0  0.0999   15.9  0.4284 -119.2
 4.800  0.1187 -131.5   4.008   25.0  0.1015   14.8  0.4269 -121.6
 4.900  0.1145 -133.7   3.908   23.0  0.1028   13.5  0.4250 -123.9
 5.000  0.1110 -135.5   3.815   20.9  0.1044   12.3  0.4243 -126.3
 5.100  0.1082 -137.4   3.725   19.0  0.1058   11.2  0.4226 -128.5
 5.200  0.1065 -138.9   3.636   17.1  0.1069   10.0  0.4229 -130.7
 5.300  0.1037 -140.3   3.553   15.1  0.1084    8.9  0.4223 -133.0
 5.400  0.1024 -141.1   3.472   13.2  0.1102    7.7  0.4223 -135.2
 5.500  0.0997 -142.6   3.390   11.3  0.1107    6.5  0.4214 -137.4
 5.600  0.0991 -142.9   3.314    9.3  0.1122    5.1  0.4217 -139.7
 5.700  0.0975 -144.0   3.240    7.4  0.1135    4.1  0.4215 -141.8
 5.800  0.0985 -144.9   3.165    5.6  0.1144    2.9  0.4230 -144.0
 5.900  0.0974 -144.6   3.095    3.6  0.1157    1.5  0.4227 -146.2
 6.000  0.0981 -144.1   3.025    1.8  0.1168    0.3  0.4260 -148.4
 6.100  0.0974 -144.8   2.960   -0.1  0.1186   -0.9  0.4271 -150.6
 6.200  0.0992 -144.9   2.895   -2.1  0.1192   -1.9  0.4297 -153.0
 6.300  0.0999 -145.4   2.832   -3.9  0.1207   -3.2  0.4322 -155.0
 6.400  0.1011 -144.4   2.773   -5.8  0.1219   -4.6  0.4348 -157.3
 6.500  0.1011 -144.3   2.710   -7.9  0.1231   -5.8  0.4366 -159.6
 6.600  0.1035 -144.2   2.650   -9.7  0.1242   -7.2  0.4401 -161.9
 6.700  0.1039 -143.7   2.594  -11.6  0.1251   -8.5  0.4438 -164.1
 6.800  0.1054 -143.3   2.536  -13.6  0.1266   -9.8  0.4466 -166.4
 6.900  0.1065 -143.0   2.479  -15.5  0.1275  -11.1  0.4511 -168.6
 7.000  0.1087 -142.9   2.426  -17.4  0.1285  -12.5  0.4539 -170.8
 7.100  0.1113 -142.6   2.372  -19.4  0.1296  -14.1  0.4585 -173.2
 7.200  0.1134 -143.1   2.321  -21.3  0.1306  -15.5  0.4611 -175.6
 7.300  0.1169 -142.5   2.269  -23.2  0.1320  -16.9  0.4672 -177.7
 7.400  0.1192 -142.6   2.215  -25.2  0.1324  -18.4  0.4703  179.9
 7.500  0.1218 -143.1   2.166  -27.2  0.1333  -19.9  0.4746  177.8
 7.600  0.1249 -143.4   2.121  -29.2  0.1345  -21.3  0.4790  175.5
 7.700  0.1272 -144.2   2.072  -31.2  0.1349  -23.0  0.4830  173.2
 7.800  0.1309 -145.3   2.023  -33.2  0.1359  -24.6  0.4870  170.9
 7.900  0.1341 -146.6   1.975  -35.3  0.1368  -26.1  0.4925  168.5
 8.000  0.1376 -147.8   1.927  -37.3  0.1368  -28.0  0.4954  166.1
 8.500  0.1591 -158.0   1.690  -48.2  0.1388  -36.8  0.5214  153.8
 9.000  0.2002 -172.2   1.444  -59.4  0.1376  -46.2  0.5573  141.1
 9.500  0.2747  174.0   1.184  -70.5  0.1321  -56.2  0.6071  129.9
10.000  0.3871  162.5   0.922  -80.5  0.1209  -66.1  0.6647  121.6
!
!  f       NFmin   Gammaopt  rn/50
! GHz       dB    MAG  ANG    -
 0.450      0.46  0.30    2   0.12
 0.900      0.48  0.31    9   0.11
 1.500      0.50  0.34   19   0.11
 1.900      0.52  0.33   26   0.10
 2.400      0.54  0.29   39   0.10
 3.500      0.64  0.21   81   0.08
 4.000      0.68  0.17  104   0.08
 5.000      0.73  0.17  122   0.07
 5.500      0.84  0.16  147   0.08
 6.000      0.97  0.14  161   0.08
!
! (c) 2012  Infineon Technologies AG, Munich
