! Infineon Technologies  Discrete & RF Semiconductors
! BFP843
! VCE =  2.0 V,  IC =  25 mA
! Common Emitter S-Parameters:                            Aug 2013
# GHz  S  MA  R  50
!  f         S11            S21            S12            S22
! GHz     MAG   ANG      MAG   ANG      MAG   ANG      MAG   ANG
 0.030  0.3092  -98.8  26.799  156.1  0.0328   21.8  0.3428  -75.3
 0.040  0.2538 -112.4  24.537  158.3  0.0342   23.5  0.2627  -83.3
 0.050  0.2224 -122.1  23.374  161.4  0.0306   25.6  0.2014  -89.6
 0.060  0.2098 -130.0  22.648  162.2  0.0362   20.9  0.1850  -94.8
 0.070  0.1886 -138.8  21.976  163.7  0.0348   14.9  0.1473  -98.8
 0.080  0.1767 -143.9  21.735  164.4  0.0338   10.5  0.1300 -104.1
 0.090  0.1755 -148.1  21.509  164.8  0.0359   13.6  0.1161 -105.4
 0.100  0.1632 -153.6  21.268  165.3  0.0397   11.6  0.0968 -111.6
 0.110  0.1678 -155.6  21.170  165.4  0.0362   11.9  0.0871 -111.8
 0.120  0.1591 -159.2  20.986  165.6  0.0375    9.2  0.0791 -112.1
 0.130  0.1593 -161.1  20.955  165.8  0.0338   11.3  0.0708 -117.3
 0.140  0.1574 -163.9  20.806  165.5  0.0376    8.4  0.0617 -117.9
 0.150  0.1498 -165.9  20.725  165.5  0.0389    7.6  0.0578 -120.5
 0.200  0.1359 -172.7  20.255  164.8  0.0386    6.6  0.0383 -125.7
 0.250  0.1290 -177.0  20.085  163.4  0.0398    7.7  0.0254 -121.5
 0.300  0.1216 -178.8  19.751  162.2  0.0395    5.4  0.0206 -124.4
 0.350  0.1192 -179.6  19.520  160.6  0.0388    4.3  0.0152 -112.2
 0.400  0.1168 -178.6  19.299  159.1  0.0396    4.8  0.0141 -116.5
 0.450  0.1161 -179.3  19.182  157.5  0.0401    3.5  0.0138 -102.5
 0.500  0.1145 -178.1  19.021  155.9  0.0400    3.0  0.0163  -98.3
 0.600  0.1162 -177.1  18.695  152.4  0.0398    4.5  0.0174  -97.2
 0.700  0.1190 -176.9  18.367  148.9  0.0396    3.4  0.0200 -100.7
 0.800  0.1219 -175.7  18.043  145.5  0.0402    2.4  0.0239 -104.8
 0.900  0.1276 -176.5  17.722  142.0  0.0402    2.4  0.0284 -110.8
 1.000  0.1315 -176.1  17.374  138.6  0.0402    2.5  0.0326 -116.3
 1.100  0.1368 -176.5  17.031  135.3  0.0402    2.5  0.0373 -120.8
 1.200  0.1427 -176.7  16.667  131.9  0.0404    2.1  0.0425 -124.0
 1.300  0.1491 -178.4  16.321  128.7  0.0407    2.1  0.0463 -128.2
 1.400  0.1554 -178.6  15.977  125.5  0.0402    2.4  0.0506 -130.3
 1.500  0.1619 -179.8  15.602  122.5  0.0404    1.5  0.0560 -134.8
 1.600  0.1675  179.0  15.264  119.4  0.0402    1.7  0.0612 -136.9
 1.700  0.1740  178.0  14.912  116.4  0.0405    2.4  0.0640 -139.4
 1.800  0.1806  176.5  14.543  113.5  0.0399    2.8  0.0696 -143.2
 1.900  0.1870  175.0  14.204  110.7  0.0403    2.6  0.0741 -146.4
 2.000  0.1918  174.3  13.873  107.8  0.0408    3.2  0.0790 -149.2
 2.100  0.1993  172.6  13.539  105.1  0.0401    1.3  0.0838 -151.9
 2.200  0.2054  171.4  13.218  102.5  0.0400    2.9  0.0897 -153.4
 2.300  0.2121  169.6  12.926   99.9  0.0399    2.9  0.0924 -156.6
 2.400  0.2172  168.4  12.616   97.3  0.0399    2.9  0.0982 -158.4
 2.500  0.2227  166.6  12.310   94.8  0.0400    2.9  0.1021 -161.2
 2.600  0.2279  165.1  12.030   92.3  0.0396    2.6  0.1064 -163.1
 2.700  0.2331  163.4  11.735   89.9  0.0404    2.9  0.1104 -166.0
 2.800  0.2396  161.9  11.467   87.5  0.0401    3.3  0.1156 -167.5
 2.900  0.2458  160.6  11.203   85.2  0.0398    3.3  0.1217 -170.3
 3.000  0.2511  158.7  10.945   82.8  0.0400    4.0  0.1254 -172.7
 3.100  0.2580  157.3  10.710   80.6  0.0402    4.0  0.1316 -175.0
 3.200  0.2635  155.6  10.468   78.3  0.0396    4.7  0.1374 -177.1
 3.300  0.2705  154.1  10.231   76.1  0.0399    4.3  0.1441 -179.2
 3.400  0.2766  152.5  10.006   74.0  0.0403    5.7  0.1505  179.0
 3.500  0.2817  151.1   9.789   71.9  0.0404    5.7  0.1558  177.1
 3.600  0.2879  149.5   9.574   69.7  0.0405    5.2  0.1632  175.4
 3.700  0.2941  147.9   9.374   67.7  0.0406    5.7  0.1695  174.1
 3.800  0.3016  146.3   9.185   65.6  0.0404    5.9  0.1770  172.5
 3.900  0.3073  145.0   8.974   63.5  0.0411    6.7  0.1832  170.7
 4.000  0.3135  143.6   8.789   61.5  0.0416    6.7  0.1906  169.5
 4.100  0.3203  142.2   8.601   59.6  0.0417    6.8  0.1978  168.0
 4.200  0.3268  141.0   8.432   57.6  0.0416    7.4  0.2048  167.2
 4.300  0.3340  139.8   8.252   55.7  0.0418    7.3  0.2116  165.7
 4.400  0.3413  138.6   8.079   53.8  0.0427    7.7  0.2183  164.6
 4.500  0.3468  137.5   7.913   51.9  0.0425    8.6  0.2246  163.7
 4.600  0.3541  136.5   7.760   50.1  0.0427    9.1  0.2324  162.9
 4.700  0.3598  135.5   7.622   48.1  0.0429    8.5  0.2383  161.7
 4.800  0.3672  134.7   7.468   46.3  0.0438    9.9  0.2452  160.9
 4.900  0.3723  133.9   7.322   44.6  0.0434    9.5  0.2506  159.7
 5.000  0.3787  132.9   7.187   42.7  0.0443    9.5  0.2564  158.9
 5.100  0.3842  132.0   7.050   41.0  0.0446   10.2  0.2625  157.6
 5.200  0.3898  131.4   6.926   39.3  0.0457   10.0  0.2686  157.0
 5.300  0.3961  130.6   6.796   37.5  0.0454   11.0  0.2741  156.0
 5.400  0.4008  129.9   6.676   35.7  0.0456   10.8  0.2789  155.0
 5.500  0.4061  129.1   6.550   33.9  0.0462   11.2  0.2849  153.9
 5.600  0.4108  128.6   6.445   32.3  0.0472   11.2  0.2901  153.1
 5.700  0.4125  127.8   6.322   30.6  0.0474   11.6  0.2945  151.9
 5.800  0.4186  127.2   6.218   29.0  0.0483   12.2  0.2992  151.1
 5.900  0.4200  126.7   6.118   27.4  0.0491   12.7  0.3054  150.0
 6.000  0.4267  125.8   6.014   25.7  0.0494   12.4  0.3109  149.3
 6.100  0.4305  125.3   5.921   24.0  0.0506   12.5  0.3163  148.1
 6.200  0.4353  124.4   5.827   22.3  0.0514   12.1  0.3218  146.9
 6.300  0.4400  123.9   5.735   20.7  0.0522   11.7  0.3281  146.0
 6.400  0.4429  123.0   5.647   19.0  0.0533   12.6  0.3344  145.0
 6.500  0.4483  122.1   5.559   17.4  0.0537   12.0  0.3395  144.0
 6.600  0.4522  121.1   5.476   15.7  0.0545   12.1  0.3463  143.1
 6.700  0.4568  120.2   5.394   14.1  0.0553   11.8  0.3516  142.0
 6.800  0.4606  119.1   5.318   12.4  0.0561   11.7  0.3574  141.0
 6.900  0.4650  118.2   5.234   10.8  0.0566   11.3  0.3637  139.9
 7.000  0.4678  116.8   5.160    9.1  0.0582   11.0  0.3711  138.8
 7.100  0.4737  115.7   5.087    7.4  0.0583   11.1  0.3777  137.7
 7.200  0.4780  114.5   5.018    5.8  0.0597   10.4  0.3837  136.7
 7.300  0.4834  113.2   4.949    4.0  0.0608   10.0  0.3907  135.6
 7.400  0.4888  112.1   4.880    2.4  0.0618    9.5  0.3973  134.5
 7.500  0.4944  110.8   4.808    0.7  0.0628    9.7  0.4043  133.3
 7.600  0.5013  109.5   4.746   -1.1  0.0634    8.8  0.4120  132.0
 7.700  0.5093  108.2   4.680   -2.9  0.0647    8.4  0.4202  130.7
 7.800  0.5162  107.1   4.609   -4.7  0.0654    7.5  0.4273  129.5
 7.900  0.5244  105.6   4.545   -6.5  0.0660    6.8  0.4361  128.0
 8.000  0.5319  104.5   4.480   -8.3  0.0670    6.1  0.4442  126.7
 8.500  0.5793   97.8   4.113  -17.5  0.0708    2.5  0.4907  118.9
 9.000  0.6272   88.8   3.718  -26.4  0.0736   -1.3  0.5460  110.8
 9.500  0.6678   83.0   3.296  -33.7  0.0744   -4.7  0.6003  103.6
10.000  0.7029   79.2   2.967  -39.5  0.0758   -6.7  0.6482   98.7
10.500  0.7401   75.9   2.734  -45.2  0.0772   -8.3  0.6865   96.2
11.000  0.7598   73.0   2.526  -51.0  0.0796  -10.1  0.7254   95.0
11.500  0.7686   71.2   2.350  -56.4  0.0843  -12.6  0.7464   93.4
12.000  0.7709   69.8   2.203  -61.7  0.0879  -15.4  0.7608   90.9
!
!  f       NFmin   Gammaopt  rn/50
! GHz       dB    MAG  ANG    -
 0.450      1.12  0.15 -173   0.07
 0.900      1.12  0.15 -165   0.10
 1.500      1.14  0.16 -158   0.19
 1.900      1.16  0.16 -147   0.24
 2.400      1.18  0.16 -135   0.31
 3.500      1.22  0.17 -119   0.36
 5.500      1.33  0.29 -107   0.47
10.000      1.90  0.53  -59   0.64
!
! (c) 2013  Infineon Technologies AG, Munich
