! Infineon Technologies  Discrete & RF Semiconductors
! BFP843
! VCE =  1.8 V,  IC =  18 mA
! Common Emitter S-Parameters:                            Aug 2013
# GHz  S  MA  R  50
!  f         S11            S21            S12            S22
! GHz     MAG   ANG      MAG   ANG      MAG   ANG      MAG   ANG
 0.030  0.3275  -75.1  24.129  158.0  0.0380   26.3  0.3867  -60.6
 0.040  0.2525  -84.9  22.229  159.8  0.0380   21.2  0.2976  -65.2
 0.050  0.2076  -90.4  21.221  162.7  0.0387   18.8  0.2408  -66.7
 0.060  0.1773  -98.2  20.605  163.4  0.0401   18.2  0.2049  -67.6
 0.070  0.1468 -102.4  19.999  164.8  0.0429   13.2  0.1724  -67.8
 0.080  0.1286 -104.9  19.831  165.4  0.0410   12.5  0.1567  -67.1
 0.090  0.1152 -108.2  19.625  165.7  0.0408   11.5  0.1407  -64.7
 0.100  0.0997 -113.6  19.420  166.2  0.0440    9.4  0.1194  -64.1
 0.110  0.0991 -115.4  19.331  166.3  0.0411   10.1  0.1107  -61.5
 0.120  0.0853 -118.6  19.180  166.4  0.0432    9.8  0.1033  -57.6
 0.130  0.0779 -118.1  19.141  166.6  0.0419    8.7  0.0942  -59.0
 0.140  0.0738 -125.5  19.045  166.3  0.0410    9.6  0.0900  -53.0
 0.150  0.0696 -123.4  18.957  166.3  0.0438    8.6  0.0890  -51.1
 0.200  0.0504 -130.4  18.570  165.5  0.0454    5.2  0.0784  -40.1
 0.250  0.0387 -131.2  18.411  164.2  0.0445    3.7  0.0764  -33.7
 0.300  0.0365 -128.6  18.125  162.9  0.0432    3.9  0.0776  -31.5
 0.350  0.0355 -128.1  17.938  161.4  0.0444    2.8  0.0787  -30.3
 0.400  0.0371 -124.4  17.767  159.9  0.0436    3.9  0.0798  -32.1
 0.450  0.0400 -123.4  17.671  158.4  0.0439    3.4  0.0813  -34.2
 0.500  0.0414 -122.5  17.534  156.7  0.0444    3.4  0.0830  -35.7
 0.600  0.0491 -123.8  17.259  153.3  0.0444    1.9  0.0831  -40.6
 0.700  0.0554 -123.8  16.968  149.8  0.0445    1.1  0.0827  -46.5
 0.800  0.0634 -128.0  16.721  146.4  0.0443    1.0  0.0857  -52.6
 0.900  0.0701 -131.1  16.421  143.0  0.0446    0.9  0.0849  -58.9
 1.000  0.0781 -133.1  16.121  139.6  0.0449    0.6  0.0856  -65.7
 1.100  0.0858 -136.7  15.829  136.3  0.0445    0.2  0.0879  -72.3
 1.200  0.0942 -139.5  15.512  133.0  0.0443    0.3  0.0895  -78.5
 1.300  0.1009 -144.7  15.227  129.7  0.0442   -0.5  0.0929  -84.2
 1.400  0.1098 -146.3  14.910  126.7  0.0445   -0.4  0.0944  -90.0
 1.500  0.1167 -149.7  14.582  123.6  0.0449   -0.7  0.0967  -95.9
 1.600  0.1239 -153.3  14.300  120.4  0.0439   -1.0  0.1005 -100.8
 1.700  0.1321 -155.7  13.973  117.5  0.0440   -1.9  0.1023 -106.6
 1.800  0.1390 -158.9  13.654  114.6  0.0447   -1.1  0.1063 -110.9
 1.900  0.1463 -161.4  13.339  111.8  0.0434   -2.0  0.1090 -116.7
 2.000  0.1543 -163.9  13.053  108.9  0.0435   -0.9  0.1126 -120.9
 2.100  0.1608 -166.7  12.754  106.1  0.0441   -2.2  0.1165 -125.1
 2.200  0.1677 -169.3  12.463  103.6  0.0439   -1.5  0.1215 -128.8
 2.300  0.1752 -171.7  12.198  100.9  0.0439   -1.8  0.1231 -132.8
 2.400  0.1810 -173.9  11.912   98.3  0.0437   -1.2  0.1273 -137.0
 2.500  0.1876 -176.9  11.640   95.7  0.0439   -1.5  0.1308 -140.8
 2.600  0.1927 -178.8  11.386   93.3  0.0430   -2.3  0.1350 -143.8
 2.700  0.1995  178.4  11.122   90.8  0.0430   -1.8  0.1388 -147.4
 2.800  0.2057  176.3  10.871   88.4  0.0427   -1.8  0.1423 -150.6
 2.900  0.2122  174.1  10.635   86.0  0.0432   -1.1  0.1466 -154.2
 3.000  0.2173  172.1  10.389   83.6  0.0431   -1.6  0.1507 -157.7
 3.100  0.2254  169.7  10.180   81.3  0.0431   -1.6  0.1571 -160.6
 3.200  0.2313  167.8   9.948   79.1  0.0428   -1.8  0.1620 -163.7
 3.300  0.2379  165.6   9.732   76.8  0.0426   -1.0  0.1678 -166.4
 3.400  0.2442  163.6   9.523   74.7  0.0426   -1.0  0.1734 -169.4
 3.500  0.2505  161.7   9.325   72.5  0.0423   -0.8  0.1784 -171.8
 3.600  0.2575  159.7   9.123   70.3  0.0420   -0.4  0.1855 -174.3
 3.700  0.2635  157.5   8.936   68.2  0.0424   -0.4  0.1914 -176.5
 3.800  0.2707  155.6   8.753   66.1  0.0421    0.5  0.1990 -178.6
 3.900  0.2768  153.9   8.559   64.0  0.0422    0.7  0.2048  178.9
 4.000  0.2835  152.2   8.384   62.0  0.0426    0.2  0.2119  177.3
 4.100  0.2907  150.5   8.212   59.9  0.0419    1.1  0.2191  175.3
 4.200  0.2975  149.0   8.047   57.9  0.0424    1.1  0.2261  173.9
 4.300  0.3050  147.4   7.882   56.0  0.0423    1.7  0.2329  172.2
 4.400  0.3130  146.0   7.712   54.0  0.0422    1.7  0.2394  170.6
 4.500  0.3183  144.8   7.558   52.1  0.0423    2.4  0.2458  169.2
 4.600  0.3272  143.4   7.416   50.2  0.0422    2.7  0.2528  168.1
 4.700  0.3324  142.3   7.280   48.3  0.0427    3.6  0.2594  166.5
 4.800  0.3410  141.2   7.137   46.4  0.0428    3.8  0.2659  165.5
 4.900  0.3462  140.2   6.996   44.7  0.0430    4.2  0.2708  164.2
 5.000  0.3532  139.2   6.868   42.8  0.0435    4.2  0.2774  163.0
 5.100  0.3596  138.1   6.738   41.0  0.0431    4.8  0.2829  161.7
 5.200  0.3661  137.3   6.617   39.2  0.0435    5.3  0.2896  160.7
 5.300  0.3726  136.4   6.491   37.4  0.0441    5.7  0.2950  159.4
 5.400  0.3776  135.6   6.377   35.6  0.0443    5.9  0.2991  158.3
 5.500  0.3837  134.7   6.257   33.8  0.0447    6.4  0.3050  157.1
 5.600  0.3887  134.0   6.158   32.2  0.0454    7.0  0.3098  156.0
 5.700  0.3915  133.2   6.038   30.4  0.0456    7.6  0.3147  154.8
 5.800  0.3978  132.4   5.937   28.8  0.0458    7.8  0.3198  153.7
 5.900  0.4002  131.9   5.839   27.1  0.0464    7.8  0.3251  152.6
 6.000  0.4066  130.8   5.742   25.5  0.0480    8.0  0.3309  151.6
 6.100  0.4110  130.3   5.651   23.7  0.0478    8.8  0.3364  150.4
 6.200  0.4165  129.3   5.562   22.0  0.0486    8.6  0.3417  149.2
 6.300  0.4212  128.7   5.470   20.4  0.0493    9.0  0.3472  148.0
 6.400  0.4248  127.8   5.388   18.6  0.0502    9.0  0.3539  147.0
 6.500  0.4305  126.7   5.305   17.1  0.0507    9.2  0.3598  145.8
 6.600  0.4341  125.7   5.223   15.3  0.0518    9.1  0.3650  144.7
 6.700  0.4397  124.7   5.145   13.7  0.0524    9.2  0.3716  143.5
 6.800  0.4426  123.6   5.069   12.0  0.0531    9.3  0.3770  142.4
 6.900  0.4477  122.6   4.991   10.4  0.0538    9.1  0.3832  141.3
 7.000  0.4515  121.0   4.919    8.6  0.0549    9.1  0.3904  140.1
 7.100  0.4575  119.8   4.851    6.9  0.0556    9.2  0.3972  139.0
 7.200  0.4614  118.6   4.782    5.3  0.0565    8.9  0.4034  137.9
 7.300  0.4674  117.3   4.715    3.5  0.0577    7.9  0.4100  136.7
 7.400  0.4728  116.1   4.648    1.8  0.0586    8.5  0.4167  135.5
 7.500  0.4787  114.7   4.582    0.1  0.0592    8.2  0.4232  134.3
 7.600  0.4859  113.3   4.522   -1.7  0.0600    7.7  0.4308  132.9
 7.700  0.4943  111.9   4.458   -3.5  0.0608    7.3  0.4393  131.4
 7.800  0.5010  110.7   4.389   -5.3  0.0623    6.6  0.4458  130.1
 7.900  0.5094  109.1   4.328   -7.1  0.0631    6.2  0.4542  128.6
 8.000  0.5172  107.9   4.265   -8.9  0.0636    5.7  0.4623  127.3
 8.500  0.5658  100.8   3.915  -18.3  0.0678    2.1  0.5076  119.4
 9.000  0.6152   91.4   3.534  -27.3  0.0705   -1.5  0.5614  111.0
 9.500  0.6565   85.4   3.125  -34.8  0.0721   -4.2  0.6139  103.8
10.000  0.6930   81.3   2.807  -40.6  0.0734   -6.3  0.6606   98.8
10.500  0.7318   77.9   2.580  -46.3  0.0752   -8.3  0.6980   96.2
11.000  0.7529   74.9   2.378  -52.2  0.0787   -9.6  0.7364   94.9
11.500  0.7639   73.0   2.206  -57.5  0.0824  -12.0  0.7568   93.2
12.000  0.7668   71.5   2.064  -62.8  0.0865  -14.8  0.7709   90.7
!
!  f       NFmin   Gammaopt  rn/50
! GHz       dB    MAG  ANG    -
 0.450      1.02  0.09 -173   0.03
 0.900      1.03  0.10 -164   0.07
 1.500      1.05  0.10 -156   0.14
 1.900      1.06  0.10 -147   0.20
 2.400      1.09  0.10 -134   0.26
 3.500      1.13  0.09 -117   0.31
 5.500      1.23  0.23 -112   0.38
10.000      1.81  0.51  -62   0.52
!
! (c) 2013  Infineon Technologies AG, Munich
