! Infineon Technologies  Discrete & RF Semiconductors
! BFP840ESD
! VCE =  1.0 V,  IC =  18 mA
! Common Emitter S-Parameters:                            May 2012
# GHz  S  MA  R  50
!  f         S11            S21            S12            S22
! GHz     MAG   ANG      MAG   ANG      MAG   ANG      MAG   ANG
 0.030  0.7614   -2.4  35.196  178.3  0.0006   79.2  0.9633    0.5
 0.080  0.7705   -5.9  36.822  174.5  0.0029   82.3  0.9816   -2.9
 0.130  0.7610   -9.9  35.816  171.0  0.0034   77.1  0.9827   -5.8
 0.180  0.7563  -13.3  35.699  167.5  0.0048   83.6  0.9765   -8.5
 0.230  0.7518  -16.7  35.449  164.2  0.0061   83.1  0.9684  -11.1
 0.280  0.7463  -19.9  35.167  161.0  0.0072   80.9  0.9594  -13.5
 0.330  0.7382  -23.2  34.514  158.0  0.0082   77.4  0.9495  -15.9
 0.380  0.7283  -26.3  33.828  155.2  0.0095   74.9  0.9366  -18.2
 0.430  0.7234  -29.0  33.576  152.6  0.0107   73.7  0.9249  -20.3
 0.500  0.7096  -33.4  32.529  149.0  0.0125   71.2  0.9072  -23.4
 0.600  0.6921  -38.7  31.579  144.5  0.0142   68.8  0.8807  -27.4
 0.700  0.6730  -44.4  30.359  140.1  0.0163   66.4  0.8551  -31.2
 0.800  0.6569  -49.1  29.474  136.1  0.0181   63.8  0.8280  -34.8
 0.900  0.6379  -54.2  28.475  132.3  0.0197   61.2  0.8011  -38.3
 1.000  0.6195  -59.1  27.472  128.6  0.0212   58.5  0.7744  -41.7
 1.100  0.6007  -63.9  26.520  125.1  0.0227   56.5  0.7484  -44.9
 1.200  0.5833  -68.4  25.620  121.8  0.0241   54.4  0.7226  -48.0
 1.300  0.5662  -72.8  24.760  118.6  0.0254   52.4  0.6967  -50.9
 1.400  0.5502  -77.0  23.971  115.5  0.0266   50.9  0.6730  -53.7
 1.500  0.5337  -81.3  23.173  112.5  0.0275   49.4  0.6491  -56.5
 1.600  0.5185  -85.4  22.425  109.6  0.0286   47.8  0.6265  -59.2
 1.700  0.5032  -89.9  21.647  106.8  0.0293   46.5  0.6050  -61.8
 1.800  0.4905  -94.0  20.924  104.1  0.0302   45.4  0.5855  -64.2
 1.900  0.4776  -97.9  20.288  101.5  0.0312   43.9  0.5658  -66.7
 2.000  0.4660 -101.8  19.646   99.0  0.0318   43.0  0.5471  -69.0
 2.100  0.4545 -105.7  19.047   96.6  0.0324   42.1  0.5291  -71.3
 2.200  0.4455 -109.5  18.464   94.2  0.0331   40.9  0.5121  -73.7
 2.300  0.4364 -113.5  17.910   91.8  0.0338   40.0  0.4948  -75.8
 2.400  0.4290 -117.2  17.379   89.5  0.0345   39.3  0.4795  -78.1
 2.500  0.4214 -120.9  16.902   87.3  0.0349   38.3  0.4638  -80.2
 2.600  0.4147 -124.6  16.418   85.1  0.0354   37.7  0.4484  -82.4
 2.700  0.4080 -128.1  15.974   83.0  0.0361   37.1  0.4337  -84.6
 2.800  0.4019 -131.8  15.536   80.9  0.0366   36.4  0.4198  -86.9
 2.900  0.3980 -135.4  15.133   78.8  0.0373   36.0  0.4067  -89.1
 3.000  0.3929 -138.9  14.729   76.8  0.0378   35.5  0.3947  -91.4
 3.100  0.3897 -142.4  14.357   74.8  0.0382   34.8  0.3830  -93.8
 3.200  0.3861 -145.9  13.989   72.8  0.0388   34.3  0.3720  -96.4
 3.300  0.3839 -149.4  13.638   70.7  0.0393   34.0  0.3616  -98.9
 3.400  0.3813 -152.9  13.295   68.8  0.0401   33.4  0.3530 -101.5
 3.500  0.3800 -156.3  12.969   66.9  0.0404   32.8  0.3435 -104.2
 3.600  0.3781 -159.7  12.661   65.0  0.0409   32.7  0.3350 -106.9
 3.700  0.3779 -163.0  12.355   63.2  0.0415   32.4  0.3271 -109.7
 3.800  0.3773 -166.5  12.052   61.3  0.0420   31.9  0.3203 -112.5
 3.900  0.3784 -169.8  11.764   59.5  0.0424   31.4  0.3145 -115.3
 4.000  0.3799 -172.9  11.483   57.7  0.0429   31.2  0.3087 -118.2
 4.100  0.3813 -176.1  11.220   55.9  0.0434   30.8  0.3038 -121.1
 4.200  0.3837 -179.1  10.965   54.2  0.0442   30.3  0.2988 -124.0
 4.300  0.3868  178.1  10.718   52.5  0.0447   29.9  0.2952 -126.8
 4.400  0.3896  175.4  10.472   50.8  0.0449   29.3  0.2915 -129.5
 4.500  0.3936  172.9  10.246   49.1  0.0455   29.2  0.2888 -132.3
 4.600  0.3965  170.5  10.018   47.4  0.0460   28.7  0.2855 -135.0
 4.700  0.4008  168.2   9.816   45.8  0.0466   28.5  0.2829 -137.6
 4.800  0.4046  165.9   9.606   44.3  0.0472   28.0  0.2800 -140.1
 4.900  0.4090  163.8   9.399   42.6  0.0476   27.8  0.2777 -142.7
 5.000  0.4133  161.9   9.206   41.1  0.0483   27.4  0.2752 -145.1
 5.100  0.4176  159.9   9.020   39.5  0.0486   27.2  0.2732 -147.6
 5.200  0.4221  158.0   8.846   37.9  0.0492   26.7  0.2708 -150.1
 5.300  0.4260  156.3   8.667   36.4  0.0498   26.5  0.2687 -152.6
 5.400  0.4296  154.6   8.499   34.9  0.0505   26.3  0.2664 -154.9
 5.500  0.4334  152.9   8.338   33.4  0.0510   25.9  0.2647 -157.5
 5.600  0.4372  151.3   8.179   31.9  0.0515   25.9  0.2624 -159.9
 5.700  0.4399  149.9   8.019   30.4  0.0521   25.5  0.2607 -162.3
 5.800  0.4427  148.4   7.869   29.0  0.0527   25.1  0.2593 -164.8
 5.900  0.4458  147.1   7.730   27.6  0.0534   25.1  0.2590 -167.1
 6.000  0.4494  145.8   7.598   26.2  0.0542   24.8  0.2583 -169.5
 6.100  0.4526  144.5   7.467   24.8  0.0552   24.5  0.2599 -171.8
 6.200  0.4564  143.2   7.346   23.4  0.0559   24.3  0.2608 -174.1
 6.300  0.4606  141.9   7.228   22.0  0.0567   23.9  0.2631 -176.5
 6.400  0.4643  140.6   7.118   20.6  0.0577   23.3  0.2652 -178.6
 6.500  0.4686  139.1   7.008   19.1  0.0585   22.9  0.2682  178.9
 6.600  0.4719  137.9   6.904   17.7  0.0594   22.5  0.2709  176.9
 6.700  0.4756  136.4   6.802   16.2  0.0602   21.8  0.2747  174.8
 6.800  0.4787  135.0   6.699   14.8  0.0611   21.3  0.2780  173.1
 6.900  0.4822  133.5   6.600   13.4  0.0619   20.8  0.2824  171.2
 7.000  0.4856  132.1   6.509   11.9  0.0628   20.2  0.2855  169.4
 7.100  0.4891  130.7   6.421   10.5  0.0638   19.7  0.2902  167.6
 7.200  0.4926  129.2   6.338    9.0  0.0646   19.0  0.2939  165.8
 7.300  0.4963  127.7   6.252    7.6  0.0656   18.3  0.2981  164.0
 7.400  0.4995  126.2   6.162    6.0  0.0664   17.7  0.3018  162.1
 7.500  0.5044  124.6   6.086    4.5  0.0673   17.0  0.3060  160.3
 7.600  0.5083  122.9   6.004    3.0  0.0680   16.1  0.3098  158.3
 7.700  0.5139  121.3   5.922    1.5  0.0689   15.4  0.3130  156.4
 7.800  0.5192  119.5   5.838   -0.1  0.0698   14.5  0.3166  154.3
 7.900  0.5262  117.9   5.762   -1.8  0.0705   13.7  0.3204  152.1
 8.000  0.5326  116.1   5.679   -3.4  0.0712   12.9  0.3237  149.7
 8.500  0.5752  107.7   5.254  -11.5  0.0744    8.9  0.3471  137.3
 9.000  0.6258   99.8   4.802  -19.6  0.0768    4.5  0.3932  124.6
 9.500  0.6685   93.1   4.308  -26.6  0.0782    0.7  0.4532  114.3
10.000  0.6974   88.2   3.894  -32.2  0.0794   -2.5  0.5138  108.5
10.500  0.7194   84.7   3.589  -36.7  0.0806   -5.5  0.5593  105.5
11.000  0.7444   82.2   3.389  -41.6  0.0821   -7.5  0.5935  103.4
11.500  0.7781   80.1   3.208  -47.5  0.0849  -10.0  0.6053  100.9
12.000  0.8047   78.1   2.994  -54.1  0.0884  -12.6  0.6121   97.8
!
!  f       NFmin   Gammaopt  rn/50
! GHz       dB    MAG  ANG    -
!
! noise parameter not available yet for this operation point!
!
! (c) 2012  Infineon Technologies AG, Munich
