! Infineon Technologies  Discrete & RF Semiconductors
! BFP840ESD
! VCE =  1.8 V,  IC =  22 mA
! Common Emitter S-Parameters:                            May 2012
# GHz  S  MA  R  50
!  f         S11            S21            S12            S22
! GHz     MAG   ANG      MAG   ANG      MAG   ANG      MAG   ANG
 0.030  0.7386   -1.8  43.056  177.3  0.0011   80.3  0.9620    1.3
 0.080  0.7378   -5.4  43.167  173.8  0.0027   72.9  0.9829   -2.4
 0.130  0.7355   -8.7  42.619  170.4  0.0030   74.8  0.9860   -5.5
 0.180  0.7292  -11.9  42.048  167.0  0.0041   76.7  0.9791   -8.2
 0.230  0.7234  -15.1  41.413  163.7  0.0053   77.8  0.9702  -10.8
 0.280  0.7168  -18.3  40.701  160.6  0.0063   78.6  0.9600  -13.1
 0.330  0.7091  -21.3  39.848  157.7  0.0074   75.3  0.9491  -15.4
 0.380  0.7002  -24.3  39.005  154.9  0.0084   74.3  0.9362  -17.6
 0.430  0.6923  -27.2  38.238  152.3  0.0093   75.1  0.9240  -19.7
 0.500  0.6795  -31.3  37.144  148.8  0.0111   72.7  0.9054  -22.5
 0.600  0.6603  -36.8  35.635  144.2  0.0128   70.0  0.8785  -26.3
 0.700  0.6415  -42.2  34.176  140.0  0.0145   66.7  0.8520  -29.9
 0.800  0.6215  -47.5  32.862  135.9  0.0160   64.6  0.8242  -33.3
 0.900  0.6018  -52.6  31.605  132.1  0.0175   62.0  0.7968  -36.5
 1.000  0.5829  -57.6  30.373  128.4  0.0191   60.0  0.7702  -39.6
 1.100  0.5642  -62.5  29.237  125.0  0.0205   57.8  0.7443  -42.5
 1.200  0.5462  -67.2  28.133  121.6  0.0215   56.5  0.7188  -45.3
 1.300  0.5282  -71.8  27.110  118.4  0.0227   54.7  0.6934  -48.0
 1.400  0.5121  -76.4  26.132  115.3  0.0236   52.9  0.6703  -50.6
 1.500  0.4963  -80.8  25.220  112.4  0.0246   51.5  0.6469  -53.0
 1.600  0.4808  -85.0  24.339  109.5  0.0254   50.3  0.6251  -55.4
 1.700  0.4669  -89.3  23.502  106.8  0.0264   48.8  0.6042  -57.7
 1.800  0.4541  -93.5  22.698  104.1  0.0271   47.7  0.5847  -59.9
 1.900  0.4419  -97.6  21.947  101.6  0.0278   46.8  0.5652  -62.0
 2.000  0.4307 -101.6  21.235   99.1  0.0286   45.8  0.5473  -64.1
 2.100  0.4197 -105.6  20.569   96.6  0.0293   44.5  0.5302  -66.2
 2.200  0.4108 -109.4  19.932   94.3  0.0300   44.0  0.5137  -68.1
 2.300  0.4020 -113.5  19.318   92.0  0.0305   43.5  0.4970  -70.0
 2.400  0.3947 -117.2  18.739   89.8  0.0312   43.0  0.4815  -72.0
 2.500  0.3876 -121.0  18.197   87.6  0.0320   42.0  0.4659  -73.8
 2.600  0.3811 -124.6  17.661   85.5  0.0323   41.5  0.4517  -75.7
 2.700  0.3753 -128.4  17.177   83.3  0.0329   41.4  0.4377  -77.6
 2.800  0.3696 -132.1  16.705   81.2  0.0336   40.6  0.4241  -79.5
 2.900  0.3661 -135.7  16.259   79.2  0.0340   40.0  0.4113  -81.4
 3.000  0.3618 -139.3  15.819   77.2  0.0348   39.7  0.3993  -83.4
 3.100  0.3590 -142.9  15.421   75.3  0.0352   39.3  0.3880  -85.5
 3.200  0.3558 -146.4  15.016   73.3  0.0358   38.9  0.3774  -87.6
 3.300  0.3540 -149.9  14.643   71.4  0.0363   38.5  0.3666  -89.9
 3.400  0.3523 -153.5  14.279   69.5  0.0367   37.8  0.3574  -92.2
 3.500  0.3511 -156.9  13.931   67.6  0.0374   37.3  0.3480  -94.5
 3.600  0.3499 -160.4  13.596   65.7  0.0381   37.0  0.3391  -96.9
 3.700  0.3501 -163.8  13.269   63.9  0.0387   36.5  0.3309  -99.3
 3.800  0.3499 -167.2  12.951   62.1  0.0393   36.5  0.3233 -101.8
 3.900  0.3513 -170.5  12.650   60.3  0.0398   36.0  0.3168 -104.4
 4.000  0.3532 -173.7  12.351   58.6  0.0404   35.7  0.3103 -106.9
 4.100  0.3550 -176.8  12.064   56.8  0.0410   35.4  0.3046 -109.6
 4.200  0.3579 -179.9  11.797   55.1  0.0415   34.9  0.2991 -112.2
 4.300  0.3617  177.4  11.534   53.4  0.0422   34.5  0.2948 -114.9
 4.400  0.3647  174.7  11.273   51.8  0.0427   34.2  0.2901 -117.4
 4.500  0.3688  172.2  11.031   50.1  0.0431   33.9  0.2865 -119.9
 4.600  0.3723  169.7  10.792   48.5  0.0441   33.5  0.2825 -122.5
 4.700  0.3769  167.5  10.574   46.8  0.0444   33.2  0.2794 -124.8
 4.800  0.3808  165.3  10.353   45.3  0.0450   32.8  0.2758 -127.3
 4.900  0.3856  163.2  10.135   43.7  0.0456   32.4  0.2727 -129.7
 5.000  0.3900  161.3   9.931   42.2  0.0463   32.1  0.2693 -132.0
 5.100  0.3946  159.4   9.736   40.6  0.0468   31.8  0.2666 -134.4
 5.200  0.3991  157.5   9.548   39.0  0.0473   31.5  0.2635 -136.7
 5.300  0.4031  155.8   9.360   37.6  0.0480   31.2  0.2605 -139.1
 5.400  0.4068  154.2   9.183   36.1  0.0485   30.9  0.2574 -141.3
 5.500  0.4105  152.6   9.011   34.6  0.0493   30.6  0.2550 -143.8
 5.600  0.4147  151.0   8.846   33.1  0.0498   30.3  0.2518 -146.0
 5.700  0.4174  149.6   8.675   31.7  0.0505   30.2  0.2494 -148.4
 5.800  0.4202  148.2   8.515   30.3  0.0512   30.0  0.2470 -150.7
 5.900  0.4236  146.9   8.369   28.9  0.0519   29.9  0.2457 -153.0
 6.000  0.4273  145.7   8.231   27.5  0.0527   29.4  0.2440 -155.3
 6.100  0.4307  144.5   8.093   26.1  0.0536   29.0  0.2451 -157.7
 6.200  0.4348  143.3   7.964   24.7  0.0545   28.7  0.2450 -159.9
 6.300  0.4390  142.0   7.841   23.3  0.0554   28.2  0.2464 -162.6
 6.400  0.4428  140.7   7.725   21.9  0.0565   27.8  0.2478 -164.8
 6.500  0.4471  139.3   7.610   20.5  0.0573   27.3  0.2499 -167.4
 6.600  0.4506  138.1   7.499   19.1  0.0581   26.7  0.2519 -169.6
 6.700  0.4544  136.6   7.392   17.6  0.0592   26.2  0.2551 -172.0
 6.800  0.4577  135.3   7.283   16.2  0.0600   25.7  0.2580 -174.1
 6.900  0.4611  133.8   7.180   14.8  0.0609   25.2  0.2620 -176.1
 7.000  0.4649  132.4   7.082   13.3  0.0619   24.6  0.2647 -178.2
 7.100  0.4683  131.0   6.989   11.9  0.0629   24.1  0.2689  179.8
 7.200  0.4717  129.6   6.902   10.5  0.0638   23.4  0.2723  177.8
 7.300  0.4756  128.2   6.811    9.0  0.0647   22.6  0.2760  175.8
 7.400  0.4789  126.7   6.717    7.5  0.0656   21.9  0.2794  173.9
 7.500  0.4837  125.1   6.637    6.0  0.0665   21.2  0.2835  171.9
 7.600  0.4876  123.4   6.551    4.5  0.0674   20.4  0.2868  169.8
 7.700  0.4934  121.9   6.465    3.0  0.0684   19.6  0.2898  167.8
 7.800  0.4989  120.2   6.379    1.4  0.0693   18.8  0.2929  165.5
 7.900  0.5061  118.5   6.299   -0.3  0.0701   18.0  0.2962  163.2
 8.000  0.5125  116.9   6.212   -1.9  0.0708   17.2  0.2988  160.7
 8.500  0.5568  108.6   5.773   -9.9  0.0744   13.0  0.3188  147.3
 9.000  0.6101  100.8   5.302  -18.1  0.0776    8.4  0.3624  132.9
 9.500  0.6565   94.2   4.778  -25.3  0.0791    4.4  0.4226  121.2
10.000  0.6888   89.2   4.329  -31.1  0.0809    0.9  0.4870  114.5
10.500  0.7127   85.5   3.992  -35.7  0.0821   -2.2  0.5374  110.8
11.000  0.7384   83.0   3.771  -40.8  0.0838   -4.5  0.5760  108.2
11.500  0.7733   80.9   3.574  -46.8  0.0867   -7.1  0.5905  105.5
12.000  0.8019   78.8   3.340  -53.6  0.0905   -9.9  0.5991  102.2
!
!  f       NFmin   Gammaopt  rn/50
! GHz       dB    MAG  ANG    -
!
! noise parameter not available yet for this operation point!
!
! (c) 2012  Infineon Technologies AG, Munich
