! Infineon Technologies  Discrete & RF Semiconductors
! BFP843F
! VCE =  1.8 V,  IC =  50 mA
! Common Emitter S-Parameters:                            Aug 2013
# GHz  S  MA  R  50
!  f         S11            S21            S12            S22
! GHz     MAG   ANG      MAG   ANG      MAG   ANG      MAG   ANG
 0.030  0.4029 -134.2  29.943  155.0  0.0231   24.8  0.3192 -104.9
 0.040  0.3990 -145.4  27.351  157.2  0.0263   16.6  0.2788 -119.3
 0.050  0.3850 -151.3  25.857  160.7  0.0266   20.7  0.2504 -128.7
 0.060  0.3957 -157.2  25.108  162.1  0.0258   14.8  0.2393 -136.8
 0.070  0.3846 -161.8  24.505  163.3  0.0256   14.4  0.2228 -144.7
 0.080  0.3846 -164.4  24.180  164.1  0.0275   10.8  0.2219 -149.8
 0.090  0.3842 -166.8  23.943  164.3  0.0274   12.0  0.2127 -153.9
 0.100  0.3798 -169.6  23.670  164.9  0.0268   17.6  0.2064 -159.1
 0.110  0.3833 -170.2  23.539  165.0  0.0280   10.2  0.1984 -161.8
 0.120  0.3781 -172.2  23.404  165.2  0.0276   17.3  0.1973 -164.8
 0.130  0.3750 -172.9  23.259  165.3  0.0271    7.9  0.1955 -167.3
 0.140  0.3769 -174.4  23.101  165.1  0.0280   11.1  0.1884 -169.5
 0.150  0.3735 -174.5  23.050  165.1  0.0282    9.1  0.1878 -171.2
 0.200  0.3616 -178.6  22.564  164.1  0.0301    8.5  0.1760 -179.4
 0.250  0.3521  179.5  22.296  162.8  0.0305   10.9  0.1660  176.7
 0.300  0.3444  178.8  21.991  161.3  0.0290    9.6  0.1587  172.6
 0.350  0.3411  178.4  21.652  159.6  0.0301    8.7  0.1529  169.7
 0.400  0.3360  178.9  21.364  158.0  0.0311    8.4  0.1479  168.4
 0.450  0.3327  178.8  21.111  156.5  0.0303    8.3  0.1415  167.5
 0.500  0.3318  179.1  20.893  154.7  0.0299    7.4  0.1376  166.4
 0.600  0.3295  179.6  20.448  151.3  0.0311   10.1  0.1314  165.3
 0.700  0.3330 -179.9  19.967  147.8  0.0312    6.7  0.1276  165.3
 0.800  0.3381 -179.1  19.515  144.5  0.0315    6.4  0.1261  165.6
 0.900  0.3440 -179.3  19.090  141.1  0.0317    6.2  0.1241  165.8
 1.000  0.3518 -178.9  18.612  137.8  0.0316    8.4  0.1225  166.6
 1.100  0.3578 -178.9  18.156  134.7  0.0318    7.9  0.1225  167.7
 1.200  0.3674 -179.0  17.686  131.5  0.0313    6.9  0.1228  169.7
 1.300  0.3739 -179.8  17.211  128.4  0.0319    8.3  0.1236  170.6
 1.400  0.3807 -180.0  16.762  125.5  0.0318    8.2  0.1243  172.4
 1.500  0.3898  179.6  16.300  122.7  0.0319    8.5  0.1259  174.1
 1.600  0.3969  178.9  15.877  119.8  0.0317    9.1  0.1276  176.1
 1.700  0.4040  178.4  15.440  117.0  0.0316    9.2  0.1303  177.2
 1.800  0.4095  177.6  14.991  114.5  0.0313    9.7  0.1333  179.2
 1.900  0.4156  176.9  14.566  112.0  0.0318   10.1  0.1374 -179.6
 2.000  0.4258  176.3  14.195  109.3  0.0318   10.2  0.1409 -177.2
 2.100  0.4296  175.4  13.787  106.9  0.0319   11.2  0.1455 -175.8
 2.200  0.4350  174.8  13.371  104.7  0.0318    9.6  0.1520 -173.3
 2.300  0.4393  173.8  13.068  102.5  0.0317   12.7  0.1552 -172.8
 2.400  0.4446  173.3  12.692  100.2  0.0310   11.5  0.1612 -170.2
 2.500  0.4496  172.3  12.333   98.0  0.0316   13.1  0.1657 -169.8
 2.600  0.4541  171.5  11.974   95.9  0.0316   13.1  0.1705 -168.0
 2.700  0.4565  170.8  11.666   93.9  0.0321   13.4  0.1751 -167.6
 2.800  0.4608  170.2  11.369   92.1  0.0321   16.1  0.1810 -166.1
 2.900  0.4643  169.3  11.108   90.1  0.0324   15.3  0.1856 -165.4
 3.000  0.4677  168.6  10.804   88.2  0.0331   15.1  0.1925 -164.6
 3.100  0.4721  167.7  10.532   86.2  0.0323   16.0  0.1966 -163.7
 3.200  0.4741  166.8  10.292   84.5  0.0326   17.0  0.2035 -163.2
 3.300  0.4777  166.1  10.016   82.7  0.0324   17.6  0.2082 -162.6
 3.400  0.4805  165.1   9.787   80.9  0.0332   18.4  0.2144 -162.1
 3.500  0.4859  164.4   9.530   79.1  0.0335   19.5  0.2180 -161.5
 3.600  0.4870  163.6   9.326   77.5  0.0333   19.8  0.2228 -161.3
 3.700  0.4908  162.7   9.099   75.7  0.0332   20.0  0.2273 -161.2
 3.800  0.4912  161.9   8.925   74.2  0.0339   20.0  0.2330 -160.9
 3.900  0.4949  161.1   8.708   72.6  0.0344   20.6  0.2359 -161.0
 4.000  0.4994  160.3   8.483   70.8  0.0340   21.6  0.2410 -161.1
 4.100  0.5026  159.5   8.332   69.4  0.0344   22.3  0.2448 -161.3
 4.200  0.5046  158.6   8.142   67.7  0.0354   23.0  0.2498 -161.5
 4.300  0.5069  157.8   7.995   66.4  0.0350   23.9  0.2529 -162.0
 4.400  0.5118  156.9   7.807   64.8  0.0356   24.2  0.2575 -162.4
 4.500  0.5144  156.2   7.653   63.4  0.0357   24.6  0.2611 -162.6
 4.600  0.5184  155.4   7.494   61.8  0.0362   25.5  0.2653 -163.2
 4.700  0.5212  154.7   7.370   60.3  0.0373   26.0  0.2688 -163.9
 4.800  0.5242  153.8   7.212   58.8  0.0368   26.0  0.2731 -164.3
 4.900  0.5277  153.0   7.048   57.4  0.0374   26.3  0.2757 -164.8
 5.000  0.5292  152.2   6.940   56.0  0.0380   26.0  0.2792 -165.6
 5.100  0.5333  151.3   6.795   54.5  0.0383   26.9  0.2822 -166.5
 5.200  0.5348  150.6   6.699   53.2  0.0388   28.0  0.2871 -167.3
 5.300  0.5392  149.7   6.549   51.6  0.0392   28.3  0.2896 -168.1
 5.400  0.5414  148.9   6.445   50.2  0.0394   28.3  0.2937 -168.7
 5.500  0.5462  148.1   6.297   48.7  0.0400   28.0  0.2970 -169.7
 5.600  0.5480  147.4   6.217   47.5  0.0410   28.5  0.3003 -170.5
 5.700  0.5499  146.5   6.082   45.9  0.0405   28.7  0.3032 -171.4
 5.800  0.5513  145.5   6.008   44.7  0.0412   29.1  0.3067 -172.3
 5.900  0.5543  144.9   5.881   43.3  0.0416   29.7  0.3094 -173.3
 6.000  0.5573  143.7   5.795   41.9  0.0420   29.8  0.3125 -174.1
 6.100  0.5597  142.9   5.682   40.4  0.0424   30.3  0.3139 -175.4
 6.200  0.5600  141.7   5.590   39.1  0.0432   30.7  0.3170 -176.5
 6.300  0.5627  140.9   5.481   37.6  0.0439   30.4  0.3184 -177.6
 6.400  0.5647  139.8   5.379   36.2  0.0439   30.6  0.3227 -178.6
 6.500  0.5665  138.7   5.286   34.9  0.0447   31.4  0.3235 -179.7
 6.600  0.5667  137.7   5.204   33.6  0.0454   31.2  0.3249  179.1
 6.700  0.5694  136.6   5.102   32.3  0.0461   32.0  0.3261  178.2
 6.800  0.5699  135.6   5.013   30.9  0.0465   32.1  0.3270  177.1
 6.900  0.5736  134.6   4.905   29.5  0.0469   32.6  0.3278  176.1
 7.000  0.5731  133.6   4.833   28.3  0.0480   33.2  0.3279  174.7
 7.100  0.5757  132.4   4.740   27.0  0.0488   33.1  0.3305  173.4
 7.200  0.5758  131.7   4.680   25.9  0.0499   33.5  0.3315  172.3
 7.300  0.5799  130.5   4.584   24.5  0.0511   33.7  0.3350  171.0
 7.400  0.5816  129.7   4.514   23.3  0.0516   33.2  0.3372  169.6
 7.500  0.5879  128.7   4.421   22.0  0.0530   33.5  0.3422  168.1
 7.600  0.5902  128.0   4.367   20.9  0.0539   32.9  0.3444  166.7
 7.700  0.5950  127.1   4.314   19.6  0.0550   32.8  0.3495  164.8
 7.800  0.6012  126.3   4.230   18.3  0.0559   32.1  0.3540  163.2
 7.900  0.6063  125.5   4.168   17.1  0.0573   32.1  0.3601  161.2
 8.000  0.6144  124.8   4.088   15.7  0.0577   31.5  0.3663  159.5
 8.500  0.6505  121.2   3.781    9.2  0.0617   28.6  0.4047  149.5
 9.000  0.6853  118.1   3.483    2.8  0.0642   25.8  0.4534  139.7
 9.500  0.7172  113.4   3.142   -3.5  0.0657   23.0  0.5092  131.5
10.000  0.7345  110.2   2.798   -9.0  0.0669   21.4  0.5669  124.9
10.500  0.7528  107.3   2.546  -13.5  0.0678   20.1  0.6216  120.5
11.000  0.7730  103.6   2.333  -17.8  0.0681   18.8  0.6704  118.5
11.500  0.7854  100.3   2.124  -21.5  0.0689   18.4  0.7027  119.3
12.000  0.7895   97.9   1.918  -24.3  0.0695   18.7  0.7348  122.9
!
!  f       NFmin   Gammaopt  rn/50
! GHz       dB    MAG  ANG    -
!
! noise parameter not available yet for this operation point!
!
! (c) 2013  Infineon Technologies AG, Munich
