! Infineon Technologies  Discrete & RF Semiconductors
! BFP843F
! VCE =  1.8 V,  IC =  55 mA
! Common Emitter S-Parameters:                            Aug 2013
# GHz  S  MA  R  50
!  f         S11            S21            S12            S22
! GHz     MAG   ANG      MAG   ANG      MAG   ANG      MAG   ANG
 0.030  0.3631 -129.5  26.053  157.7  0.0245   22.2  0.2831 -102.3
 0.040  0.3597 -142.3  24.005  159.3  0.0230   21.5  0.2445 -119.5
 0.050  0.3516 -147.2  22.774  162.2  0.0273   22.3  0.2282 -128.7
 0.060  0.3590 -153.8  22.190  163.3  0.0259   22.0  0.2145 -136.0
 0.070  0.3538 -157.9  21.711  164.1  0.0239   18.4  0.2024 -144.8
 0.080  0.3511 -161.2  21.476  164.7  0.0267   12.5  0.2007 -149.9
 0.090  0.3524 -162.7  21.254  164.7  0.0259   15.9  0.1937 -154.1
 0.100  0.3465 -165.1  20.998  165.1  0.0270   13.0  0.1868 -160.1
 0.110  0.3516 -165.8  20.872  165.1  0.0268   15.5  0.1854 -162.8
 0.120  0.3493 -167.9  20.780  165.1  0.0281   11.0  0.1819 -165.0
 0.130  0.3465 -168.9  20.660  165.0  0.0263   12.4  0.1788 -168.2
 0.140  0.3507 -169.8  20.567  164.7  0.0264    8.8  0.1741 -171.1
 0.150  0.3463 -170.1  20.496  164.6  0.0271    7.5  0.1754 -172.7
 0.200  0.3376 -172.7  20.030  163.0  0.0290    8.4  0.1621  179.5
 0.250  0.3320 -173.5  19.764  161.0  0.0298    7.4  0.1540  173.9
 0.300  0.3311 -173.4  19.480  159.1  0.0289    6.7  0.1468  170.5
 0.350  0.3313 -173.1  19.178  157.0  0.0292    8.4  0.1406  167.0
 0.400  0.3325 -171.7  18.868  154.9  0.0302    7.3  0.1348  165.8
 0.450  0.3347 -171.3  18.588  152.9  0.0295    6.1  0.1288  163.8
 0.500  0.3394 -170.2  18.277  150.7  0.0297    7.9  0.1239  163.2
 0.600  0.3534 -169.1  17.786  146.5  0.0303    4.9  0.1187  161.8
 0.700  0.3670 -168.8  17.232  142.4  0.0294    8.4  0.1123  160.3
 0.800  0.3832 -168.1  16.690  138.5  0.0303    5.9  0.1061  161.4
 0.900  0.3992 -168.6  16.146  134.4  0.0297    6.8  0.1034  161.6
 1.000  0.4163 -169.0  15.590  130.7  0.0303    6.8  0.1001  163.5
 1.100  0.4305 -169.8  15.135  127.3  0.0301    6.9  0.0991  165.7
 1.200  0.4475 -170.4  14.562  123.8  0.0303    6.8  0.0972  168.7
 1.300  0.4605 -171.8  14.025  120.3  0.0298    7.9  0.0974  171.2
 1.400  0.4747 -172.5  13.500  117.1  0.0306    8.1  0.0974  174.6
 1.500  0.4873 -173.7  13.024  114.2  0.0298    8.5  0.0991  178.0
 1.600  0.4989 -174.9  12.606  111.2  0.0299   10.0  0.1015 -178.1
 1.700  0.5099 -175.9  12.121  108.3  0.0299    9.7  0.1048 -176.0
 1.800  0.5189 -177.2  11.698  105.6  0.0299   10.3  0.1093 -172.4
 1.900  0.5263 -178.3  11.305  103.3  0.0297   10.9  0.1154 -170.7
 2.000  0.5379 -179.4  10.956  100.5  0.0303   11.4  0.1208 -168.3
 2.100  0.5453  179.2  10.562   98.0  0.0300   12.0  0.1275 -165.5
 2.200  0.5542  178.3  10.132   95.7  0.0298   12.8  0.1363 -163.1
 2.300  0.5597  177.1   9.852   93.5  0.0306   13.0  0.1420 -161.8
 2.400  0.5662  176.0   9.518   91.2  0.0302   13.2  0.1495 -160.0
 2.500  0.5689  174.8   9.264   89.2  0.0301   15.0  0.1563 -159.5
 2.600  0.5756  173.8   8.927   87.1  0.0300   14.4  0.1642 -157.6
 2.700  0.5794  172.8   8.654   85.1  0.0303   16.8  0.1708 -156.9
 2.800  0.5871  171.9   8.346   83.1  0.0302   16.2  0.1787 -155.9
 2.900  0.5901  170.8   8.141   81.2  0.0303   17.9  0.1860 -155.5
 3.000  0.5936  169.8   7.903   79.4  0.0306   18.1  0.1940 -155.0
 3.100  0.5999  168.7   7.658   77.4  0.0311   19.9  0.2017 -154.3
 3.200  0.6021  167.6   7.443   75.6  0.0313   20.4  0.2094 -154.3
 3.300  0.6055  166.6   7.233   74.0  0.0315   20.4  0.2160 -153.9
 3.400  0.6069  165.6   7.075   72.3  0.0318   21.6  0.2241 -153.9
 3.500  0.6117  164.7   6.865   70.6  0.0317   22.2  0.2295 -153.6
 3.600  0.6139  163.7   6.689   68.9  0.0325   23.3  0.2360 -153.8
 3.700  0.6190  162.5   6.473   67.1  0.0324   24.3  0.2421 -153.6
 3.800  0.6207  161.6   6.335   65.6  0.0327   24.5  0.2480 -153.9
 3.900  0.6218  160.7   6.215   64.1  0.0328   24.1  0.2525 -154.2
 4.000  0.6261  159.7   6.021   62.4  0.0331   25.3  0.2596 -154.5
 4.100  0.6289  158.6   5.898   61.0  0.0333   26.3  0.2644 -155.1
 4.200  0.6328  157.7   5.709   59.3  0.0338   26.7  0.2694 -155.4
 4.300  0.6355  156.8   5.607   57.9  0.0346   26.8  0.2748 -156.1
 4.400  0.6397  155.7   5.461   56.4  0.0347   28.5  0.2794 -156.9
 4.500  0.6397  154.9   5.382   55.1  0.0356   28.5  0.2846 -157.3
 4.600  0.6445  153.9   5.230   53.5  0.0358   29.3  0.2904 -158.1
 4.700  0.6484  153.0   5.112   52.0  0.0365   29.2  0.2942 -159.0
 4.800  0.6506  152.0   5.005   50.6  0.0369   30.7  0.2988 -159.7
 4.900  0.6520  151.2   4.910   49.3  0.0371   30.9  0.3028 -160.5
 5.000  0.6541  150.3   4.815   47.8  0.0376   31.0  0.3072 -161.4
 5.100  0.6587  149.3   4.677   46.3  0.0382   31.5  0.3112 -162.4
 5.200  0.6604  148.5   4.605   45.0  0.0390   31.5  0.3161 -163.3
 5.300  0.6631  147.5   4.500   43.5  0.0389   31.8  0.3199 -164.4
 5.400  0.6637  146.7   4.453   42.2  0.0397   32.6  0.3234 -165.2
 5.500  0.6679  145.7   4.337   40.8  0.0406   32.5  0.3280 -166.3
 5.600  0.6699  144.9   4.270   39.5  0.0407   33.3  0.3315 -167.2
 5.700  0.6715  143.9   4.139   37.9  0.0412   33.2  0.3358 -168.4
 5.800  0.6740  142.9   4.092   36.7  0.0422   33.8  0.3395 -169.4
 5.900  0.6754  142.1   3.999   35.3  0.0427   34.0  0.3425 -170.6
 6.000  0.6759  141.0   3.967   34.0  0.0434   34.1  0.3458 -171.6
 6.100  0.6796  140.0   3.843   32.4  0.0437   33.6  0.3486 -173.0
 6.200  0.6793  138.9   3.788   31.1  0.0445   34.4  0.3517 -174.0
 6.300  0.6814  137.9   3.712   29.7  0.0448   34.3  0.3532 -175.3
 6.400  0.6804  136.9   3.660   28.4  0.0454   34.1  0.3576 -176.5
 6.500  0.6839  135.7   3.567   27.0  0.0468   35.1  0.3595 -177.7
 6.600  0.6843  134.7   3.499   25.7  0.0470   35.0  0.3620 -179.2
 6.700  0.6850  133.6   3.433   24.4  0.0477   35.3  0.3628  179.9
 6.800  0.6847  132.6   3.385   23.2  0.0486   36.2  0.3642  178.6
 6.900  0.6864  131.5   3.313   21.8  0.0497   35.6  0.3654  177.4
 7.000  0.6866  130.4   3.252   20.5  0.0501   35.9  0.3666  175.9
 7.100  0.6901  129.2   3.167   19.1  0.0515   36.3  0.3702  174.5
 7.200  0.6900  128.4   3.121   18.0  0.0525   35.9  0.3715  173.3
 7.300  0.6925  127.2   3.057   16.7  0.0537   36.0  0.3748  171.7
 7.400  0.6926  126.4   3.026   15.6  0.0550   36.0  0.3770  170.3
 7.500  0.6976  125.3   2.957   14.2  0.0560   35.5  0.3819  168.7
 7.600  0.7004  124.5   2.913   13.1  0.0570   35.4  0.3838  167.2
 7.700  0.7054  123.5   2.857   11.7  0.0579   34.5  0.3896  165.2
 7.800  0.7097  122.6   2.797   10.5  0.0594   34.5  0.3939  163.4
 7.900  0.7127  121.7   2.773    9.3  0.0601   33.8  0.3992  161.4
 8.000  0.7186  121.0   2.708    8.0  0.0612   33.2  0.4056  159.6
 8.500  0.7487  117.0   2.468    1.6  0.0647   29.8  0.4429  149.2
 9.000  0.7758  113.8   2.250   -4.7  0.0674   26.5  0.4889  139.4
 9.500  0.7983  109.0   2.015  -10.7  0.0693   23.7  0.5428  131.0
10.000  0.8054  106.1   1.792  -15.7  0.0694   21.6  0.5984  124.3
10.500  0.8196  103.5   1.604  -19.8  0.0708   19.9  0.6499  119.8
11.000  0.8368  100.1   1.467  -23.7  0.0709   18.4  0.6954  117.6
11.500  0.8454   97.1   1.336  -26.9  0.0719   17.8  0.7258  118.3
12.000  0.8465   94.8   1.205  -29.2  0.0728   18.4  0.7559  121.7
!
!  f       NFmin   Gammaopt  rn/50
! GHz       dB    MAG  ANG    -
!
! noise parameter not available yet for this operation point!
!
! (c) 2013  Infineon Technologies AG, Munich
