! Infineon Technologies  Discrete & RF Semiconductors
! BFP842ESD
! VCE =  2.0 V,  IC =  10 mA
! Common Emitter S-Parameters:                            May 2012
# GHz  S  MA  R  50
!  f         S11            S21            S12            S22
! GHz     MAG   ANG      MAG   ANG      MAG   ANG      MAG   ANG
 0.030  0.8777   -2.1  27.817  177.0  0.0017   33.5  0.9937   -1.2
 0.040  0.8781   -2.7  27.745  176.0  0.0012   87.0  0.9925   -1.6
 0.050  0.8743   -3.6  27.556  174.9  0.0040   77.3  0.9945   -2.7
 0.060  0.8706   -4.1  27.973  174.1  0.0021 -149.4  0.9935   -2.6
 0.070  0.8711   -4.6  27.659  173.5  0.0022   79.5  0.9912   -3.4
 0.080  0.8708   -5.7  27.706  172.4  0.0045   78.0  0.9929   -4.1
 0.090  0.8721   -6.2  27.324  172.0  0.0036   92.7  0.9928   -4.3
 0.100  0.8693   -7.1  27.524  171.1  0.0051   75.4  0.9893   -5.2
 0.110  0.8653   -7.8  27.714  169.9  0.0046   88.5  0.9908   -5.6
 0.120  0.8656   -8.7  27.550  169.3  0.0055   93.9  0.9894   -6.2
 0.130  0.8666   -9.0  27.309  168.3  0.0058   65.3  0.9875   -6.8
 0.140  0.8629   -9.8  27.349  167.7  0.0061   79.7  0.9855   -7.4
 0.150  0.8595  -10.5  27.382  166.7  0.0062   84.5  0.9825   -7.8
 0.200  0.8495  -13.7  26.922  162.7  0.0074   83.8  0.9741  -10.7
 0.250  0.8364  -17.1  26.586  158.5  0.0090   78.8  0.9618  -13.1
 0.300  0.8171  -20.3  25.956  154.4  0.0118   76.0  0.9505  -15.6
 0.350  0.8014  -23.4  25.437  150.6  0.0135   75.9  0.9336  -17.8
 0.400  0.7816  -26.1  24.735  146.8  0.0159   76.1  0.9171  -19.9
 0.450  0.7610  -29.0  24.063  143.3  0.0174   74.6  0.8968  -22.1
 0.500  0.7398  -31.5  23.456  140.0  0.0185   68.8  0.8807  -24.0
 0.600  0.6958  -36.1  22.023  133.7  0.0208   69.0  0.8445  -27.5
 0.700  0.6541  -40.2  20.712  128.0  0.0246   65.7  0.8091  -30.5
 0.800  0.6128  -44.1  19.417  122.5  0.0265   64.8  0.7764  -33.3
 0.900  0.5747  -47.3  18.231  117.8  0.0293   62.4  0.7454  -35.8
 1.000  0.5393  -50.3  17.155  113.3  0.0310   61.1  0.7179  -38.0
 1.100  0.5066  -52.8  16.144  109.2  0.0336   59.3  0.6928  -40.1
 1.200  0.4764  -55.4  15.192  105.4  0.0359   58.3  0.6716  -42.0
 1.300  0.4494  -57.5  14.361  102.0  0.0376   57.5  0.6508  -43.9
 1.400  0.4246  -59.3  13.603   98.6  0.0395   55.6  0.6332  -45.5
 1.500  0.4021  -61.0  12.893   95.4  0.0418   55.2  0.6168  -47.2
 1.600  0.3812  -62.8  12.238   92.4  0.0441   53.6  0.6029  -48.9
 1.700  0.3606  -64.3  11.662   89.6  0.0458   52.2  0.5876  -50.5
 1.800  0.3440  -65.8  11.149   86.9  0.0479   51.7  0.5771  -52.1
 1.900  0.3271  -67.4  10.652   84.1  0.0498   51.1  0.5651  -53.7
 2.000  0.3112  -68.7  10.165   81.6  0.0517   50.6  0.5546  -55.4
 2.100  0.2967  -69.9   9.759   79.1  0.0537   48.7  0.5443  -57.3
 2.200  0.2834  -71.1   9.384   76.7  0.0556   48.1  0.5362  -58.8
 2.300  0.2699  -72.2   9.015   74.3  0.0574   47.5  0.5275  -60.4
 2.400  0.2599  -73.1   8.660   72.1  0.0594   46.5  0.5188  -62.3
 2.500  0.2469  -74.2   8.350   69.8  0.0613   45.4  0.5110  -64.0
 2.600  0.2363  -75.2   8.073   67.6  0.0638   44.2  0.5048  -65.7
 2.700  0.2250  -76.1   7.790   65.4  0.0655   42.8  0.4973  -67.5
 2.800  0.2145  -77.3   7.536   63.3  0.0678   42.1  0.4890  -69.3
 2.900  0.2034  -78.3   7.293   61.1  0.0698   41.2  0.4832  -71.5
 3.000  0.1951  -79.3   7.068   59.1  0.0722   39.9  0.4766  -73.4
 3.100  0.1858  -80.4   6.860   57.0  0.0739   38.8  0.4700  -75.5
 3.200  0.1762  -81.8   6.650   55.0  0.0759   37.6  0.4631  -77.7
 3.300  0.1671  -82.7   6.456   52.9  0.0780   36.7  0.4578  -79.8
 3.400  0.1589  -83.9   6.275   51.0  0.0802   35.4  0.4518  -82.0
 3.500  0.1501  -85.1   6.100   48.9  0.0822   34.4  0.4463  -84.4
 3.600  0.1414  -86.1   5.932   46.9  0.0841   33.4  0.4401  -86.7
 3.700  0.1343  -87.3   5.781   44.9  0.0860   32.2  0.4367  -89.2
 3.800  0.1261  -88.4   5.624   42.9  0.0884   31.0  0.4314  -91.6
 3.900  0.1190  -89.7   5.473   40.9  0.0902   29.7  0.4264  -94.0
 4.000  0.1117  -91.2   5.327   38.9  0.0917   28.4  0.4223  -96.4
 4.100  0.1049  -92.5   5.192   37.0  0.0939   27.3  0.4193  -99.0
 4.200  0.0990  -94.1   5.059   35.0  0.0951   26.1  0.4161 -101.6
 4.300  0.0938  -95.2   4.935   33.1  0.0973   24.9  0.4135 -104.2
 4.400  0.0887  -96.3   4.809   31.1  0.0984   23.4  0.4107 -106.6
 4.500  0.0844  -97.5   4.694   29.1  0.1002   22.1  0.4095 -109.1
 4.600  0.0803  -99.3   4.583   27.2  0.1026   20.7  0.4068 -111.7
 4.700  0.0771  -99.9   4.470   25.3  0.1041   19.6  0.4060 -114.1
 4.800  0.0746 -101.1   4.361   23.4  0.1060   18.4  0.4048 -116.5
 4.900  0.0721 -102.5   4.253   21.5  0.1074   16.8  0.4037 -118.8
 5.000  0.0693 -103.0   4.152   19.5  0.1091   15.5  0.4034 -121.3
 5.100  0.0677 -104.2   4.055   17.7  0.1109   14.2  0.4018 -123.6
 5.200  0.0678 -104.9   3.959   15.9  0.1120   12.8  0.4030 -125.8
 5.300  0.0669 -105.6   3.868   13.9  0.1136   11.6  0.4023 -128.1
 5.400  0.0674 -105.4   3.782   12.1  0.1152   10.3  0.4026 -130.3
 5.500  0.0663 -105.5   3.694   10.3  0.1163    8.9  0.4024 -132.6
 5.600  0.0678 -106.1   3.610    8.3  0.1182    7.7  0.4039 -134.8
 5.700  0.0681 -106.3   3.528    6.5  0.1196    6.2  0.4034 -136.9
 5.800  0.0711 -107.7   3.445    4.8  0.1208    5.2  0.4058 -139.1
 5.900  0.0716 -107.0   3.371    2.8  0.1223    3.5  0.4055 -141.3
 6.000  0.0762 -106.9   3.296    1.0  0.1234    2.3  0.4088 -143.6
 6.100  0.0766 -107.7   3.224   -0.8  0.1248    1.1  0.4106 -145.7
 6.200  0.0806 -108.4   3.154   -2.7  0.1265   -0.2  0.4142 -148.2
 6.300  0.0829 -109.6   3.085   -4.5  0.1280   -1.8  0.4165 -150.3
 6.400  0.0877 -109.8   3.020   -6.4  0.1288   -3.2  0.4199 -152.6
 6.500  0.0897 -109.6   2.952   -8.4  0.1303   -4.7  0.4222 -155.0
 6.600  0.0942 -110.7   2.887  -10.3  0.1318   -6.1  0.4259 -157.3
 6.700  0.0972 -110.4   2.824  -12.1  0.1329   -7.7  0.4300 -159.5
 6.800  0.1015 -111.0   2.761  -14.0  0.1339   -9.0  0.4337 -161.9
 6.900  0.1042 -111.6   2.698  -15.9  0.1348  -10.4  0.4382 -164.1
 7.000  0.1088 -112.7   2.640  -17.8  0.1364  -12.0  0.4418 -166.4
 7.100  0.1131 -113.6   2.581  -19.7  0.1374  -13.5  0.4467 -168.7
 7.200  0.1174 -114.6   2.524  -21.6  0.1382  -15.1  0.4500 -171.3
 7.300  0.1225 -115.8   2.467  -23.5  0.1391  -16.6  0.4561 -173.4
 7.400  0.1270 -116.4   2.409  -25.4  0.1397  -18.3  0.4600 -175.8
 7.500  0.1309 -118.2   2.356  -27.4  0.1413  -19.6  0.4650 -178.2
 7.600  0.1357 -119.5   2.305  -29.3  0.1419  -21.3  0.4694  179.3
 7.700  0.1397 -121.4   2.251  -31.4  0.1430  -23.0  0.4740  176.9
 7.800  0.1438 -123.0   2.199  -33.3  0.1436  -24.8  0.4781  174.6
 7.900  0.1481 -125.0   2.146  -35.4  0.1439  -26.4  0.4837  172.1
 8.000  0.1517 -127.1   2.094  -37.4  0.1445  -28.4  0.4871  169.7
 8.500  0.1751 -141.0   1.833  -48.1  0.1459  -37.5  0.5143  157.1
 9.000  0.2147 -159.1   1.565  -59.3  0.1443  -47.6  0.5517  144.1
 9.500  0.2889 -177.4   1.279  -70.6  0.1375  -58.2  0.6033  132.6
10.000  0.4004  167.8   0.991  -80.6  0.1261  -68.3  0.6650  123.7
!
!  f       NFmin   Gammaopt  rn/50
! GHz       dB    MAG  ANG    -
 0.450      0.59  0.14    2   0.09
 0.900      0.59  0.14    5   0.09
 1.500      0.61  0.15   13   0.09
 1.900      0.62  0.14   21   0.08
 2.400      0.63  0.12   27   0.08
 3.500      0.71  0.05  116   0.08
 4.000      0.74  0.06  139   0.08
 5.000      0.80  0.07 -173   0.08
 5.500      0.92  0.08 -153   0.09
 6.000      1.03  0.10 -143   0.09
!
! (c) 2012  Infineon Technologies AG, Munich
