! Infineon Technologies  Discrete & RF Semiconductors
! BFP843F
! VCE =  1.0 V,  IC =  25 mA
! Common Emitter S-Parameters:                            Aug 2013
# GHz  S  MA  R  50
!  f         S11            S21            S12            S22
! GHz     MAG   ANG      MAG   ANG      MAG   ANG      MAG   ANG
 0.030  0.3448 -103.2  27.568  156.5  0.0315   19.7  0.3618  -81.4
 0.040  0.2980 -117.6  25.278  158.5  0.0326   18.3  0.2789  -91.6
 0.050  0.2698 -125.9  23.925  161.9  0.0334   10.4  0.2319  -99.5
 0.060  0.2567 -134.8  23.263  163.2  0.0343   15.8  0.2006 -104.2
 0.070  0.2417 -141.1  22.728  164.3  0.0368   15.4  0.1778 -112.0
 0.080  0.2290 -146.7  22.447  165.1  0.0365   10.1  0.1616 -117.5
 0.090  0.2248 -149.5  22.256  165.4  0.0348    7.8  0.1405 -120.3
 0.100  0.2140 -154.0  21.977  165.9  0.0344    8.2  0.1295 -125.6
 0.110  0.2215 -156.3  21.884  166.2  0.0362    9.7  0.1237 -128.6
 0.120  0.2144 -159.3  21.738  166.3  0.0360   11.5  0.1134 -132.2
 0.130  0.2089 -161.1  21.621  166.5  0.0353    9.2  0.1097 -136.0
 0.140  0.2115 -163.0  21.498  166.4  0.0378    6.9  0.0992 -136.3
 0.150  0.2067 -164.0  21.459  166.4  0.0361    7.0  0.0989 -141.1
 0.200  0.1959 -170.2  21.036  165.6  0.0377    6.4  0.0817 -150.0
 0.250  0.1860 -173.8  20.817  164.5  0.0372    8.5  0.0699 -154.3
 0.300  0.1785 -174.5  20.559  163.2  0.0377    7.1  0.0625 -157.4
 0.350  0.1781 -175.5  20.299  161.8  0.0391    6.3  0.0578 -160.4
 0.400  0.1747 -174.6  20.086  160.4  0.0382    5.9  0.0568 -156.8
 0.450  0.1726 -174.3  19.901  159.0  0.0383    4.7  0.0570 -154.7
 0.500  0.1726 -173.4  19.726  157.5  0.0389    4.0  0.0567 -151.0
 0.600  0.1748 -171.7  19.376  154.4  0.0393    4.6  0.0596 -147.2
 0.700  0.1781 -170.5  19.014  151.3  0.0389    3.9  0.0670 -145.6
 0.800  0.1851 -169.2  18.685  148.2  0.0391    4.2  0.0746 -143.5
 0.900  0.1915 -168.9  18.338  145.0  0.0395    4.2  0.0824 -143.5
 1.000  0.1992 -168.2  17.975  142.1  0.0395    3.3  0.0923 -143.9
 1.100  0.2078 -168.0  17.619  139.1  0.0395    3.7  0.1008 -144.6
 1.200  0.2168 -168.0  17.267  136.2  0.0392    3.7  0.1108 -145.3
 1.300  0.2247 -169.0  16.875  133.2  0.0395    4.0  0.1196 -146.5
 1.400  0.2328 -168.9  16.491  130.4  0.0395    3.8  0.1284 -147.4
 1.500  0.2406 -169.4  16.116  127.8  0.0399    4.2  0.1382 -148.3
 1.600  0.2494 -170.3  15.774  125.0  0.0392    4.5  0.1480 -149.0
 1.700  0.2570 -170.9  15.394  122.3  0.0395    3.6  0.1560 -150.7
 1.800  0.2644 -171.6  14.996  119.8  0.0399    3.5  0.1656 -151.2
 1.900  0.2707 -172.5  14.628  117.5  0.0394    3.3  0.1746 -152.8
 2.000  0.2788 -173.1  14.341  114.9  0.0403    4.7  0.1833 -153.4
 2.100  0.2860 -174.3  13.961  112.4  0.0389    4.4  0.1918 -154.5
 2.200  0.2922 -175.1  13.594  110.3  0.0392    5.4  0.2018 -155.0
 2.300  0.2986 -175.8  13.280  108.1  0.0393    4.4  0.2090 -155.7
 2.400  0.3028 -176.4  12.967  105.9  0.0389    4.8  0.2177 -156.2
 2.500  0.3089 -177.5  12.628  103.7  0.0387    5.2  0.2241 -156.8
 2.600  0.3128 -178.3  12.329  101.7  0.0390    5.5  0.2314 -157.0
 2.700  0.3175 -179.2  12.017   99.8  0.0392    5.6  0.2367 -158.1
 2.800  0.3228 -179.5  11.745   97.9  0.0387    5.7  0.2442 -157.9
 2.900  0.3271  179.5  11.485   95.9  0.0388    6.1  0.2502 -158.6
 3.000  0.3302  178.6  11.209   94.1  0.0392    7.0  0.2570 -159.1
 3.100  0.3358  177.9  10.969   92.2  0.0385    7.3  0.2615 -159.5
 3.200  0.3384  176.8  10.712   90.3  0.0389    8.0  0.2680 -160.0
 3.300  0.3427  176.2  10.461   88.7  0.0388    8.0  0.2727 -160.4
 3.400  0.3464  175.0  10.241   86.9  0.0386    7.8  0.2782 -160.9
 3.500  0.3509  174.4  10.024   85.2  0.0385    7.8  0.2814 -161.2
 3.600  0.3549  173.5   9.813   83.5  0.0393    8.6  0.2862 -161.6
 3.700  0.3579  172.5   9.600   81.8  0.0390    8.8  0.2887 -162.2
 3.800  0.3618  171.6   9.401   80.2  0.0390    8.8  0.2932 -162.7
 3.900  0.3655  170.7   9.209   78.6  0.0394   10.4  0.2959 -163.4
 4.000  0.3689  170.0   9.019   77.0  0.0392   10.8  0.3003 -163.9
 4.100  0.3743  168.9   8.850   75.5  0.0398   10.5  0.3026 -164.7
 4.200  0.3757  168.2   8.675   73.9  0.0393   11.1  0.3058 -165.1
 4.300  0.3809  167.3   8.504   72.4  0.0394   11.4  0.3081 -166.0
 4.400  0.3852  166.4   8.337   71.0  0.0400   12.0  0.3113 -166.8
 4.500  0.3895  165.6   8.185   69.5  0.0402   11.9  0.3137 -167.4
 4.600  0.3936  164.6   8.036   67.9  0.0399   13.3  0.3169 -168.1
 4.700  0.3979  163.8   7.901   66.5  0.0403   13.1  0.3189 -169.1
 4.800  0.4011  163.0   7.745   65.0  0.0402   14.0  0.3213 -169.8
 4.900  0.4037  162.3   7.612   63.7  0.0405   13.9  0.3231 -170.6
 5.000  0.4090  161.3   7.486   62.1  0.0408   14.2  0.3254 -171.5
 5.100  0.4119  160.3   7.349   60.7  0.0408   14.3  0.3267 -172.5
 5.200  0.4165  159.5   7.224   59.3  0.0410   15.1  0.3301 -173.4
 5.300  0.4199  158.6   7.096   57.8  0.0410   15.4  0.3318 -174.4
 5.400  0.4241  157.8   6.984   56.4  0.0416   15.5  0.3344 -175.2
 5.500  0.4272  156.8   6.864   55.0  0.0414   16.0  0.3365 -176.2
 5.600  0.4319  156.0   6.760   53.7  0.0411   17.3  0.3388 -177.0
 5.700  0.4336  155.1   6.632   52.2  0.0424   16.4  0.3405 -178.1
 5.800  0.4379  154.0   6.531   50.8  0.0421   17.1  0.3427 -179.1
 5.900  0.4402  153.4   6.422   49.5  0.0424   17.3  0.3446  179.8
 6.000  0.4437  152.1   6.324   48.1  0.0429   17.9  0.3462  178.9
 6.100  0.4461  151.2   6.221   46.6  0.0431   17.4  0.3470  177.7
 6.200  0.4482  149.9   6.112   45.2  0.0432   18.0  0.3481  176.7
 6.300  0.4507  149.0   6.014   43.8  0.0434   18.1  0.3487  175.5
 6.400  0.4529  147.8   5.910   42.5  0.0434   18.9  0.3512  174.5
 6.500  0.4555  146.6   5.818   41.1  0.0439   19.4  0.3507  173.5
 6.600  0.4575  145.5   5.717   39.7  0.0440   19.8  0.3520  172.3
 6.700  0.4588  144.3   5.618   38.5  0.0443   20.6  0.3507  171.4
 6.800  0.4608  143.2   5.526   37.2  0.0446   21.1  0.3506  170.3
 6.900  0.4634  142.1   5.433   35.8  0.0451   21.9  0.3501  169.1
 7.000  0.4648  140.9   5.345   34.5  0.0458   22.0  0.3497  167.8
 7.100  0.4677  139.7   5.252   33.3  0.0460   22.7  0.3511  166.5
 7.200  0.4696  138.9   5.170   32.1  0.0467   23.5  0.3515  165.4
 7.300  0.4725  137.7   5.085   30.8  0.0474   23.6  0.3530  164.1
 7.400  0.4751  136.7   5.006   29.6  0.0484   23.8  0.3544  162.8
 7.500  0.4807  135.8   4.931   28.3  0.0495   24.0  0.3579  161.5
 7.600  0.4856  135.0   4.860   27.2  0.0503   24.1  0.3597  160.2
 7.700  0.4921  134.0   4.791   25.9  0.0507   24.1  0.3645  158.5
 7.800  0.4969  133.2   4.719   24.6  0.0520   24.3  0.3682  156.8
 7.900  0.5038  132.2   4.649   23.3  0.0526   23.6  0.3738  155.1
 8.000  0.5110  131.6   4.586   22.1  0.0538   23.4  0.3794  153.5
 8.500  0.5512  127.6   4.255   15.6  0.0565   21.3  0.4152  144.2
 9.000  0.5919  124.3   3.919    9.1  0.0589   20.0  0.4621  135.2
 9.500  0.6280  119.6   3.570    2.8  0.0600   18.4  0.5152  127.7
10.000  0.6499  116.2   3.212   -2.7  0.0614   17.1  0.5698  121.9
10.500  0.6725  113.0   2.930   -7.2  0.0623   16.2  0.6211  117.9
11.000  0.6954  109.0   2.688  -11.7  0.0628   15.6  0.6669  116.3
11.500  0.7120  105.7   2.467  -15.4  0.0628   15.9  0.6978  117.5
12.000  0.7184  103.3   2.254  -18.3  0.0643   16.7  0.7281  121.4
!
!  f       NFmin   Gammaopt  rn/50
! GHz       dB    MAG  ANG    -
 0.450      0.98  0.13  176   0.14
 0.900      0.99  0.14  178   0.15
 1.500      1.02  0.16 -175   0.15
 1.900      1.06  0.17 -172   0.15
 2.400      1.09  0.18 -168   0.16
 3.500      1.15  0.18 -165   0.21
 5.500      1.25  0.23 -141   0.27
10.000      1.76  0.40 -102   0.36
!
! (c) 2013  Infineon Technologies AG, Munich
