! Infineon Technologies  Discrete & RF Semiconductors
! BFP842ESD
! VCE =  2.5 V,  IC =  6.0 mA
! Common Emitter S-Parameters:                            May 2012
# GHz  S  MA  R  50
!  f         S11            S21            S12            S22
! GHz     MAG   ANG      MAG   ANG      MAG   ANG      MAG   ANG
 0.030  0.9294   -1.6  18.254  177.7  0.0037   23.8  1.0000   -1.0
 0.040  0.9255   -2.1  18.205  176.9  0.0018   46.9  0.9972   -1.2
 0.050  0.9216   -2.6  18.081  176.0  0.0047  130.1  0.9915   -1.8
 0.060  0.9233   -3.4  18.369  175.5  0.0037  127.6  0.9990   -2.3
 0.070  0.9222   -3.6  18.185  175.0  0.0057   63.0  0.9951   -2.8
 0.080  0.9236   -4.3  18.226  174.2  0.0046  115.5  0.9965   -3.1
 0.090  0.9231   -4.9  17.980  174.0  0.0054   99.6  0.9931   -3.7
 0.100  0.9232   -5.5  18.134  173.4  0.0038   81.6  0.9936   -4.1
 0.110  0.9211   -6.1  18.275  172.5  0.0043  111.2  0.9921   -4.4
 0.120  0.9214   -6.6  18.185  172.0  0.0036   80.6  0.9949   -4.9
 0.130  0.9203   -7.0  18.038  171.3  0.0066   80.5  0.9921   -5.3
 0.140  0.9179   -7.5  18.094  170.9  0.0077   77.4  0.9937   -5.7
 0.150  0.9146   -8.1  18.138  170.1  0.0064   77.9  0.9906   -6.0
 0.200  0.9120  -10.7  17.962  167.1  0.0072   77.5  0.9886   -8.2
 0.250  0.9028  -13.4  17.905  163.8  0.0108   80.6  0.9790  -10.2
 0.300  0.8934  -16.0  17.644  160.7  0.0119   76.7  0.9739  -12.2
 0.350  0.8843  -18.6  17.509  157.7  0.0141   76.4  0.9659  -14.3
 0.400  0.8720  -21.0  17.245  154.6  0.0159   77.5  0.9560  -16.0
 0.450  0.8585  -23.4  16.992  151.7  0.0170   73.4  0.9451  -17.9
 0.500  0.8461  -25.8  16.767  148.9  0.0190   71.5  0.9334  -19.8
 0.600  0.8158  -30.3  16.152  143.3  0.0225   70.9  0.9111  -23.1
 0.700  0.7849  -34.5  15.584  138.2  0.0254   65.4  0.8863  -26.3
 0.800  0.7516  -38.6  14.964  133.0  0.0288   65.6  0.8610  -29.3
 0.900  0.7192  -42.3  14.352  128.4  0.0317   61.6  0.8361  -32.2
 1.000  0.6864  -45.9  13.768  123.9  0.0341   60.0  0.8126  -34.8
 1.100  0.6543  -49.1  13.189  119.6  0.0363   58.1  0.7891  -37.3
 1.200  0.6248  -52.3  12.607  115.6  0.0388   56.1  0.7673  -39.5
 1.300  0.5955  -55.2  12.081  112.0  0.0409   54.8  0.7458  -41.8
 1.400  0.5681  -57.8  11.577  108.3  0.0430   53.1  0.7258  -43.8
 1.500  0.5426  -60.4  11.089  104.8  0.0451   51.9  0.7080  -45.9
 1.600  0.5184  -63.0  10.638  101.5  0.0470   50.3  0.6925  -47.8
 1.700  0.4932  -65.3  10.224   98.4  0.0487   48.8  0.6743  -49.7
 1.800  0.4736  -67.6   9.848   95.5  0.0507   48.5  0.6609  -51.6
 1.900  0.4528  -69.8   9.474   92.4  0.0526   46.5  0.6470  -53.4
 2.000  0.4329  -72.0   9.100   89.6  0.0542   45.7  0.6339  -55.2
 2.100  0.4127  -74.1   8.785   86.8  0.0563   44.6  0.6207  -57.1
 2.200  0.3969  -76.1   8.489   84.2  0.0572   43.4  0.6104  -58.9
 2.300  0.3793  -78.0   8.194   81.5  0.0592   42.6  0.5995  -60.5
 2.400  0.3648  -79.6   7.901   79.1  0.0616   40.8  0.5892  -62.4
 2.500  0.3470  -81.7   7.653   76.6  0.0630   40.5  0.5786  -64.3
 2.600  0.3329  -83.3   7.420   74.2  0.0643   39.5  0.5697  -65.9
 2.700  0.3172  -85.1   7.187   71.7  0.0664   38.6  0.5601  -67.8
 2.800  0.3039  -87.0   6.971   69.4  0.0687   37.7  0.5506  -69.6
 2.900  0.2907  -89.0   6.766   67.0  0.0701   36.6  0.5436  -71.7
 3.000  0.2778  -90.8   6.573   64.8  0.0725   36.1  0.5343  -73.6
 3.100  0.2651  -92.6   6.394   62.6  0.0743   34.9  0.5266  -75.6
 3.200  0.2538  -94.8   6.214   60.3  0.0753   34.0  0.5191  -77.7
 3.300  0.2419  -96.9   6.043   58.1  0.0768   32.8  0.5119  -79.8
 3.400  0.2301  -98.6   5.887   56.0  0.0792   31.8  0.5039  -82.0
 3.500  0.2202 -100.6   5.734   53.7  0.0807   30.8  0.4979  -84.2
 3.600  0.2088 -102.7   5.584   51.5  0.0827   29.7  0.4919  -86.4
 3.700  0.1991 -105.3   5.450   49.4  0.0846   28.1  0.4855  -88.7
 3.800  0.1895 -107.2   5.310   47.2  0.0856   27.4  0.4797  -91.0
 3.900  0.1792 -109.6   5.174   45.1  0.0872   26.3  0.4747  -93.3
 4.000  0.1709 -112.1   5.041   42.9  0.0891   25.1  0.4691  -95.7
 4.100  0.1622 -114.5   4.920   40.8  0.0914   23.6  0.4657  -98.0
 4.200  0.1556 -117.7   4.798   38.7  0.0925   22.8  0.4609 -100.5
 4.300  0.1487 -119.6   4.684   36.7  0.0937   21.7  0.4578 -102.9
 4.400  0.1424 -122.0   4.567   34.6  0.0957   20.5  0.4546 -105.2
 4.500  0.1356 -124.6   4.463   32.5  0.0971   19.5  0.4523 -107.7
 4.600  0.1310 -127.4   4.360   30.4  0.0983   18.3  0.4492 -110.1
 4.700  0.1262 -129.4   4.255   28.5  0.1004   17.0  0.4472 -112.4
 4.800  0.1226 -131.7   4.153   26.5  0.1016   15.9  0.4453 -114.7
 4.900  0.1183 -134.0   4.053   24.4  0.1030   14.5  0.4431 -117.0
 5.000  0.1142 -135.6   3.959   22.4  0.1048   13.3  0.4424 -119.3
 5.100  0.1112 -138.0   3.868   20.5  0.1061   12.2  0.4401 -121.5
 5.200  0.1088 -139.2   3.778   18.5  0.1074   10.9  0.4407 -123.7
 5.300  0.1066 -141.0   3.694   16.5  0.1088    9.7  0.4395 -125.9
 5.400  0.1047 -141.4   3.613   14.6  0.1101    8.5  0.4394 -128.0
 5.500  0.1020 -143.1   3.531   12.7  0.1113    7.3  0.4379 -130.1
 5.600  0.1009 -143.7   3.452   10.7  0.1127    6.2  0.4381 -132.4
 5.700  0.0991 -144.8   3.376    8.8  0.1142    4.5  0.4378 -134.5
 5.800  0.0999 -145.4   3.300    6.9  0.1156    3.5  0.4391 -136.6
 5.900  0.0982 -145.8   3.229    5.0  0.1162    2.5  0.4391 -138.7
 6.000  0.0988 -145.1   3.159    3.1  0.1176    1.3  0.4420 -141.0
 6.100  0.0979 -146.1   3.091    1.2  0.1188    0.2  0.4429 -143.1
 6.200  0.0986 -145.7   3.026   -0.8  0.1204   -1.3  0.4455 -145.5
 6.300  0.0995 -146.3   2.961   -2.6  0.1212   -2.5  0.4478 -147.6
 6.400  0.1002 -145.5   2.902   -4.6  0.1227   -3.8  0.4498 -149.8
 6.500  0.1005 -145.5   2.837   -6.6  0.1241   -5.1  0.4524 -152.2
 6.600  0.1015 -144.9   2.776   -8.6  0.1256   -6.6  0.4551 -154.5
 6.700  0.1019 -144.5   2.718  -10.5  0.1271   -7.9  0.4583 -156.8
 6.800  0.1025 -143.9   2.659  -12.4  0.1276   -9.4  0.4618 -159.0
 6.900  0.1038 -143.7   2.600  -14.3  0.1288  -10.6  0.4657 -161.2
 7.000  0.1057 -143.2   2.546  -16.3  0.1296  -12.1  0.4689 -163.5
 7.100  0.1080 -143.2   2.491  -18.3  0.1306  -13.5  0.4730 -165.9
 7.200  0.1100 -143.0   2.437  -20.2  0.1321  -15.1  0.4759 -168.4
 7.300  0.1130 -142.7   2.384  -22.2  0.1334  -16.6  0.4814 -170.5
 7.400  0.1149 -142.0   2.329  -24.2  0.1344  -17.8  0.4844 -172.9
 7.500  0.1171 -142.7   2.278  -26.2  0.1356  -19.5  0.4891 -175.3
 7.600  0.1204 -142.6   2.233  -28.2  0.1362  -21.0  0.4933 -177.8
 7.700  0.1231 -143.5   2.181  -30.2  0.1373  -22.7  0.4973  179.7
 7.800  0.1258 -144.5   2.132  -32.3  0.1378  -24.2  0.5004  177.3
 7.900  0.1286 -145.5   2.082  -34.4  0.1386  -26.0  0.5061  174.8
 8.000  0.1315 -146.5   2.032  -36.5  0.1394  -27.5  0.5087  172.5
 8.500  0.1525 -156.3   1.785  -47.5  0.1410  -36.8  0.5334  159.8
 9.000  0.1917 -170.2   1.530  -59.0  0.1398  -46.4  0.5678  146.6
 9.500  0.2658  175.8   1.257  -70.4  0.1342  -57.0  0.6167  134.7
10.000  0.3785  164.2   0.979  -80.9  0.1237  -67.2  0.6765  125.5
!
!  f       NFmin   Gammaopt  rn/50
! GHz       dB    MAG  ANG    -
 0.450      0.46  0.30    2   0.12
 0.900      0.48  0.31    9   0.11
 1.500      0.50  0.34   19   0.11
 1.900      0.52  0.33   26   0.10
 2.400      0.54  0.29   39   0.10
 3.500      0.64  0.21   81   0.08
 4.000      0.68  0.17  104   0.08
 5.000      0.73  0.17  122   0.07
 5.500      0.84  0.16  147   0.08
 6.000      0.97  0.14  161   0.08
!
! (c) 2012  Infineon Technologies AG, Munich
