! Infineon Technologies  Discrete & RF Semiconductors
! BFP842ESD
! VCE =  0.5 V,  IC =  5.0 mA
! Common Emitter S-Parameters:                            May 2012
# GHz  S  MA  R  50
!  f         S11            S21            S12            S22
! GHz     MAG   ANG      MAG   ANG      MAG   ANG      MAG   ANG
 0.030  0.9362   -1.6  15.569  178.2  0.0034  127.4  0.9929   -1.2
 0.040  0.9410   -2.1  15.551  177.4  0.0025  118.5  0.9934   -1.5
 0.050  0.9276   -2.7  15.477  176.4  0.0017  114.1  0.9879   -2.4
 0.060  0.9310   -3.4  15.723  175.9  0.0030   68.9  0.9963   -2.7
 0.070  0.9343   -3.6  15.573  175.5  0.0085   82.9  0.9959   -3.5
 0.080  0.9333   -4.4  15.614  174.6  0.0038   68.9  0.9894   -3.6
 0.090  0.9373   -5.0  15.431  174.4  0.0055   88.0  0.9920   -3.9
 0.100  0.9391   -5.6  15.570  173.7  0.0044   88.5  0.9921   -4.7
 0.110  0.9337   -6.2  15.696  172.7  0.0054   95.9  0.9910   -5.1
 0.120  0.9345   -6.8  15.604  172.4  0.0054   85.8  0.9917   -5.7
 0.130  0.9326   -7.3  15.484  171.6  0.0072  102.6  0.9888   -6.2
 0.140  0.9317   -7.9  15.531  171.1  0.0088   88.9  0.9886   -6.7
 0.150  0.9288   -8.3  15.582  170.4  0.0074   82.5  0.9882   -7.1
 0.200  0.9231  -11.1  15.445  167.4  0.0105   79.9  0.9836   -9.6
 0.250  0.9174  -13.8  15.409  164.1  0.0115   84.1  0.9768  -11.8
 0.300  0.9060  -16.6  15.192  160.9  0.0154   79.8  0.9719  -14.2
 0.350  0.8983  -19.2  15.075  157.9  0.0179   76.5  0.9613  -16.5
 0.400  0.8878  -21.7  14.859  154.8  0.0203   73.2  0.9522  -18.7
 0.450  0.8743  -24.3  14.662  151.9  0.0226   73.3  0.9406  -20.9
 0.500  0.8610  -26.8  14.496  149.0  0.0244   71.0  0.9286  -23.1
 0.600  0.8317  -31.5  13.973  143.5  0.0287   67.8  0.9048  -27.2
 0.700  0.8008  -36.0  13.499  138.3  0.0325   64.3  0.8786  -31.1
 0.800  0.7672  -40.4  12.998  133.0  0.0367   61.8  0.8512  -34.8
 0.900  0.7349  -44.4  12.485  128.3  0.0396   58.5  0.8235  -38.2
 1.000  0.7025  -48.3  11.991  123.6  0.0431   56.2  0.7966  -41.6
 1.100  0.6705  -51.9  11.494  119.3  0.0456   54.2  0.7706  -44.8
 1.200  0.6392  -55.5  11.001  115.1  0.0482   52.7  0.7456  -47.7
 1.300  0.6107  -58.8  10.551  111.3  0.0511   50.4  0.7217  -50.7
 1.400  0.5822  -61.7  10.116  107.5  0.0530   48.3  0.6991  -53.3
 1.500  0.5556  -64.7   9.695  103.9  0.0556   47.1  0.6786  -55.9
 1.600  0.5301  -67.6   9.299  100.5  0.0579   44.7  0.6595  -58.5
 1.700  0.5048  -70.4   8.939   97.3  0.0601   44.1  0.6393  -60.9
 1.800  0.4836  -73.1   8.608   94.2  0.0621   42.3  0.6230  -63.3
 1.900  0.4622  -75.7   8.279   91.0  0.0636   40.8  0.6058  -65.7
 2.000  0.4414  -78.3   7.951   88.1  0.0651   39.9  0.5893  -68.1
 2.100  0.4208  -80.7   7.668   85.1  0.0672   38.3  0.5746  -70.6
 2.200  0.4035  -83.1   7.405   82.4  0.0694   37.6  0.5617  -72.7
 2.300  0.3851  -85.4   7.142   79.6  0.0711   36.2  0.5491  -75.0
 2.400  0.3697  -87.6   6.885   77.0  0.0725   34.8  0.5356  -77.4
 2.500  0.3511  -90.2   6.660   74.4  0.0741   34.8  0.5227  -79.6
 2.600  0.3364  -92.3   6.456   71.9  0.0756   33.4  0.5127  -81.9
 2.700  0.3205  -94.6   6.240   69.4  0.0777   32.5  0.5010  -84.2
 2.800  0.3067  -96.9   6.050   66.9  0.0793   30.8  0.4905  -86.5
 2.900  0.2929  -99.5   5.863   64.5  0.0817   30.1  0.4824  -89.1
 3.000  0.2795 -101.7   5.690   62.2  0.0825   29.3  0.4716  -91.5
 3.100  0.2661 -104.2   5.529   59.8  0.0851   27.7  0.4628  -93.9
 3.200  0.2545 -106.8   5.364   57.5  0.0863   26.9  0.4542  -96.7
 3.300  0.2434 -109.3   5.208   55.2  0.0877   25.9  0.4466  -99.1
 3.400  0.2318 -112.1   5.067   52.9  0.0896   25.3  0.4376 -101.7
 3.500  0.2212 -114.7   4.925   50.6  0.0919   23.7  0.4315 -104.5
 3.600  0.2097 -117.3   4.787   48.4  0.0932   22.8  0.4244 -107.1
 3.700  0.2005 -120.5   4.666   46.2  0.0941   21.7  0.4202 -109.9
 3.800  0.1907 -123.3   4.537   43.9  0.0968   20.7  0.4141 -112.6
 3.900  0.1826 -126.3   4.413   41.8  0.0974   19.5  0.4087 -115.2
 4.000  0.1742 -129.7   4.293   39.6  0.0991   18.5  0.4044 -118.0
 4.100  0.1676 -132.7   4.183   37.5  0.1005   17.4  0.4011 -120.7
 4.200  0.1609 -136.1   4.072   35.3  0.1019   16.3  0.3975 -123.6
 4.300  0.1548 -139.0   3.969   33.3  0.1039   15.2  0.3956 -126.2
 4.400  0.1496 -142.1   3.865   31.2  0.1048   13.6  0.3926 -128.8
 4.500  0.1445 -145.5   3.769   29.1  0.1063   12.9  0.3912 -131.4
 4.600  0.1404 -148.4   3.676   27.0  0.1075   11.7  0.3899 -134.2
 4.700  0.1364 -151.3   3.584   25.1  0.1091   10.3  0.3892 -136.6
 4.800  0.1338 -154.0   3.494   23.1  0.1107    9.4  0.3882 -139.1
 4.900  0.1306 -156.6   3.405   21.0  0.1121    8.3  0.3870 -141.4
 5.000  0.1271 -159.0   3.322   19.0  0.1134    7.1  0.3875 -143.9
 5.100  0.1248 -161.7   3.241   17.1  0.1145    6.1  0.3863 -146.2
 5.200  0.1234 -163.4   3.164   15.2  0.1160    5.0  0.3870 -148.5
 5.300  0.1209 -165.5   3.089   13.2  0.1174    3.8  0.3865 -150.7
 5.400  0.1192 -166.7   3.019   11.3  0.1183    2.7  0.3877 -152.8
 5.500  0.1169 -168.6   2.948    9.4  0.1198    1.6  0.3868 -155.0
 5.600  0.1149 -169.7   2.879    7.5  0.1209    0.5  0.3879 -157.2
 5.700  0.1136 -171.1   2.812    5.6  0.1224   -0.6  0.3885 -159.4
 5.800  0.1136 -171.7   2.748    3.7  0.1230   -1.7  0.3909 -161.5
 5.900  0.1120 -172.5   2.687    1.8  0.1245   -3.0  0.3911 -163.6
 6.000  0.1114 -172.4   2.626    0.0  0.1253   -4.1  0.3945 -165.7
 6.100  0.1100 -173.4   2.569   -1.9  0.1277   -5.2  0.3961 -167.8
 6.200  0.1100 -173.6   2.512   -3.8  0.1287   -6.4  0.3996 -170.0
 6.300  0.1100 -174.0   2.458   -5.7  0.1298   -7.6  0.4020 -172.1
 6.400  0.1092 -173.4   2.407   -7.6  0.1308   -8.9  0.4049 -174.1
 6.500  0.1084 -173.7   2.352   -9.6  0.1324  -10.0  0.4080 -176.4
 6.600  0.1089 -172.9   2.300  -11.4  0.1339  -11.6  0.4115 -178.4
 6.700  0.1077 -172.9   2.251  -13.3  0.1349  -12.8  0.4159  179.5
 6.800  0.1073 -172.5   2.202  -15.3  0.1360  -13.9  0.4192  177.5
 6.900  0.1068 -172.3   2.153  -17.1  0.1369  -15.3  0.4239  175.7
 7.000  0.1076 -172.0   2.107  -19.1  0.1383  -16.8  0.4271  173.7
 7.100  0.1083 -171.3   2.061  -21.0  0.1396  -18.2  0.4317  171.7
 7.200  0.1091 -171.2   2.015  -22.9  0.1405  -19.5  0.4354  169.6
 7.300  0.1110 -170.4   1.972  -24.8  0.1421  -20.8  0.4413  167.8
 7.400  0.1114 -169.7   1.926  -26.8  0.1428  -22.3  0.4444  165.8
 7.500  0.1130 -170.0   1.884  -28.8  0.1437  -23.8  0.4489  163.8
 7.600  0.1147 -169.8   1.845  -30.8  0.1456  -25.4  0.4539  161.7
 7.700  0.1174 -170.0   1.802  -32.8  0.1464  -26.8  0.4586  159.7
 7.800  0.1194 -170.4   1.761  -34.8  0.1464  -28.4  0.4628  157.5
 7.900  0.1220 -171.1   1.719  -36.8  0.1475  -30.0  0.4690  155.3
 8.000  0.1242 -171.9   1.678  -38.9  0.1485  -31.7  0.4723  153.1
 8.500  0.1470 -178.8   1.472  -49.6  0.1505  -40.3  0.5010  142.0
 9.000  0.1917  171.8   1.260  -60.6  0.1499  -49.7  0.5400  130.7
 9.500  0.2699  162.4   1.039  -71.5  0.1451  -60.0  0.5901  121.2
10.000  0.3840  154.0   0.817  -81.2  0.1352  -69.7  0.6469  114.4
!
!  f       NFmin   Gammaopt  rn/50
! GHz       dB    MAG  ANG    -
 0.450      0.41  0.38    3   0.11
 0.900      0.43  0.40    8   0.11
 1.500      0.46  0.41   19   0.11
 1.900      0.48  0.39   29   0.11
 2.400      0.52  0.36   42   0.10
 3.500      0.63  0.26   79   0.08
 4.000      0.66  0.22  100   0.08
 5.000      0.72  0.20  119   0.07
 5.500      0.84  0.18  145   0.07
 6.000      0.97  0.16  155   0.08
!
! (c) 2012  Infineon Technologies AG, Munich
