! Infineon Technologies  Discrete & RF Semiconductors
! BFP843
! VCE =  1.5 V,  IC =  7.0 mA
! Common Emitter S-Parameters:                            Aug 2013
# GHz  S  MA  R  50
!  f         S11            S21            S12            S22
! GHz     MAG   ANG      MAG   ANG      MAG   ANG      MAG   ANG
 0.030  0.5324  -32.4  14.982  164.6  0.0497   32.3  0.5857  -29.7
 0.040  0.4556  -31.8  14.134  165.4  0.0524   24.9  0.5087  -29.6
 0.050  0.4135  -28.9  13.628  167.6  0.0519   21.5  0.4569  -27.4
 0.060  0.3839  -29.0  13.347  167.9  0.0595   20.5  0.4347  -26.6
 0.070  0.3565  -25.3  13.058  168.7  0.0537   15.4  0.4101  -24.0
 0.080  0.3481  -23.7  12.959  169.0  0.0546   14.5  0.3995  -23.7
 0.090  0.3372  -23.5  12.879  169.2  0.0560   13.4  0.3879  -21.7
 0.100  0.3314  -20.4  12.695  169.4  0.0582    9.7  0.3755  -20.2
 0.110  0.3244  -21.0  12.726  169.6  0.0568    9.9  0.3708  -19.3
 0.120  0.3214  -19.7  12.618  169.6  0.0555    8.4  0.3693  -18.9
 0.130  0.3174  -19.4  12.662  169.7  0.0588    8.4  0.3644  -18.0
 0.140  0.3103  -18.4  12.611  169.2  0.0573    7.1  0.3651  -17.4
 0.150  0.3126  -17.8  12.566  169.2  0.0574    7.9  0.3623  -17.1
 0.200  0.3105  -16.3  12.321  168.4  0.0589    5.2  0.3557  -16.3
 0.250  0.3073  -15.9  12.304  167.0  0.0572    5.3  0.3564  -16.8
 0.300  0.3100  -16.5  12.140  165.8  0.0582    2.3  0.3551  -18.0
 0.350  0.3052  -18.0  12.105  164.3  0.0584    2.5  0.3545  -19.1
 0.400  0.3054  -19.5  12.016  162.8  0.0595    2.0  0.3518  -20.8
 0.450  0.3028  -21.0  11.987  161.4  0.0589    1.5  0.3526  -22.5
 0.500  0.3060  -22.5  11.904  159.9  0.0595    0.4  0.3499  -24.4
 0.600  0.3008  -26.0  11.787  156.6  0.0586    0.1  0.3476  -28.0
 0.700  0.2971  -29.7  11.685  153.3  0.0602   -0.7  0.3458  -31.8
 0.800  0.2961  -33.3  11.520  150.1  0.0598   -1.0  0.3407  -36.2
 0.900  0.2912  -37.0  11.403  146.8  0.0596   -2.0  0.3373  -40.2
 1.000  0.2875  -40.9  11.252  143.6  0.0599   -2.2  0.3334  -44.5
 1.100  0.2833  -44.7  11.120  140.4  0.0603   -3.1  0.3322  -48.6
 1.200  0.2805  -48.8  10.953  137.2  0.0600   -4.1  0.3276  -52.9
 1.300  0.2753  -52.5  10.781  134.1  0.0598   -4.6  0.3234  -57.2
 1.400  0.2732  -56.8  10.633  131.1  0.0602   -5.1  0.3214  -61.1
 1.500  0.2683  -60.8  10.450  128.1  0.0599   -5.9  0.3171  -65.5
 1.600  0.2651  -64.7  10.291  125.0  0.0604   -6.6  0.3155  -69.6
 1.700  0.2609  -69.1  10.129  122.0  0.0602   -7.6  0.3112  -73.7
 1.800  0.2586  -73.1   9.937  119.2  0.0603   -8.0  0.3098  -78.0
 1.900  0.2531  -77.3   9.787  116.3  0.0599   -9.0  0.3068  -82.0
 2.000  0.2520  -81.6   9.612  113.4  0.0605   -9.1  0.3040  -86.1
 2.100  0.2494  -85.8   9.445  110.6  0.0596  -10.8  0.3030  -90.2
 2.200  0.2480  -89.7   9.250  108.0  0.0591  -10.7  0.2998  -94.1
 2.300  0.2455  -93.9   9.102  105.3  0.0588  -11.1  0.2975  -98.0
 2.400  0.2447  -97.9   8.941  102.6  0.0585  -12.8  0.2969 -101.8
 2.500  0.2405 -102.2   8.777   99.9  0.0583  -13.1  0.2960 -105.8
 2.600  0.2387 -106.0   8.621   97.4  0.0583  -13.4  0.2937 -109.4
 2.700  0.2385 -110.1   8.439   94.8  0.0578  -14.0  0.2920 -113.4
 2.800  0.2366 -114.3   8.290   92.3  0.0569  -14.9  0.2916 -117.2
 2.900  0.2367 -118.4   8.135   89.8  0.0568  -15.1  0.2910 -121.1
 3.000  0.2350 -122.8   7.999   87.2  0.0565  -16.6  0.2909 -124.7
 3.100  0.2372 -126.4   7.841   84.8  0.0559  -16.6  0.2907 -128.6
 3.200  0.2364 -130.7   7.698   82.4  0.0555  -17.2  0.2920 -132.2
 3.300  0.2368 -134.5   7.550   79.9  0.0551  -17.3  0.2928 -136.0
 3.400  0.2372 -139.0   7.424   77.6  0.0541  -18.3  0.2955 -139.4
 3.500  0.2391 -142.5   7.276   75.2  0.0533  -18.8  0.2966 -142.8
 3.600  0.2401 -146.3   7.141   72.9  0.0532  -18.7  0.3002 -146.1
 3.700  0.2425 -149.6   6.996   70.6  0.0520  -20.2  0.3012 -149.8
 3.800  0.2455 -153.9   6.875   68.3  0.0521  -20.6  0.3063 -152.6
 3.900  0.2474 -157.3   6.743   66.0  0.0508  -20.9  0.3094 -155.8
 4.000  0.2524 -160.7   6.613   63.8  0.0497  -20.2  0.3146 -158.7
 4.100  0.2565 -164.1   6.480   61.6  0.0493  -20.8  0.3185 -161.7
 4.200  0.2604 -167.2   6.360   59.5  0.0485  -21.1  0.3227 -164.4
 4.300  0.2666 -170.4   6.236   57.3  0.0476  -20.8  0.3283 -166.8
 4.400  0.2730 -173.8   6.118   55.2  0.0469  -21.1  0.3330 -169.2
 4.500  0.2783 -176.4   5.997   53.1  0.0459  -21.0  0.3384 -171.5
 4.600  0.2852 -179.0   5.878   51.0  0.0457  -20.6  0.3436 -173.7
 4.700  0.2915  178.3   5.784   48.9  0.0451  -20.5  0.3484 -175.9
 4.800  0.2995  175.9   5.668   46.9  0.0442  -19.8  0.3541 -177.8
 4.900  0.3049  173.8   5.566   45.0  0.0434  -20.1  0.3587 -179.8
 5.000  0.3132  171.5   5.466   42.9  0.0425  -19.7  0.3645  178.3
 5.100  0.3201  169.7   5.356   41.0  0.0421  -18.9  0.3683  176.3
 5.200  0.3273  167.8   5.264   39.0  0.0414  -18.4  0.3744  174.7
 5.300  0.3355  166.0   5.164   37.1  0.0410  -17.8  0.3785  172.9
 5.400  0.3415  164.0   5.081   35.1  0.0405  -17.6  0.3836  171.3
 5.500  0.3491  162.3   4.981   33.2  0.0400  -16.0  0.3879  169.5
 5.600  0.3553  161.0   4.899   31.4  0.0394  -14.8  0.3933  168.0
 5.700  0.3593  159.7   4.797   29.5  0.0391  -13.6  0.3965  166.2
 5.800  0.3673  158.1   4.719   27.7  0.0392  -13.5  0.4020  164.8
 5.900  0.3717  156.9   4.640   25.9  0.0384  -12.2  0.4067  163.1
 6.000  0.3781  155.2   4.566   24.1  0.0383  -10.7  0.4124  161.8
 6.100  0.3846  154.3   4.486   22.2  0.0384   -9.3  0.4171  160.1
 6.200  0.3903  152.8   4.411   20.4  0.0384   -7.8  0.4225  158.5
 6.300  0.3969  151.4   4.343   18.6  0.0392   -7.4  0.4277  157.0
 6.400  0.4021  150.0   4.271   16.8  0.0388   -5.6  0.4341  155.6
 6.500  0.4083  148.6   4.195   15.1  0.0396   -5.0  0.4390  154.0
 6.600  0.4128  147.0   4.134   13.2  0.0399   -4.1  0.4448  152.6
 6.700  0.4196  145.7   4.065   11.5  0.0401   -2.6  0.4504  151.1
 6.800  0.4227  143.9   4.013    9.7  0.0405   -2.3  0.4562  149.6
 6.900  0.4291  142.6   3.941    8.0  0.0412   -0.9  0.4613  148.1
 7.000  0.4315  140.7   3.886    6.2  0.0419    0.0  0.4686  146.6
 7.100  0.4392  139.2   3.821    4.4  0.0423    1.3  0.4739  145.1
 7.200  0.4434  137.5   3.770    2.7  0.0431    1.7  0.4802  143.7
 7.300  0.4502  135.8   3.714    0.8  0.0443    2.2  0.4859  142.2
 7.400  0.4553  134.0   3.665   -1.0  0.0451    3.1  0.4934  140.8
 7.500  0.4622  132.2   3.607   -2.8  0.0456    2.9  0.4991  139.3
 7.600  0.4695  130.4   3.559   -4.7  0.0467    3.2  0.5061  137.7
 7.700  0.4779  128.5   3.503   -6.6  0.0477    3.8  0.5133  136.0
 7.800  0.4848  126.8   3.452   -8.5  0.0486    3.7  0.5198  134.4
 7.900  0.4937  124.8   3.402  -10.4  0.0500    4.0  0.5271  132.8
 8.000  0.5016  123.1   3.351  -12.3  0.0509    4.2  0.5347  131.1
 8.500  0.5513  113.9   3.058  -22.4  0.0558    2.6  0.5747  122.3
 9.000  0.6026  103.0   2.743  -32.0  0.0601    0.0  0.6229  113.2
 9.500  0.6470   95.2   2.403  -40.0  0.0630   -1.9  0.6697  105.4
10.000  0.6878   90.1   2.125  -46.0  0.0658   -3.9  0.7119   99.9
10.500  0.7318   85.8   1.929  -51.8  0.0687   -5.3  0.7457   96.9
11.000  0.7583   82.1   1.758  -57.6  0.0725   -6.8  0.7812   95.1
11.500  0.7724   79.3   1.618  -62.8  0.0768   -9.2  0.8000   93.2
12.000  0.7778   77.5   1.497  -67.9  0.0817  -12.2  0.8120   90.4
!
!  f       NFmin   Gammaopt  rn/50
! GHz       dB    MAG  ANG    -
 0.450      0.91  0.12    7   0.01
 0.900      0.92  0.13   16   0.03
 1.500      0.95  0.12   26   0.09
 1.900      0.97  0.10   39   0.18
 2.400      1.01  0.09   49   0.25
 3.500      1.08  0.06   61   0.28
 5.500      1.24  0.14 -140   0.35
10.000      1.91  0.50  -70   0.42
!
! (c) 2013  Infineon Technologies AG, Munich
