! Infineon Technologies  Discrete & RF Semiconductors
! BFP843
! VCE =  0.5 V,  IC =  5.0 mA
! Common Emitter S-Parameters:                            Aug 2013
# GHz  S  MA  R  50
!  f         S11            S21            S12            S22
! GHz     MAG   ANG      MAG   ANG      MAG   ANG      MAG   ANG
 0.030  0.6178  -24.7  11.942  167.0  0.0517   34.6  0.6567  -23.2
 0.040  0.5514  -24.0  11.372  167.5  0.0565   25.4  0.5901  -23.1
 0.050  0.5157  -22.1  11.006  169.4  0.0548   24.5  0.5447  -21.7
 0.060  0.4843  -20.8  10.836  169.5  0.0600   19.8  0.5216  -20.8
 0.070  0.4644  -19.4  10.592  170.1  0.0620   15.8  0.5011  -19.3
 0.080  0.4536  -18.2  10.568  170.3  0.0614   17.1  0.4889  -18.8
 0.090  0.4415  -17.3  10.497  170.4  0.0611   13.8  0.4823  -17.7
 0.100  0.4374  -15.8  10.381  170.5  0.0652    9.1  0.4747  -16.7
 0.110  0.4327  -16.0  10.404  170.6  0.0634   11.6  0.4690  -16.2
 0.120  0.4283  -15.2  10.345  170.5  0.0622   10.9  0.4676  -16.1
 0.130  0.4290  -14.8  10.312  170.6  0.0618   10.0  0.4617  -15.7
 0.140  0.4219  -14.5  10.322  170.0  0.0632    7.9  0.4638  -15.2
 0.150  0.4253  -14.3  10.262  170.1  0.0638    8.7  0.4603  -15.3
 0.200  0.4172  -13.6  10.149  168.9  0.0642    6.5  0.4585  -15.6
 0.250  0.4163  -14.6  10.110  167.4  0.0645    5.3  0.4553  -16.8
 0.300  0.4168  -15.0  10.000  166.1  0.0640    3.8  0.4532  -18.2
 0.350  0.4147  -16.5   9.919  164.6  0.0635    3.3  0.4507  -20.0
 0.400  0.4122  -17.9   9.887  163.0  0.0646    3.3  0.4484  -21.9
 0.450  0.4118  -19.4   9.855  161.5  0.0645    2.9  0.4479  -24.2
 0.500  0.4098  -21.1   9.821  159.8  0.0651    2.0  0.4470  -26.3
 0.600  0.4054  -24.5   9.734  156.4  0.0658    1.8  0.4434  -30.6
 0.700  0.4030  -27.8   9.587  153.0  0.0658    1.0  0.4381  -35.0
 0.800  0.3961  -31.4   9.528  149.6  0.0663    0.9  0.4362  -39.5
 0.900  0.3926  -34.9   9.389  146.2  0.0672    0.2  0.4305  -44.0
 1.000  0.3884  -38.4   9.259  142.9  0.0676   -0.5  0.4262  -48.6
 1.100  0.3841  -42.0   9.124  139.7  0.0680   -1.1  0.4211  -53.4
 1.200  0.3795  -45.7   8.975  136.4  0.0683   -1.8  0.4174  -57.9
 1.300  0.3704  -49.5   8.879  133.1  0.0686   -2.3  0.4147  -62.2
 1.400  0.3687  -53.1   8.719  130.1  0.0686   -2.9  0.4105  -66.7
 1.500  0.3625  -56.9   8.575  127.1  0.0691   -3.7  0.4074  -71.2
 1.600  0.3563  -60.7   8.454  123.9  0.0699   -4.2  0.4052  -75.5
 1.700  0.3526  -64.3   8.292  120.9  0.0695   -5.3  0.4004  -79.8
 1.800  0.3471  -68.1   8.146  118.0  0.0692   -6.5  0.3987  -84.2
 1.900  0.3443  -71.6   7.970  115.1  0.0702   -6.7  0.3929  -88.7
 2.000  0.3400  -75.7   7.847  112.1  0.0700   -7.8  0.3916  -92.9
 2.100  0.3350  -79.5   7.700  109.3  0.0699   -8.4  0.3882  -97.0
 2.200  0.3308  -83.3   7.563  106.6  0.0702  -10.0  0.3890 -100.9
 2.300  0.3276  -86.9   7.426  103.8  0.0703  -10.2  0.3848 -105.0
 2.400  0.3250  -90.6   7.279  101.2  0.0702  -11.1  0.3843 -108.9
 2.500  0.3201  -94.4   7.138   98.4  0.0702  -12.0  0.3816 -113.1
 2.600  0.3173  -98.0   7.006   95.8  0.0697  -13.5  0.3806 -116.8
 2.700  0.3124 -101.9   6.879   93.2  0.0694  -13.8  0.3791 -120.7
 2.800  0.3111 -105.6   6.743   90.7  0.0695  -15.0  0.3790 -124.4
 2.900  0.3083 -109.6   6.622   88.1  0.0694  -15.6  0.3780 -128.2
 3.000  0.3066 -113.1   6.477   85.6  0.0688  -17.1  0.3770 -132.2
 3.100  0.3034 -117.4   6.384   83.0  0.0686  -17.6  0.3783 -135.7
 3.200  0.3019 -121.0   6.250   80.6  0.0678  -18.2  0.3783 -139.4
 3.300  0.3009 -124.9   6.130   78.1  0.0672  -19.1  0.3802 -143.0
 3.400  0.3005 -128.5   6.001   75.8  0.0667  -19.5  0.3807 -146.6
 3.500  0.3005 -132.3   5.892   73.3  0.0655  -21.1  0.3831 -149.8
 3.600  0.2998 -136.1   5.772   70.9  0.0654  -21.9  0.3851 -153.2
 3.700  0.2996 -139.8   5.671   68.6  0.0648  -22.1  0.3890 -156.3
 3.800  0.3011 -143.6   5.560   66.3  0.0637  -23.1  0.3920 -159.4
 3.900  0.3025 -147.1   5.437   64.0  0.0635  -23.5  0.3941 -162.5
 4.000  0.3047 -150.5   5.330   61.7  0.0623  -24.0  0.3992 -165.3
 4.100  0.3068 -154.3   5.231   59.5  0.0611  -24.9  0.4028 -168.1
 4.200  0.3101 -157.6   5.128   57.3  0.0605  -25.5  0.4077 -170.6
 4.300  0.3142 -161.1   5.024   55.1  0.0600  -25.2  0.4119 -173.2
 4.400  0.3199 -164.2   4.912   53.0  0.0590  -26.0  0.4156 -175.6
 4.500  0.3240 -167.2   4.815   50.9  0.0581  -26.0  0.4200 -177.9
 4.600  0.3296 -170.6   4.732   48.8  0.0569  -27.0  0.4251 -179.9
 4.700  0.3350 -173.1   4.640   46.7  0.0561  -27.2  0.4291  177.7
 4.800  0.3421 -176.1   4.550   44.6  0.0561  -26.7  0.4344  175.8
 4.900  0.3475 -178.5   4.456   42.7  0.0542  -27.2  0.4373  173.9
 5.000  0.3541  179.0   4.371   40.6  0.0540  -27.0  0.4419  171.9
 5.100  0.3607  176.5   4.288   38.6  0.0530  -27.9  0.4463  170.1
 5.200  0.3676  174.4   4.206   36.7  0.0516  -27.4  0.4505  168.4
 5.300  0.3743  172.2   4.123   34.7  0.0512  -27.1  0.4545  166.6
 5.400  0.3806  170.4   4.044   32.8  0.0504  -26.8  0.4579  164.8
 5.500  0.3875  168.3   3.966   30.8  0.0498  -27.0  0.4619  163.1
 5.600  0.3938  166.6   3.900   29.0  0.0487  -26.5  0.4654  161.6
 5.700  0.3974  164.8   3.822   27.1  0.0482  -25.8  0.4697  159.9
 5.800  0.4041  163.0   3.752   25.3  0.0473  -25.9  0.4734  158.4
 5.900  0.4095  161.9   3.683   23.6  0.0470  -24.3  0.4778  156.7
 6.000  0.4153  160.0   3.618   21.8  0.0463  -23.8  0.4822  155.2
 6.100  0.4208  158.5   3.558   19.9  0.0459  -23.0  0.4863  153.6
 6.200  0.4264  156.7   3.498   18.1  0.0453  -22.3  0.4908  152.0
 6.300  0.4331  155.4   3.429   16.3  0.0453  -21.3  0.4945  150.5
 6.400  0.4375  153.7   3.376   14.5  0.0450  -20.9  0.5002  149.0
 6.500  0.4431  151.9   3.322   12.8  0.0449  -20.7  0.5045  147.5
 6.600  0.4470  150.4   3.264   11.0  0.0446  -19.1  0.5089  146.0
 6.700  0.4528  148.8   3.212    9.3  0.0449  -18.3  0.5141  144.6
 6.800  0.4568  147.2   3.155    7.5  0.0447  -17.5  0.5179  143.0
 6.900  0.4620  145.6   3.105    5.8  0.0444  -16.1  0.5227  141.6
 7.000  0.4650  143.7   3.056    4.0  0.0447  -15.5  0.5286  140.1
 7.100  0.4708  141.8   3.014    2.2  0.0451  -14.7  0.5345  138.8
 7.200  0.4751  140.1   2.965    0.5  0.0453  -13.8  0.5388  137.3
 7.300  0.4815  138.2   2.923   -1.4  0.0461  -13.3  0.5442  135.8
 7.400  0.4862  136.5   2.873   -3.1  0.0460  -12.7  0.5494  134.4
 7.500  0.4924  134.5   2.830   -4.9  0.0468  -12.1  0.5551  132.9
 7.600  0.4988  132.5   2.791   -6.8  0.0473  -11.3  0.5611  131.3
 7.700  0.5063  130.5   2.750   -8.8  0.0481  -11.4  0.5675  129.7
 7.800  0.5136  128.8   2.702  -10.6  0.0487  -11.2  0.5724  128.1
 7.900  0.5213  126.6   2.662  -12.5  0.0494  -10.3  0.5794  126.5
 8.000  0.5292  124.8   2.619  -14.4  0.0497  -10.4  0.5860  124.9
 8.500  0.5750  114.9   2.388  -24.3  0.0527  -10.1  0.6202  116.4
 9.000  0.6209  103.8   2.127  -33.7  0.0559  -10.3  0.6606  107.8
 9.500  0.6606   96.0   1.850  -41.4  0.0578  -11.4  0.6993  100.6
10.000  0.6983   90.7   1.637  -47.0  0.0602  -11.4  0.7345   95.6
10.500  0.7403   86.3   1.491  -52.4  0.0624  -12.2  0.7631   93.0
11.000  0.7659   82.5   1.359  -57.9  0.0662  -12.5  0.7934   91.7
11.500  0.7799   79.8   1.246  -62.9  0.0705  -14.4  0.8086   89.9
12.000  0.7842   77.8   1.156  -67.7  0.0752  -16.2  0.8188   87.3
!
!  f       NFmin   Gammaopt  rn/50
! GHz       dB    MAG  ANG    -
 0.450      0.94  0.18    8   0.01
 0.900      0.95  0.19   17   0.03
 1.500      0.98  0.18   28   0.10
 1.900      1.01  0.16   40   0.18
 2.400      1.06  0.14   49   0.26
 3.500      1.14  0.11   64   0.30
 5.500      1.29  0.13 -156   0.38
10.000      2.08  0.51  -74   0.44
!
! (c) 2013  Infineon Technologies AG, Munich
