! Infineon Technologies  Discrete & RF Semiconductors
! BFP843
! VCE =  1.0 V,  IC =  55 mA
! Common Emitter S-Parameters:                            Aug 2013
# GHz  S  MA  R  50
!  f         S11            S21            S12            S22
! GHz     MAG   ANG      MAG   ANG      MAG   ANG      MAG   ANG
 0.030  0.2751 -153.2  10.970  167.0  0.0202   29.8  0.1464 -135.2
 0.040  0.2976 -157.6  10.484  166.7  0.0211   23.0  0.1604 -147.8
 0.050  0.3060 -160.1  10.223  167.6  0.0207   21.2  0.1685 -155.6
 0.060  0.3198 -162.3  10.036  166.8  0.0251   18.0  0.1691 -159.8
 0.070  0.3189 -163.6   9.831  166.9  0.0238    4.6  0.1701 -165.1
 0.080  0.3220 -164.2   9.789  166.3  0.0213   21.6  0.1697 -166.9
 0.090  0.3286 -164.1   9.715  165.6  0.0262   18.1  0.1731 -168.1
 0.100  0.3276 -164.9   9.640  165.1  0.0262   14.0  0.1713 -172.8
 0.110  0.3350 -164.3   9.588  164.2  0.0249   13.3  0.1709 -173.2
 0.120  0.3335 -164.5   9.519  163.6  0.0245   15.3  0.1691 -175.1
 0.130  0.3376 -164.4   9.506  163.0  0.0264   11.3  0.1667 -177.2
 0.140  0.3424 -164.6   9.431  162.0  0.0251   13.4  0.1640 -179.0
 0.150  0.3414 -163.7   9.395  161.1  0.0270    8.7  0.1643 -179.0
 0.200  0.3565 -162.3   9.116  157.2  0.0276   13.1  0.1570  177.4
 0.250  0.3767 -161.2   8.919  152.8  0.0264   14.0  0.1511  175.5
 0.300  0.3994 -159.9   8.637  148.9  0.0274   11.7  0.1467  174.5
 0.350  0.4244 -159.7   8.363  144.9  0.0280   12.5  0.1436  172.7
 0.400  0.4493 -159.6   8.092  141.2  0.0287   10.1  0.1408  173.5
 0.450  0.4737 -160.0   7.852  137.6  0.0278   11.0  0.1389  173.4
 0.500  0.4967 -161.0   7.593  134.1  0.0280   10.8  0.1373  173.5
 0.600  0.5386 -163.3   7.071  127.5  0.0282   10.2  0.1367  173.7
 0.700  0.5745 -166.1   6.585  121.4  0.0285   11.2  0.1354  174.6
 0.800  0.6049 -168.7   6.134  116.1  0.0294   12.2  0.1347  175.7
 0.900  0.6310 -171.7   5.722  110.9  0.0286   14.0  0.1375  176.1
 1.000  0.6525 -174.5   5.345  106.3  0.0295   14.1  0.1397  176.9
 1.100  0.6717 -177.3   5.007  102.1  0.0305   15.3  0.1437  177.7
 1.200  0.6883 -180.0   4.696   98.0  0.0303   15.4  0.1475  178.3
 1.300  0.7001  177.3   4.414   94.3  0.0307   15.8  0.1510  178.8
 1.400  0.7126  175.0   4.163   90.8  0.0305   16.6  0.1545  178.9
 1.500  0.7227  172.6   3.929   87.4  0.0316   18.0  0.1595  179.0
 1.600  0.7318  170.3   3.723   84.2  0.0314   18.7  0.1645  179.0
 1.700  0.7394  168.1   3.529   81.0  0.0326   19.0  0.1695  178.6
 1.800  0.7466  165.9   3.350   78.1  0.0331   19.1  0.1749  178.4
 1.900  0.7527  163.8   3.187   75.3  0.0331   21.4  0.1807  177.6
 2.000  0.7591  161.9   3.042   72.5  0.0337   21.3  0.1859  177.1
 2.100  0.7633  159.9   2.900   69.9  0.0350   21.6  0.1915  176.8
 2.200  0.7687  158.1   2.775   67.4  0.0355   22.0  0.1975  176.4
 2.300  0.7740  156.2   2.659   64.8  0.0357   22.3  0.2033  175.3
 2.400  0.7763  154.3   2.549   62.3  0.0371   22.5  0.2088  174.6
 2.500  0.7806  152.4   2.445   59.9  0.0371   21.8  0.2152  173.5
 2.600  0.7823  150.6   2.350   57.6  0.0372   23.6  0.2211  172.6
 2.700  0.7861  148.9   2.257   55.3  0.0392   24.5  0.2273  171.2
 2.800  0.7884  147.1   2.171   53.0  0.0390   24.3  0.2332  170.4
 2.900  0.7927  145.4   2.093   50.7  0.0402   23.6  0.2409  169.0
 3.000  0.7946  143.7   2.017   48.5  0.0409   24.7  0.2478  167.7
 3.100  0.7991  142.1   1.948   46.4  0.0420   24.6  0.2557  166.5
 3.200  0.8007  140.4   1.879   44.2  0.0419   24.4  0.2634  165.1
 3.300  0.8032  138.7   1.813   42.1  0.0432   24.7  0.2708  164.0
 3.400  0.8065  137.2   1.753   40.1  0.0440   24.7  0.2782  162.9
 3.500  0.8078  135.6   1.696   38.1  0.0445   24.4  0.2867  161.6
 3.600  0.8106  134.1   1.639   36.1  0.0453   25.1  0.2944  160.5
 3.700  0.8132  132.5   1.588   34.1  0.0467   25.1  0.3020  159.2
 3.800  0.8164  131.0   1.539   32.2  0.0468   24.3  0.3107  158.2
 3.900  0.8178  129.5   1.489   30.3  0.0480   24.0  0.3174  156.8
 4.000  0.8203  128.2   1.443   28.4  0.0492   23.8  0.3272  155.9
 4.100  0.8227  126.7   1.399   26.6  0.0500   24.1  0.3350  154.7
 4.200  0.8243  125.4   1.358   24.8  0.0503   23.4  0.3429  153.7
 4.300  0.8275  124.1   1.317   23.1  0.0512   23.7  0.3509  152.8
 4.400  0.8303  122.9   1.278   21.4  0.0521   23.3  0.3583  151.7
 4.500  0.8313  121.7   1.242   19.7  0.0534   22.6  0.3659  150.8
 4.600  0.8342  120.5   1.208   18.1  0.0538   22.6  0.3736  149.9
 4.700  0.8359  119.3   1.177   16.3  0.0551   22.0  0.3814  148.7
 4.800  0.8390  118.3   1.144   14.8  0.0555   21.6  0.3883  147.9
 4.900  0.8389  117.3   1.114   13.2  0.0565   21.6  0.3943  146.8
 5.000  0.8414  116.2   1.087   11.6  0.0576   21.3  0.4018  145.9
 5.100  0.8431  115.2   1.058   10.1  0.0585   20.6  0.4081  144.8
 5.200  0.8444  114.3   1.033    8.6  0.0598   20.4  0.4148  143.9
 5.300  0.8465  113.4   1.008    7.1  0.0605   19.9  0.4212  142.8
 5.400  0.8462  112.5   0.984    5.5  0.0612   19.7  0.4261  141.7
 5.500  0.8483  111.5   0.961    3.9  0.0620   19.1  0.4324  140.6
 5.600  0.8486  110.8   0.940    2.6  0.0633   18.8  0.4376  139.7
 5.700  0.8469  109.8   0.918    1.2  0.0639   18.3  0.4437  138.5
 5.800  0.8489  109.0   0.897   -0.3  0.0655   17.8  0.4498  137.5
 5.900  0.8485  108.2   0.880   -1.7  0.0664   17.5  0.4559  136.4
 6.000  0.8496  107.2   0.860   -3.1  0.0673   16.6  0.4616  135.4
 6.100  0.8504  106.4   0.843   -4.7  0.0686   16.1  0.4676  134.0
 6.200  0.8515  105.4   0.825   -6.2  0.0697   15.5  0.4730  132.9
 6.300  0.8520  104.6   0.808   -7.5  0.0703   15.2  0.4787  131.8
 6.400  0.8518  103.6   0.793   -9.1  0.0716   14.3  0.4847  130.7
 6.500  0.8536  102.6   0.777  -10.3  0.0724   13.6  0.4898  129.5
 6.600  0.8538  101.4   0.762  -11.9  0.0735   12.7  0.4955  128.4
 6.700  0.8556  100.6   0.747  -13.2  0.0744   12.2  0.5014  127.3
 6.800  0.8559   99.3   0.733  -14.8  0.0758   11.2  0.5065  126.0
 6.900  0.8564   98.4   0.719  -16.1  0.0768   10.5  0.5121  124.8
 7.000  0.8563   97.1   0.706  -17.6  0.0771    9.2  0.5192  123.7
 7.100  0.8590   96.0   0.692  -19.0  0.0781    8.4  0.5241  122.6
 7.200  0.8593   94.8   0.680  -20.4  0.0792    7.8  0.5301  121.4
 7.300  0.8619   93.5   0.667  -22.0  0.0803    6.9  0.5359  120.2
 7.400  0.8637   92.4   0.656  -23.4  0.0816    6.0  0.5417  119.0
 7.500  0.8652   91.1   0.643  -24.9  0.0819    4.9  0.5474  117.7
 7.600  0.8680   89.9   0.632  -26.4  0.0828    4.0  0.5536  116.4
 7.700  0.8709   88.6   0.619  -28.0  0.0838    2.8  0.5603  115.1
 7.800  0.8732   87.4   0.607  -29.5  0.0838    2.1  0.5662  113.8
 7.900  0.8767   86.1   0.596  -31.0  0.0850    0.9  0.5732  112.4
 8.000  0.8784   84.9   0.584  -32.5  0.0856    0.0  0.5791  111.0
 8.500  0.8928   78.7   0.521  -40.1  0.0869   -5.3  0.6127  103.6
 9.000  0.9001   70.1   0.457  -46.5  0.0868  -10.2  0.6509   96.4
 9.500  0.9000   65.8   0.399  -50.6  0.0853  -13.2  0.6867   90.7
10.000  0.9083   63.2   0.359  -53.3  0.0848  -15.3  0.7182   86.9
10.500  0.9248   60.7   0.333  -56.6  0.0855  -16.8  0.7430   85.2
11.000  0.9268   58.4   0.308  -59.7  0.0869  -18.3  0.7666   84.6
11.500  0.9214   56.8   0.290  -62.3  0.0905  -20.7  0.7793   83.4
12.000  0.9134   55.5   0.275  -65.1  0.0937  -24.0  0.7859   81.2
!
!  f       NFmin   Gammaopt  rn/50
! GHz       dB    MAG  ANG    -
!
! noise parameter not available yet for this operation point!
!
! (c) 2013  Infineon Technologies AG, Munich
