! Infineon Technologies  Discrete & RF Semiconductors
! BFP843F
! VCE =  0.5 V,  IC =  6.0 mA
! Common Emitter S-Parameters:                            Aug 2013
# GHz  S  MA  R  50
!  f         S11            S21            S12            S22
! GHz     MAG   ANG      MAG   ANG      MAG   ANG      MAG   ANG
 0.030  0.5693  -29.5  13.642  166.1  0.0523   34.4  0.6158  -28.0
 0.040  0.4962  -29.8  12.954  166.6  0.0560   26.4  0.5414  -27.6
 0.050  0.4534  -27.9  12.446  168.8  0.0582   19.2  0.4974  -27.1
 0.060  0.4153  -27.5  12.273  169.6  0.0610   18.4  0.4674  -25.6
 0.070  0.3971  -24.9  12.076  169.9  0.0585   15.7  0.4422  -23.8
 0.080  0.3840  -23.1  11.975  170.2  0.0609   15.6  0.4293  -22.9
 0.090  0.3759  -21.9  11.922  170.2  0.0574   13.9  0.4185  -21.5
 0.100  0.3676  -20.1  11.736  170.4  0.0608   13.0  0.4077  -20.4
 0.110  0.3592  -20.8  11.790  170.7  0.0609    9.0  0.4053  -19.5
 0.120  0.3565  -19.3  11.713  170.6  0.0601   10.9  0.4028  -18.9
 0.130  0.3530  -18.7  11.707  170.6  0.0623    9.5  0.3993  -18.5
 0.140  0.3436  -18.5  11.674  170.3  0.0604    8.4  0.3976  -18.0
 0.150  0.3469  -18.2  11.655  170.5  0.0605    7.0  0.3913  -18.1
 0.200  0.3415  -16.9  11.473  169.4  0.0616    5.9  0.3874  -18.0
 0.250  0.3390  -16.7  11.431  168.2  0.0613    6.6  0.3857  -18.6
 0.300  0.3391  -17.8  11.363  166.9  0.0621    5.0  0.3840  -20.3
 0.350  0.3361  -19.0  11.296  165.5  0.0616    3.4  0.3851  -21.8
 0.400  0.3354  -20.7  11.239  164.1  0.0624    4.0  0.3801  -24.1
 0.450  0.3353  -22.1  11.147  162.7  0.0613    4.0  0.3825  -26.3
 0.500  0.3349  -23.8  11.100  161.4  0.0636    3.4  0.3819  -28.4
 0.600  0.3335  -27.5  10.985  158.3  0.0637    3.0  0.3809  -33.0
 0.700  0.3287  -31.5  10.884  155.3  0.0640    2.6  0.3782  -37.7
 0.800  0.3281  -35.3  10.725  152.2  0.0640    2.3  0.3750  -42.7
 0.900  0.3248  -39.3  10.599  149.1  0.0650    1.4  0.3727  -47.4
 1.000  0.3212  -43.3  10.469  146.2  0.0650    1.2  0.3702  -52.4
 1.100  0.3194  -46.9  10.298  143.3  0.0660    1.1  0.3700  -57.3
 1.200  0.3170  -50.9  10.150  140.4  0.0654    0.3  0.3676  -62.3
 1.300  0.3142  -54.7   9.948  137.4  0.0663   -0.1  0.3676  -66.9
 1.400  0.3135  -58.6   9.770  134.7  0.0667   -0.6  0.3693  -71.5
 1.500  0.3105  -62.5   9.609  132.1  0.0668   -0.7  0.3697  -76.2
 1.600  0.3084  -66.2   9.440  129.3  0.0662   -1.5  0.3720  -80.7
 1.700  0.3084  -70.1   9.261  126.6  0.0675   -2.5  0.3735  -84.9
 1.800  0.3083  -73.3   9.029  124.1  0.0673   -2.2  0.3765  -89.1
 1.900  0.3068  -76.8   8.857  121.7  0.0671   -3.0  0.3782  -93.4
 2.000  0.3081  -80.2   8.704  119.1  0.0672   -3.0  0.3826  -97.4
 2.100  0.3071  -84.0   8.524  116.6  0.0674   -4.3  0.3865 -101.0
 2.200  0.3074  -87.1   8.313  114.3  0.0669   -5.0  0.3925 -104.7
 2.300  0.3085  -90.3   8.145  112.1  0.0674   -5.3  0.3964 -107.7
 2.400  0.3102  -93.0   7.973  109.8  0.0672   -5.8  0.4020 -110.8
 2.500  0.3109  -96.0   7.786  107.5  0.0675   -6.2  0.4058 -113.6
 2.600  0.3117  -98.8   7.633  105.5  0.0669   -7.3  0.4112 -116.4
 2.700  0.3147 -101.7   7.451  103.5  0.0662   -6.7  0.4140 -118.9
 2.800  0.3168 -104.1   7.301  101.6  0.0667   -7.5  0.4210 -121.1
 2.900  0.3205 -106.6   7.139   99.6  0.0664   -8.3  0.4252 -123.5
 3.000  0.3217 -109.1   6.993   97.7  0.0660   -8.4  0.4307 -125.7
 3.100  0.3245 -111.6   6.859   95.7  0.0657   -9.1  0.4343 -127.8
 3.200  0.3262 -114.1   6.719   93.9  0.0657   -9.0  0.4395 -129.8
 3.300  0.3295 -116.2   6.567   92.1  0.0647  -10.3  0.4427 -131.6
 3.400  0.3314 -118.7   6.448   90.3  0.0648  -10.4  0.4477 -133.4
 3.500  0.3341 -120.9   6.326   88.6  0.0648  -10.9  0.4497 -135.1
 3.600  0.3371 -123.3   6.215   86.8  0.0643  -11.3  0.4534 -136.7
 3.700  0.3397 -125.5   6.085   85.1  0.0633  -11.6  0.4548 -138.3
 3.800  0.3434 -127.5   5.974   83.4  0.0638  -12.0  0.4589 -139.7
 3.900  0.3462 -129.6   5.857   81.8  0.0636  -12.4  0.4606 -141.4
 4.000  0.3498 -131.7   5.758   80.1  0.0625  -12.3  0.4625 -143.1
 4.100  0.3528 -134.0   5.663   78.5  0.0624  -13.3  0.4634 -144.5
 4.200  0.3553 -135.9   5.562   76.9  0.0620  -13.6  0.4668 -146.0
 4.300  0.3599 -137.8   5.452   75.4  0.0617  -14.0  0.4674 -147.4
 4.400  0.3630 -140.0   5.362   73.8  0.0609  -14.2  0.4691 -148.9
 4.500  0.3667 -141.9   5.271   72.3  0.0607  -14.7  0.4706 -150.2
 4.600  0.3699 -144.0   5.190   70.6  0.0604  -14.7  0.4722 -151.7
 4.700  0.3746 -145.8   5.117   69.1  0.0601  -14.9  0.4732 -153.2
 4.800  0.3788 -147.6   5.014   67.5  0.0595  -15.1  0.4749 -154.6
 4.900  0.3824 -149.4   4.942   66.1  0.0588  -15.8  0.4747 -156.0
 5.000  0.3858 -151.3   4.876   64.5  0.0585  -16.0  0.4761 -157.4
 5.100  0.3896 -153.2   4.792   63.0  0.0583  -15.8  0.4755 -159.0
 5.200  0.3946 -154.9   4.718   61.5  0.0575  -16.4  0.4787 -160.3
 5.300  0.3978 -156.5   4.636   59.9  0.0570  -16.6  0.4785 -161.8
 5.400  0.4019 -158.3   4.572   58.4  0.0562  -16.7  0.4801 -163.1
 5.500  0.4049 -160.0   4.502   56.9  0.0560  -17.1  0.4798 -164.7
 5.600  0.4088 -161.7   4.443   55.5  0.0553  -17.0  0.4820 -165.9
 5.700  0.4114 -163.2   4.366   53.9  0.0545  -17.2  0.4812 -167.4
 5.800  0.4150 -165.0   4.302   52.4  0.0541  -17.4  0.4829 -168.7
 5.900  0.4189 -166.3   4.232   51.0  0.0533  -17.9  0.4830 -170.2
 6.000  0.4210 -168.1   4.178   49.5  0.0530  -18.1  0.4835 -171.5
 6.100  0.4249 -169.8   4.119   47.9  0.0520  -17.9  0.4833 -173.1
 6.200  0.4255 -171.4   4.045   46.4  0.0514  -18.4  0.4827 -174.5
 6.300  0.4288 -173.0   3.990   44.9  0.0506  -18.2  0.4820 -176.0
 6.400  0.4305 -174.6   3.924   43.5  0.0498  -18.3  0.4823 -177.5
 6.500  0.4321 -176.3   3.870   42.0  0.0493  -17.7  0.4808 -178.9
 6.600  0.4340 -177.9   3.810   40.5  0.0482  -18.0  0.4811  179.7
 6.700  0.4354 -179.4   3.742   39.1  0.0474  -17.6  0.4788  178.5
 6.800  0.4373  178.7   3.690   37.7  0.0467  -17.1  0.4779  177.1
 6.900  0.4396  177.2   3.631   36.2  0.0461  -16.5  0.4753  175.7
 7.000  0.4405  175.4   3.583   34.8  0.0449  -15.8  0.4740  174.2
 7.100  0.4436  173.6   3.521   33.4  0.0444  -14.9  0.4732  172.7
 7.200  0.4458  172.1   3.469   32.1  0.0439  -13.8  0.4720  171.5
 7.300  0.4487  170.3   3.410   30.6  0.0433  -12.7  0.4727  169.9
 7.400  0.4518  168.7   3.363   29.2  0.0430  -12.1  0.4727  168.5
 7.500  0.4571  167.0   3.315   27.9  0.0427  -10.7  0.4741  166.8
 7.600  0.4609  165.4   3.271   26.6  0.0430   -9.4  0.4748  165.3
 7.700  0.4675  163.6   3.222   25.0  0.0426   -8.8  0.4783  163.5
 7.800  0.4733  162.2   3.174   23.7  0.0429   -8.2  0.4795  161.8
 7.900  0.4794  160.4   3.126   22.2  0.0433   -6.8  0.4834  159.8
 8.000  0.4865  159.0   3.088   20.9  0.0437   -6.1  0.4872  158.1
 8.500  0.5252  151.5   2.855   13.6  0.0443   -4.0  0.5136  148.3
 9.000  0.5652  145.5   2.616    6.4  0.0442   -2.6  0.5516  138.8
 9.500  0.6023  139.2   2.370   -0.4  0.0448   -0.5  0.5962  130.5
10.000  0.6262  134.3   2.110   -6.5  0.0453    1.5  0.6429  123.9
10.500  0.6497  130.0   1.900  -11.3  0.0459    4.0  0.6878  119.3
11.000  0.6775  125.4   1.723  -15.6  0.0464    6.4  0.7279  117.2
11.500  0.6993  121.2   1.572  -19.2  0.0475    8.9  0.7536  117.9
12.000  0.7161  118.2   1.428  -22.0  0.0486   12.1  0.7798  121.3
!
!  f       NFmin   Gammaopt  rn/50
! GHz       dB    MAG  ANG    -
 0.450      0.80  0.11   13   0.05
 0.900      0.82  0.12   23   0.06
 1.500      0.87  0.12   32   0.06
 1.900      0.92  0.12   47   0.06
 2.400      0.96  0.13   61   0.07
 3.500      1.03  0.14   93   0.12
 5.500      1.14  0.16  159   0.17
10.000      1.81  0.38 -122   0.23
!
! (c) 2013  Infineon Technologies AG, Munich
