! Infineon Technologies  Discrete & RF Semiconductors
! BFQ19S
! VCE =  2.5 V,  IC =  50 mA
! Common Emitter S-Parameters:                            Jan 2016
# GHz  S  MA  R  50
!  f         S11            S21            S12            S22
! GHz     MAG   ANG      MAG   ANG      MAG   ANG      MAG   ANG
 0.050  0.3911 -130.9  35.891  120.9  0.0188   64.2  0.5266  -66.8
 0.055  0.3978 -134.8  33.624  118.6  0.0198   64.3  0.4955  -69.8
 0.060  0.4063 -138.5  31.419  116.0  0.0208   64.4  0.4660  -73.2
 0.065  0.4127 -141.8  29.572  114.2  0.0220   64.8  0.4414  -75.8
 0.070  0.4204 -144.9  27.757  112.2  0.0232   65.1  0.4178  -78.6
 0.075  0.4228 -147.1  26.278  110.7  0.0242   65.2  0.3985  -80.8
 0.080  0.4258 -149.3  24.819  109.0  0.0253   65.2  0.3799  -83.3
 0.085  0.4259 -151.5  23.603  107.8  0.0263   65.5  0.3639  -85.3
 0.090  0.4267 -153.7  22.399  106.5  0.0274   65.8  0.3484  -87.5
 0.095  0.4288 -155.4  21.362  105.5  0.0284   66.5  0.3353  -89.2
 0.100  0.4312 -157.0  20.333  104.3  0.0294   67.1  0.3226  -91.1
 0.105  0.4316 -158.1  19.686  103.8  0.0305   67.5  0.3143  -92.1
 0.110  0.4321 -159.2  19.040  103.2  0.0316   67.9  0.3061  -93.2
 0.115  0.4328 -160.3  18.397  102.6  0.0326   68.2  0.2980  -94.3
 0.120  0.4336 -161.4  17.755  102.0  0.0337   68.5  0.2900  -95.5
 0.125  0.4346 -162.5  17.116  101.3  0.0348   68.8  0.2822  -96.8
 0.130  0.4358 -163.5  16.480  100.5  0.0359   69.1  0.2745  -98.1
 0.135  0.4371 -164.6  15.846   99.7  0.0370   69.4  0.2669  -99.6
 0.140  0.4385 -165.7  15.216   98.9  0.0380   69.6  0.2596 -101.0
 0.145  0.4401 -166.7  14.590   97.9  0.0391   69.9  0.2524 -102.6
 0.150  0.4419 -167.8  13.968   96.9  0.0402   70.1  0.2454 -104.3
 0.155  0.4426 -168.6  13.631   96.5  0.0413   70.3  0.2416 -105.1
 0.160  0.4433 -169.3  13.294   96.1  0.0424   70.5  0.2379 -106.0
 0.165  0.4442 -170.1  12.958   95.7  0.0435   70.6  0.2342 -106.8
 0.170  0.4451 -170.8  12.623   95.3  0.0446   70.8  0.2306 -107.7
 0.175  0.4461 -171.5  12.288   94.8  0.0456   70.9  0.2270 -108.6
 0.180  0.4471 -172.3  11.954   94.3  0.0467   71.1  0.2235 -109.6
 0.185  0.4483 -173.0  11.621   93.8  0.0478   71.2  0.2200 -110.6
 0.190  0.4495 -173.7  11.289   93.3  0.0489   71.4  0.2166 -111.6
 0.195  0.4507 -174.5  10.959   92.7  0.0500   71.5  0.2133 -112.6
 0.200  0.4521 -175.2  10.629   92.1  0.0511   71.6  0.2101 -113.7
 0.205  0.4516 -175.7  10.419   91.8  0.0522   71.7  0.2082 -114.3
 0.210  0.4511 -176.2  10.210   91.5  0.0533   71.7  0.2063 -115.0
 0.215  0.4507 -176.7  10.001   91.2  0.0545   71.8  0.2044 -115.6
 0.220  0.4503 -177.2   9.792   90.8  0.0556   71.9  0.2026 -116.3
 0.225  0.4500 -177.7   9.584   90.5  0.0567   71.9  0.2008 -117.0
 0.230  0.4496 -178.3   9.376   90.1  0.0578   72.0  0.1990 -117.7
 0.235  0.4493 -178.8   9.169   89.7  0.0589   72.0  0.1973 -118.4
 0.240  0.4491 -179.3   8.962   89.3  0.0601   72.1  0.1955 -119.1
 0.245  0.4489 -179.8   8.755   88.8  0.0612   72.1  0.1939 -119.9
 0.250  0.4487  179.7   8.549   88.4  0.0623   72.2  0.1922 -120.6
 0.255  0.4494  179.3   8.410   88.1  0.0634   72.2  0.1912 -121.1
 0.260  0.4501  178.9   8.270   87.9  0.0645   72.2  0.1901 -121.5
 0.265  0.4508  178.5   8.131   87.6  0.0656   72.2  0.1891 -122.0
 0.270  0.4516  178.0   7.992   87.3  0.0667   72.2  0.1881 -122.5
 0.275  0.4524  177.6   7.853   87.0  0.0677   72.3  0.1871 -123.0
 0.280  0.4532  177.2   7.715   86.7  0.0688   72.3  0.1862 -123.5
 0.285  0.4540  176.8   7.576   86.4  0.0699   72.3  0.1852 -124.0
 0.290  0.4548  176.4   7.438   86.1  0.0710   72.3  0.1842 -124.5
 0.295  0.4557  176.0   7.301   85.8  0.0721   72.3  0.1833 -125.0
 0.300  0.4566  175.6   7.163   85.4  0.0732   72.3  0.1824 -125.5
 0.305  0.4566  175.2   7.075   85.2  0.0743   72.3  0.1819 -125.8
 0.310  0.4566  174.9   6.987   85.0  0.0754   72.2  0.1815 -126.2
 0.315  0.4566  174.5   6.899   84.8  0.0765   72.2  0.1811 -126.5
 0.320  0.4566  174.2   6.811   84.6  0.0776   72.2  0.1806 -126.8
 0.325  0.4567  173.8   6.723   84.4  0.0787   72.1  0.1802 -127.1
 0.330  0.4567  173.4   6.635   84.2  0.0798   72.1  0.1798 -127.5
 0.335  0.4568  173.1   6.548   83.9  0.0809   72.1  0.1794 -127.8
 0.340  0.4569  172.7   6.460   83.7  0.0820   72.0  0.1789 -128.1
 0.345  0.4571  172.3   6.373   83.5  0.0831   72.0  0.1785 -128.5
 0.350  0.4572  172.0   6.285   83.2  0.0842   72.0  0.1781 -128.8
 0.355  0.4574  171.6   6.198   82.9  0.0854   71.9  0.1777 -129.2
 0.360  0.4575  171.3   6.111   82.7  0.0865   71.9  0.1774 -129.5
 0.365  0.4577  170.9   6.024   82.4  0.0876   71.9  0.1770 -129.9
 0.370  0.4579  170.5   5.937   82.1  0.0887   71.8  0.1766 -130.2
 0.375  0.4582  170.2   5.851   81.9  0.0898   71.8  0.1762 -130.5
 0.380  0.4584  169.8   5.764   81.6  0.0909   71.8  0.1759 -130.9
 0.385  0.4587  169.5   5.678   81.3  0.0920   71.8  0.1755 -131.2
 0.390  0.4590  169.1   5.592   81.0  0.0931   71.7  0.1752 -131.6
 0.395  0.4593  168.8   5.506   80.6  0.0942   71.7  0.1748 -131.9
 0.400  0.4596  168.4   5.420   80.3  0.0953   71.7  0.1745 -132.3
 0.405  0.4600  168.1   5.368   80.1  0.0964   71.6  0.1745 -132.5
 0.410  0.4603  167.7   5.315   79.9  0.0975   71.5  0.1744 -132.7
 0.415  0.4607  167.4   5.263   79.8  0.0986   71.5  0.1744 -132.9
 0.420  0.4611  167.0   5.211   79.6  0.0997   71.4  0.1744 -133.0
 0.425  0.4616  166.7   5.159   79.4  0.1007   71.3  0.1744 -133.2
 0.430  0.4620  166.3   5.107   79.2  0.1018   71.3  0.1744 -133.4
 0.435  0.4625  166.0   5.055   79.0  0.1029   71.2  0.1743 -133.6
 0.440  0.4629  165.6   5.003   78.8  0.1040   71.1  0.1743 -133.8
 0.445  0.4634  165.3   4.951   78.5  0.1051   71.0  0.1743 -134.0
 0.450  0.4639  165.0   4.899   78.3  0.1062   71.0  0.1743 -134.1
 0.455  0.4645  164.6   4.847   78.1  0.1073   70.9  0.1743 -134.3
 0.460  0.4650  164.3   4.795   77.9  0.1084   70.9  0.1743 -134.5
 0.465  0.4656  163.9   4.744   77.7  0.1095   70.8  0.1743 -134.7
 0.470  0.4661  163.6   4.692   77.4  0.1106   70.7  0.1743 -134.9
 0.475  0.4667  163.3   4.641   77.2  0.1116   70.7  0.1743 -135.1
 0.480  0.4673  162.9   4.590   76.9  0.1127   70.6  0.1743 -135.3
 0.485  0.4679  162.6   4.538   76.7  0.1138   70.6  0.1743 -135.4
 0.490  0.4686  162.3   4.487   76.4  0.1149   70.5  0.1743 -135.6
 0.495  0.4692  161.9   4.436   76.2  0.1160   70.5  0.1743 -135.8
 0.500  0.4699  161.6   4.385   75.9  0.1171   70.4  0.1743 -136.0
 0.505  0.4698  161.4   4.349   75.7  0.1182   70.3  0.1744 -136.1
 0.510  0.4698  161.1   4.313   75.6  0.1192   70.2  0.1746 -136.3
 0.515  0.4697  160.9   4.277   75.4  0.1203   70.1  0.1747 -136.4
 0.520  0.4696  160.6   4.242   75.2  0.1213   70.0  0.1749 -136.6
 0.525  0.4696  160.4   4.206   75.0  0.1224   69.9  0.1750 -136.7
 0.530  0.4696  160.1   4.170   74.8  0.1234   69.9  0.1752 -136.9
 0.535  0.4695  159.9   4.135   74.6  0.1245   69.8  0.1753 -137.0
 0.540  0.4695  159.6   4.099   74.4  0.1256   69.7  0.1755 -137.1
 0.545  0.4695  159.4   4.063   74.2  0.1266   69.6  0.1756 -137.3
 0.550  0.4695  159.1   4.028   74.0  0.1277   69.5  0.1758 -137.4
 0.555  0.4695  158.9   3.992   73.8  0.1287   69.5  0.1760 -137.6
 0.560  0.4695  158.7   3.957   73.6  0.1298   69.4  0.1761 -137.7
 0.565  0.4696  158.4   3.922   73.4  0.1309   69.3  0.1763 -137.8
 0.570  0.4696  158.2   3.886   73.2  0.1319   69.2  0.1764 -138.0
 0.575  0.4697  157.9   3.851   73.0  0.1330   69.2  0.1766 -138.1
 0.580  0.4697  157.7   3.816   72.7  0.1341   69.1  0.1767 -138.2
 0.585  0.4698  157.4   3.781   72.5  0.1351   69.0  0.1769 -138.4
 0.590  0.4698  157.2   3.746   72.3  0.1362   68.9  0.1771 -138.5
 0.595  0.4699  156.9   3.711   72.0  0.1372   68.9  0.1772 -138.7
 0.600  0.4700  156.7   3.676   71.8  0.1383   68.8  0.1774 -138.8
 0.605  0.4701  156.5   3.651   71.6  0.1394   68.7  0.1777 -138.9
 0.610  0.4702  156.2   3.626   71.4  0.1404   68.6  0.1779 -139.0
 0.615  0.4702  156.0   3.601   71.3  0.1415   68.5  0.1782 -139.0
 0.620  0.4703  155.7   3.577   71.1  0.1425   68.4  0.1785 -139.1
 0.625  0.4705  155.5   3.552   70.9  0.1436   68.3  0.1787 -139.2
 0.630  0.4706  155.2   3.527   70.7  0.1446   68.2  0.1790 -139.3
 0.635  0.4707  155.0   3.502   70.5  0.1457   68.1  0.1793 -139.4
 0.640  0.4708  154.7   3.478   70.3  0.1467   68.1  0.1795 -139.5
 0.645  0.4710  154.5   3.453   70.1  0.1478   68.0  0.1798 -139.5
 0.650  0.4711  154.2   3.428   69.9  0.1488   67.9  0.1801 -139.6
 0.655  0.4713  154.0   3.404   69.7  0.1499   67.8  0.1804 -139.7
 0.660  0.4714  153.8   3.379   69.5  0.1509   67.7  0.1806 -139.8
 0.665  0.4716  153.5   3.355   69.3  0.1520   67.6  0.1809 -139.9
 0.670  0.4718  153.3   3.331   69.1  0.1531   67.6  0.1812 -139.9
 0.675  0.4720  153.0   3.306   68.9  0.1541   67.5  0.1814 -140.0
 0.680  0.4722  152.8   3.282   68.7  0.1552   67.4  0.1817 -140.1
 0.685  0.4724  152.5   3.258   68.5  0.1562   67.3  0.1820 -140.2
 0.690  0.4726  152.3   3.233   68.3  0.1573   67.2  0.1823 -140.2
 0.695  0.4729  152.0   3.209   68.0  0.1583   67.2  0.1825 -140.3
 0.700  0.4731  151.8   3.185   67.8  0.1594   67.1  0.1828 -140.4
 0.705  0.4733  151.6   3.166   67.6  0.1604   67.0  0.1831 -140.5
 0.710  0.4735  151.3   3.146   67.5  0.1614   66.9  0.1835 -140.6
 0.715  0.4737  151.1   3.127   67.3  0.1624   66.8  0.1838 -140.6
 0.720  0.4740  150.8   3.108   67.1  0.1634   66.7  0.1842 -140.7
 0.725  0.4742  150.6   3.089   66.9  0.1644   66.6  0.1845 -140.8
 0.730  0.4745  150.3   3.070   66.8  0.1653   66.4  0.1849 -140.9
 0.735  0.4747  150.1   3.051   66.6  0.1663   66.3  0.1852 -141.0
 0.740  0.4750  149.8   3.031   66.4  0.1673   66.2  0.1856 -141.1
 0.745  0.4753  149.6   3.012   66.2  0.1683   66.1  0.1859 -141.1
 0.750  0.4756  149.3   2.993   66.0  0.1693   66.0  0.1863 -141.2
 0.755  0.4759  149.1   2.974   65.8  0.1703   65.9  0.1866 -141.3
 0.760  0.4762  148.8   2.955   65.6  0.1713   65.8  0.1870 -141.4
 0.765  0.4765  148.6   2.936   65.4  0.1723   65.7  0.1873 -141.5
 0.770  0.4768  148.4   2.918   65.2  0.1733   65.7  0.1877 -141.5
 0.775  0.4771  148.1   2.899   65.0  0.1743   65.6  0.1880 -141.6
 0.780  0.4775  147.9   2.880   64.8  0.1753   65.5  0.1884 -141.7
 0.785  0.4778  147.6   2.861   64.6  0.1763   65.4  0.1887 -141.8
 0.790  0.4782  147.4   2.842   64.4  0.1773   65.3  0.1891 -141.8
 0.795  0.4785  147.1   2.824   64.2  0.1783   65.2  0.1894 -141.9
 0.800  0.4789  146.9   2.805   64.0  0.1793   65.1  0.1898 -142.0
 0.805  0.4792  146.7   2.790   63.8  0.1803   65.0  0.1900 -142.1
 0.810  0.4796  146.5   2.776   63.7  0.1813   64.9  0.1903 -142.2
 0.815  0.4799  146.3   2.761   63.5  0.1822   64.8  0.1905 -142.3
 0.820  0.4803  146.0   2.746   63.4  0.1832   64.7  0.1908 -142.3
 0.825  0.4806  145.8   2.732   63.2  0.1842   64.6  0.1910 -142.4
 0.830  0.4810  145.6   2.717   63.0  0.1852   64.6  0.1913 -142.5
 0.835  0.4813  145.4   2.702   62.9  0.1861   64.5  0.1915 -142.6
 0.840  0.4817  145.2   2.688   62.7  0.1871   64.4  0.1917 -142.7
 0.845  0.4821  145.0   2.673   62.5  0.1881   64.3  0.1920 -142.8
 0.850  0.4825  144.8   2.659   62.3  0.1891   64.2  0.1922 -142.9
 0.855  0.4829  144.6   2.644   62.2  0.1901   64.1  0.1925 -142.9
 0.860  0.4833  144.4   2.630   62.0  0.1910   64.0  0.1927 -143.0
 0.865  0.4837  144.2   2.615   61.8  0.1920   64.0  0.1930 -143.1
 0.870  0.4841  143.9   2.601   61.6  0.1930   63.9  0.1932 -143.2
 0.875  0.4845  143.7   2.587   61.4  0.1940   63.8  0.1935 -143.3
 0.880  0.4849  143.5   2.572   61.3  0.1950   63.7  0.1937 -143.4
 0.885  0.4854  143.3   2.558   61.1  0.1959   63.6  0.1940 -143.5
 0.890  0.4858  143.1   2.544   60.9  0.1969   63.6  0.1942 -143.5
 0.895  0.4862  142.9   2.529   60.7  0.1979   63.5  0.1945 -143.6
 0.900  0.4867  142.7   2.515   60.5  0.1989   63.4  0.1947 -143.7
 0.905  0.4869  142.5   2.503   60.3  0.1999   63.3  0.1950 -143.8
 0.910  0.4871  142.2   2.492   60.2  0.2008   63.2  0.1952 -143.9
 0.915  0.4873  142.0   2.480   60.0  0.2018   63.1  0.1955 -143.9
 0.920  0.4875  141.7   2.469   59.9  0.2027   63.0  0.1958 -144.0
 0.925  0.4877  141.5   2.457   59.7  0.2037   62.9  0.1961 -144.1
 0.930  0.4879  141.2   2.445   59.5  0.2046   62.8  0.1963 -144.2
 0.935  0.4882  141.0   2.434   59.4  0.2056   62.7  0.1966 -144.3
 0.940  0.4884  140.8   2.422   59.2  0.2066   62.6  0.1969 -144.4
 0.945  0.4887  140.5   2.411   59.0  0.2075   62.5  0.1972 -144.4
 0.950  0.4889  140.3   2.399   58.9  0.2085   62.4  0.1974 -144.5
 0.955  0.4892  140.0   2.388   58.7  0.2094   62.3  0.1977 -144.6
 0.960  0.4895  139.8   2.377   58.5  0.2104   62.2  0.1980 -144.7
 0.965  0.4898  139.6   2.365   58.4  0.2114   62.1  0.1983 -144.8
 0.970  0.4901  139.3   2.354   58.2  0.2123   62.0  0.1985 -144.8
 0.975  0.4904  139.1   2.342   58.0  0.2133   61.9  0.1988 -144.9
 0.980  0.4907  138.9   2.331   57.8  0.2142   61.9  0.1991 -145.0
 0.985  0.4910  138.6   2.320   57.7  0.2152   61.8  0.1994 -145.1
 0.990  0.4913  138.4   2.309   57.5  0.2162   61.7  0.1996 -145.1
 0.995  0.4917  138.1   2.297   57.3  0.2171   61.6  0.1999 -145.2
 1.000  0.4920  137.9   2.286   57.1  0.2181   61.5  0.2002 -145.3
 1.005  0.4921  137.7   2.277   57.0  0.2190   61.4  0.2004 -145.4
 1.010  0.4922  137.5   2.268   56.8  0.2199   61.3  0.2006 -145.5
 1.015  0.4924  137.3   2.259   56.7  0.2208   61.2  0.2009 -145.6
 1.020  0.4925  137.1   2.251   56.5  0.2217   61.1  0.2011 -145.6
 1.025  0.4926  136.9   2.242   56.4  0.2226   61.0  0.2013 -145.7
 1.030  0.4928  136.7   2.233   56.3  0.2236   60.9  0.2015 -145.8
 1.035  0.4929  136.5   2.224   56.1  0.2245   60.8  0.2017 -145.9
 1.040  0.4931  136.3   2.215   56.0  0.2254   60.7  0.2020 -146.0
 1.045  0.4933  136.1   2.207   55.8  0.2263   60.6  0.2022 -146.1
 1.050  0.4934  135.9   2.198   55.7  0.2272   60.5  0.2024 -146.2
 1.055  0.4936  135.7   2.189   55.5  0.2281   60.4  0.2026 -146.2
 1.060  0.4938  135.5   2.180   55.4  0.2290   60.3  0.2029 -146.3
 1.065  0.4940  135.3   2.172   55.2  0.2299   60.2  0.2031 -146.4
 1.070  0.4942  135.1   2.163   55.1  0.2309   60.1  0.2033 -146.5
 1.075  0.4944  134.9   2.154   54.9  0.2318   60.0  0.2035 -146.6
 1.080  0.4946  134.7   2.146   54.8  0.2327   59.9  0.2038 -146.7
 1.085  0.4948  134.5   2.137   54.6  0.2336   59.8  0.2040 -146.7
 1.090  0.4950  134.3   2.128   54.5  0.2345   59.7  0.2042 -146.8
 1.095  0.4953  134.1   2.120   54.3  0.2355   59.6  0.2044 -146.9
 1.100  0.4955  133.9   2.111   54.2  0.2364   59.5  0.2047 -147.0
 1.105  0.4957  133.7   2.103   54.0  0.2373   59.4  0.2049 -147.1
 1.110  0.4960  133.5   2.094   53.8  0.2382   59.3  0.2051 -147.2
 1.115  0.4962  133.3   2.086   53.7  0.2391   59.2  0.2053 -147.2
 1.120  0.4965  133.1   2.077   53.5  0.2401   59.1  0.2056 -147.3
 1.125  0.4967  132.9   2.068   53.3  0.2410   59.1  0.2058 -147.4
 1.130  0.4970  132.7   2.060   53.2  0.2419   59.0  0.2060 -147.5
 1.135  0.4973  132.5   2.052   53.0  0.2428   58.9  0.2063 -147.6
 1.140  0.4976  132.3   2.043   52.8  0.2438   58.8  0.2065 -147.6
 1.145  0.4979  132.1   2.035   52.7  0.2447   58.7  0.2067 -147.7
 1.150  0.4981  131.9   2.026   52.5  0.2456   58.6  0.2070 -147.8
 1.155  0.4984  131.7   2.018   52.3  0.2465   58.5  0.2072 -147.9
 1.160  0.4988  131.5   2.009   52.2  0.2475   58.5  0.2074 -148.0
 1.165  0.4991  131.3   2.001   52.0  0.2484   58.4  0.2077 -148.0
 1.170  0.4994  131.1   1.993   51.8  0.2493   58.3  0.2079 -148.1
 1.175  0.4997  130.9   1.984   51.6  0.2502   58.2  0.2081 -148.2
 1.180  0.5000  130.7   1.976   51.4  0.2512   58.1  0.2084 -148.3
 1.185  0.5004  130.5   1.968   51.3  0.2521   58.0  0.2086 -148.4
 1.190  0.5007  130.3   1.959   51.1  0.2530   58.0  0.2088 -148.4
 1.195  0.5010  130.1   1.951   50.9  0.2540   57.9  0.2091 -148.5
 1.200  0.5014  129.9   1.943   50.7  0.2549   57.8  0.2093 -148.6
 1.205  0.5016  129.7   1.937   50.6  0.2558   57.7  0.2095 -148.7
 1.210  0.5017  129.5   1.932   50.4  0.2567   57.6  0.2097 -148.8
 1.215  0.5019  129.2   1.926   50.3  0.2576   57.5  0.2099 -148.8
 1.220  0.5021  129.0   1.920   50.2  0.2585   57.4  0.2101 -148.9
 1.225  0.5023  128.8   1.915   50.0  0.2594   57.3  0.2104 -149.0
 1.230  0.5025  128.6   1.909   49.9  0.2602   57.2  0.2106 -149.1
 1.235  0.5027  128.3   1.903   49.8  0.2611   57.1  0.2108 -149.1
 1.240  0.5030  128.1   1.898   49.6  0.2620   57.0  0.2110 -149.2
 1.245  0.5032  127.9   1.892   49.5  0.2629   56.9  0.2112 -149.3
 1.250  0.5034  127.7   1.886   49.3  0.2638   56.8  0.2114 -149.3
 1.255  0.5037  127.4   1.881   49.2  0.2647   56.7  0.2116 -149.4
 1.260  0.5039  127.2   1.875   49.0  0.2656   56.6  0.2119 -149.5
 1.265  0.5042  127.0   1.870   48.9  0.2665   56.5  0.2121 -149.6
 1.270  0.5044  126.8   1.864   48.8  0.2674   56.4  0.2123 -149.6
 1.275  0.5047  126.6   1.859   48.6  0.2683   56.3  0.2125 -149.7
 1.280  0.5050  126.3   1.853   48.5  0.2692   56.2  0.2127 -149.8
 1.285  0.5053  126.1   1.847   48.3  0.2701   56.2  0.2129 -149.9
 1.290  0.5056  125.9   1.842   48.2  0.2710   56.1  0.2131 -149.9
 1.295  0.5059  125.7   1.836   48.0  0.2719   56.0  0.2134 -150.0
 1.300  0.5062  125.4   1.831   47.9  0.2728   55.9  0.2136 -150.1
 1.305  0.5065  125.2   1.826   47.7  0.2737   55.8  0.2138 -150.2
 1.310  0.5069  125.0   1.820   47.6  0.2746   55.7  0.2140 -150.2
 1.315  0.5072  124.8   1.815   47.4  0.2755   55.6  0.2142 -150.3
 1.320  0.5075  124.6   1.809   47.3  0.2764   55.5  0.2145 -150.4
 1.325  0.5079  124.3   1.804   47.1  0.2773   55.4  0.2147 -150.4
 1.330  0.5082  124.1   1.798   47.0  0.2782   55.4  0.2149 -150.5
 1.335  0.5086  123.9   1.793   46.8  0.2792   55.3  0.2151 -150.6
 1.340  0.5090  123.7   1.788   46.7  0.2801   55.2  0.2153 -150.7
 1.345  0.5093  123.5   1.782   46.5  0.2810   55.1  0.2156 -150.7
 1.350  0.5097  123.3   1.777   46.3  0.2819   55.0  0.2158 -150.8
 1.355  0.5101  123.0   1.771   46.2  0.2828   54.9  0.2160 -150.9
 1.360  0.5105  122.8   1.766   46.0  0.2837   54.8  0.2162 -150.9
 1.365  0.5109  122.6   1.761   45.9  0.2846   54.8  0.2164 -151.0
 1.370  0.5114  122.4   1.756   45.7  0.2855   54.7  0.2167 -151.1
 1.375  0.5118  122.2   1.750   45.5  0.2864   54.6  0.2169 -151.2
 1.380  0.5122  122.0   1.745   45.4  0.2873   54.5  0.2171 -151.2
 1.385  0.5126  121.7   1.740   45.2  0.2883   54.4  0.2173 -151.3
 1.390  0.5131  121.5   1.734   45.0  0.2892   54.4  0.2176 -151.4
 1.395  0.5135  121.3   1.729   44.9  0.2901   54.3  0.2178 -151.4
 1.400  0.5140  121.1   1.724   44.7  0.2910   54.2  0.2180 -151.5
 1.405  0.5145  120.9   1.720   44.6  0.2919   54.1  0.2182 -151.5
 1.410  0.5150  120.7   1.715   44.4  0.2927   54.0  0.2184 -151.6
 1.415  0.5155  120.4   1.711   44.3  0.2936   53.9  0.2187 -151.6
 1.420  0.5160  120.2   1.706   44.1  0.2945   53.8  0.2189 -151.6
 1.425  0.5165  120.0   1.702   44.0  0.2953   53.7  0.2191 -151.7
 1.430  0.5170  119.8   1.697   43.8  0.2962   53.6  0.2193 -151.7
 1.435  0.5175  119.6   1.693   43.7  0.2970   53.5  0.2196 -151.7
 1.440  0.5180  119.4   1.689   43.5  0.2979   53.4  0.2198 -151.8
 1.445  0.5186  119.1   1.684   43.4  0.2988   53.3  0.2200 -151.8
 1.450  0.5191  118.9   1.680   43.2  0.2997   53.2  0.2202 -151.9
 1.455  0.5197  118.7   1.676   43.1  0.3005   53.1  0.2205 -151.9
 1.460  0.5202  118.5   1.671   42.9  0.3014   53.0  0.2207 -151.9
 1.465  0.5208  118.3   1.667   42.8  0.3023   52.9  0.2209 -152.0
 1.470  0.5214  118.1   1.663   42.6  0.3031   52.8  0.2211 -152.0
 1.475  0.5220  117.9   1.658   42.5  0.3040   52.7  0.2214 -152.0
 1.480  0.5226  117.6   1.654   42.3  0.3049   52.6  0.2216 -152.1
 1.485  0.5232  117.4   1.650   42.2  0.3058   52.5  0.2218 -152.1
 1.490  0.5238  117.2   1.645   42.0  0.3066   52.4  0.2220 -152.1
 1.495  0.5244  117.0   1.641   41.9  0.3075   52.3  0.2223 -152.2
 1.500  0.5250  116.8   1.637   41.7  0.3084   52.2  0.2225 -152.2
 1.505  0.5248  116.6   1.632   41.5  0.3092   52.1  0.2227 -152.2
 1.510  0.5246  116.4   1.628   41.4  0.3100   52.0  0.2230 -152.3
