! Infineon Technologies  Discrete & RF Semiconductors
! BFQ19S
! VCE =  8.0 V,  IC =  90 mA
! Common Emitter S-Parameters:                            Jan 2016
# GHz  S  MA  R  50
!  f         S11            S21            S12            S22
! GHz     MAG   ANG      MAG   ANG      MAG   ANG      MAG   ANG
 0.050  0.3456 -119.0  41.824  120.3  0.0149   67.3  0.5092  -50.0
 0.055  0.3476 -123.6  39.139  118.1  0.0157   67.2  0.4792  -51.5
 0.060  0.3518 -128.2  36.522  115.5  0.0165   67.1  0.4495  -53.2
 0.065  0.3533 -132.0  34.360  113.8  0.0175   67.4  0.4260  -54.1
 0.070  0.3564 -135.7  32.233  111.8  0.0185   67.7  0.4027  -55.2
 0.075  0.3558 -138.3  30.512  110.3  0.0193   67.9  0.3837  -56.0
 0.080  0.3559 -141.0  28.813  108.7  0.0202   68.0  0.3648  -56.9
 0.085  0.3548 -143.5  27.384  107.5  0.0212   68.5  0.3493  -57.4
 0.090  0.3544 -146.1  25.969  106.2  0.0222   68.9  0.3338  -58.0
 0.095  0.3549 -148.2  24.764  105.2  0.0231   69.6  0.3209  -58.3
 0.100  0.3559 -150.3  23.567  104.2  0.0240   70.2  0.3080  -58.7
 0.105  0.3554 -151.6  22.817  103.7  0.0249   70.6  0.3005  -58.8
 0.110  0.3552 -152.8  22.069  103.1  0.0259   70.9  0.2929  -58.9
 0.115  0.3551 -154.1  21.323  102.6  0.0268   71.2  0.2854  -58.9
 0.120  0.3552 -155.4  20.580  101.9  0.0278   71.5  0.2779  -59.0
 0.125  0.3554 -156.7  19.839  101.3  0.0287   71.8  0.2703  -59.1
 0.130  0.3558 -158.0  19.101  100.5  0.0296   72.1  0.2628  -59.2
 0.135  0.3564 -159.2  18.367   99.8  0.0306   72.3  0.2553  -59.3
 0.140  0.3572 -160.5  17.636   98.9  0.0315   72.6  0.2478  -59.5
 0.145  0.3582 -161.7  16.909   98.0  0.0325   72.8  0.2402  -59.6
 0.150  0.3593 -163.0  16.187   97.0  0.0334   73.0  0.2327  -59.7
 0.155  0.3596 -163.9  15.795   96.6  0.0343   73.1  0.2290  -59.7
 0.160  0.3599 -164.8  15.403   96.2  0.0352   73.3  0.2253  -59.7
 0.165  0.3604 -165.6  15.013   95.8  0.0362   73.4  0.2216  -59.8
 0.170  0.3609 -166.5  14.623   95.4  0.0371   73.5  0.2179  -59.8
 0.175  0.3616 -167.4  14.234   95.0  0.0380   73.6  0.2141  -59.8
 0.180  0.3623 -168.3  13.846   94.5  0.0389   73.7  0.2104  -59.8
 0.185  0.3630 -169.1  13.458   94.0  0.0398   73.8  0.2067  -59.8
 0.190  0.3639 -170.0  13.072   93.5  0.0408   73.9  0.2030  -59.9
 0.195  0.3649 -170.8  12.688   92.9  0.0417   74.0  0.1993  -59.9
 0.200  0.3659 -171.7  12.304   92.3  0.0426   74.1  0.1956  -59.9
 0.205  0.3655 -172.2  12.062   92.0  0.0436   74.2  0.1936  -59.9
 0.210  0.3650 -172.8  11.820   91.7  0.0445   74.3  0.1916  -60.0
 0.215  0.3646 -173.3  11.578   91.4  0.0455   74.4  0.1896  -60.0
 0.220  0.3643 -173.8  11.337   91.1  0.0465   74.5  0.1876  -60.1
 0.225  0.3640 -174.3  11.096   90.8  0.0474   74.6  0.1856  -60.1
 0.230  0.3637 -174.9  10.856   90.4  0.0484   74.7  0.1837  -60.2
 0.235  0.3634 -175.4  10.616   90.1  0.0494   74.8  0.1817  -60.2
 0.240  0.3632 -175.9  10.376   89.7  0.0504   74.8  0.1797  -60.3
 0.245  0.3630 -176.5  10.137   89.3  0.0513   74.9  0.1777  -60.3
 0.250  0.3628 -177.0   9.898   88.9  0.0523   75.0  0.1757  -60.4
 0.255  0.3633 -177.5   9.737   88.7  0.0533   75.0  0.1745  -60.5
 0.260  0.3638 -178.0   9.577   88.4  0.0542   75.0  0.1733  -60.5
 0.265  0.3644 -178.4   9.416   88.1  0.0552   74.9  0.1721  -60.6
 0.270  0.3650 -178.9   9.256   87.9  0.0561   74.9  0.1709  -60.6
 0.275  0.3656 -179.4   9.096   87.6  0.0571   74.9  0.1696  -60.7
 0.280  0.3662 -179.8   8.936   87.3  0.0581   74.9  0.1684  -60.7
 0.285  0.3669  179.7   8.777   87.0  0.0590   74.9  0.1672  -60.8
 0.290  0.3676  179.2   8.618   86.7  0.0600   74.8  0.1660  -60.9
 0.295  0.3683  178.8   8.459   86.3  0.0609   74.8  0.1648  -60.9
 0.300  0.3690  178.3   8.300   86.0  0.0619   74.8  0.1636  -61.0
 0.305  0.3690  177.9   8.198   85.8  0.0628   74.7  0.1630  -61.1
 0.310  0.3690  177.5   8.096   85.6  0.0638   74.7  0.1625  -61.2
 0.315  0.3690  177.0   7.994   85.4  0.0647   74.7  0.1619  -61.3
 0.320  0.3691  176.6   7.892   85.2  0.0657   74.6  0.1613  -61.4
 0.325  0.3691  176.2   7.790   85.0  0.0666   74.6  0.1608  -61.5
 0.330  0.3692  175.8   7.688   84.8  0.0676   74.5  0.1602  -61.7
 0.335  0.3693  175.3   7.587   84.6  0.0685   74.5  0.1596  -61.8
 0.340  0.3694  174.9   7.485   84.4  0.0695   74.4  0.1590  -61.9
 0.345  0.3696  174.5   7.384   84.1  0.0704   74.4  0.1585  -62.0
 0.350  0.3698  174.1   7.282   83.9  0.0714   74.3  0.1579  -62.1
 0.355  0.3699  173.7   7.181   83.6  0.0723   74.3  0.1574  -62.2
 0.360  0.3701  173.2   7.080   83.4  0.0733   74.3  0.1568  -62.3
 0.365  0.3704  172.8   6.979   83.1  0.0742   74.2  0.1562  -62.5
 0.370  0.3706  172.4   6.879   82.9  0.0752   74.2  0.1557  -62.6
 0.375  0.3709  172.0   6.778   82.6  0.0761   74.2  0.1551  -62.7
 0.380  0.3712  171.6   6.678   82.3  0.0771   74.1  0.1545  -62.8
 0.385  0.3715  171.1   6.578   82.0  0.0780   74.1  0.1540  -62.9
 0.390  0.3718  170.7   6.478   81.7  0.0790   74.1  0.1534  -63.1
 0.395  0.3721  170.3   6.378   81.4  0.0799   74.0  0.1529  -63.2
 0.400  0.3725  169.9   6.278   81.1  0.0809   74.0  0.1523  -63.3
 0.405  0.3728  169.6   6.217   80.9  0.0818   73.9  0.1522  -63.5
 0.410  0.3732  169.2   6.156   80.7  0.0828   73.9  0.1521  -63.6
 0.415  0.3735  168.9   6.096   80.6  0.0837   73.8  0.1520  -63.8
 0.420  0.3739  168.5   6.035   80.4  0.0846   73.8  0.1518  -63.9
 0.425  0.3743  168.2   5.974   80.2  0.0856   73.7  0.1517  -64.1
 0.430  0.3747  167.8   5.914   80.0  0.0865   73.7  0.1516  -64.3
 0.435  0.3751  167.5   5.853   79.8  0.0874   73.6  0.1515  -64.4
 0.440  0.3755  167.1   5.793   79.6  0.0884   73.5  0.1514  -64.6
 0.445  0.3760  166.8   5.733   79.4  0.0893   73.5  0.1513  -64.7
 0.450  0.3764  166.5   5.673   79.2  0.0902   73.4  0.1512  -64.9
 0.455  0.3769  166.1   5.612   79.0  0.0912   73.4  0.1511  -65.0
 0.460  0.3774  165.8   5.552   78.7  0.0921   73.4  0.1510  -65.2
 0.465  0.3779  165.4   5.492   78.5  0.0931   73.3  0.1509  -65.4
 0.470  0.3784  165.1   5.432   78.3  0.0940   73.3  0.1508  -65.5
 0.475  0.3789  164.8   5.373   78.1  0.0949   73.2  0.1507  -65.7
 0.480  0.3794  164.4   5.313   77.8  0.0959   73.2  0.1506  -65.9
 0.485  0.3800  164.1   5.253   77.6  0.0968   73.1  0.1505  -66.0
 0.490  0.3805  163.8   5.194   77.3  0.0977   73.1  0.1504  -66.2
 0.495  0.3811  163.4   5.134   77.1  0.0987   73.0  0.1503  -66.3
 0.500  0.3817  163.1   5.075   76.8  0.0996   73.0  0.1502  -66.5
 0.505  0.3817  162.8   5.033   76.6  0.1005   72.9  0.1502  -66.7
 0.510  0.3817  162.6   4.992   76.5  0.1014   72.8  0.1503  -66.9
 0.515  0.3817  162.3   4.950   76.3  0.1023   72.7  0.1503  -67.1
 0.520  0.3817  162.1   4.908   76.1  0.1033   72.6  0.1503  -67.3
 0.525  0.3817  161.8   4.867   75.9  0.1042   72.5  0.1504  -67.5
 0.530  0.3817  161.5   4.825   75.7  0.1051   72.4  0.1504  -67.6
 0.535  0.3818  161.3   4.784   75.6  0.1060   72.3  0.1505  -67.8
 0.540  0.3818  161.0   4.742   75.4  0.1069   72.3  0.1505  -68.0
 0.545  0.3819  160.8   4.701   75.2  0.1078   72.2  0.1506  -68.2
 0.550  0.3819  160.5   4.660   75.0  0.1087   72.1  0.1506  -68.4
 0.555  0.3820  160.2   4.618   74.8  0.1097   72.0  0.1507  -68.6
 0.560  0.3820  160.0   4.577   74.6  0.1106   71.9  0.1507  -68.8
 0.565  0.3821  159.7   4.536   74.4  0.1115   71.8  0.1508  -69.0
 0.570  0.3822  159.5   4.495   74.2  0.1124   71.8  0.1508  -69.2
 0.575  0.3823  159.2   4.454   73.9  0.1133   71.7  0.1509  -69.4
 0.580  0.3824  158.9   4.413   73.7  0.1142   71.6  0.1509  -69.5
 0.585  0.3825  158.7   4.372   73.5  0.1151   71.5  0.1510  -69.7
 0.590  0.3826  158.4   4.331   73.3  0.1161   71.4  0.1511  -69.9
 0.595  0.3828  158.2   4.291   73.0  0.1170   71.4  0.1511  -70.1
 0.600  0.3829  157.9   4.250   72.8  0.1179   71.3  0.1512  -70.3
 0.605  0.3830  157.7   4.221   72.6  0.1188   71.2  0.1514  -70.5
 0.610  0.3831  157.4   4.191   72.5  0.1197   71.2  0.1516  -70.7
 0.615  0.3833  157.2   4.162   72.3  0.1206   71.1  0.1518  -70.9
 0.620  0.3834  157.0   4.133   72.1  0.1215   71.0  0.1519  -71.1
 0.625  0.3836  156.7   4.104   72.0  0.1224   70.9  0.1521  -71.3
 0.630  0.3837  156.5   4.075   71.8  0.1233   70.9  0.1523  -71.5
 0.635  0.3839  156.2   4.046   71.6  0.1242   70.8  0.1525  -71.7
 0.640  0.3840  156.0   4.017   71.4  0.1251   70.7  0.1527  -71.8
 0.645  0.3842  155.8   3.988   71.2  0.1260   70.7  0.1529  -72.0
 0.650  0.3844  155.5   3.959   71.0  0.1269   70.6  0.1531  -72.2
 0.655  0.3846  155.3   3.930   70.8  0.1278   70.5  0.1533  -72.4
 0.660  0.3847  155.1   3.901   70.7  0.1288   70.5  0.1535  -72.6
 0.665  0.3849  154.8   3.872   70.5  0.1297   70.4  0.1537  -72.8
 0.670  0.3851  154.6   3.844   70.3  0.1306   70.4  0.1539  -73.0
 0.675  0.3854  154.4   3.815   70.1  0.1315   70.3  0.1541  -73.2
 0.680  0.3856  154.1   3.786   69.9  0.1324   70.2  0.1543  -73.4
 0.685  0.3858  153.9   3.758   69.6  0.1333   70.2  0.1546  -73.5
 0.690  0.3860  153.7   3.729   69.4  0.1342   70.1  0.1548  -73.7
 0.695  0.3863  153.4   3.700   69.2  0.1351   70.1  0.1550  -73.9
 0.700  0.3865  153.2   3.672   69.0  0.1360   70.0  0.1552  -74.1
 0.705  0.3869  152.9   3.650   68.8  0.1369   69.9  0.1554  -74.3
 0.710  0.3874  152.7   3.628   68.7  0.1378   69.8  0.1557  -74.5
 0.715  0.3879  152.4   3.606   68.5  0.1386   69.7  0.1559  -74.8
 0.720  0.3883  152.1   3.583   68.3  0.1395   69.6  0.1561  -75.0
 0.725  0.3888  151.9   3.561   68.2  0.1404   69.5  0.1564  -75.2
 0.730  0.3893  151.6   3.539   68.0  0.1413   69.4  0.1566  -75.4
 0.735  0.3898  151.3   3.517   67.8  0.1422   69.4  0.1569  -75.6
 0.740  0.3903  151.1   3.496   67.6  0.1431   69.3  0.1571  -75.9
 0.745  0.3908  150.8   3.474   67.5  0.1439   69.2  0.1574  -76.1
 0.750  0.3913  150.6   3.452   67.3  0.1448   69.1  0.1576  -76.3
 0.755  0.3919  150.3   3.430   67.1  0.1457   69.0  0.1579  -76.5
 0.760  0.3924  150.0   3.408   66.9  0.1466   68.9  0.1582  -76.7
 0.765  0.3930  149.8   3.386   66.7  0.1475   68.8  0.1584  -76.9
 0.770  0.3935  149.5   3.365   66.5  0.1484   68.8  0.1587  -77.1
 0.775  0.3941  149.3   3.343   66.3  0.1493   68.7  0.1589  -77.4
 0.780  0.3946  149.0   3.321   66.1  0.1502   68.6  0.1592  -77.6
 0.785  0.3952  148.8   3.300   65.9  0.1510   68.5  0.1595  -77.8
 0.790  0.3958  148.5   3.278   65.7  0.1519   68.5  0.1598  -78.0
 0.795  0.3964  148.3   3.256   65.5  0.1528   68.4  0.1600  -78.2
 0.800  0.3970  148.0   3.235   65.3  0.1537   68.3  0.1603  -78.4
 0.805  0.3974  147.8   3.218   65.1  0.1546   68.2  0.1605  -78.6
 0.810  0.3977  147.6   3.200   65.0  0.1554   68.1  0.1607  -78.8
 0.815  0.3981  147.4   3.183   64.8  0.1563   68.1  0.1608  -78.9
 0.820  0.3985  147.2   3.166   64.7  0.1572   68.0  0.1610  -79.1
 0.825  0.3989  147.0   3.149   64.5  0.1580   67.9  0.1612  -79.3
 0.830  0.3992  146.8   3.132   64.4  0.1589   67.8  0.1614  -79.5
 0.835  0.3996  146.7   3.114   64.2  0.1598   67.7  0.1616  -79.6
 0.840  0.4000  146.5   3.097   64.0  0.1606   67.7  0.1617  -79.8
 0.845  0.4004  146.3   3.080   63.9  0.1615   67.6  0.1619  -80.0
 0.850  0.4008  146.1   3.063   63.7  0.1624   67.5  0.1621  -80.2
 0.855  0.4012  145.9   3.046   63.5  0.1633   67.4  0.1623  -80.3
 0.860  0.4016  145.7   3.029   63.4  0.1641   67.4  0.1625  -80.5
 0.865  0.4021  145.5   3.012   63.2  0.1650   67.3  0.1627  -80.7
 0.870  0.4025  145.3   2.995   63.0  0.1659   67.2  0.1629  -80.9
 0.875  0.4029  145.1   2.978   62.8  0.1667   67.1  0.1631  -81.0
 0.880  0.4033  144.9   2.961   62.6  0.1676   67.1  0.1633  -81.2
 0.885  0.4038  144.8   2.944   62.5  0.1685   67.0  0.1635  -81.4
 0.890  0.4042  144.6   2.928   62.3  0.1694   66.9  0.1637  -81.6
 0.895  0.4047  144.4   2.911   62.1  0.1702   66.9  0.1639  -81.7
 0.900  0.4051  144.2   2.894   61.9  0.1711   66.8  0.1641  -81.9
 0.905  0.4054  143.9   2.880   61.7  0.1719   66.7  0.1643  -82.1
 0.910  0.4057  143.7   2.867   61.6  0.1728   66.6  0.1645  -82.3
 0.915  0.4061  143.4   2.853   61.4  0.1736   66.5  0.1647  -82.5
 0.920  0.4064  143.2   2.839   61.3  0.1744   66.4  0.1649  -82.6
 0.925  0.4068  142.9   2.826   61.1  0.1753   66.3  0.1651  -82.8
 0.930  0.4071  142.7   2.812   60.9  0.1761   66.3  0.1653  -83.0
 0.935  0.4075  142.4   2.798   60.8  0.1769   66.2  0.1655  -83.2
 0.940  0.4079  142.2   2.785   60.6  0.1778   66.1  0.1657  -83.4
 0.945  0.4083  141.9   2.771   60.5  0.1786   66.0  0.1660  -83.5
 0.950  0.4087  141.7   2.758   60.3  0.1794   65.9  0.1662  -83.7
 0.955  0.4091  141.4   2.744   60.1  0.1803   65.8  0.1664  -83.9
 0.960  0.4095  141.2   2.731   59.9  0.1811   65.7  0.1666  -84.1
 0.965  0.4099  140.9   2.717   59.8  0.1819   65.7  0.1668  -84.3
 0.970  0.4103  140.7   2.704   59.6  0.1828   65.6  0.1670  -84.4
 0.975  0.4107  140.4   2.691   59.4  0.1836   65.5  0.1673  -84.6
 0.980  0.4112  140.2   2.677   59.2  0.1844   65.4  0.1675  -84.8
 0.985  0.4116  139.9   2.664   59.1  0.1853   65.3  0.1677  -85.0
 0.990  0.4121  139.7   2.651   58.9  0.1861   65.3  0.1679  -85.1
 0.995  0.4125  139.4   2.637   58.7  0.1870   65.2  0.1682  -85.3
 1.000  0.4130  139.2   2.624   58.5  0.1878   65.1  0.1684  -85.5
 1.005  0.4133  139.0   2.614   58.4  0.1886   65.0  0.1686  -85.7
 1.010  0.4136  138.8   2.603   58.2  0.1894   64.9  0.1687  -85.8
 1.015  0.4139  138.6   2.593   58.1  0.1902   64.8  0.1689  -86.0
 1.020  0.4142  138.4   2.582   58.0  0.1911   64.7  0.1690  -86.2
 1.025  0.4145  138.2   2.572   57.8  0.1919   64.6  0.1692  -86.3
 1.030  0.4148  137.9   2.562   57.7  0.1927   64.5  0.1694  -86.5
 1.035  0.4151  137.7   2.551   57.5  0.1935   64.4  0.1695  -86.6
 1.040  0.4154  137.5   2.541   57.4  0.1943   64.3  0.1697  -86.8
 1.045  0.4158  137.3   2.531   57.3  0.1952   64.2  0.1699  -87.0
 1.050  0.4161  137.1   2.521   57.1  0.1960   64.1  0.1701  -87.1
 1.055  0.4164  136.9   2.510   57.0  0.1968   64.1  0.1702  -87.3
 1.060  0.4168  136.7   2.500   56.8  0.1976   64.0  0.1704  -87.4
 1.065  0.4171  136.5   2.490   56.7  0.1984   63.9  0.1706  -87.6
 1.070  0.4175  136.3   2.480   56.5  0.1993   63.8  0.1708  -87.8
 1.075  0.4179  136.1   2.470   56.4  0.2001   63.7  0.1709  -87.9
 1.080  0.4182  135.9   2.459   56.2  0.2009   63.6  0.1711  -88.1
 1.085  0.4186  135.7   2.449   56.1  0.2017   63.5  0.1713  -88.2
 1.090  0.4190  135.5   2.439   55.9  0.2026   63.4  0.1715  -88.4
 1.095  0.4194  135.3   2.429   55.8  0.2034   63.3  0.1717  -88.6
 1.100  0.4197  135.1   2.419   55.6  0.2042   63.3  0.1718  -88.7
 1.105  0.4201  134.9   2.409   55.5  0.2050   63.2  0.1720  -88.9
 1.110  0.4205  134.7   2.399   55.3  0.2059   63.1  0.1722  -89.0
 1.115  0.4209  134.5   2.389   55.1  0.2067   63.0  0.1724  -89.2
 1.120  0.4214  134.3   2.379   55.0  0.2075   62.9  0.1726  -89.3
 1.125  0.4218  134.1   2.369   54.8  0.2083   62.8  0.1728  -89.5
 1.130  0.4222  133.9   2.359   54.6  0.2092   62.8  0.1730  -89.7
 1.135  0.4226  133.7   2.349   54.5  0.2100   62.7  0.1732  -89.8
 1.140  0.4230  133.5   2.339   54.3  0.2108   62.6  0.1734  -90.0
 1.145  0.4235  133.3   2.329   54.1  0.2117   62.5  0.1736  -90.1
 1.150  0.4239  133.1   2.319   54.0  0.2125   62.5  0.1738  -90.3
 1.155  0.4244  132.9   2.309   53.8  0.2133   62.4  0.1740  -90.4
 1.160  0.4248  132.7   2.299   53.6  0.2141   62.3  0.1742  -90.6
 1.165  0.4253  132.5   2.289   53.5  0.2150   62.2  0.1744  -90.7
 1.170  0.4257  132.3   2.279   53.3  0.2158   62.1  0.1746  -90.9
 1.175  0.4262  132.1   2.270   53.1  0.2166   62.1  0.1748  -91.0
 1.180  0.4267  131.9   2.260   52.9  0.2175   62.0  0.1750  -91.2
 1.185  0.4271  131.7   2.250   52.7  0.2183   61.9  0.1752  -91.3
 1.190  0.4276  131.5   2.240   52.6  0.2191   61.8  0.1754  -91.5
 1.195  0.4281  131.3   2.231   52.4  0.2200   61.8  0.1756  -91.6
 1.200  0.4286  131.1   2.221   52.2  0.2208   61.7  0.1758  -91.8
 1.205  0.4288  130.9   2.214   52.1  0.2216   61.6  0.1760  -91.9
 1.210  0.4289  130.7   2.207   51.9  0.2224   61.5  0.1761  -92.1
 1.215  0.4291  130.4   2.200   51.8  0.2232   61.4  0.1763  -92.2
 1.220  0.4292  130.2   2.193   51.7  0.2240   61.3  0.1765  -92.4
 1.225  0.4294  130.0   2.186   51.5  0.2248   61.2  0.1767  -92.5
 1.230  0.4296  129.8   2.180   51.4  0.2256   61.1  0.1769  -92.7
 1.235  0.4298  129.5   2.173   51.3  0.2264   61.1  0.1770  -92.8
 1.240  0.4300  129.3   2.166   51.1  0.2272   61.0  0.1772  -93.0
 1.245  0.4302  129.1   2.159   51.0  0.2280   60.9  0.1774  -93.1
 1.250  0.4304  128.9   2.152   50.8  0.2288   60.8  0.1776  -93.2
 1.255  0.4306  128.7   2.145   50.7  0.2297   60.7  0.1778  -93.4
 1.260  0.4308  128.4   2.139   50.6  0.2305   60.6  0.1780  -93.5
 1.265  0.4311  128.2   2.132   50.4  0.2313   60.5  0.1781  -93.7
 1.270  0.4313  128.0   2.125   50.3  0.2321   60.4  0.1783  -93.8
 1.275  0.4315  127.8   2.118   50.1  0.2329   60.4  0.1785  -94.0
 1.280  0.4318  127.6   2.111   50.0  0.2337   60.3  0.1787  -94.1
 1.285  0.4321  127.3   2.105   49.8  0.2345   60.2  0.1789  -94.2
 1.290  0.4323  127.1   2.098   49.7  0.2353   60.1  0.1791  -94.4
 1.295  0.4326  126.9   2.091   49.5  0.2361   60.0  0.1793  -94.5
 1.300  0.4328  126.7   2.085   49.4  0.2370   59.9  0.1795  -94.7
 1.305  0.4331  126.5   2.078   49.2  0.2378   59.9  0.1797  -94.8
 1.310  0.4334  126.3   2.071   49.1  0.2386   59.8  0.1799  -94.9
 1.315  0.4337  126.0   2.065   48.9  0.2394   59.7  0.1801  -95.1
 1.320  0.4340  125.8   2.058   48.8  0.2402   59.6  0.1803  -95.2
 1.325  0.4343  125.6   2.051   48.6  0.2410   59.5  0.1805  -95.4
 1.330  0.4346  125.4   2.045   48.5  0.2418   59.5  0.1807  -95.5
 1.335  0.4349  125.2   2.038   48.3  0.2427   59.4  0.1809  -95.6
 1.340  0.4353  125.0   2.032   48.2  0.2435   59.3  0.1811  -95.8
 1.345  0.4356  124.7   2.025   48.0  0.2443   59.2  0.1813  -95.9
 1.350  0.4359  124.5   2.019   47.8  0.2451   59.1  0.1815  -96.0
 1.355  0.4363  124.3   2.012   47.7  0.2459   59.1  0.1817  -96.2
 1.360  0.4366  124.1   2.006   47.5  0.2467   59.0  0.1819  -96.3
 1.365  0.4370  123.9   1.999   47.4  0.2476   58.9  0.1821  -96.5
 1.370  0.4373  123.7   1.993   47.2  0.2484   58.8  0.1823  -96.6
 1.375  0.4377  123.5   1.986   47.0  0.2492   58.8  0.1825  -96.7
 1.380  0.4381  123.2   1.980   46.9  0.2500   58.7  0.1827  -96.9
 1.385  0.4384  123.0   1.973   46.7  0.2508   58.6  0.1830  -97.0
 1.390  0.4388  122.8   1.967   46.5  0.2517   58.5  0.1832  -97.1
 1.395  0.4392  122.6   1.960   46.4  0.2525   58.5  0.1834  -97.3
 1.400  0.4396  122.4   1.954   46.2  0.2533   58.4  0.1836  -97.4
 1.405  0.4403  122.2   1.949   46.1  0.2541   58.3  0.1839  -97.5
 1.410  0.4411  121.9   1.943   45.9  0.2548   58.2  0.1842  -97.6
 1.415  0.4419  121.7   1.938   45.8  0.2556   58.1  0.1845  -97.7
 1.420  0.4426  121.5   1.933   45.6  0.2564   58.0  0.1848  -97.8
 1.425  0.4434  121.2   1.927   45.5  0.2572   57.9  0.1851  -97.9
 1.430  0.4442  121.0   1.922   45.3  0.2580   57.8  0.1854  -98.0
 1.435  0.4450  120.8   1.917   45.2  0.2587   57.7  0.1857  -98.2
 1.440  0.4457  120.6   1.911   45.0  0.2595   57.7  0.1860  -98.3
 1.445  0.4465  120.3   1.906   44.8  0.2603   57.6  0.1863  -98.4
 1.450  0.4474  120.1   1.901   44.7  0.2611   57.5  0.1866  -98.5
 1.455  0.4482  119.9   1.896   44.5  0.2618   57.4  0.1869  -98.6
 1.460  0.4490  119.7   1.890   44.4  0.2626   57.3  0.1872  -98.7
 1.465  0.4498  119.4   1.885   44.2  0.2634   57.2  0.1875  -98.8
 1.470  0.4507  119.2   1.880   44.1  0.2642   57.1  0.1878  -98.9
 1.475  0.4515  119.0   1.875   43.9  0.2650   57.0  0.1881  -99.0
 1.480  0.4523  118.8   1.870   43.7  0.2658   56.9  0.1884  -99.1
 1.485  0.4532  118.6   1.864   43.6  0.2665   56.9  0.1887  -99.2
 1.490  0.4541  118.3   1.859   43.4  0.2673   56.8  0.1890  -99.3
 1.495  0.4549  118.1   1.854   43.3  0.2681   56.7  0.1893  -99.4
 1.500  0.4558  117.9   1.849   43.1  0.2689   56.6  0.1896  -99.5
 1.505  0.4557  117.7   1.844   42.9  0.2696   56.5  0.1900  -99.6
 1.510  0.4556  117.5   1.838   42.8  0.2704   56.4  0.1903  -99.7
