! Infineon Technologies  Discrete & RF Semiconductors
! BFQ19S
! VCE =  5.0 V,  IC =  30 mA
! Common Emitter S-Parameters:                            Jan 2016
# GHz  S  MA  R  50
!  f         S11            S21            S12            S22
! GHz     MAG   ANG      MAG   ANG      MAG   ANG      MAG   ANG
 0.050  0.3943  -95.6  35.732  129.7  0.0188   64.9  0.6533  -45.3
 0.055  0.3926 -101.1  33.883  127.2  0.0198   64.2  0.6209  -47.5
 0.060  0.3945 -106.5  32.106  124.4  0.0209   63.6  0.5894  -49.9
 0.065  0.3938 -111.0  30.495  122.3  0.0220   63.2  0.5615  -51.6
 0.070  0.3955 -115.5  28.931  119.9  0.0231   62.9  0.5342  -53.5
 0.075  0.3931 -119.2  27.567  118.1  0.0240   63.0  0.5111  -54.9
 0.080  0.3924 -123.0  26.231  116.2  0.0249   63.0  0.4883  -56.5
 0.085  0.3900 -126.0  25.062  114.7  0.0259   62.9  0.4681  -57.6
 0.090  0.3886 -129.0  23.912  113.1  0.0269   62.9  0.4482  -58.9
 0.095  0.3882 -131.6  22.896  111.9  0.0277   63.5  0.4312  -59.8
 0.100  0.3886 -134.2  21.891  110.5  0.0285   64.0  0.4144  -60.8
 0.105  0.3869 -135.9  21.221  109.9  0.0294   64.2  0.4034  -61.2
 0.110  0.3856 -137.7  20.554  109.2  0.0303   64.5  0.3925  -61.6
 0.115  0.3847 -139.4  19.891  108.4  0.0312   64.7  0.3815  -62.1
 0.120  0.3841 -141.2  19.231  107.6  0.0321   64.9  0.3706  -62.6
 0.125  0.3838 -142.9  18.574  106.8  0.0329   65.1  0.3598  -63.1
 0.130  0.3840 -144.7  17.922  105.9  0.0338   65.3  0.3489  -63.6
 0.135  0.3845 -146.5  17.275  104.9  0.0347   65.4  0.3381  -64.2
 0.140  0.3853 -148.2  16.634  103.9  0.0356   65.6  0.3273  -64.8
 0.145  0.3865 -150.0  15.998  102.7  0.0365   65.8  0.3166  -65.5
 0.150  0.3881 -151.7  15.369  101.5  0.0374   65.9  0.3059  -66.2
 0.155  0.3879 -152.8  15.005  101.0  0.0383   66.2  0.3002  -66.4
 0.160  0.3878 -154.0  14.641  100.6  0.0392   66.4  0.2945  -66.7
 0.165  0.3879 -155.1  14.279  100.1  0.0400   66.6  0.2888  -67.0
 0.170  0.3881 -156.2  13.918   99.5  0.0409   66.8  0.2831  -67.3
 0.175  0.3885 -157.3  13.558   99.0  0.0418   67.1  0.2774  -67.5
 0.180  0.3891 -158.5  13.199   98.4  0.0427   67.3  0.2717  -67.8
 0.185  0.3898 -159.6  12.842   97.8  0.0436   67.5  0.2660  -68.2
 0.190  0.3906 -160.7  12.487   97.1  0.0444   67.6  0.2603  -68.5
 0.195  0.3916 -161.8  12.133   96.4  0.0453   67.8  0.2547  -68.8
 0.200  0.3927 -162.9  11.781   95.7  0.0462   68.0  0.2490  -69.2
 0.205  0.3918 -163.6  11.552   95.4  0.0471   68.1  0.2456  -69.4
 0.210  0.3910 -164.3  11.324   95.0  0.0480   68.3  0.2422  -69.6
 0.215  0.3903 -165.1  11.096   94.6  0.0490   68.4  0.2388  -69.8
 0.220  0.3896 -165.8  10.869   94.2  0.0499   68.5  0.2354  -70.0
 0.225  0.3890 -166.5  10.642   93.8  0.0508   68.7  0.2321  -70.2
 0.230  0.3884 -167.3  10.416   93.4  0.0517   68.8  0.2287  -70.4
 0.235  0.3879 -168.0  10.190   93.0  0.0526   68.9  0.2253  -70.6
 0.240  0.3875 -168.7   9.965   92.5  0.0536   69.0  0.2219  -70.8
 0.245  0.3871 -169.5   9.741   92.0  0.0545   69.1  0.2186  -71.1
 0.250  0.3868 -170.2   9.517   91.5  0.0554   69.2  0.2152  -71.3
 0.255  0.3874 -170.8   9.364   91.2  0.0563   69.3  0.2132  -71.4
 0.260  0.3881 -171.4   9.211   90.9  0.0573   69.3  0.2111  -71.6
 0.265  0.3888 -172.0   9.059   90.6  0.0582   69.4  0.2091  -71.7
 0.270  0.3896 -172.5   8.907   90.3  0.0591   69.5  0.2071  -71.9
 0.275  0.3903 -173.1   8.755   89.9  0.0600   69.5  0.2051  -72.0
 0.280  0.3912 -173.7   8.604   89.6  0.0610   69.6  0.2031  -72.2
 0.285  0.3921 -174.3   8.452   89.2  0.0619   69.6  0.2010  -72.3
 0.290  0.3930 -174.9   8.302   88.9  0.0628   69.7  0.1990  -72.5
 0.295  0.3939 -175.4   8.151   88.5  0.0638   69.7  0.1970  -72.6
 0.300  0.3949 -176.0   8.001   88.1  0.0647   69.8  0.1950  -72.8
 0.305  0.3947 -176.5   7.903   87.9  0.0656   69.8  0.1939  -72.9
 0.310  0.3945 -176.9   7.805   87.7  0.0666   69.8  0.1928  -73.1
 0.315  0.3944 -177.4   7.706   87.5  0.0675   69.9  0.1916  -73.2
 0.320  0.3943 -177.9   7.609   87.2  0.0685   69.9  0.1905  -73.3
 0.325  0.3942 -178.4   7.511   87.0  0.0694   69.9  0.1894  -73.5
 0.330  0.3941 -178.8   7.413   86.8  0.0704   69.9  0.1883  -73.6
 0.335  0.3941 -179.3   7.315   86.5  0.0713   69.9  0.1872  -73.8
 0.340  0.3941 -179.8   7.218   86.3  0.0723   69.9  0.1861  -73.9
 0.345  0.3941  179.8   7.121   86.0  0.0732   70.0  0.1849  -74.1
 0.350  0.3941  179.3   7.024   85.7  0.0741   70.0  0.1838  -74.2
 0.355  0.3942  178.8   6.927   85.5  0.0751   70.0  0.1827  -74.4
 0.360  0.3943  178.4   6.830   85.2  0.0760   70.0  0.1816  -74.5
 0.365  0.3944  177.9   6.733   84.9  0.0770   70.0  0.1805  -74.7
 0.370  0.3946  177.4   6.637   84.6  0.0779   70.0  0.1794  -74.8
 0.375  0.3947  176.9   6.540   84.3  0.0789   70.0  0.1783  -75.0
 0.380  0.3949  176.5   6.444   84.0  0.0798   70.1  0.1772  -75.1
 0.385  0.3952  176.0   6.348   83.6  0.0808   70.1  0.1761  -75.3
 0.390  0.3954  175.5   6.253   83.3  0.0817   70.1  0.1750  -75.5
 0.395  0.3957  175.1   6.157   83.0  0.0827   70.1  0.1739  -75.6
 0.400  0.3960  174.6   6.062   82.6  0.0836   70.1  0.1728  -75.8
 0.405  0.3963  174.2   6.003   82.4  0.0845   70.1  0.1724  -75.9
 0.410  0.3966  173.8   5.944   82.2  0.0854   70.0  0.1720  -76.1
 0.415  0.3970  173.4   5.886   82.0  0.0863   70.0  0.1716  -76.2
 0.420  0.3973  173.0   5.827   81.8  0.0873   70.0  0.1712  -76.4
 0.425  0.3977  172.6   5.769   81.6  0.0882   70.0  0.1708  -76.5
 0.430  0.3981  172.2   5.710   81.4  0.0891   69.9  0.1704  -76.6
 0.435  0.3985  171.8   5.652   81.1  0.0900   69.9  0.1700  -76.8
 0.440  0.3989  171.4   5.594   80.9  0.0909   69.9  0.1696  -76.9
 0.445  0.3994  171.0   5.535   80.7  0.0918   69.9  0.1692  -77.1
 0.450  0.3998  170.6   5.477   80.5  0.0927   69.8  0.1688  -77.2
 0.455  0.4003  170.2   5.419   80.2  0.0937   69.8  0.1684  -77.4
 0.460  0.4008  169.8   5.361   80.0  0.0946   69.8  0.1680  -77.5
 0.465  0.4014  169.4   5.304   79.7  0.0955   69.8  0.1676  -77.7
 0.470  0.4019  169.0   5.246   79.5  0.0964   69.7  0.1672  -77.8
 0.475  0.4025  168.6   5.188   79.2  0.0973   69.7  0.1668  -77.9
 0.480  0.4031  168.2   5.131   78.9  0.0982   69.7  0.1664  -78.1
 0.485  0.4037  167.9   5.073   78.7  0.0992   69.7  0.1661  -78.2
 0.490  0.4043  167.5   5.016   78.4  0.1001   69.6  0.1657  -78.4
 0.495  0.4049  167.1   4.959   78.1  0.1010   69.6  0.1653  -78.5
 0.500  0.4056  166.7   4.902   77.8  0.1019   69.6  0.1649  -78.7
 0.505  0.4056  166.4   4.862   77.6  0.1028   69.5  0.1648  -78.9
 0.510  0.4057  166.1   4.821   77.4  0.1038   69.5  0.1646  -79.0
 0.515  0.4057  165.9   4.781   77.2  0.1047   69.4  0.1645  -79.2
 0.520  0.4058  165.6   4.741   77.1  0.1056   69.4  0.1644  -79.4
 0.525  0.4058  165.3   4.701   76.9  0.1065   69.3  0.1642  -79.5
 0.530  0.4059  165.0   4.661   76.7  0.1075   69.3  0.1641  -79.7
 0.535  0.4060  164.7   4.621   76.5  0.1084   69.2  0.1640  -79.8
 0.540  0.4061  164.5   4.581   76.3  0.1093   69.2  0.1639  -80.0
 0.545  0.4062  164.2   4.541   76.1  0.1103   69.1  0.1638  -80.2
 0.550  0.4063  163.9   4.501   75.8  0.1112   69.1  0.1636  -80.3
 0.555  0.4064  163.6   4.462   75.6  0.1121   69.0  0.1635  -80.5
 0.560  0.4066  163.3   4.422   75.4  0.1131   69.0  0.1634  -80.7
 0.565  0.4067  163.1   4.382   75.2  0.1140   68.9  0.1633  -80.8
 0.570  0.4069  162.8   4.343   75.0  0.1149   68.9  0.1632  -81.0
 0.575  0.4070  162.5   4.303   74.7  0.1158   68.8  0.1630  -81.2
 0.580  0.4072  162.2   4.264   74.5  0.1168   68.8  0.1629  -81.3
 0.585  0.4074  161.9   4.225   74.2  0.1177   68.7  0.1628  -81.5
 0.590  0.4076  161.7   4.185   74.0  0.1186   68.7  0.1627  -81.7
 0.595  0.4078  161.4   4.146   73.8  0.1196   68.6  0.1626  -81.8
 0.600  0.4080  161.1   4.107   73.5  0.1205   68.6  0.1625  -82.0
 0.605  0.4081  160.8   4.079   73.3  0.1214   68.5  0.1626  -82.2
 0.610  0.4082  160.5   4.051   73.1  0.1223   68.5  0.1627  -82.3
 0.615  0.4083  160.3   4.023   73.0  0.1232   68.4  0.1629  -82.5
 0.620  0.4085  160.0   3.995   72.8  0.1241   68.4  0.1630  -82.7
 0.625  0.4086  159.7   3.967   72.6  0.1250   68.3  0.1631  -82.9
 0.630  0.4088  159.4   3.939   72.4  0.1259   68.3  0.1632  -83.0
 0.635  0.4090  159.1   3.911   72.2  0.1268   68.2  0.1633  -83.2
 0.640  0.4091  158.8   3.883   72.0  0.1277   68.2  0.1635  -83.4
 0.645  0.4093  158.6   3.855   71.8  0.1286   68.1  0.1636  -83.5
 0.650  0.4095  158.3   3.828   71.6  0.1295   68.1  0.1637  -83.7
 0.655  0.4097  158.0   3.800   71.4  0.1304   68.0  0.1639  -83.9
 0.660  0.4099  157.7   3.772   71.2  0.1313   68.0  0.1640  -84.1
 0.665  0.4102  157.4   3.745   71.0  0.1322   67.9  0.1641  -84.2
 0.670  0.4104  157.2   3.717   70.8  0.1331   67.9  0.1643  -84.4
 0.675  0.4106  156.9   3.690   70.6  0.1340   67.8  0.1644  -84.6
 0.680  0.4109  156.6   3.662   70.4  0.1349   67.8  0.1645  -84.7
 0.685  0.4112  156.3   3.635   70.2  0.1358   67.7  0.1647  -84.9
 0.690  0.4114  156.1   3.608   70.0  0.1367   67.7  0.1648  -85.1
 0.695  0.4117  155.8   3.580   69.7  0.1376   67.6  0.1650  -85.2
 0.700  0.4120  155.5   3.553   69.5  0.1385   67.6  0.1651  -85.4
 0.705  0.4123  155.2   3.531   69.3  0.1394   67.5  0.1653  -85.6
 0.710  0.4126  155.0   3.510   69.2  0.1403   67.4  0.1655  -85.8
 0.715  0.4129  154.7   3.488   69.0  0.1411   67.4  0.1657  -85.9
 0.720  0.4132  154.4   3.467   68.8  0.1420   67.3  0.1659  -86.1
 0.725  0.4135  154.2   3.445   68.6  0.1429   67.2  0.1662  -86.3
 0.730  0.4139  153.9   3.424   68.4  0.1438   67.1  0.1664  -86.5
 0.735  0.4142  153.6   3.403   68.2  0.1447   67.1  0.1666  -86.6
 0.740  0.4146  153.4   3.381   68.1  0.1456   67.0  0.1668  -86.8
 0.745  0.4149  153.1   3.360   67.9  0.1465   66.9  0.1670  -87.0
 0.750  0.4153  152.8   3.339   67.7  0.1473   66.9  0.1673  -87.2
 0.755  0.4157  152.6   3.317   67.5  0.1482   66.8  0.1675  -87.3
 0.760  0.4161  152.3   3.296   67.3  0.1491   66.7  0.1677  -87.5
 0.765  0.4165  152.0   3.275   67.1  0.1500   66.7  0.1680  -87.7
 0.770  0.4169  151.8   3.254   66.9  0.1509   66.6  0.1682  -87.9
 0.775  0.4173  151.5   3.233   66.7  0.1518   66.5  0.1684  -88.0
 0.780  0.4177  151.2   3.212   66.5  0.1527   66.5  0.1687  -88.2
 0.785  0.4181  151.0   3.191   66.3  0.1535   66.4  0.1689  -88.4
 0.790  0.4186  150.7   3.170   66.0  0.1544   66.3  0.1691  -88.6
 0.795  0.4190  150.5   3.149   65.8  0.1553   66.3  0.1694  -88.7
 0.800  0.4195  150.2   3.128   65.6  0.1562   66.2  0.1696  -88.9
 0.805  0.4199  150.0   3.111   65.4  0.1571   66.1  0.1697  -89.1
 0.810  0.4204  149.7   3.095   65.3  0.1579   66.1  0.1699  -89.2
 0.815  0.4209  149.5   3.078   65.1  0.1588   66.0  0.1700  -89.4
 0.820  0.4213  149.3   3.062   65.0  0.1597   65.9  0.1702  -89.5
 0.825  0.4218  149.1   3.045   64.8  0.1605   65.8  0.1704  -89.7
 0.830  0.4223  148.8   3.029   64.6  0.1614   65.8  0.1705  -89.8
 0.835  0.4228  148.6   3.013   64.5  0.1623   65.7  0.1707  -90.0
 0.840  0.4233  148.4   2.996   64.3  0.1631   65.6  0.1708  -90.1
 0.845  0.4238  148.1   2.980   64.1  0.1640   65.6  0.1710  -90.3
 0.850  0.4243  147.9   2.964   63.9  0.1649   65.5  0.1711  -90.4
 0.855  0.4248  147.7   2.947   63.8  0.1658   65.5  0.1713  -90.6
 0.860  0.4253  147.5   2.931   63.6  0.1666   65.4  0.1715  -90.7
 0.865  0.4258  147.3   2.915   63.4  0.1675   65.3  0.1716  -90.9
 0.870  0.4264  147.0   2.899   63.2  0.1684   65.3  0.1718  -91.0
 0.875  0.4269  146.8   2.882   63.0  0.1692   65.2  0.1720  -91.2
 0.880  0.4275  146.6   2.866   62.9  0.1701   65.1  0.1721  -91.3
 0.885  0.4280  146.4   2.850   62.7  0.1710   65.1  0.1723  -91.5
 0.890  0.4286  146.1   2.834   62.5  0.1719   65.0  0.1725  -91.6
 0.895  0.4291  145.9   2.818   62.3  0.1727   65.0  0.1726  -91.8
 0.900  0.4297  145.7   2.802   62.1  0.1736   64.9  0.1728  -91.9
 0.905  0.4299  145.5   2.789   61.9  0.1744   64.8  0.1730  -92.1
 0.910  0.4301  145.2   2.775   61.8  0.1753   64.7  0.1732  -92.2
 0.915  0.4303  145.0   2.762   61.6  0.1761   64.7  0.1734  -92.4
 0.920  0.4305  144.8   2.749   61.5  0.1770   64.6  0.1736  -92.5
 0.925  0.4307  144.5   2.735   61.3  0.1778   64.5  0.1738  -92.7
 0.930  0.4310  144.3   2.722   61.1  0.1787   64.4  0.1739  -92.8
 0.935  0.4312  144.0   2.709   61.0  0.1795   64.3  0.1741  -93.0
 0.940  0.4314  143.8   2.696   60.8  0.1803   64.3  0.1743  -93.2
 0.945  0.4317  143.6   2.682   60.6  0.1812   64.2  0.1745  -93.3
 0.950  0.4319  143.3   2.669   60.4  0.1820   64.1  0.1747  -93.5
 0.955  0.4322  143.1   2.656   60.3  0.1829   64.0  0.1749  -93.6
 0.960  0.4325  142.9   2.643   60.1  0.1837   64.0  0.1751  -93.8
 0.965  0.4327  142.6   2.630   59.9  0.1846   63.9  0.1753  -93.9
 0.970  0.4330  142.4   2.617   59.7  0.1854   63.8  0.1755  -94.1
 0.975  0.4333  142.2   2.604   59.5  0.1863   63.7  0.1758  -94.2
 0.980  0.4336  141.9   2.591   59.4  0.1871   63.7  0.1760  -94.4
 0.985  0.4339  141.7   2.578   59.2  0.1880   63.6  0.1762  -94.5
 0.990  0.4342  141.5   2.565   59.0  0.1888   63.5  0.1764  -94.7
 0.995  0.4346  141.2   2.552   58.8  0.1897   63.5  0.1766  -94.8
 1.000  0.4349  141.0   2.539   58.6  0.1905   63.4  0.1768  -95.0
 1.005  0.4351  140.8   2.529   58.5  0.1913   63.3  0.1770  -95.2
 1.010  0.4353  140.6   2.519   58.3  0.1922   63.2  0.1771  -95.3
 1.015  0.4355  140.3   2.509   58.2  0.1930   63.1  0.1773  -95.5
 1.020  0.4357  140.1   2.499   58.1  0.1938   63.0  0.1774  -95.6
 1.025  0.4360  139.9   2.489   57.9  0.1946   63.0  0.1776  -95.7
 1.030  0.4362  139.7   2.479   57.8  0.1955   62.9  0.1778  -95.9
 1.035  0.4364  139.4   2.469   57.6  0.1963   62.8  0.1779  -96.0
 1.040  0.4367  139.2   2.459   57.5  0.1971   62.7  0.1781  -96.2
 1.045  0.4369  139.0   2.449   57.3  0.1980   62.6  0.1783  -96.3
 1.050  0.4372  138.8   2.439   57.2  0.1988   62.5  0.1784  -96.5
 1.055  0.4375  138.6   2.430   57.0  0.1996   62.4  0.1786  -96.6
 1.060  0.4377  138.3   2.420   56.9  0.2005   62.4  0.1788  -96.8
 1.065  0.4380  138.1   2.410   56.7  0.2013   62.3  0.1789  -96.9
 1.070  0.4383  137.9   2.400   56.6  0.2021   62.2  0.1791  -97.1
 1.075  0.4386  137.7   2.390   56.4  0.2030   62.1  0.1793  -97.2
 1.080  0.4389  137.5   2.380   56.3  0.2038   62.0  0.1795  -97.4
 1.085  0.4392  137.2   2.371   56.1  0.2046   62.0  0.1796  -97.5
 1.090  0.4395  137.0   2.361   56.0  0.2055   61.9  0.1798  -97.7
 1.095  0.4398  136.8   2.351   55.8  0.2063   61.8  0.1800  -97.8
 1.100  0.4401  136.6   2.341   55.7  0.2071   61.7  0.1802  -98.0
 1.105  0.4405  136.4   2.332   55.5  0.2080   61.6  0.1803  -98.1
 1.110  0.4408  136.2   2.322   55.3  0.2088   61.6  0.1805  -98.2
 1.115  0.4411  135.9   2.312   55.2  0.2096   61.5  0.1807  -98.4
 1.120  0.4415  135.7   2.303   55.0  0.2105   61.4  0.1809  -98.5
 1.125  0.4418  135.5   2.293   54.9  0.2113   61.3  0.1811  -98.7
 1.130  0.4422  135.3   2.283   54.7  0.2121   61.3  0.1813  -98.8
 1.135  0.4426  135.1   2.274   54.5  0.2130   61.2  0.1815  -99.0
 1.140  0.4429  134.9   2.264   54.3  0.2138   61.1  0.1816  -99.1
 1.145  0.4433  134.6   2.255   54.2  0.2147   61.1  0.1818  -99.3
 1.150  0.4437  134.4   2.245   54.0  0.2155   61.0  0.1820  -99.4
 1.155  0.4441  134.2   2.236   53.8  0.2163   60.9  0.1822  -99.5
 1.160  0.4445  134.0   2.226   53.7  0.2172   60.8  0.1824  -99.7
 1.165  0.4449  133.8   2.217   53.5  0.2180   60.8  0.1826  -99.8
 1.170  0.4453  133.6   2.207   53.3  0.2189   60.7  0.1828 -100.0
 1.175  0.4457  133.4   2.198   53.1  0.2197   60.6  0.1830 -100.1
 1.180  0.4461  133.1   2.188   52.9  0.2205   60.6  0.1832 -100.2
 1.185  0.4466  132.9   2.179   52.8  0.2214   60.5  0.1834 -100.4
 1.190  0.4470  132.7   2.170   52.6  0.2222   60.4  0.1836 -100.5
 1.195  0.4475  132.5   2.160   52.4  0.2231   60.4  0.1838 -100.7
 1.200  0.4479  132.3   2.151   52.2  0.2239   60.3  0.1840 -100.8
 1.205  0.4481  132.1   2.144   52.1  0.2247   60.2  0.1842 -100.9
 1.210  0.4483  131.9   2.138   51.9  0.2255   60.1  0.1844 -101.1
 1.215  0.4485  131.6   2.131   51.8  0.2263   60.0  0.1846 -101.2
 1.220  0.4488  131.4   2.125   51.6  0.2271   59.9  0.1848 -101.3
 1.225  0.4490  131.2   2.118   51.5  0.2280   59.9  0.1850 -101.5
 1.230  0.4493  131.0   2.111   51.4  0.2288   59.8  0.1852 -101.6
 1.235  0.4495  130.7   2.105   51.2  0.2296   59.7  0.1854 -101.7
 1.240  0.4498  130.5   2.098   51.1  0.2304   59.6  0.1856 -101.9
 1.245  0.4500  130.3   2.092   50.9  0.2312   59.5  0.1858 -102.0
 1.250  0.4503  130.1   2.085   50.8  0.2320   59.4  0.1860 -102.1
 1.255  0.4506  129.9   2.079   50.6  0.2328   59.4  0.1862 -102.2
 1.260  0.4508  129.6   2.072   50.5  0.2337   59.3  0.1864 -102.4
 1.265  0.4511  129.4   2.066   50.4  0.2345   59.2  0.1866 -102.5
 1.270  0.4514  129.2   2.059   50.2  0.2353   59.1  0.1868 -102.6
 1.275  0.4517  129.0   2.053   50.1  0.2361   59.0  0.1870 -102.8
 1.280  0.4520  128.8   2.047   49.9  0.2369   59.0  0.1873 -102.9
 1.285  0.4524  128.5   2.040   49.8  0.2378   58.9  0.1875 -103.0
 1.290  0.4527  128.3   2.034   49.6  0.2386   58.8  0.1877 -103.2
 1.295  0.4530  128.1   2.027   49.4  0.2394   58.7  0.1879 -103.3
 1.300  0.4533  127.9   2.021   49.3  0.2402   58.6  0.1881 -103.4
 1.305  0.4537  127.7   2.015   49.1  0.2410   58.6  0.1883 -103.5
 1.310  0.4540  127.5   2.008   49.0  0.2419   58.5  0.1885 -103.7
 1.315  0.4544  127.2   2.002   48.8  0.2427   58.4  0.1888 -103.8
 1.320  0.4547  127.0   1.996   48.7  0.2435   58.3  0.1890 -103.9
 1.325  0.4551  126.8   1.989   48.5  0.2443   58.3  0.1892 -104.0
 1.330  0.4555  126.6   1.983   48.3  0.2451   58.2  0.1894 -104.2
 1.335  0.4559  126.4   1.977   48.2  0.2460   58.1  0.1896 -104.3
 1.340  0.4563  126.2   1.971   48.0  0.2468   58.0  0.1899 -104.4
 1.345  0.4567  125.9   1.964   47.9  0.2476   58.0  0.1901 -104.5
 1.350  0.4571  125.7   1.958   47.7  0.2484   57.9  0.1903 -104.7
 1.355  0.4575  125.5   1.952   47.5  0.2493   57.8  0.1905 -104.8
 1.360  0.4579  125.3   1.946   47.4  0.2501   57.8  0.1908 -104.9
 1.365  0.4583  125.1   1.940   47.2  0.2509   57.7  0.1910 -105.0
 1.370  0.4587  124.9   1.934   47.0  0.2517   57.6  0.1912 -105.2
 1.375  0.4591  124.7   1.927   46.9  0.2526   57.5  0.1914 -105.3
 1.380  0.4596  124.4   1.921   46.7  0.2534   57.5  0.1917 -105.4
 1.385  0.4600  124.2   1.915   46.5  0.2542   57.4  0.1919 -105.5
 1.390  0.4605  124.0   1.909   46.3  0.2550   57.3  0.1921 -105.7
 1.395  0.4609  123.8   1.903   46.2  0.2559   57.3  0.1924 -105.8
 1.400  0.4614  123.6   1.897   46.0  0.2567   57.2  0.1926 -105.9
 1.405  0.4622  123.4   1.892   45.8  0.2575   57.1  0.1929 -106.0
 1.410  0.4630  123.1   1.887   45.7  0.2583   57.0  0.1932 -106.1
 1.415  0.4638  122.9   1.881   45.5  0.2591   56.9  0.1935 -106.2
 1.420  0.4646  122.6   1.876   45.4  0.2600   56.8  0.1939 -106.2
 1.425  0.4654  122.4   1.871   45.2  0.2608   56.8  0.1942 -106.3
 1.430  0.4662  122.1   1.866   45.1  0.2616   56.7  0.1945 -106.4
 1.435  0.4670  121.9   1.861   44.9  0.2624   56.6  0.1948 -106.5
 1.440  0.4679  121.6   1.856   44.8  0.2632   56.5  0.1951 -106.6
 1.445  0.4687  121.4   1.850   44.6  0.2641   56.4  0.1955 -106.7
 1.450  0.4696  121.2   1.845   44.4  0.2649   56.3  0.1958 -106.8
 1.455  0.4705  120.9   1.840   44.3  0.2657   56.2  0.1961 -106.8
 1.460  0.4713  120.7   1.835   44.1  0.2665   56.2  0.1964 -106.9
 1.465  0.4722  120.4   1.830   44.0  0.2673   56.1  0.1967 -107.0
 1.470  0.4731  120.2   1.825   43.8  0.2682   56.0  0.1971 -107.1
 1.475  0.4740  120.0   1.820   43.6  0.2690   55.9  0.1974 -107.2
 1.480  0.4749  119.7   1.815   43.5  0.2698   55.8  0.1977 -107.3
 1.485  0.4758  119.5   1.810   43.3  0.2706   55.7  0.1980 -107.4
 1.490  0.4767  119.3   1.805   43.1  0.2714   55.7  0.1984 -107.4
 1.495  0.4777  119.0   1.800   43.0  0.2723   55.6  0.1987 -107.5
 1.500  0.4786  118.8   1.795   42.8  0.2731   55.5  0.1990 -107.6
 1.505  0.4783  118.6   1.790   42.7  0.2738   55.4  0.1993 -107.7
 1.510  0.4780  118.4   1.785   42.5  0.2746   55.3  0.1997 -107.8
