! Infineon Technologies  Discrete & RF Semiconductors
! BFQ790
! VCE =  3.0 V,  IC = 0.18 A
! Common Emitter S-Parameters:                            May 2015
# GHz  S  MA  R  50
!  f         S11            S21            S12            S22
! GHz     MAG   ANG      MAG   ANG      MAG   ANG      MAG   ANG
 0.010  0.3683  -30.0  86.594  160.5  0.0036   69.6  0.9385  -36.1
 0.020  0.3394  -54.0  74.706  144.6  0.0061   55.4  0.8957  -66.1
 0.030  0.3105  -65.3  63.701  139.2  0.0069   46.5  0.7937  -81.5
 0.040  0.2959  -78.4  53.481  131.7  0.0079   39.6  0.7621  -99.7
 0.050  0.2977  -92.0  44.586  121.0  0.0089   34.3  0.8093 -117.6
 0.060  0.2999  -96.2  40.600  119.6  0.0091   30.9  0.7864 -123.1
 0.070  0.3038 -100.4  36.644  117.9  0.0093   27.7  0.7711 -128.9
 0.080  0.3092 -104.4  32.728  115.8  0.0095   24.6  0.7640 -134.9
 0.090  0.3160 -108.3  28.868  113.1  0.0098   21.7  0.7652 -140.9
 0.100  0.3243 -112.0  25.091  109.6  0.0101   18.9  0.7748 -146.8
 0.110  0.3359 -113.8  23.600  109.0  0.0101   18.8  0.7706 -149.2
 0.120  0.3478 -115.4  22.112  108.4  0.0102   18.7  0.7677 -151.5
 0.130  0.3600 -117.0  20.627  107.7  0.0102   18.6  0.7662 -153.9
 0.140  0.3724 -118.4  19.146  106.9  0.0103   18.5  0.7660 -156.3
 0.150  0.3851 -119.8  17.669  105.9  0.0103   18.4  0.7671 -158.7
 0.200  0.4519 -125.3  13.892  103.7  0.0113   20.3  0.7672 -165.0
 0.250  0.5149 -130.0  11.595  102.2  0.0114   17.8  0.7655 -169.1
 0.300  0.5694 -134.8   9.991  100.5  0.0122   17.2  0.7653 -172.2
 0.350  0.6128 -139.4   8.992   98.9  0.0127   15.6  0.7651 -174.5
 0.400  0.6596 -143.3   8.002   96.9  0.0133   14.1  0.7662 -176.8
 0.450  0.6915 -146.9   7.339   95.3  0.0135   12.6  0.7668 -178.5
 0.500  0.7259 -150.1   6.683   93.3  0.0138   11.2  0.7681  179.8
 0.600  0.7745 -155.9   5.762   90.0  0.0139   12.2  0.7705  177.2
 0.700  0.8035 -161.1   5.032   86.5  0.0134   13.9  0.7703  174.8
 0.800  0.8326 -165.3   4.500   83.4  0.0143    9.5  0.7696  173.0
 0.900  0.8485 -169.4   4.039   80.2  0.0140    7.8  0.7679  171.2
 1.000  0.8641 -172.6   3.697   77.7  0.0144    9.1  0.7685  169.4
 1.100  0.8727 -175.9   3.386   74.8  0.0145   10.4  0.7672  167.8
 1.200  0.8804 -178.5   3.129   72.0  0.0147   10.2  0.7651  166.3
 1.300  0.8875  178.9   2.915   69.6  0.0146   11.8  0.7638  164.9
 1.400  0.8942  176.9   2.741   67.2  0.0151   11.8  0.7636  163.5
 1.500  0.8952  174.9   2.585   64.7  0.0152   11.3  0.7608  162.1
 1.600  0.9011  173.1   2.460   62.3  0.0150   12.4  0.7603  160.8
 1.700  0.8976  171.3   2.324   60.0  0.0162   13.0  0.7572  159.4
 1.800  0.9040  169.3   2.237   57.3  0.0148   11.2  0.7584  158.0
 1.900  0.9059  167.6   2.146   54.7  0.0168   12.0  0.7586  156.5
 2.000  0.9066  165.7   2.065   52.1  0.0171   11.8  0.7563  154.9
 2.100  0.9080  163.7   1.997   49.5  0.0173   11.6  0.7554  153.3
 2.200  0.9105  161.7   1.934   46.7  0.0176   11.5  0.7552  151.6
 2.300  0.9106  159.6   1.874   43.9  0.0182   10.9  0.7545  149.7
 2.400  0.9119  157.6   1.819   40.9  0.0189   10.3  0.7546  147.8
 2.500  0.9113  155.4   1.765   38.1  0.0193   10.1  0.7529  145.8
 2.600  0.9120  153.2   1.716   35.1  0.0198   10.0  0.7521  143.8
 2.700  0.9109  151.0   1.667   32.2  0.0204    7.4  0.7493  141.5
 2.800  0.9113  148.7   1.623   29.1  0.0210    5.0  0.7477  139.2
 2.900  0.9107  146.3   1.579   26.0  0.0215    4.6  0.7449  137.0
 3.000  0.9117  143.9   1.539   22.8  0.0221    4.2  0.7432  134.8
 3.100  0.9085  141.7   1.494   20.1  0.0226    2.5  0.7387  132.4
 3.200  0.9067  139.5   1.452   17.2  0.0232    0.8  0.7356  130.0
 3.300  0.9062  137.2   1.414   14.1  0.0237   -0.8  0.7337  127.6
 3.400  0.9071  135.0   1.381   10.9  0.0243   -2.3  0.7331  125.2
 3.500  0.9094  132.8   1.352    7.5  0.0249   -3.7  0.7338  122.8
 3.600  0.9074  130.6   1.314    4.8  0.0256   -4.8  0.7330  120.5
 3.700  0.9068  128.3   1.278    2.0  0.0262   -5.9  0.7334  118.2
 3.800  0.9076  126.1   1.246   -1.1  0.0269   -6.9  0.7349  115.9
 3.900  0.9097  123.8   1.218   -4.2  0.0276   -7.9  0.7376  113.7
 4.000  0.9133  121.6   1.193   -7.5  0.0283   -8.8  0.7415  111.4
 4.100  0.9102  119.5   1.163  -10.2  0.0290  -10.9  0.7427  109.0
 4.200  0.9084  117.3   1.137  -13.1  0.0297  -12.8  0.7452  106.6
 4.300  0.9078  115.2   1.113  -16.1  0.0305  -14.7  0.7490  104.2
 4.400  0.9085  113.0   1.092  -19.3  0.0313  -16.5  0.7541  101.8
 4.500  0.9105  110.9   1.075  -22.5  0.0321  -18.2  0.7604   99.5
 4.600  0.9076  108.6   1.049  -25.4  0.0323  -20.2  0.7602   97.1
 4.700  0.9061  106.3   1.026  -28.5  0.0326  -22.3  0.7614   94.7
 4.800  0.9061  103.9   1.005  -31.7  0.0329  -24.3  0.7639   92.3
 4.900  0.9077  101.6   0.988  -35.1  0.0332  -26.2  0.7677   89.9
 5.000  0.9107   99.3   0.975  -38.5  0.0336  -28.1  0.7728   87.6
 5.100  0.9060   96.8   0.950  -41.5  0.0339  -30.7  0.7714   85.5
 5.200  0.9030   94.3   0.927  -44.8  0.0342  -33.2  0.7710   83.5
 5.300  0.9018   91.8   0.907  -48.1  0.0347  -35.7  0.7715   81.4
 5.400  0.9024   89.2   0.891  -51.6  0.0352  -38.1  0.7731   79.3
 5.500  0.9047   86.7   0.878  -55.2  0.0357  -40.4  0.7757   77.3
 5.600  0.9019   84.2   0.852  -58.4  0.0362  -42.7  0.7789   75.8
 5.700  0.9008   81.6   0.828  -61.7  0.0367  -45.0  0.7825   74.3
 5.800  0.9015   79.1   0.807  -65.2  0.0373  -47.1  0.7867   72.9
 5.900  0.9040   76.5   0.790  -68.9  0.0379  -49.3  0.7914   71.4
 6.000  0.9083   74.0   0.776  -72.8  0.0386  -51.3  0.7966   70.0
!
!  f       NFmin   Gammaopt  rn/50
! GHz       dB    MAG  ANG    -
 0.450      5.20  0.46  140   0.50
 0.900      3.66  0.59  168   0.16
 1.500      3.17  0.70 -173   0.09
 1.800      3.24  0.71 -167   0.10
 2.600      3.51  0.74 -152   0.25
 3.500      4.07  0.82 -136   0.56
!
! (c) 2015  Infineon Technologies AG, Munich
