! Infineon Technologies  Discrete & RF Semiconductors
! BFQ790
! VCE =  2.0 V,  IC =  40 mA
! Common Emitter S-Parameters:                            May 2015
# GHz  S  MA  R  50
!  f         S11            S21            S12            S22
! GHz     MAG   ANG      MAG   ANG      MAG   ANG      MAG   ANG
 0.010  0.5971  -22.4  63.591  162.0  0.0058   69.2  0.9597  -30.8
 0.020  0.5413  -41.9  56.171  146.9  0.0098   60.4  0.8941  -57.3
 0.030  0.4801  -51.0  48.278  141.3  0.0115   48.9  0.7817  -71.4
 0.040  0.4342  -62.4  41.018  133.7  0.0135   40.5  0.7299  -88.9
 0.050  0.4089  -75.8  34.788  123.0  0.0157   34.4  0.7513 -107.0
 0.060  0.3974  -80.1  31.724  121.4  0.0161   31.4  0.7196 -112.8
 0.070  0.3882  -84.6  28.689  119.6  0.0165   28.6  0.6959 -119.0
 0.080  0.3816  -89.3  25.692  117.2  0.0169   25.9  0.6810 -125.7
 0.090  0.3776  -94.2  22.749  114.3  0.0174   23.4  0.6756 -132.5
 0.100  0.3764  -99.1  19.883  110.5  0.0179   21.0  0.6797 -139.3
 0.110  0.3824 -101.4  18.711  109.9  0.0181   20.7  0.6736 -141.9
 0.120  0.3890 -103.7  17.541  109.2  0.0183   20.5  0.6690 -144.6
 0.130  0.3962 -105.9  16.375  108.4  0.0186   20.2  0.6658 -147.3
 0.140  0.4040 -108.0  15.211  107.5  0.0188   19.9  0.6641 -150.0
 0.150  0.4123 -110.0  14.053  106.4  0.0190   19.7  0.6639 -152.7
 0.200  0.4677 -117.6  11.072  103.8  0.0209   19.2  0.6600 -160.0
 0.250  0.5209 -123.7   9.245  101.9  0.0210   15.8  0.6582 -164.6
 0.300  0.5671 -129.5   7.976   99.9  0.0222   13.2  0.6589 -168.1
 0.350  0.6077 -134.6   7.179   98.1  0.0232   12.4  0.6596 -170.5
 0.400  0.6524 -139.0   6.391   95.8  0.0243   11.7  0.6615 -172.9
 0.450  0.6815 -143.0   5.861   94.0  0.0246    9.3  0.6626 -174.7
 0.500  0.7135 -146.6   5.339   91.8  0.0249    6.9  0.6643 -176.4
 0.600  0.7593 -152.8   4.598   88.0  0.0259    5.6  0.6678 -179.3
 0.700  0.7879 -158.3   4.018   84.1  0.0256    4.2  0.6693  178.3
 0.800  0.8171 -162.8   3.590   80.5  0.0262    0.2  0.6708  176.5
 0.900  0.8314 -167.0   3.219   76.9  0.0258   -1.6  0.6720  174.8
 1.000  0.8459 -170.3   2.939   73.9  0.0262   -2.6  0.6728  173.2
 1.100  0.8553 -173.7   2.687   70.6  0.0265   -4.4  0.6731  171.6
 1.200  0.8626 -176.7   2.478   67.4  0.0263   -6.0  0.6731  170.3
 1.300  0.8700 -179.2   2.302   64.6  0.0261   -7.0  0.6736  169.0
 1.400  0.8757  178.5   2.160   61.8  0.0262   -8.5  0.6742  167.7
 1.500  0.8776  176.5   2.031   59.0  0.0265   -9.3  0.6734  166.5
 1.600  0.8837  174.7   1.926   56.2  0.0261  -11.3  0.6753  165.3
 1.700  0.8805  172.8   1.813   53.6  0.0263  -11.4  0.6743  164.0
 1.800  0.8870  170.9   1.743   50.6  0.0258  -14.4  0.6761  162.8
 1.900  0.8885  169.1   1.666   47.7  0.0264  -12.7  0.6774  161.4
 2.000  0.8904  167.2   1.598   44.8  0.0267  -15.8  0.6779  160.0
 2.100  0.8918  165.2   1.540   42.0  0.0265  -16.4  0.6789  158.4
 2.200  0.8943  163.2   1.486   38.9  0.0263  -17.0  0.6803  156.9
 2.300  0.8951  161.1   1.435   35.9  0.0265  -18.8  0.6812  155.1
 2.400  0.8970  159.1   1.389   32.6  0.0268  -20.6  0.6827  153.4
 2.500  0.8964  157.0   1.344   29.6  0.0267  -21.2  0.6833  151.5
 2.600  0.8970  154.8   1.302   26.4  0.0266  -21.8  0.6847  149.6
 2.700  0.8964  152.5   1.261   23.2  0.0270  -23.9  0.6839  147.5
 2.800  0.8973  150.2   1.225   19.9  0.0274  -26.0  0.6840  145.3
 2.900  0.8970  147.8   1.188   16.7  0.0272  -26.7  0.6840  143.1
 3.000  0.8982  145.4   1.154   13.3  0.0270  -27.5  0.6850  140.9
 3.100  0.8955  143.2   1.117   10.5  0.0270  -28.8  0.6826  138.6
 3.200  0.8941  140.9   1.082    7.4  0.0269  -30.1  0.6813  136.2
 3.300  0.8941  138.7   1.051    4.2  0.0269  -31.3  0.6812  133.9
 3.400  0.8955  136.4   1.023    0.8  0.0269  -32.6  0.6822  131.5
 3.500  0.8983  134.2   0.999   -2.8  0.0269  -33.9  0.6844  129.2
 3.600  0.8968  132.0   0.968   -5.6  0.0269  -34.6  0.6856  126.9
 3.700  0.8966  129.7   0.939   -8.6  0.0269  -35.4  0.6880  124.5
 3.800  0.8978  127.5   0.913  -11.8  0.0269  -36.1  0.6914  122.2
 3.900  0.9004  125.2   0.890  -15.2  0.0270  -36.9  0.6960  119.9
 4.000  0.9044  123.0   0.870  -18.7  0.0270  -37.6  0.7017  117.7
 4.100  0.9017  120.9   0.846  -21.5  0.0273  -38.7  0.7052  115.2
 4.200  0.9002  118.7   0.824  -24.5  0.0277  -39.7  0.7099  112.8
 4.300  0.9000  116.6   0.804  -27.7  0.0280  -40.7  0.7159  110.4
 4.400  0.9011  114.4   0.787  -31.0  0.0283  -41.7  0.7231  108.1
 4.500  0.9034  112.3   0.773  -34.4  0.0287  -42.7  0.7315  105.8
 4.600  0.9005  110.0   0.752  -37.4  0.0286  -44.3  0.7332  103.2
 4.700  0.8992  107.6   0.733  -40.5  0.0286  -45.8  0.7364  100.7
 4.800  0.8993  105.3   0.716  -43.9  0.0286  -47.4  0.7410   98.1
 4.900  0.9010  102.9   0.702  -47.3  0.0286  -48.9  0.7471   95.6
 5.000  0.9041  100.6   0.690  -50.9  0.0286  -50.5  0.7545   93.2
 5.100  0.8996   98.1   0.670  -54.0  0.0287  -52.1  0.7542   91.0
 5.200  0.8969   95.5   0.651  -57.3  0.0288  -53.6  0.7550   88.8
 5.300  0.8960   93.0   0.635  -60.8  0.0289  -55.2  0.7570   86.6
 5.400  0.8968   90.4   0.622  -64.4  0.0290  -56.7  0.7600   84.4
 5.500  0.8994   87.9   0.611  -68.2  0.0292  -58.2  0.7642   82.2
 5.600  0.8961   85.3   0.591  -71.3  0.0294  -59.6  0.7683   80.6
 5.700  0.8947   82.7   0.573  -74.7  0.0297  -60.9  0.7730   78.9
 5.800  0.8952   80.1   0.556  -78.3  0.0299  -62.3  0.7783   77.3
 5.900  0.8975   77.5   0.542  -82.1  0.0302  -63.6  0.7843   75.8
 6.000  0.9016   74.9   0.531  -86.0  0.0305  -64.9  0.7908   74.2
!
!  f       NFmin   Gammaopt  rn/50
! GHz       dB    MAG  ANG    -
 0.450      2.74  0.31  109   0.35
 0.900      2.18  0.46  155   0.14
 1.500      2.29  0.62 -180   0.07
 1.800      2.51  0.66 -173   0.07
 2.600      3.27  0.73 -155   0.19
 3.500      4.02  0.86 -137   0.55
!
! (c) 2015  Infineon Technologies AG, Munich
