! Infineon Technologies  Discrete & RF Semiconductors
! BFQ790
! VCE =  4.0 V,  IC = 0.14 A
! Common Emitter S-Parameters:                            May 2015
# GHz  S  MA  R  50
!  f         S11            S21            S12            S22
! GHz     MAG   ANG      MAG   ANG      MAG   ANG      MAG   ANG
 0.010  0.3524  -25.9  77.397  163.4  0.0034   61.9  0.8199  -32.2
 0.020  0.3353  -47.9  69.280  149.0  0.0060   53.4  0.7996  -60.5
 0.030  0.3093  -59.7  59.998  143.3  0.0070   45.1  0.7187  -76.3
 0.040  0.2984  -73.0  51.528  135.6  0.0081   38.9  0.7029  -94.4
 0.050  0.3042  -86.5  44.338  125.1  0.0093   34.3  0.7563 -111.6
 0.060  0.3057  -91.3  40.499  123.4  0.0095   31.1  0.7346 -117.6
 0.070  0.3093  -96.0  36.701  121.5  0.0098   28.2  0.7213 -123.9
 0.080  0.3149 -100.6  32.957  119.0  0.0101   25.3  0.7170 -130.3
 0.090  0.3225 -105.0  29.289  115.9  0.0105   22.7  0.7217 -136.7
 0.100  0.3319 -109.2  25.729  112.0  0.0108   20.2  0.7354 -143.0
 0.110  0.3430 -111.2  24.220  111.3  0.0109   19.9  0.7315 -145.5
 0.120  0.3545 -113.0  22.715  110.6  0.0110   19.5  0.7291 -148.1
 0.130  0.3663 -114.8  21.214  109.7  0.0110   19.2  0.7281 -150.7
 0.140  0.3784 -116.4  19.720  108.7  0.0111   18.8  0.7286 -153.2
 0.150  0.3908 -117.9  18.232  107.5  0.0112   18.5  0.7306 -155.8
 0.200  0.4571 -124.0  14.355  104.9  0.0120   21.3  0.7317 -162.7
 0.250  0.5167 -129.3  11.989  103.0  0.0126   18.9  0.7307 -167.3
 0.300  0.5689 -134.0  10.351  101.1  0.0132   14.8  0.7315 -170.6
 0.350  0.6126 -138.6   9.316   99.4  0.0138   14.4  0.7317 -173.1
 0.400  0.6598 -142.6   8.291   97.2  0.0144   14.1  0.7333 -175.5
 0.450  0.6908 -146.3   7.605   95.5  0.0145   12.9  0.7340 -177.3
 0.500  0.7244 -149.6   6.926   93.5  0.0146   11.7  0.7354 -179.0
 0.600  0.7727 -155.5   5.969   89.9  0.0155   11.1  0.7376  178.2
 0.700  0.8012 -160.7   5.215   86.3  0.0150   11.5  0.7376  175.8
 0.800  0.8307 -164.9   4.662   83.1  0.0147    8.1  0.7374  173.9
 0.900  0.8468 -169.1   4.185   79.8  0.0151    7.7  0.7367  172.1
 1.000  0.8607 -172.3   3.829   77.1  0.0150    9.4  0.7376  170.4
 1.100  0.8702 -175.6   3.505   74.2  0.0154    8.5  0.7363  168.7
 1.200  0.8784 -178.5   3.236   71.3  0.0161    7.4  0.7335  167.3
 1.300  0.8832  179.1   3.015   68.7  0.0156    8.2  0.7330  165.9
 1.400  0.8899  177.0   2.832   66.3  0.0155    8.0  0.7322  164.5
 1.500  0.8926  175.1   2.669   63.7  0.0160    8.1  0.7305  163.1
 1.600  0.8987  173.3   2.540   61.2  0.0161    8.9  0.7300  161.8
 1.700  0.8939  171.4   2.397   58.9  0.0165    8.7  0.7270  160.5
 1.800  0.9018  169.5   2.308   56.0  0.0163    6.9  0.7277  159.1
 1.900  0.9018  167.7   2.212   53.4  0.0172    7.6  0.7280  157.6
 2.000  0.9031  165.9   2.128   50.7  0.0174    8.4  0.7260  156.1
 2.100  0.9048  163.9   2.056   48.0  0.0180    8.6  0.7252  154.5
 2.200  0.9077  161.9   1.989   45.2  0.0186    8.8  0.7250  152.8
 2.300  0.9075  159.8   1.926   42.3  0.0190    7.2  0.7243  151.0
 2.400  0.9085  157.7   1.869   39.3  0.0194    5.7  0.7244  149.1
 2.500  0.9075  155.6   1.812   36.4  0.0198    6.0  0.7226  147.1
 2.600  0.9078  153.4   1.760   33.4  0.0203    6.2  0.7217  145.1
 2.700  0.9068  151.2   1.710   30.4  0.0209    3.7  0.7194  142.9
 2.800  0.9071  148.9   1.665   27.2  0.0216    1.4  0.7182  140.7
 2.900  0.9073  146.5   1.618   24.1  0.0221    1.1  0.7158  138.5
 3.000  0.9090  144.1   1.576   20.9  0.0226    0.8  0.7145  136.3
 3.100  0.9058  141.9   1.528   18.1  0.0230   -0.7  0.7104  134.0
 3.200  0.9039  139.6   1.484   15.2  0.0234   -2.2  0.7075  131.6
 3.300  0.9034  137.4   1.445   12.1  0.0238   -3.7  0.7058  129.2
 3.400  0.9043  135.1   1.409    8.8  0.0243   -5.1  0.7054  126.8
 3.500  0.9066  132.9   1.379    5.4  0.0247   -6.4  0.7062  124.4
 3.600  0.9048  130.7   1.339    2.7  0.0253   -7.6  0.7058  122.1
 3.700  0.9044  128.4   1.303   -0.3  0.0258   -8.7  0.7066  119.8
 3.800  0.9054  126.2   1.269   -3.3  0.0264   -9.8  0.7085  117.5
 3.900  0.9078  123.9   1.240   -6.5  0.0270  -10.8  0.7116  115.2
 4.000  0.9116  121.7   1.215   -9.9  0.0276  -11.8  0.7158  112.9
 4.100  0.9087  119.6   1.184  -12.6  0.0283  -13.6  0.7174  110.5
 4.200  0.9071  117.4   1.156  -15.5  0.0290  -15.2  0.7203  108.1
 4.300  0.9067  115.3   1.132  -18.5  0.0298  -16.8  0.7244  105.8
 4.400  0.9076  113.1   1.110  -21.7  0.0305  -18.4  0.7297  103.5
 4.500  0.9098  111.0   1.092  -24.9  0.0313  -19.8  0.7362  101.2
 4.600  0.9066  108.7   1.064  -27.9  0.0315  -21.8  0.7367   98.8
 4.700  0.9048  106.4   1.040  -31.0  0.0317  -23.7  0.7385   96.3
 4.800  0.9046  104.0   1.018  -34.2  0.0319  -25.6  0.7416   93.9
 4.900  0.9058  101.7   1.000  -37.6  0.0322  -27.5  0.7460   91.6
 5.000  0.9085   99.4   0.986  -41.1  0.0325  -29.4  0.7517   89.2
 5.100  0.9041   96.9   0.960  -44.2  0.0328  -31.9  0.7507   87.1
 5.200  0.9014   94.4   0.937  -47.5  0.0332  -34.3  0.7508   85.0
 5.300  0.9005   91.9   0.917  -50.9  0.0336  -36.7  0.7518   82.9
 5.400  0.9014   89.3   0.901  -54.4  0.0341  -39.0  0.7538   80.9
 5.500  0.9040   86.8   0.888  -58.1  0.0346  -41.3  0.7568   78.8
 5.600  0.9008   84.3   0.861  -61.2  0.0351  -43.6  0.7602   77.3
 5.700  0.8994   81.7   0.836  -64.6  0.0356  -45.9  0.7642   75.7
 5.800  0.8998   79.2   0.815  -68.1  0.0362  -48.1  0.7687   74.2
 5.900  0.9019   76.6   0.797  -71.8  0.0369  -50.2  0.7738   72.8
 6.000  0.9058   74.1   0.782  -75.6  0.0376  -52.3  0.7793   71.3
!
!  f       NFmin   Gammaopt  rn/50
! GHz       dB    MAG  ANG    -
 0.450      4.62  0.43  137   0.45
 0.900      3.28  0.56  166   0.15
 1.500      2.89  0.67 -174   0.09
 1.800      2.97  0.69 -168   0.09
 2.600      3.31  0.73 -152   0.22
 3.500      3.87  0.83 -136   0.52
!
! (c) 2015  Infineon Technologies AG, Munich
