! Infineon Technologies  Discrete & RF Semiconductors
! BFQ790
! VCE =  4.0 V,  IC =  90 mA
! Common Emitter S-Parameters:                            May 2015
# GHz  S  MA  R  50
!  f         S11            S21            S12            S22
! GHz     MAG   ANG      MAG   ANG      MAG   ANG      MAG   ANG
 0.010  0.4116  -23.3  73.022  163.8  0.0037   56.3  0.8186  -30.6
 0.020  0.3867  -43.8  65.722  149.7  0.0063   55.3  0.7970  -57.5
 0.030  0.3528  -54.9  57.097  143.9  0.0076   45.5  0.7123  -73.0
 0.040  0.3345  -67.7  49.254  136.2  0.0090   38.6  0.6901  -90.9
 0.050  0.3343  -81.3  42.629  125.8  0.0105   33.7  0.7361 -108.3
 0.060  0.3320  -86.2  38.957  124.1  0.0108   30.8  0.7121 -114.4
 0.070  0.3321  -91.0  35.327  122.1  0.0112   28.0  0.6966 -120.8
 0.080  0.3346  -95.9  31.752  119.5  0.0115   25.5  0.6902 -127.5
 0.090  0.3395 -100.6  28.253  116.4  0.0119   23.1  0.6933 -134.2
 0.100  0.3466 -105.2  24.863  112.4  0.0123   20.8  0.7056 -140.7
 0.110  0.3557 -107.4  23.412  111.7  0.0125   20.6  0.7012 -143.3
 0.120  0.3652 -109.5  21.965  110.9  0.0127   20.4  0.6983 -146.0
 0.130  0.3753 -111.5  20.523  110.0  0.0128   20.2  0.6970 -148.7
 0.140  0.3857 -113.4  19.086  109.0  0.0130   20.0  0.6972 -151.4
 0.150  0.3966 -115.2  17.657  107.8  0.0132   19.8  0.6989 -154.1
 0.200  0.4612 -122.1  13.911  105.0  0.0134   18.9  0.6983 -161.3
 0.250  0.5193 -127.4  11.628  103.1  0.0141   18.2  0.6979 -166.0
 0.300  0.5706 -132.7  10.036  101.1  0.0150   14.8  0.6984 -169.4
 0.350  0.6131 -137.4   9.035   99.3  0.0157   14.8  0.6989 -171.9
 0.400  0.6593 -141.5   8.045   97.0  0.0164   14.8  0.7007 -174.3
 0.450  0.6886 -145.3   7.377   95.2  0.0167   13.0  0.7016 -176.1
 0.500  0.7206 -148.7   6.718   93.1  0.0170   11.3  0.7031 -177.9
 0.600  0.7689 -154.7   5.787   89.5  0.0170    9.9  0.7058  179.2
 0.700  0.7978 -160.0   5.059   85.8  0.0173    9.8  0.7065  176.8
 0.800  0.8271 -164.2   4.520   82.4  0.0181    5.3  0.7069  174.9
 0.900  0.8425 -168.5   4.058   79.0  0.0179    3.4  0.7064  173.1
 1.000  0.8569 -171.8   3.710   76.2  0.0180    4.2  0.7070  171.4
 1.100  0.8662 -175.1   3.394   73.1  0.0184    4.2  0.7064  169.7
 1.200  0.8736 -177.9   3.133   70.1  0.0181    3.4  0.7047  168.4
 1.300  0.8797  179.4   2.918   67.5  0.0179    4.0  0.7040  167.0
 1.400  0.8877  177.4   2.740   65.0  0.0181    1.5  0.7038  165.6
 1.500  0.8874  175.5   2.579   62.3  0.0184    2.5  0.7015  164.3
 1.600  0.8933  173.7   2.450   59.7  0.0179    2.4  0.7018  163.0
 1.700  0.8901  171.8   2.312   57.3  0.0187    0.2  0.6992  161.8
 1.800  0.8971  170.0   2.225   54.4  0.0184    0.8  0.7004  160.4
 1.900  0.8981  168.1   2.131   51.7  0.0194    0.3  0.7004  158.9
 2.000  0.8995  166.3   2.048   48.9  0.0197    0.0  0.6990  157.5
 2.100  0.9002  164.2   1.978   46.2  0.0199    0.0  0.6987  155.9
 2.200  0.9020  162.2   1.912   43.3  0.0202    0.0  0.6989  154.3
 2.300  0.9030  160.1   1.850   40.3  0.0207   -0.9  0.6985  152.5
 2.400  0.9051  158.1   1.794   37.2  0.0212   -1.8  0.6987  150.7
 2.500  0.9047  155.9   1.738   34.3  0.0213   -2.2  0.6977  148.8
 2.600  0.9055  153.8   1.687   31.2  0.0215   -2.5  0.6975  146.8
 2.700  0.9044  151.5   1.637   28.2  0.0219   -4.6  0.6953  144.6
 2.800  0.9048  149.2   1.592   25.0  0.0223   -6.6  0.6942  142.4
 2.900  0.9041  146.8   1.546   21.8  0.0228   -7.1  0.6925  140.2
 3.000  0.9050  144.5   1.505   18.5  0.0233   -7.6  0.6919  138.0
 3.100  0.9020  142.3   1.459   15.7  0.0236   -9.0  0.6884  135.7
 3.200  0.9003  140.0   1.416   12.7  0.0239  -10.3  0.6861  133.3
 3.300  0.9001  137.8   1.378    9.6  0.0242  -11.6  0.6849  131.0
 3.400  0.9012  135.5   1.343    6.3  0.0246  -12.9  0.6848  128.6
 3.500  0.9037  133.3   1.314    2.8  0.0249  -14.1  0.6859  126.3
 3.600  0.9017  131.0   1.275    0.0  0.0254  -14.8  0.6861  124.0
 3.700  0.9012  128.8   1.239   -2.9  0.0258  -15.5  0.6875  121.7
 3.800  0.9021  126.5   1.206   -6.0  0.0263  -16.2  0.6899  119.3
 3.900  0.9043  124.2   1.178   -9.3  0.0267  -16.9  0.6935  117.1
 4.000  0.9080  122.0   1.153  -12.7  0.0272  -17.5  0.6982  114.8
 4.100  0.9053  119.9   1.123  -15.5  0.0278  -19.1  0.7005  112.4
 4.200  0.9038  117.8   1.095  -18.4  0.0284  -20.7  0.7039  110.0
 4.300  0.9036  115.6   1.071  -21.5  0.0290  -22.1  0.7086  107.7
 4.400  0.9046  113.5   1.050  -24.7  0.0296  -23.5  0.7144  105.4
 4.500  0.9069  111.4   1.032  -28.0  0.0303  -24.9  0.7214  103.1
 4.600  0.9038  109.1   1.005  -31.0  0.0304  -26.9  0.7224  100.6
 4.700  0.9022  106.7   0.982  -34.1  0.0306  -28.9  0.7247   98.2
 4.800  0.9022  104.4   0.961  -37.4  0.0308  -30.8  0.7284   95.7
 4.900  0.9036  102.0   0.944  -40.9  0.0310  -32.7  0.7334   93.3
 5.000  0.9066   99.7   0.930  -44.4  0.0313  -34.6  0.7397   90.9
 5.100  0.9021   97.2   0.905  -47.5  0.0316  -36.7  0.7392   88.8
 5.200  0.8993   94.7   0.882  -50.8  0.0319  -38.8  0.7397   86.7
 5.300  0.8983   92.2   0.863  -54.2  0.0323  -40.9  0.7413   84.6
 5.400  0.8990   89.6   0.847  -57.8  0.0327  -42.9  0.7438   82.5
 5.500  0.9015   87.1   0.834  -61.5  0.0332  -44.8  0.7473   80.4
 5.600  0.8984   84.5   0.808  -64.7  0.0336  -46.8  0.7511   78.8
 5.700  0.8970   82.0   0.784  -68.0  0.0340  -48.7  0.7554   77.3
 5.800  0.8975   79.4   0.763  -71.6  0.0345  -50.5  0.7602   75.7
 5.900  0.8997   76.8   0.745  -75.3  0.0350  -52.3  0.7657   74.2
 6.000  0.9038   74.3   0.731  -79.2  0.0355  -54.1  0.7716   72.7
!
!  f       NFmin   Gammaopt  rn/50
! GHz       dB    MAG  ANG    -
 0.450      3.79  0.38  129   0.39
 0.900      2.73  0.52  163   0.14
 1.500      2.52  0.64 -176   0.07
 1.800      2.64  0.67 -170   0.08
 2.600      3.12  0.72 -153   0.19
 3.500      3.78  0.82 -137   0.46
!
! (c) 2015  Infineon Technologies AG, Munich
