! Infineon Technologies  Discrete & RF Semiconductors
! BFQ790
! VCE =  1.0 V,  IC = 0.11 A
! Common Emitter S-Parameters:                            May 2015
# GHz  S  MA  R  50
!  f         S11            S21            S12            S22
! GHz     MAG   ANG      MAG   ANG      MAG   ANG      MAG   ANG
 0.010  0.4292  -38.1  81.003  152.0  0.0058   59.7  0.9327  -53.7
 0.020  0.3566  -65.4  62.587  133.1  0.0085   42.1  0.8892  -90.7
 0.030  0.3195  -74.8  51.767  129.0  0.0092   34.5  0.8096 -105.3
 0.040  0.2931  -86.2  41.360  122.7  0.0101   28.2  0.7913 -121.8
 0.050  0.2802  -99.3  31.772  112.4  0.0111   22.9  0.8384 -137.7
 0.060  0.2843 -102.6  28.801  111.5  0.0112   21.2  0.8267 -141.9
 0.070  0.2892 -105.8  25.838  110.4  0.0114   19.6  0.8195 -146.1
 0.080  0.2951 -108.9  22.888  109.0  0.0115   18.0  0.8169 -150.4
 0.090  0.3018 -111.9  19.956  107.1  0.0116   16.5  0.8190 -154.7
 0.100  0.3092 -114.7  17.051  104.7  0.0118   15.0  0.8256 -159.0
 0.110  0.3211 -116.1  16.013  104.4  0.0119   15.2  0.8237 -160.6
 0.120  0.3331 -117.4  14.976  104.1  0.0120   15.3  0.8224 -162.3
 0.130  0.3453 -118.6  13.939  103.7  0.0122   15.5  0.8218 -163.9
 0.140  0.3576 -119.7  12.903  103.3  0.0123   15.6  0.8218 -165.6
 0.150  0.3701 -120.7  11.868  102.8  0.0124   15.8  0.8226 -167.2
 0.200  0.4420 -125.6   9.301  101.5  0.0136   18.4  0.8234 -171.7
 0.250  0.5033 -130.0   7.751  100.5  0.0137   16.3  0.8226 -174.6
 0.300  0.5604 -134.8   6.681   99.2  0.0143   11.3  0.8223 -176.9
 0.350  0.6056 -139.2   6.014   97.8  0.0148   12.5  0.8228 -178.7
 0.400  0.6538 -142.9   5.352   96.1  0.0153   13.7  0.8241  179.5
 0.450  0.6851 -146.5   4.910   94.6  0.0156   11.1  0.8238  178.2
 0.500  0.7189 -149.7   4.471   92.9  0.0160    8.7  0.8240  176.9
 0.600  0.7718 -155.6   3.858   89.7  0.0161   10.1  0.8256  174.7
 0.700  0.8014 -160.8   3.371   86.5  0.0163   10.5  0.8256  172.7
 0.800  0.8307 -164.9   3.017   83.5  0.0166    6.9  0.8251  171.0
 0.900  0.8466 -169.1   2.710   80.4  0.0159    6.4  0.8243  169.3
 1.000  0.8617 -172.4   2.484   78.0  0.0163    6.1  0.8239  167.6
 1.100  0.8733 -175.6   2.275   75.2  0.0168    6.1  0.8232  166.1
 1.200  0.8806 -178.5   2.103   72.5  0.0168    5.8  0.8210  164.7
 1.300  0.8884  179.1   1.961   70.1  0.0169    7.7  0.8198  163.3
 1.400  0.8932  177.0   1.846   67.8  0.0168    5.7  0.8196  161.9
 1.500  0.8960  175.1   1.742   65.5  0.0178    5.9  0.8172  160.5
 1.600  0.9017  173.3   1.660   63.1  0.0170    6.0  0.8170  159.2
 1.700  0.8987  171.3   1.570   60.9  0.0185    8.0  0.8145  157.9
 1.800  0.9049  169.4   1.514   58.3  0.0180    6.2  0.8161  156.3
 1.900  0.9071  167.8   1.453   55.7  0.0189    7.0  0.8160  154.8
 2.000  0.9082  165.9   1.400   53.1  0.0197    5.9  0.8152  153.3
 2.100  0.9099  163.8   1.355   50.6  0.0201    6.1  0.8147  151.6
 2.200  0.9127  161.8   1.313   47.9  0.0205    6.3  0.8150  149.8
 2.300  0.9129  159.7   1.274   45.1  0.0209    5.2  0.8146  147.8
 2.400  0.9144  157.6   1.239   42.2  0.0214    4.1  0.8151  145.9
 2.500  0.9139  155.4   1.203   39.4  0.0218    4.1  0.8139  143.9
 2.600  0.9146  153.3   1.170   36.5  0.0221    4.1  0.8137  141.8
 2.700  0.9132  151.1   1.138   33.6  0.0229    1.6  0.8109  139.5
 2.800  0.9133  148.8   1.109   30.5  0.0237   -0.7  0.8094  137.2
 2.900  0.9126  146.4   1.079   27.5  0.0242   -1.4  0.8064  134.9
 3.000  0.9136  144.0   1.053   24.3  0.0247   -2.1  0.8047  132.6
 3.100  0.9104  141.8   1.023   21.6  0.0251   -3.8  0.7997  130.2
 3.200  0.9086  139.5   0.996   18.7  0.0255   -5.4  0.7960  127.8
 3.300  0.9082  137.3   0.971   15.7  0.0259   -7.0  0.7937  125.4
 3.400  0.9092  135.0   0.949   12.5  0.0263   -8.5  0.7928  123.0
 3.500  0.9116  132.8   0.930    9.2  0.0268  -10.0  0.7934  120.6
 3.600  0.9096  130.6   0.904    6.5  0.0274  -11.3  0.7922  118.3
 3.700  0.9091  128.3   0.881    3.7  0.0279  -12.6  0.7922  116.0
 3.800  0.9099  126.1   0.859    0.7  0.0285  -13.8  0.7935  113.7
 3.900  0.9121  123.8   0.840   -2.4  0.0291  -15.0  0.7961  111.4
 4.000  0.9157  121.6   0.824   -5.6  0.0297  -16.1  0.8000  109.1
 4.100  0.9125  119.5   0.804   -8.3  0.0305  -18.0  0.8008  106.7
 4.200  0.9106  117.3   0.786  -11.2  0.0313  -19.8  0.8030  104.3
 4.300  0.9100  115.2   0.770  -14.1  0.0321  -21.5  0.8067  101.9
 4.400  0.9106  113.0   0.756  -17.2  0.0329  -23.1  0.8117   99.5
 4.500  0.9125  110.9   0.744  -20.4  0.0338  -24.6  0.8181   97.2
 4.600  0.9093  108.6   0.726  -23.3  0.0339  -26.9  0.8168   94.8
 4.700  0.9077  106.3   0.711  -26.4  0.0340  -29.1  0.8171   92.3
 4.800  0.9075  103.9   0.697  -29.5  0.0342  -31.4  0.8187   89.9
 4.900  0.9088  101.6   0.686  -32.8  0.0344  -33.6  0.8219   87.5
 5.000  0.9116   99.3   0.677  -36.2  0.0347  -35.8  0.8265   85.1
 5.100  0.9069   96.8   0.660  -39.2  0.0349  -38.0  0.8240   83.1
 5.200  0.9041   94.2   0.645  -42.4  0.0351  -40.2  0.8225   81.1
 5.300  0.9029   91.7   0.631  -45.8  0.0354  -42.3  0.8221   79.0
 5.400  0.9036   89.1   0.621  -49.2  0.0357  -44.4  0.8227   77.0
 5.500  0.9061   86.6   0.612  -52.8  0.0361  -46.5  0.8243   75.0
 5.600  0.9028   84.0   0.594  -55.8  0.0364  -48.8  0.8267   73.6
 5.700  0.9014   81.5   0.578  -59.1  0.0367  -51.0  0.8296   72.1
 5.800  0.9018   78.9   0.564  -62.5  0.0371  -53.2  0.8330   70.7
 5.900  0.9039   76.3   0.552  -66.0  0.0376  -55.3  0.8369   69.3
 6.000  0.9079   73.8   0.542  -69.7  0.0381  -57.4  0.8413   67.9
!
!  f       NFmin   Gammaopt  rn/50
! GHz       dB    MAG  ANG    -
 0.450      4.14  0.40  133   0.41
 0.900      2.96  0.54  164   0.14
 1.500      2.66  0.66 -175   0.07
 1.800      2.77  0.68 -169   0.08
 2.600      3.18  0.72 -153   0.20
 3.500      3.77  0.83 -136   0.49
!
! (c) 2015  Infineon Technologies AG, Munich
