! Infineon Technologies  Discrete & RF Semiconductors
! BFQ790
! VCE =  4.0 V,  IC = 0.32 A
! Common Emitter S-Parameters:                            May 2015
# GHz  S  MA  R  50
!  f         S11            S21            S12            S22
! GHz     MAG   ANG      MAG   ANG      MAG   ANG      MAG   ANG
 0.010  0.2848  -32.4  81.321  162.4  0.0031   70.6  0.9291  -33.1
 0.020  0.2726  -55.8  71.957  148.1  0.0045   62.1  0.8845  -60.0
 0.030  0.2590  -68.2  62.218  142.5  0.0054   49.2  0.7874  -75.4
 0.040  0.2587  -81.4  53.301  134.8  0.0066   40.4  0.7591  -93.4
 0.050  0.2715  -93.9  45.689  124.4  0.0078   34.3  0.8067 -110.9
 0.060  0.2776  -98.3  41.714  122.8  0.0079   31.1  0.7811 -116.8
 0.070  0.2853 -102.5  37.778  120.9  0.0081   28.0  0.7641 -122.9
 0.080  0.2945 -106.5  33.894  118.6  0.0083   25.0  0.7564 -129.3
 0.090  0.3050 -110.2  30.081  115.6  0.0085   22.2  0.7581 -135.8
 0.100  0.3166 -113.6  26.372  111.8  0.0087   19.5  0.7694 -142.1
 0.110  0.3291 -115.4  24.824  111.1  0.0089   20.3  0.7640 -144.7
 0.120  0.3419 -117.1  23.280  110.4  0.0091   21.1  0.7602 -147.4
 0.130  0.3550 -118.6  21.740  109.5  0.0093   21.9  0.7580 -150.0
 0.140  0.3684 -120.1  20.206  108.5  0.0095   22.6  0.7575 -152.7
 0.150  0.3819 -121.4  18.680  107.3  0.0097   23.3  0.7586 -155.4
 0.200  0.4524 -126.5  14.708  104.9  0.0101   20.9  0.7619 -162.4
 0.250  0.5148 -131.1  12.282  103.0  0.0098   18.9  0.7589 -167.0
 0.300  0.5696 -135.8  10.596  101.2  0.0106   17.3  0.7577 -170.6
 0.350  0.6141 -140.2   9.535   99.5  0.0112   17.3  0.7573 -173.1
 0.400  0.6617 -143.9   8.485   97.4  0.0117   17.3  0.7583 -175.5
 0.450  0.6931 -147.5   7.782   95.7  0.0117   15.1  0.7590 -177.3
 0.500  0.7269 -150.7   7.088   93.7  0.0118   12.9  0.7604 -179.1
 0.600  0.7763 -156.4   6.109   90.2  0.0121   14.9  0.7632  177.9
 0.700  0.8060 -161.4   5.338   86.8  0.0128   16.0  0.7627  175.5
 0.800  0.8352 -165.6   4.772   83.6  0.0125   11.5  0.7606  173.6
 0.900  0.8499 -169.7   4.282   80.4  0.0123   11.7  0.7602  171.8
 1.000  0.8663 -173.0   3.921   77.8  0.0127   11.3  0.7611  169.9
 1.100  0.8762 -176.2   3.589   74.9  0.0128   14.8  0.7596  168.2
 1.200  0.8826 -179.0   3.315   72.1  0.0130   13.4  0.7560  166.7
 1.300  0.8915  178.6   3.091   69.6  0.0134   15.4  0.7548  165.4
 1.400  0.8942  176.6   2.904   67.3  0.0134   13.3  0.7555  164.0
 1.500  0.8967  174.7   2.737   64.8  0.0135   16.5  0.7535  162.4
 1.600  0.9038  172.8   2.604   62.3  0.0138   15.5  0.7516  161.1
 1.700  0.9000  171.0   2.462   60.1  0.0145   17.0  0.7477  159.8
 1.800  0.9051  169.1   2.371   57.3  0.0140   16.0  0.7500  158.4
 1.900  0.9063  167.4   2.273   54.7  0.0150   17.5  0.7498  156.8
 2.000  0.9094  165.5   2.188   52.0  0.0159   16.4  0.7469  155.2
 2.100  0.9104  163.5   2.116   49.4  0.0165   17.2  0.7461  153.6
 2.200  0.9126  161.5   2.048   46.7  0.0171   17.9  0.7459  152.0
 2.300  0.9126  159.4   1.984   43.9  0.0177   16.8  0.7450  150.1
 2.400  0.9139  157.3   1.925   40.9  0.0183   15.8  0.7449  148.1
 2.500  0.9135  155.1   1.868   38.1  0.0188   15.1  0.7426  146.2
 2.600  0.9144  153.0   1.815   35.1  0.0193   14.5  0.7411  144.2
 2.700  0.9131  150.7   1.764   32.1  0.0198   12.3  0.7391  141.9
 2.800  0.9133  148.4   1.718   29.0  0.0204   10.2  0.7383  139.6
 2.900  0.9120  146.1   1.671   26.0  0.0210   10.1  0.7352  137.5
 3.000  0.9121  143.8   1.629   22.8  0.0216   10.1  0.7331  135.3
 3.100  0.9090  141.6   1.581   20.0  0.0222    8.1  0.7290  132.9
 3.200  0.9073  139.3   1.536   17.1  0.0228    6.2  0.7262  130.5
 3.300  0.9069  137.0   1.496   14.0  0.0235    4.3  0.7246  128.1
 3.400  0.9081  134.8   1.461   10.8  0.0241    2.6  0.7244  125.7
 3.500  0.9106  132.5   1.430    7.4  0.0248    1.0  0.7254  123.3
 3.600  0.9087  130.3   1.389    4.7  0.0254   -0.2  0.7245  120.9
 3.700  0.9081  128.0   1.352    1.8  0.0261   -1.4  0.7249  118.6
 3.800  0.9090  125.8   1.318   -1.2  0.0268   -2.5  0.7264  116.2
 3.900  0.9113  123.5   1.288   -4.4  0.0274   -3.5  0.7292  113.9
 4.000  0.9149  121.3   1.262   -7.7  0.0281   -4.5  0.7332  111.6
 4.100  0.9118  119.2   1.231  -10.4  0.0290   -6.7  0.7341  109.2
 4.200  0.9100  117.0   1.202  -13.2  0.0299   -8.8  0.7363  106.8
 4.300  0.9095  114.9   1.177  -16.2  0.0308  -10.8  0.7398  104.5
 4.400  0.9102  112.7   1.155  -19.3  0.0318  -12.7  0.7445  102.1
 4.500  0.9122  110.6   1.136  -22.5  0.0328  -14.4  0.7504   99.8
 4.600  0.9092  108.3   1.108  -25.5  0.0330  -16.4  0.7503   97.4
 4.700  0.9077  106.0   1.083  -28.6  0.0333  -18.5  0.7516   95.0
 4.800  0.9077  103.6   1.062  -31.8  0.0336  -20.4  0.7541   92.7
 4.900  0.9091  101.3   1.044  -35.1  0.0339  -22.4  0.7579   90.3
 5.000  0.9121   99.0   1.030  -38.6  0.0343  -24.3  0.7630   88.0
 5.100  0.9076   96.5   1.003  -41.6  0.0346  -26.8  0.7619   85.9
 5.200  0.9048   94.0   0.979  -44.8  0.0349  -29.3  0.7618   83.9
 5.300  0.9037   91.5   0.958  -48.2  0.0353  -31.7  0.7627   81.8
 5.400  0.9043   89.0   0.941  -51.7  0.0358  -34.0  0.7646   79.7
 5.500  0.9067   86.5   0.927  -55.3  0.0363  -36.3  0.7675   77.7
 5.600  0.9037   84.0   0.899  -58.4  0.0367  -38.8  0.7705   76.2
 5.700  0.9024   81.4   0.875  -61.7  0.0372  -41.2  0.7740   74.7
 5.800  0.9029   78.9   0.853  -65.2  0.0377  -43.6  0.7780   73.2
 5.900  0.9052   76.3   0.835  -68.9  0.0383  -45.9  0.7826   71.7
 6.000  0.9093   73.8   0.820  -72.7  0.0390  -48.1  0.7876   70.3
!
!  f       NFmin   Gammaopt  rn/50
! GHz       dB    MAG  ANG    -
!
! noise parameter not available yet for this operation point!
!
! (c) 2015  Infineon Technologies AG, Munich
