! Infineon Technologies  Discrete & RF Semiconductors
! BFQ790
! VCE =  4.0 V,  IC =  40 mA
! Common Emitter S-Parameters:                            May 2015
# GHz  S  MA  R  50
!  f         S11            S21            S12            S22
! GHz     MAG   ANG      MAG   ANG      MAG   ANG      MAG   ANG
 0.010  0.5660  -18.7  59.836  165.4  0.0045   62.0  0.8847  -24.6
 0.020  0.5293  -35.6  54.835  152.4  0.0084   57.6  0.8395  -46.7
 0.030  0.4787  -45.1  48.239  146.4  0.0104   48.1  0.7410  -60.3
 0.040  0.4440  -56.5  42.325  138.7  0.0125   41.7  0.6945  -76.8
 0.050  0.4293  -69.2  37.419  128.7  0.0148   37.2  0.7103  -94.0
 0.060  0.4158  -73.9  34.290  126.8  0.0153   34.3  0.6743 -100.2
 0.070  0.4053  -78.9  31.206  124.6  0.0159   31.6  0.6470 -107.0
 0.080  0.3980  -84.2  28.179  121.8  0.0165   29.1  0.6295 -114.2
 0.090  0.3942  -89.6  25.233  118.5  0.0171   26.8  0.6225 -121.8
 0.100  0.3939  -95.0  22.397  114.2  0.0178   24.6  0.6266 -129.4
 0.110  0.3988  -97.6  21.108  113.4  0.0181   24.0  0.6180 -132.4
 0.120  0.4044 -100.2  19.823  112.5  0.0185   23.5  0.6113 -135.5
 0.130  0.4109 -102.7  18.544  111.4  0.0188   23.0  0.6063 -138.7
 0.140  0.4181 -105.1  17.273  110.2  0.0192   22.5  0.6032 -141.9
 0.150  0.4260 -107.4  16.010  108.8  0.0195   22.0  0.6020 -145.1
 0.200  0.4767 -115.9  12.658  105.6  0.0203   20.5  0.5957 -153.7
 0.250  0.5271 -122.2  10.599  103.3  0.0207   17.2  0.5936 -159.2
 0.300  0.5736 -128.3   9.155  101.0  0.0220   14.8  0.5936 -163.2
 0.350  0.6119 -133.6   8.242   99.0  0.0229   13.8  0.5944 -166.0
 0.400  0.6547 -138.2   7.342   96.4  0.0239   12.8  0.5967 -168.8
 0.450  0.6831 -142.2   6.733   94.4  0.0243   10.5  0.5981 -170.7
 0.500  0.7145 -145.9   6.133   92.0  0.0247    8.2  0.6002 -172.6
 0.600  0.7603 -152.2   5.280   87.9  0.0254    5.8  0.6047 -175.7
 0.700  0.7870 -157.8   4.613   83.9  0.0258    3.9  0.6072 -178.3
 0.800  0.8157 -162.3   4.115   80.1  0.0264   -0.4  0.6095  179.6
 0.900  0.8310 -166.6   3.690   76.3  0.0259   -1.8  0.6110  177.9
 1.000  0.8440 -169.9   3.368   73.2  0.0260   -4.1  0.6135  176.1
 1.100  0.8546 -173.4   3.076   69.8  0.0259   -4.8  0.6150  174.7
 1.200  0.8608 -176.3   2.833   66.5  0.0261   -6.5  0.6155  173.4
 1.300  0.8678 -179.0   2.632   63.5  0.0260   -7.5  0.6175  172.2
 1.400  0.8732  178.8   2.465   60.6  0.0257   -9.1  0.6191  170.9
 1.500  0.8765  176.7   2.314   57.7  0.0255  -10.4  0.6191  169.7
 1.600  0.8829  174.9   2.193   54.8  0.0251  -12.6  0.6216  168.6
 1.700  0.8779  173.1   2.064   52.1  0.0257  -12.0  0.6215  167.4
 1.800  0.8855  171.1   1.979   49.0  0.0257  -15.4  0.6243  166.2
 1.900  0.8865  169.4   1.889   46.1  0.0257  -14.7  0.6268  164.9
 2.000  0.8883  167.5   1.811   43.1  0.0259  -16.7  0.6274  163.6
 2.100  0.8897  165.4   1.743   40.2  0.0258  -17.2  0.6294  162.1
 2.200  0.8922  163.4   1.680   37.1  0.0257  -17.7  0.6318  160.6
 2.300  0.8933  161.3   1.621   34.0  0.0257  -19.5  0.6334  158.9
 2.400  0.8955  159.3   1.567   30.7  0.0258  -21.2  0.6355  157.3
 2.500  0.8953  157.1   1.514   27.7  0.0256  -22.0  0.6371  155.4
 2.600  0.8963  155.0   1.465   24.4  0.0255  -22.9  0.6394  153.5
 2.700  0.8954  152.7   1.418   21.2  0.0258  -25.2  0.6396  151.4
 2.800  0.8960  150.4   1.376   17.8  0.0261  -27.5  0.6406  149.4
 2.900  0.8954  148.0   1.333   14.6  0.0258  -28.0  0.6414  147.2
 3.000  0.8964  145.6   1.294   11.2  0.0256  -28.5  0.6432  145.0
 3.100  0.8940  143.4   1.251    8.3  0.0255  -29.7  0.6419  142.6
 3.200  0.8929  141.1   1.211    5.3  0.0254  -30.9  0.6416  140.3
 3.300  0.8932  138.9   1.175    2.0  0.0253  -32.1  0.6425  137.9
 3.400  0.8949  136.6   1.144   -1.5  0.0253  -33.3  0.6445  135.5
 3.500  0.8979  134.4   1.116   -5.1  0.0252  -34.5  0.6475  133.2
 3.600  0.8963  132.1   1.080   -7.9  0.0253  -35.0  0.6495  130.8
 3.700  0.8961  129.8   1.047  -11.0  0.0254  -35.4  0.6526  128.4
 3.800  0.8973  127.5   1.017  -14.2  0.0254  -35.9  0.6568  126.1
 3.900  0.8999  125.3   0.991  -17.6  0.0255  -36.3  0.6621  123.8
 4.000  0.9040  123.0   0.968  -21.2  0.0256  -36.8  0.6684  121.5
 4.100  0.9013  120.9   0.940  -24.0  0.0259  -37.5  0.6725  119.0
 4.200  0.8999  118.7   0.915  -27.0  0.0261  -38.3  0.6779  116.5
 4.300  0.8997  116.6   0.892  -30.2  0.0264  -39.0  0.6845  114.1
 4.400  0.9008  114.4   0.873  -33.5  0.0266  -39.7  0.6923  111.7
 4.500  0.9032  112.3   0.856  -37.0  0.0269  -40.4  0.7013  109.4
 4.600  0.9003  110.0   0.832  -40.0  0.0269  -41.7  0.7039  106.8
 4.700  0.8989  107.6   0.810  -43.2  0.0270  -43.0  0.7080  104.2
 4.800  0.8990  105.3   0.791  -46.6  0.0270  -44.3  0.7134  101.7
 4.900  0.9007  102.9   0.775  -50.1  0.0271  -45.5  0.7203   99.2
 5.000  0.9038  100.6   0.762  -53.7  0.0272  -46.8  0.7285   96.7
 5.100  0.8994   98.1   0.739  -56.8  0.0273  -48.5  0.7289   94.4
 5.200  0.8968   95.5   0.719  -60.2  0.0275  -50.1  0.7304   92.1
 5.300  0.8960   93.0   0.702  -63.7  0.0276  -51.7  0.7332   89.8
 5.400  0.8969   90.4   0.687  -67.4  0.0278  -53.3  0.7371   87.5
 5.500  0.8996   87.9   0.675  -71.2  0.0280  -54.9  0.7421   85.3
 5.600  0.8964   85.3   0.652  -74.4  0.0284  -56.4  0.7465   83.6
 5.700  0.8950   82.8   0.632  -77.7  0.0288  -57.8  0.7516   81.8
 5.800  0.8954   80.2   0.614  -81.3  0.0292  -59.2  0.7573   80.1
 5.900  0.8976   77.6   0.598  -85.1  0.0296  -60.6  0.7637   78.4
 6.000  0.9016   75.1   0.585  -89.1  0.0301  -61.9  0.7708   76.8
!
!  f       NFmin   Gammaopt  rn/50
! GHz       dB    MAG  ANG    -
 0.450      2.74  0.31  109   0.35
 0.900      2.18  0.46  155   0.14
 1.500      2.29  0.62 -180   0.07
 1.800      2.51  0.66 -173   0.07
 2.600      3.27  0.73 -155   0.19
 3.500      4.02  0.86 -137   0.55
!
! (c) 2015  Infineon Technologies AG, Munich
