! Infineon Technologies  Discrete & RF Semiconductors
! BFQ790
! VCE =  4.0 V,  IC = 0.26 A
! Common Emitter S-Parameters:                            May 2015
# GHz  S  MA  R  50
!  f         S11            S21            S12            S22
! GHz     MAG   ANG      MAG   ANG      MAG   ANG      MAG   ANG
 0.010  0.3010  -30.4  81.459  162.7  0.0029   69.6  0.8994  -32.9
 0.020  0.2877  -53.5  71.955  148.2  0.0053   61.8  0.8647  -60.5
 0.030  0.2705  -65.9  62.220  142.5  0.0061   49.5  0.7710  -76.1
 0.040  0.2674  -79.3  53.321  134.8  0.0071   40.2  0.7459  -94.2
 0.050  0.2787  -92.3  45.749  124.3  0.0082   33.4  0.7960 -111.7
 0.060  0.2839  -96.9  41.765  122.7  0.0084   31.3  0.7717 -117.6
 0.070  0.2909 -101.2  37.819  120.8  0.0085   29.2  0.7559 -123.8
 0.080  0.2994 -105.4  33.925  118.5  0.0087   27.2  0.7492 -130.1
 0.090  0.3094 -109.3  30.103  115.5  0.0089   25.3  0.7519 -136.5
 0.100  0.3208 -112.9  26.384  111.7  0.0091   23.5  0.7639 -142.8
 0.110  0.3329 -114.7  24.835  111.0  0.0092   22.4  0.7592 -145.4
 0.120  0.3453 -116.4  23.289  110.3  0.0094   21.3  0.7560 -148.0
 0.130  0.3580 -117.9  21.748  109.4  0.0095   20.2  0.7544 -150.6
 0.140  0.3709 -119.4  20.214  108.4  0.0097   19.2  0.7544 -153.3
 0.150  0.3841 -120.7  18.686  107.2  0.0098   18.2  0.7560 -155.9
 0.200  0.4527 -126.0  14.713  104.8  0.0099   22.7  0.7570 -162.8
 0.250  0.5160 -130.8  12.281  103.0  0.0103   16.8  0.7553 -167.4
 0.300  0.5698 -135.4  10.597  101.2  0.0112   17.1  0.7545 -170.8
 0.350  0.6137 -139.9   9.535   99.5  0.0118   16.2  0.7542 -173.3
 0.400  0.6609 -143.7   8.483   97.3  0.0124   15.3  0.7553 -175.7
 0.450  0.6923 -147.3   7.782   95.6  0.0122   13.2  0.7561 -177.5
 0.500  0.7261 -150.5   7.089   93.6  0.0120   11.1  0.7577 -179.2
 0.600  0.7762 -156.1   6.107   90.2  0.0127   12.5  0.7607  177.9
 0.700  0.8049 -161.2   5.338   86.7  0.0130   14.2  0.7608  175.4
 0.800  0.8342 -165.5   4.772   83.6  0.0133    9.6  0.7580  173.5
 0.900  0.8510 -169.6   4.284   80.4  0.0121    8.9  0.7576  171.7
 1.000  0.8635 -172.8   3.919   77.7  0.0132   10.6  0.7579  169.9
 1.100  0.8745 -176.2   3.589   74.8  0.0133   12.2  0.7574  168.2
 1.200  0.8816 -178.8   3.314   72.0  0.0140   10.6  0.7539  166.7
 1.300  0.8903  178.7   3.089   69.5  0.0136   12.4  0.7528  165.4
 1.400  0.8955  176.7   2.904   67.1  0.0135   15.6  0.7532  164.0
 1.500  0.8973  174.8   2.738   64.6  0.0142   14.6  0.7507  162.5
 1.600  0.9022  173.0   2.602   62.2  0.0138   15.3  0.7495  161.1
 1.700  0.8993  171.1   2.461   60.0  0.0149   15.8  0.7461  159.8
 1.800  0.9065  169.1   2.371   57.1  0.0149   14.3  0.7475  158.4
 1.900  0.9062  167.4   2.273   54.6  0.0153   15.3  0.7477  156.9
 2.000  0.9079  165.6   2.189   51.9  0.0163   15.2  0.7449  155.3
 2.100  0.9091  163.6   2.115   49.3  0.0167   15.3  0.7440  153.7
 2.200  0.9114  161.6   2.046   46.6  0.0172   15.3  0.7436  152.1
 2.300  0.9116  159.5   1.983   43.8  0.0177   14.4  0.7429  150.2
 2.400  0.9130  157.4   1.925   40.8  0.0183   13.5  0.7431  148.2
 2.500  0.9120  155.3   1.867   37.9  0.0187   13.6  0.7407  146.3
 2.600  0.9122  153.1   1.813   34.9  0.0192   13.7  0.7392  144.3
 2.700  0.9116  150.8   1.763   31.9  0.0199   11.1  0.7371  142.0
 2.800  0.9125  148.5   1.718   28.8  0.0206    8.6  0.7363  139.6
 2.900  0.9115  146.2   1.671   25.8  0.0212    8.0  0.7333  137.5
 3.000  0.9121  143.8   1.628   22.6  0.0219    7.4  0.7314  135.3
 3.100  0.9089  141.6   1.580   19.9  0.0224    5.7  0.7272  133.0
 3.200  0.9071  139.3   1.535   17.0  0.0230    4.1  0.7242  130.6
 3.300  0.9067  137.1   1.495   13.9  0.0235    2.6  0.7225  128.2
 3.400  0.9076  134.8   1.459   10.7  0.0241    1.2  0.7220  125.8
 3.500  0.9100  132.6   1.428    7.3  0.0247   -0.2  0.7228  123.4
 3.600  0.9079  130.4   1.387    4.6  0.0254   -1.6  0.7220  121.0
 3.700  0.9072  128.1   1.350    1.7  0.0261   -2.9  0.7224  118.7
 3.800  0.9079  125.9   1.317   -1.3  0.0268   -4.2  0.7241  116.3
 3.900  0.9099  123.6   1.287   -4.5  0.0276   -5.4  0.7269  114.0
 4.000  0.9134  121.4   1.261   -7.8  0.0283   -6.5  0.7310  111.7
 4.100  0.9106  119.3   1.229  -10.5  0.0291   -8.5  0.7322  109.3
 4.200  0.9091  117.1   1.200  -13.4  0.0299  -10.3  0.7346  107.0
 4.300  0.9089  115.0   1.175  -16.4  0.0307  -12.1  0.7382  104.6
 4.400  0.9099  112.8   1.153  -19.6  0.0315  -13.7  0.7431  102.3
 4.500  0.9122  110.7   1.134  -22.8  0.0324  -15.3  0.7492  100.0
 4.600  0.9091  108.4   1.106  -25.7  0.0326  -17.4  0.7490   97.6
 4.700  0.9074  106.1   1.082  -28.8  0.0328  -19.4  0.7502   95.2
 4.800  0.9072  103.7   1.060  -32.0  0.0331  -21.4  0.7526   92.8
 4.900  0.9086  101.4   1.042  -35.4  0.0334  -23.4  0.7564   90.4
 5.000  0.9114   99.1   1.028  -38.8  0.0338  -25.3  0.7614   88.1
 5.100  0.9071   96.6   1.001  -41.9  0.0341  -27.9  0.7604   86.0
 5.200  0.9046   94.1   0.978  -45.1  0.0345  -30.4  0.7603   84.0
 5.300  0.9038   91.5   0.957  -48.5  0.0349  -32.9  0.7613   81.9
 5.400  0.9048   89.0   0.940  -52.1  0.0354  -35.3  0.7632   79.8
 5.500  0.9076   86.5   0.927  -55.7  0.0360  -37.6  0.7661   77.8
 5.600  0.9044   84.0   0.899  -58.8  0.0364  -40.0  0.7693   76.3
 5.700  0.9030   81.5   0.874  -62.1  0.0369  -42.4  0.7731   74.8
 5.800  0.9033   78.9   0.852  -65.6  0.0375  -44.6  0.7773   73.3
 5.900  0.9054   76.4   0.833  -69.3  0.0381  -46.9  0.7821   71.8
 6.000  0.9092   73.9   0.818  -73.1  0.0388  -49.0  0.7874   70.4
!
!  f       NFmin   Gammaopt  rn/50
! GHz       dB    MAG  ANG    -
 0.450      6.29  0.51  143   0.62
 0.900      4.40  0.63  169   0.19
 1.500      3.78  0.73 -172   0.10
 1.800      3.82  0.74 -166   0.12
 2.600      4.01  0.76 -151   0.32
 3.500      4.47  0.84 -134   0.73
!
! (c) 2015  Infineon Technologies AG, Munich
