! Infineon Technologies  Discrete & RF Semiconductors
! BFQ790
! VCE =  4.0 V,  IC = 0.36 A
! Common Emitter S-Parameters:                            May 2015
# GHz  S  MA  R  50
!  f         S11            S21            S12            S22
! GHz     MAG   ANG      MAG   ANG      MAG   ANG      MAG   ANG
 0.010  0.2743  -33.6  80.570  162.3  0.0030   73.6  0.9403  -33.2
 0.020  0.2639  -56.6  71.070  148.3  0.0044   57.4  0.8962  -59.9
 0.030  0.2512  -69.3  61.534  142.6  0.0052   47.2  0.7974  -75.0
 0.040  0.2517  -82.5  52.815  135.0  0.0062   40.0  0.7660  -92.7
 0.050  0.2653  -95.1  45.386  124.6  0.0072   34.7  0.8098 -110.2
 0.060  0.2720  -99.4  41.455  123.0  0.0074   31.8  0.7836 -116.1
 0.070  0.2802 -103.4  37.563  121.1  0.0077   29.2  0.7661 -122.3
 0.080  0.2897 -107.3  33.723  118.7  0.0080   26.7  0.7580 -128.7
 0.090  0.3004 -110.8  29.954  115.8  0.0083   24.4  0.7595 -135.1
 0.100  0.3122 -114.1  26.287  112.0  0.0086   22.2  0.7705 -141.5
 0.110  0.3252 -115.8  24.741  111.3  0.0088   22.3  0.7647 -144.2
 0.120  0.3384 -117.4  23.199  110.5  0.0089   22.4  0.7607 -146.9
 0.130  0.3519 -118.9  21.662  109.6  0.0091   22.4  0.7583 -149.6
 0.140  0.3656 -120.2  20.130  108.6  0.0092   22.5  0.7577 -152.4
 0.150  0.3795 -121.5  18.607  107.4  0.0094   22.6  0.7588 -155.1
 0.200  0.4485 -126.7  14.666  105.0  0.0104   21.0  0.7624 -162.2
 0.250  0.5140 -131.3  12.241  103.0  0.0097   19.6  0.7590 -166.8
 0.300  0.5677 -135.9  10.561  101.3  0.0106   18.2  0.7575 -170.4
 0.350  0.6120 -140.3   9.502   99.6  0.0110   17.0  0.7574 -172.9
 0.400  0.6595 -144.1   8.453   97.4  0.0115   15.8  0.7587 -175.4
 0.450  0.6919 -147.6   7.755   95.7  0.0117   13.8  0.7593 -177.2
 0.500  0.7266 -150.7   7.066   93.7  0.0119   11.9  0.7607 -179.0
 0.600  0.7752 -156.5   6.091   90.3  0.0118   14.6  0.7640  178.0
 0.700  0.8048 -161.5   5.321   86.8  0.0120   15.0  0.7637  175.5
 0.800  0.8349 -165.7   4.760   83.6  0.0121   12.6  0.7603  173.6
 0.900  0.8514 -169.7   4.270   80.4  0.0119   11.0  0.7598  171.8
 1.000  0.8673 -173.0   3.906   77.8  0.0122   13.5  0.7617  170.0
 1.100  0.8751 -176.3   3.579   74.9  0.0130   14.7  0.7596  168.2
 1.200  0.8837 -179.0   3.304   72.1  0.0133   14.3  0.7565  166.7
 1.300  0.8888  178.6   3.081   69.6  0.0133   17.4  0.7550  165.4
 1.400  0.8952  176.5   2.894   67.3  0.0128   17.2  0.7561  164.0
 1.500  0.8987  174.6   2.729   64.8  0.0133   17.2  0.7538  162.5
 1.600  0.9046  172.8   2.597   62.3  0.0132   17.5  0.7510  161.1
 1.700  0.9010  171.0   2.453   60.1  0.0148   17.9  0.7479  159.9
 1.800  0.9077  169.1   2.363   57.3  0.0139   17.6  0.7507  158.4
 1.900  0.9077  167.3   2.267   54.7  0.0153   18.2  0.7505  156.8
 2.000  0.9095  165.5   2.181   52.1  0.0156   17.5  0.7469  155.2
 2.100  0.9105  163.5   2.108   49.5  0.0162   17.9  0.7460  153.7
 2.200  0.9126  161.5   2.040   46.7  0.0169   18.2  0.7457  152.1
 2.300  0.9131  159.4   1.977   43.9  0.0175   17.4  0.7449  150.1
 2.400  0.9148  157.3   1.920   40.9  0.0182   16.6  0.7450  148.1
 2.500  0.9142  155.2   1.863   38.1  0.0186   16.3  0.7427  146.2
 2.600  0.9148  153.0   1.811   35.1  0.0191   16.1  0.7412  144.3
 2.700  0.9133  150.7   1.760   32.2  0.0196   13.8  0.7393  141.9
 2.800  0.9133  148.4   1.713   29.1  0.0201   11.7  0.7387  139.5
 2.900  0.9135  146.0   1.666   26.0  0.0210   10.8  0.7355  137.4
 3.000  0.9153  143.7   1.624   22.8  0.0219    9.9  0.7332  135.3
 3.100  0.9116  141.5   1.576   20.0  0.0224    8.2  0.7291  132.9
 3.200  0.9093  139.2   1.532   17.1  0.0230    6.6  0.7262  130.5
 3.300  0.9084  137.0   1.492   14.0  0.0235    5.1  0.7247  128.1
 3.400  0.9089  134.7   1.457   10.8  0.0241    3.6  0.7244  125.7
 3.500  0.9108  132.5   1.427    7.4  0.0247    2.2  0.7254  123.3
 3.600  0.9089  130.2   1.386    4.7  0.0254    0.8  0.7246  120.9
 3.700  0.9084  128.0   1.348    1.8  0.0261   -0.5  0.7250  118.6
 3.800  0.9094  125.7   1.314   -1.2  0.0269   -1.8  0.7267  116.2
 3.900  0.9117  123.4   1.284   -4.4  0.0276   -3.0  0.7295  113.9
 4.000  0.9155  121.2   1.258   -7.7  0.0284   -4.1  0.7336  111.6
 4.100  0.9126  119.1   1.227  -10.4  0.0292   -6.2  0.7345  109.2
 4.200  0.9110  117.0   1.198  -13.2  0.0300   -8.2  0.7367  106.8
 4.300  0.9107  114.8   1.173  -16.2  0.0309  -10.1  0.7402  104.5
 4.400  0.9116  112.7   1.151  -19.3  0.0318  -11.9  0.7449  102.1
 4.500  0.9137  110.6   1.132  -22.5  0.0327  -13.6  0.7508   99.8
 4.600  0.9106  108.3   1.104  -25.4  0.0330  -15.7  0.7507   97.4
 4.700  0.9090  106.0   1.080  -28.5  0.0334  -17.8  0.7518   95.0
 4.800  0.9089  103.6   1.058  -31.7  0.0338  -19.8  0.7543   92.7
 4.900  0.9103  101.3   1.040  -35.1  0.0342  -21.8  0.7580   90.3
 5.000  0.9132   99.0   1.026  -38.5  0.0347  -23.7  0.7630   88.0
 5.100  0.9086   96.5   0.999  -41.6  0.0349  -26.4  0.7620   85.9
 5.200  0.9058   94.0   0.975  -44.8  0.0352  -29.0  0.7620   83.9
 5.300  0.9047   91.5   0.955  -48.2  0.0356  -31.5  0.7630   81.8
 5.400  0.9054   88.9   0.937  -51.8  0.0360  -34.1  0.7650   79.7
 5.500  0.9079   86.4   0.924  -55.4  0.0365  -36.5  0.7680   77.7
 5.600  0.9049   83.9   0.896  -58.5  0.0369  -38.8  0.7710   76.2
 5.700  0.9037   81.3   0.872  -61.8  0.0374  -41.1  0.7744   74.7
 5.800  0.9043   78.8   0.850  -65.3  0.0380  -43.4  0.7784   73.2
 5.900  0.9067   76.2   0.832  -69.0  0.0386  -45.5  0.7830   71.7
 6.000  0.9109   73.7   0.817  -72.8  0.0393  -47.6  0.7880   70.3
!
!  f       NFmin   Gammaopt  rn/50
! GHz       dB    MAG  ANG    -
!
! noise parameter not available yet for this operation point!
!
! (c) 2015  Infineon Technologies AG, Munich
