! Infineon Technologies  Discrete & RF Semiconductors
! BFQ790
! VCE =  2.0 V,  IC = 0.12 A
! Common Emitter S-Parameters:                            May 2015
# GHz  S  MA  R  50
!  f         S11            S21            S12            S22
! GHz     MAG   ANG      MAG   ANG      MAG   ANG      MAG   ANG
 0.010  0.4285  -31.0  85.097  158.0  0.0044   69.6  0.9516  -40.6
 0.020  0.3802  -55.1  70.867  141.0  0.0072   53.9  0.9023  -73.0
 0.030  0.3412  -65.4  59.786  136.0  0.0081   43.9  0.8013  -88.3
 0.040  0.3158  -77.9  49.373  128.7  0.0091   36.1  0.7697 -106.2
 0.050  0.3074  -91.8  40.151  117.9  0.0103   29.9  0.8157 -123.9
 0.060  0.3078  -95.8  36.490  116.7  0.0105   27.6  0.7960 -129.0
 0.070  0.3097  -99.8  32.849  115.2  0.0107   25.5  0.7830 -134.4
 0.080  0.3131 -103.7  29.236  113.3  0.0110   23.4  0.7770 -139.9
 0.090  0.3178 -107.5  25.662  110.9  0.0112   21.4  0.7783 -145.4
 0.100  0.3240 -111.2  22.147  107.8  0.0115   19.5  0.7868 -150.9
 0.110  0.3353 -113.0  20.822  107.3  0.0117   19.3  0.7832 -153.0
 0.120  0.3469 -114.6  19.498  106.8  0.0118   19.1  0.7806 -155.1
 0.130  0.3588 -116.2  18.176  106.2  0.0120   18.9  0.7791 -157.2
 0.140  0.3709 -117.6  16.856  105.5  0.0121   18.8  0.7787 -159.4
 0.150  0.3833 -119.0  15.539  104.7  0.0123   18.6  0.7794 -161.5
 0.200  0.4506 -124.7  12.190  102.9  0.0124   19.9  0.7791 -167.2
 0.250  0.5120 -129.5  10.177  101.5  0.0131   18.4  0.7782 -170.9
 0.300  0.5663 -134.2   8.770  100.0  0.0140   16.0  0.7779 -173.7
 0.350  0.6101 -138.8   7.893   98.4  0.0144   14.8  0.7779 -175.9
 0.400  0.6572 -142.7   7.024   96.5  0.0149   13.7  0.7790 -178.0
 0.450  0.6883 -146.2   6.442   95.0  0.0151   12.8  0.7798 -179.5
 0.500  0.7217 -149.4   5.866   93.1  0.0154   11.9  0.7811  179.0
 0.600  0.7706 -155.4   5.056   89.7  0.0155   11.0  0.7826  176.4
 0.700  0.8000 -160.7   4.421   86.4  0.0155   11.7  0.7828  174.2
 0.800  0.8303 -164.8   3.956   83.2  0.0157    7.2  0.7819  172.4
 0.900  0.8467 -169.0   3.552   80.1  0.0159    6.9  0.7816  170.6
 1.000  0.8606 -172.4   3.249   77.5  0.0163    6.9  0.7814  168.9
 1.100  0.8711 -175.6   2.977   74.7  0.0162    7.2  0.7802  167.3
 1.200  0.8791 -178.3   2.750   71.9  0.0162    5.7  0.7780  165.9
 1.300  0.8874  179.2   2.563   69.5  0.0163    8.3  0.7768  164.5
 1.400  0.8915  177.1   2.410   67.1  0.0166    7.1  0.7768  163.1
 1.500  0.8921  175.1   2.274   64.6  0.0169    8.1  0.7738  161.7
 1.600  0.8996  173.3   2.162   62.2  0.0163    6.6  0.7741  160.4
 1.700  0.8947  171.5   2.043   60.0  0.0174    8.1  0.7709  159.0
 1.800  0.9032  169.6   1.969   57.1  0.0173    6.6  0.7719  157.6
 1.900  0.9019  167.8   1.888   54.6  0.0182    6.3  0.7724  156.1
 2.000  0.9057  165.9   1.818   52.0  0.0185    5.9  0.7704  154.5
 2.100  0.9064  163.9   1.758   49.4  0.0189    6.2  0.7700  152.9
 2.200  0.9083  161.9   1.701   46.6  0.0193    6.5  0.7703  151.2
 2.300  0.9090  159.8   1.649   43.8  0.0198    5.4  0.7695  149.3
 2.400  0.9109  157.8   1.602   40.9  0.0204    4.3  0.7696  147.4
 2.500  0.9104  155.6   1.555   38.0  0.0206    4.2  0.7682  145.4
 2.600  0.9112  153.4   1.512   35.0  0.0209    4.1  0.7678  143.3
 2.700  0.9094  151.2   1.469   32.0  0.0217    1.9  0.7651  141.1
 2.800  0.9090  148.9   1.430   28.9  0.0225   -0.1  0.7636  138.8
 2.900  0.9089  146.5   1.391   25.9  0.0228   -0.8  0.7609  136.6
 3.000  0.9104  144.1   1.356   22.7  0.0232   -1.4  0.7594  134.3
 3.100  0.9072  141.9   1.316   20.0  0.0236   -3.0  0.7548  132.0
 3.200  0.9054  139.7   1.280   17.1  0.0241   -4.6  0.7515  129.6
 3.300  0.9050  137.4   1.247   14.0  0.0245   -6.1  0.7494  127.2
 3.400  0.9059  135.2   1.217   10.8  0.0250   -7.5  0.7487  124.8
 3.500  0.9082  133.0   1.192    7.5  0.0255   -8.9  0.7493  122.4
 3.600  0.9062  130.7   1.158    4.8  0.0261  -10.1  0.7484  120.1
 3.700  0.9056  128.5   1.127    1.9  0.0267  -11.2  0.7488  117.8
 3.800  0.9064  126.2   1.099   -1.2  0.0273  -12.3  0.7504  115.5
 3.900  0.9087  123.9   1.074   -4.4  0.0279  -13.3  0.7532  113.2
 4.000  0.9123  121.7   1.053   -7.7  0.0285  -14.3  0.7572  110.9
 4.100  0.9094  119.6   1.027  -10.4  0.0292  -16.1  0.7584  108.5
 4.200  0.9078  117.5   1.003  -13.3  0.0299  -17.9  0.7609  106.1
 4.300  0.9074  115.3   0.982  -16.3  0.0307  -19.5  0.7647  103.7
 4.400  0.9082  113.2   0.964  -19.4  0.0315  -21.1  0.7698  101.4
 4.500  0.9103  111.1   0.949  -22.6  0.0323  -22.6  0.7762   99.1
 4.600  0.9070  108.8   0.926  -25.5  0.0325  -24.6  0.7758   96.7
 4.700  0.9051  106.5   0.905  -28.6  0.0328  -26.6  0.7769   94.2
 4.800  0.9048  104.1   0.887  -31.8  0.0331  -28.6  0.7793   91.8
 4.900  0.9059  101.8   0.872  -35.2  0.0334  -30.5  0.7831   89.4
 5.000  0.9085   99.5   0.860  -38.6  0.0338  -32.4  0.7883   87.0
 5.100  0.9039   97.0   0.837  -41.6  0.0340  -34.9  0.7865   85.0
 5.200  0.9010   94.4   0.817  -44.8  0.0343  -37.4  0.7857   82.9
 5.300  0.9000   91.9   0.799  -48.2  0.0346  -39.9  0.7860   80.9
 5.400  0.9007   89.3   0.785  -51.7  0.0350  -42.3  0.7872   78.8
 5.500  0.9032   86.8   0.773  -55.3  0.0354  -44.6  0.7894   76.8
 5.600  0.9004   84.3   0.750  -58.4  0.0357  -46.7  0.7924   75.3
 5.700  0.8994   81.7   0.729  -61.7  0.0361  -48.8  0.7958   73.8
 5.800  0.9002   79.2   0.711  -65.2  0.0365  -50.9  0.7998   72.4
 5.900  0.9027   76.6   0.696  -68.8  0.0369  -52.9  0.8044   70.9
 6.000  0.9070   74.1   0.683  -72.6  0.0374  -54.8  0.8094   69.5
!
!  f       NFmin   Gammaopt  rn/50
! GHz       dB    MAG  ANG    -
 0.450      4.30  0.41  134   0.42
 0.900      3.08  0.54  164   0.15
 1.500      2.73  0.66 -174   0.08
 1.800      2.83  0.68 -169   0.08
 2.600      3.21  0.73 -152   0.21
 3.500      3.79  0.83 -136   0.49
!
! (c) 2015  Infineon Technologies AG, Munich
