! Infineon Technologies  Discrete & RF Semiconductors
! BFQ790
! VCE =  4.0 V,  IC = 0.44 A
! Common Emitter S-Parameters:                            May 2015
# GHz  S  MA  R  50
!  f         S11            S21            S12            S22
! GHz     MAG   ANG      MAG   ANG      MAG   ANG      MAG   ANG
 0.010  0.2506  -36.8  77.478  162.1  0.0030   69.7  0.9444  -33.7
 0.020  0.2403  -58.8  68.582  148.6  0.0049   59.2  0.8901  -59.0
 0.030  0.2332  -71.8  59.571  142.9  0.0055   49.1  0.7944  -74.1
 0.040  0.2383  -84.9  51.340  135.4  0.0063   41.2  0.7651  -91.6
 0.050  0.2551  -96.8  44.325  125.2  0.0072   35.2  0.8093 -108.9
 0.060  0.2636 -101.0  40.518  123.6  0.0074   32.3  0.7828 -114.8
 0.070  0.2735 -104.9  36.750  121.7  0.0076   29.6  0.7650 -121.0
 0.080  0.2845 -108.5  33.033  119.3  0.0079   27.1  0.7567 -127.5
 0.090  0.2966 -111.8  29.388  116.3  0.0081   24.7  0.7582 -134.0
 0.100  0.3096 -114.9  25.844  112.5  0.0084   22.5  0.7693 -140.4
 0.110  0.3229 -116.6  24.328  111.8  0.0084   22.3  0.7632 -143.2
 0.120  0.3364 -118.2  22.817  111.0  0.0085   22.1  0.7589 -145.9
 0.130  0.3502 -119.7  21.310  110.0  0.0085   22.0  0.7563 -148.8
 0.140  0.3641 -121.0  19.811  109.0  0.0086   21.8  0.7556 -151.6
 0.150  0.3783 -122.3  18.319  107.7  0.0086   21.6  0.7568 -154.4
 0.200  0.4489 -127.1  14.432  105.3  0.0090   24.5  0.7612 -161.5
 0.250  0.5129 -131.8  12.065  103.2  0.0094   20.9  0.7583 -166.3
 0.300  0.5687 -136.2  10.406  101.5  0.0099   16.5  0.7558 -170.0
 0.350  0.6130 -140.6   9.363   99.7  0.0104   17.6  0.7552 -172.6
 0.400  0.6604 -144.4   8.331   97.5  0.0110   18.5  0.7561 -175.1
 0.450  0.6924 -147.8   7.644   95.8  0.0110   16.3  0.7574 -176.9
 0.500  0.7265 -150.8   6.965   93.8  0.0111   14.1  0.7595 -178.7
 0.600  0.7760 -156.6   6.003   90.3  0.0118   16.0  0.7629  178.2
 0.700  0.8073 -161.7   5.244   86.8  0.0117   16.9  0.7621  175.7
 0.800  0.8367 -165.8   4.690   83.6  0.0119   13.9  0.7586  173.8
 0.900  0.8503 -169.9   4.209   80.4  0.0115   12.9  0.7583  172.0
 1.000  0.8671 -173.1   3.850   77.8  0.0118   14.3  0.7597  170.1
 1.100  0.8765 -176.4   3.524   74.8  0.0123   16.6  0.7583  168.3
 1.200  0.8835 -179.1   3.256   72.0  0.0127   15.2  0.7547  166.8
 1.300  0.8906  178.6   3.034   69.5  0.0127   17.3  0.7528  165.5
 1.400  0.8956  176.5   2.851   67.2  0.0129   18.7  0.7546  164.2
 1.500  0.8975  174.6   2.687   64.7  0.0135   19.9  0.7530  162.6
 1.600  0.9050  172.8   2.556   62.2  0.0130   19.4  0.7495  161.2
 1.700  0.9015  170.8   2.416   60.0  0.0146   18.6  0.7459  160.0
 1.800  0.9074  168.9   2.329   57.2  0.0139   19.2  0.7491  158.6
 1.900  0.9082  167.3   2.231   54.6  0.0148   20.1  0.7489  156.9
 2.000  0.9102  165.4   2.149   51.9  0.0154   18.8  0.7454  155.3
 2.100  0.9108  163.3   2.077   49.3  0.0160   19.6  0.7444  153.8
 2.200  0.9126  161.3   2.009   46.6  0.0166   20.3  0.7440  152.2
 2.300  0.9134  159.2   1.947   43.8  0.0171   19.0  0.7433  150.2
 2.400  0.9154  157.2   1.890   40.8  0.0176   17.7  0.7436  148.2
 2.500  0.9147  155.1   1.834   38.0  0.0182   18.0  0.7411  146.4
 2.600  0.9152  152.9   1.782   35.0  0.0189   18.3  0.7394  144.5
 2.700  0.9139  150.6   1.732   32.0  0.0196   15.9  0.7377  142.1
 2.800  0.9140  148.3   1.686   28.9  0.0203   13.6  0.7374  139.6
 2.900  0.9131  146.0   1.640   25.9  0.0210   12.8  0.7343  137.6
 3.000  0.9137  143.6   1.598   22.7  0.0218   12.1  0.7322  135.5
 3.100  0.9107  141.3   1.551   19.9  0.0223   10.1  0.7282  133.1
 3.200  0.9091  139.1   1.507   17.0  0.0229    8.1  0.7254  130.7
 3.300  0.9089  136.8   1.468   13.9  0.0235    6.2  0.7240  128.3
 3.400  0.9101  134.6   1.433   10.7  0.0241    4.5  0.7238  125.8
 3.500  0.9128  132.3   1.403    7.3  0.0247    2.8  0.7250  123.4
 3.600  0.9106  130.1   1.362    4.6  0.0254    1.5  0.7242  121.0
 3.700  0.9098  127.8   1.325    1.7  0.0261    0.3  0.7246  118.7
 3.800  0.9104  125.6   1.292   -1.4  0.0268   -0.8  0.7262  116.3
 3.900  0.9123  123.3   1.262   -4.6  0.0276   -1.9  0.7291  113.9
 4.000  0.9157  121.1   1.236   -7.9  0.0283   -2.9  0.7332  111.6
 4.100  0.9127  119.0   1.206  -10.6  0.0291   -5.2  0.7341  109.2
 4.200  0.9110  116.8   1.178  -13.4  0.0300   -7.4  0.7362  106.8
 4.300  0.9106  114.7   1.153  -16.4  0.0309   -9.4  0.7396  104.5
 4.400  0.9115  112.5   1.132  -19.5  0.0318  -11.4  0.7443  102.1
 4.500  0.9136  110.4   1.114  -22.7  0.0328  -13.2  0.7502   99.8
 4.600  0.9106  108.1   1.087  -25.7  0.0331  -15.3  0.7500   97.4
 4.700  0.9090  105.8   1.062  -28.7  0.0334  -17.4  0.7510   95.1
 4.800  0.9089  103.4   1.041  -32.0  0.0338  -19.4  0.7533   92.7
 4.900  0.9104  101.1   1.023  -35.3  0.0342  -21.4  0.7568   90.4
 5.000  0.9133   98.8   1.009  -38.8  0.0346  -23.3  0.7616   88.1
 5.100  0.9087   96.3   0.983  -41.9  0.0349  -25.8  0.7609   86.0
 5.200  0.9058   93.8   0.959  -45.1  0.0353  -28.2  0.7611   84.0
 5.300  0.9047   91.3   0.939  -48.5  0.0357  -30.6  0.7624   81.9
 5.400  0.9053   88.8   0.922  -52.0  0.0362  -32.9  0.7646   79.8
 5.500  0.9076   86.3   0.909  -55.6  0.0368  -35.1  0.7678   77.8
 5.600  0.9047   83.8   0.881  -58.7  0.0372  -37.5  0.7708   76.3
 5.700  0.9036   81.2   0.857  -62.0  0.0376  -39.9  0.7742   74.8
 5.800  0.9042   78.7   0.835  -65.5  0.0381  -42.2  0.7782   73.3
 5.900  0.9067   76.1   0.816  -69.1  0.0387  -44.5  0.7828   71.8
 6.000  0.9109   73.6   0.801  -72.9  0.0393  -46.7  0.7878   70.4
!
!  f       NFmin   Gammaopt  rn/50
! GHz       dB    MAG  ANG    -
!
! noise parameter not available yet for this operation point!
!
! (c) 2015  Infineon Technologies AG, Munich
