! Infineon Technologies  Discrete & RF Semiconductors
! BFQ790
! VCE =  4.0 V,  IC = 0.24 A
! Common Emitter S-Parameters:                            May 2015
# GHz  S  MA  R  50
!  f         S11            S21            S12            S22
! GHz     MAG   ANG      MAG   ANG      MAG   ANG      MAG   ANG
 0.010  0.3068  -29.6  81.304  162.8  0.0029   65.5  0.8847  -32.9
 0.020  0.2929  -52.6  71.992  148.2  0.0051   54.6  0.8565  -61.0
 0.030  0.2745  -65.0  62.225  142.5  0.0060   45.4  0.7649  -76.5
 0.040  0.2705  -78.5  53.293  134.8  0.0069   38.6  0.7409  -94.6
 0.050  0.2814  -91.7  45.688  124.3  0.0080   33.6  0.7909 -112.0
 0.060  0.2863  -96.3  41.709  122.7  0.0082   31.0  0.7671 -117.9
 0.070  0.2929 -100.7  37.768  120.8  0.0085   28.5  0.7519 -124.1
 0.080  0.3013 -104.9  33.879  118.5  0.0087   26.2  0.7457 -130.4
 0.090  0.3111 -108.9  30.062  115.5  0.0090   24.0  0.7488 -136.8
 0.100  0.3224 -112.6  26.348  111.7  0.0093   21.9  0.7611 -143.1
 0.110  0.3342 -114.4  24.799  111.0  0.0094   21.3  0.7566 -145.7
 0.120  0.3462 -116.0  23.253  110.3  0.0095   20.7  0.7536 -148.3
 0.130  0.3586 -117.5  21.713  109.4  0.0097   20.1  0.7521 -150.9
 0.140  0.3711 -119.0  20.177  108.4  0.0098   19.5  0.7522 -153.5
 0.150  0.3839 -120.3  18.649  107.3  0.0099   18.9  0.7539 -156.1
 0.200  0.4521 -125.8  14.683  104.8  0.0102   21.3  0.7552 -163.0
 0.250  0.5147 -130.4  12.263  103.0  0.0109   19.6  0.7536 -167.5
 0.300  0.5696 -135.2  10.584  101.2  0.0110   16.4  0.7525 -170.9
 0.350  0.6134 -139.7   9.522   99.5  0.0117   16.1  0.7525 -173.4
 0.400  0.6604 -143.6   8.471   97.3  0.0125   15.8  0.7539 -175.8
 0.450  0.6920 -147.1   7.772   95.7  0.0124   14.4  0.7548 -177.6
 0.500  0.7259 -150.3   7.081   93.7  0.0124   13.0  0.7564 -179.3
 0.600  0.7759 -156.1   6.105   90.2  0.0128   13.8  0.7588  177.8
 0.700  0.8042 -161.3   5.331   86.7  0.0132   15.0  0.7587  175.4
 0.800  0.8345 -165.4   4.767   83.5  0.0133   10.2  0.7570  173.6
 0.900  0.8495 -169.6   4.279   80.3  0.0127   10.4  0.7566  171.7
 1.000  0.8643 -172.7   3.916   77.7  0.0128   12.7  0.7569  169.9
 1.100  0.8741 -176.1   3.582   74.8  0.0135   15.1  0.7558  168.3
 1.200  0.8822 -178.7   3.312   72.0  0.0137   12.4  0.7529  166.7
 1.300  0.8899  178.9   3.085   69.5  0.0139   13.4  0.7518  165.4
 1.400  0.8937  176.7   2.899   67.1  0.0137   13.8  0.7521  164.0
 1.500  0.8966  174.8   2.733   64.6  0.0142   12.9  0.7494  162.5
 1.600  0.9018  172.9   2.600   62.1  0.0143   13.2  0.7480  161.2
 1.700  0.8974  171.1   2.457   59.9  0.0150   14.5  0.7449  159.9
 1.800  0.9046  169.2   2.369   57.1  0.0145   14.7  0.7460  158.4
 1.900  0.9050  167.4   2.271   54.5  0.0154   14.7  0.7460  156.9
 2.000  0.9073  165.6   2.184   51.8  0.0163   14.7  0.7437  155.3
 2.100  0.9082  163.6   2.112   49.2  0.0169   15.0  0.7428  153.7
 2.200  0.9103  161.6   2.044   46.5  0.0175   15.3  0.7424  152.1
 2.300  0.9110  159.5   1.980   43.7  0.0179   14.3  0.7417  150.2
 2.400  0.9129  157.4   1.921   40.7  0.0183   13.3  0.7419  148.2
 2.500  0.9121  155.3   1.864   37.8  0.0189   12.8  0.7399  146.3
 2.600  0.9126  153.2   1.812   34.8  0.0196   12.3  0.7387  144.3
 2.700  0.9113  150.9   1.761   31.8  0.0200   10.2  0.7363  142.0
 2.800  0.9114  148.6   1.714   28.7  0.0205    8.2  0.7350  139.7
 2.900  0.9110  146.2   1.667   25.7  0.0213    8.1  0.7321  137.6
 3.000  0.9121  143.8   1.625   22.5  0.0221    8.0  0.7303  135.4
 3.100  0.9089  141.6   1.577   19.8  0.0226    6.1  0.7260  133.0
 3.200  0.9070  139.4   1.533   16.9  0.0231    4.2  0.7230  130.6
 3.300  0.9065  137.1   1.492   13.8  0.0236    2.5  0.7213  128.2
 3.400  0.9074  134.9   1.457   10.6  0.0241    0.8  0.7209  125.8
 3.500  0.9096  132.7   1.426    7.2  0.0247   -0.8  0.7217  123.4
 3.600  0.9075  130.4   1.385    4.5  0.0254   -2.1  0.7210  121.1
 3.700  0.9067  128.2   1.348    1.6  0.0260   -3.3  0.7214  118.7
 3.800  0.9075  125.9   1.314   -1.5  0.0267   -4.5  0.7231  116.4
 3.900  0.9096  123.6   1.284   -4.7  0.0274   -5.6  0.7260  114.1
 4.000  0.9131  121.4   1.258   -8.0  0.0281   -6.6  0.7300  111.8
 4.100  0.9102  119.3   1.227  -10.7  0.0289   -8.7  0.7311  109.4
 4.200  0.9086  117.2   1.198  -13.6  0.0296  -10.6  0.7335  107.1
 4.300  0.9082  115.0   1.173  -16.6  0.0305  -12.5  0.7371  104.7
 4.400  0.9091  112.9   1.151  -19.7  0.0313  -14.2  0.7420  102.4
 4.500  0.9112  110.8   1.132  -22.9  0.0322  -15.9  0.7480  100.1
 4.600  0.9079  108.5   1.104  -25.9  0.0325  -18.0  0.7479   97.7
 4.700  0.9062  106.1   1.079  -29.0  0.0328  -20.0  0.7492   95.3
 4.800  0.9059  103.8   1.058  -32.2  0.0332  -22.0  0.7518   92.8
 4.900  0.9072  101.4   1.040  -35.6  0.0336  -24.0  0.7558   90.5
 5.000  0.9100   99.1   1.026  -39.1  0.0340  -25.9  0.7610   88.1
 5.100  0.9056   96.6   0.999  -42.1  0.0342  -28.5  0.7599   86.0
 5.200  0.9029   94.1   0.976  -45.4  0.0345  -31.0  0.7598   84.0
 5.300  0.9019   91.6   0.955  -48.7  0.0349  -33.4  0.7607   81.9
 5.400  0.9026   89.1   0.938  -52.2  0.0353  -35.8  0.7626   79.8
 5.500  0.9051   86.6   0.925  -55.8  0.0358  -38.2  0.7654   77.8
 5.600  0.9023   84.0   0.897  -58.9  0.0363  -40.5  0.7686   76.3
 5.700  0.9014   81.5   0.873  -62.3  0.0368  -42.8  0.7724   74.8
 5.800  0.9022   78.9   0.851  -65.8  0.0374  -44.9  0.7766   73.4
 5.900  0.9049   76.3   0.833  -69.5  0.0380  -47.1  0.7814   71.9
 6.000  0.9093   73.8   0.818  -73.3  0.0387  -49.1  0.7866   70.5
!
!  f       NFmin   Gammaopt  rn/50
! GHz       dB    MAG  ANG    -
 0.450      6.01  0.50  143   0.58
 0.900      4.24  0.62  168   0.19
 1.500      3.64  0.73 -172   0.10
 1.800      3.67  0.73 -166   0.12
 2.600      3.87  0.76 -151   0.31
 3.500      4.37  0.85 -134   0.65
!
! (c) 2015  Infineon Technologies AG, Munich
