! Infineon Technologies  Discrete & RF Semiconductors
! BFR182
! VCE = 0.75 V,  IC =  3.0 mA
! Common Emitter S-Parameters:                            Nov 2015
# GHz  S  MA  R  50
!  f         S11            S21            S12            S22
! GHz     MAG   ANG      MAG   ANG      MAG   ANG      MAG   ANG
 0.010  0.8764   -2.4   9.497  178.4  0.0027   91.3  0.9921   -1.1
 0.015  0.8723   -3.3   9.435  177.4  0.0039   89.1  0.9876   -1.6
 0.020  0.8685   -4.2   9.376  176.3  0.0052   88.0  0.9832   -2.2
 0.025  0.8682   -5.4   9.367  175.4  0.0065   86.1  0.9832   -2.7
 0.030  0.8683   -6.5   9.360  174.6  0.0079   84.9  0.9832   -3.3
 0.035  0.8687   -7.7   9.355  173.7  0.0092   84.0  0.9834   -3.8
 0.040  0.8695   -8.8   9.352  172.8  0.0106   83.3  0.9836   -4.3
 0.045  0.8706  -10.0   9.351  172.0  0.0119   82.8  0.9839   -4.9
 0.050  0.8721  -11.1   9.353  171.1  0.0133   82.4  0.9843   -5.4
 0.055  0.8681  -12.1   9.331  170.2  0.0146   81.8  0.9817   -5.9
 0.060  0.8645  -13.2   9.311  169.4  0.0159   81.3  0.9792   -6.4
 0.065  0.8611  -14.2   9.292  168.5  0.0172   80.8  0.9768   -6.9
 0.070  0.8580  -15.3   9.277  167.7  0.0185   80.5  0.9745   -7.4
 0.075  0.8552  -16.4   9.263  166.8  0.0198   80.1  0.9722   -7.9
 0.080  0.8527  -17.4   9.251  165.9  0.0212   79.9  0.9700   -8.4
 0.085  0.8505  -18.5   9.242  165.0  0.0225   79.6  0.9678   -8.9
 0.090  0.8486  -19.6   9.234  164.2  0.0238   79.4  0.9658   -9.4
 0.095  0.8471  -20.7   9.229  163.3  0.0251   79.2  0.9638   -9.9
 0.100  0.8458  -21.8   9.226  162.4  0.0264   79.0  0.9619  -10.4
 0.105  0.8409  -22.7   9.171  161.5  0.0275   78.1  0.9583  -10.9
 0.110  0.8362  -23.7   9.118  160.7  0.0287   77.2  0.9547  -11.3
 0.115  0.8317  -24.7   9.067  159.8  0.0298   76.4  0.9512  -11.8
 0.120  0.8275  -25.6   9.018  158.9  0.0310   75.7  0.9478  -12.3
 0.125  0.8235  -26.6   8.972  158.0  0.0321   75.0  0.9444  -12.8
 0.130  0.8197  -27.6   8.927  157.0  0.0333   74.4  0.9411  -13.2
 0.135  0.8162  -28.6   8.886  156.1  0.0345   73.8  0.9379  -13.7
 0.140  0.8130  -29.6   8.846  155.2  0.0356   73.3  0.9347  -14.2
 0.145  0.8100  -30.7   8.809  154.2  0.0368   72.8  0.9316  -14.7
 0.150  0.8073  -31.7   8.774  153.3  0.0380   72.3  0.9286  -15.2
 0.155  0.8023  -32.6   8.729  152.6  0.0390   71.7  0.9246  -15.6
 0.160  0.7975  -33.6   8.686  151.9  0.0400   71.2  0.9207  -16.0
 0.165  0.7929  -34.5   8.644  151.1  0.0409   70.7  0.9168  -16.3
 0.170  0.7886  -35.5   8.603  150.4  0.0419   70.2  0.9129  -16.7
 0.175  0.7844  -36.4   8.564  149.6  0.0429   69.8  0.9091  -17.1
 0.180  0.7805  -37.4   8.526  148.9  0.0439   69.4  0.9053  -17.5
 0.185  0.7768  -38.4   8.490  148.1  0.0449   68.9  0.9016  -17.9
 0.190  0.7734  -39.4   8.455  147.4  0.0459   68.5  0.8979  -18.3
 0.195  0.7702  -40.4   8.422  146.6  0.0469   68.2  0.8942  -18.7
 0.200  0.7672  -41.4   8.390  145.8  0.0479   67.8  0.8906  -19.1
 0.220  0.7462  -45.2   8.200  142.9  0.0515   65.9  0.8731  -20.5
 0.240  0.7286  -49.1   8.032  139.9  0.0552   64.2  0.8561  -22.0
 0.260  0.7101  -52.8   7.843  137.1  0.0585   62.9  0.8392  -23.2
 0.280  0.6897  -56.0   7.625  134.7  0.0613   61.9  0.8221  -24.3
 0.300  0.6716  -59.5   7.422  132.1  0.0642   61.0  0.8054  -25.5
 0.320  0.6529  -62.1   7.213  130.4  0.0666   59.9  0.7911  -26.2
 0.340  0.6355  -64.8   7.011  128.5  0.0690   58.8  0.7770  -27.0
 0.360  0.6196  -67.6   6.817  126.6  0.0714   57.9  0.7630  -27.8
 0.380  0.6054  -70.6   6.630  124.6  0.0738   57.0  0.7492  -28.6
 0.400  0.5928  -73.7   6.453  122.4  0.0763   56.1  0.7355  -29.4
 0.420  0.5747  -76.0   6.276  120.7  0.0780   55.4  0.7228  -29.9
 0.440  0.5576  -78.5   6.105  118.9  0.0798   54.8  0.7101  -30.4
 0.450  0.5495  -79.8   6.022  118.0  0.0807   54.5  0.7038  -30.6
 0.460  0.5416  -81.1   5.940  117.0  0.0816   54.2  0.6975  -30.9
 0.480  0.5268  -83.9   5.782  115.0  0.0833   53.6  0.6850  -31.4
 0.500  0.5133  -86.8   5.632  112.9  0.0851   53.0  0.6725  -32.0
 0.520  0.5018  -89.0   5.503  111.6  0.0865   52.7  0.6622  -32.4
 0.540  0.4912  -91.3   5.376  110.2  0.0879   52.3  0.6519  -32.7
 0.560  0.4813  -93.8   5.253  108.7  0.0893   52.0  0.6416  -33.1
 0.580  0.4724  -96.3   5.134  107.2  0.0907   51.7  0.6313  -33.5
 0.600  0.4644  -98.9   5.018  105.6  0.0921   51.4  0.6211  -33.9
 0.620  0.4537 -100.8   4.907  104.5  0.0935   51.2  0.6136  -34.1
 0.640  0.4435 -102.8   4.798  103.3  0.0948   51.1  0.6061  -34.4
 0.660  0.4338 -104.9   4.690  102.1  0.0962   50.9  0.5986  -34.6
 0.680  0.4248 -107.0   4.586  100.8  0.0975   50.8  0.5911  -34.8
 0.700  0.4164 -109.3   4.483   99.5  0.0989   50.6  0.5836  -35.1
 0.720  0.4089 -111.2   4.386   98.5  0.1001   50.4  0.5779  -35.3
 0.740  0.4018 -113.1   4.291   97.5  0.1013   50.2  0.5722  -35.4
 0.760  0.3952 -115.2   4.198   96.4  0.1026   50.0  0.5665  -35.6
 0.780  0.3891 -117.2   4.105   95.3  0.1038   49.9  0.5609  -35.7
 0.800  0.3836 -119.4   4.015   94.1  0.1050   49.7  0.5552  -35.9
 0.820  0.3773 -121.0   3.939   93.2  0.1063   49.7  0.5511  -36.0
 0.840  0.3714 -122.6   3.863   92.3  0.1076   49.7  0.5469  -36.2
 0.860  0.3657 -124.3   3.789   91.3  0.1088   49.6  0.5428  -36.3
 0.880  0.3604 -126.1   3.715   90.3  0.1101   49.6  0.5386  -36.5
 0.900  0.3554 -127.9   3.643   89.3  0.1114   49.6  0.5345  -36.6
 0.920  0.3497 -129.8   3.584   88.5  0.1125   49.7  0.5306  -36.8
 0.940  0.3444 -131.7   3.526   87.6  0.1136   49.7  0.5267  -37.0
 0.960  0.3396 -133.7   3.468   86.7  0.1146   49.8  0.5228  -37.1
 0.980  0.3351 -135.8   3.412   85.8  0.1157   49.8  0.5189  -37.3
 1.000  0.3311 -137.9   3.356   84.8  0.1168   49.9  0.5150  -37.5
 1.020  0.3276 -139.8   3.307   84.0  0.1180   50.0  0.5118  -37.7
 1.040  0.3245 -141.8   3.258   83.3  0.1192   50.1  0.5087  -37.8
 1.060  0.3217 -143.7   3.209   82.5  0.1203   50.1  0.5055  -38.0
 1.080  0.3194 -145.8   3.162   81.6  0.1215   50.2  0.5024  -38.1
 1.100  0.3174 -147.8   3.115   80.8  0.1227   50.3  0.4992  -38.3
 1.120  0.3146 -149.4   3.070   80.1  0.1239   50.4  0.4963  -38.5
 1.140  0.3121 -151.0   3.026   79.3  0.1252   50.5  0.4933  -38.7
 1.160  0.3098 -152.7   2.982   78.5  0.1264   50.5  0.4904  -38.8
 1.180  0.3078 -154.4   2.939   77.7  0.1277   50.6  0.4875  -39.0
 1.200  0.3061 -156.1   2.896   76.9  0.1289   50.7  0.4846  -39.2
 1.220  0.3044 -157.5   2.856   76.3  0.1302   50.8  0.4823  -39.4
 1.240  0.3028 -158.9   2.817   75.6  0.1315   50.9  0.4801  -39.5
 1.260  0.3015 -160.3   2.778   74.9  0.1328   51.0  0.4778  -39.7
 1.280  0.3003 -161.7   2.740   74.2  0.1341   51.1  0.4756  -39.8
 1.300  0.2993 -163.1   2.702   73.5  0.1354   51.2  0.4733  -40.0
 1.320  0.2983 -164.8   2.667   72.9  0.1366   51.3  0.4714  -40.2
 1.340  0.2976 -166.4   2.632   72.2  0.1378   51.4  0.4694  -40.5
 1.360  0.2971 -168.1   2.597   71.6  0.1390   51.4  0.4675  -40.7
 1.380  0.2969 -169.8   2.563   70.9  0.1402   51.5  0.4656  -41.0
 1.400  0.2969 -171.5   2.529   70.2  0.1414   51.6  0.4637  -41.2
 1.420  0.2961 -172.6   2.502   69.6  0.1428   51.7  0.4618  -41.4
 1.440  0.2953 -173.6   2.475   69.0  0.1442   51.8  0.4600  -41.6
 1.460  0.2947 -174.7   2.449   68.4  0.1457   51.8  0.4581  -41.7
 1.480  0.2941 -175.8   2.423   67.7  0.1471   51.9  0.4563  -41.9
 1.500  0.2937 -176.9   2.397   67.1  0.1485   52.0  0.4544  -42.1
 1.520  0.2940 -178.4   2.368   66.5  0.1498   52.0  0.4529  -42.3
 1.540  0.2946 -179.8   2.339   65.8  0.1512   52.1  0.4514  -42.5
 1.560  0.2953  178.8   2.310   65.1  0.1525   52.1  0.4499  -42.8
 1.580  0.2962  177.3   2.282   64.4  0.1539   52.2  0.4484  -43.0
 1.600  0.2973  175.9   2.254   63.7  0.1552   52.2  0.4469  -43.2
 1.620  0.2970  174.5   2.232   63.1  0.1566   52.2  0.4455  -43.4
 1.640  0.2969  173.2   2.211   62.6  0.1580   52.2  0.4442  -43.7
 1.660  0.2969  171.8   2.189   62.0  0.1593   52.3  0.4429  -43.9
 1.680  0.2971  170.5   2.168   61.4  0.1607   52.3  0.4415  -44.2
 1.700  0.2975  169.1   2.147   60.8  0.1621   52.3  0.4402  -44.4
 1.720  0.2983  167.8   2.128   60.3  0.1637   52.3  0.4390  -44.7
 1.740  0.2993  166.5   2.110   59.7  0.1653   52.3  0.4378  -45.0
 1.760  0.3005  165.2   2.092   59.2  0.1668   52.4  0.4366  -45.2
 1.780  0.3018  163.9   2.074   58.7  0.1684   52.4  0.4355  -45.5
 1.800  0.3032  162.6   2.056   58.1  0.1700   52.4  0.4343  -45.8
 1.820  0.3046  161.6   2.039   57.5  0.1716   52.5  0.4328  -46.1
 1.840  0.3061  160.5   2.023   56.9  0.1732   52.5  0.4312  -46.4
 1.860  0.3078  159.5   2.006   56.3  0.1748   52.6  0.4297  -46.7
 1.880  0.3095  158.5   1.990   55.7  0.1764   52.6  0.4282  -47.0
 1.900  0.3113  157.5   1.974   55.1  0.1780   52.7  0.4267  -47.3
 1.920  0.3115  156.4   1.955   54.6  0.1796   52.7  0.4255  -47.6
 1.940  0.3119  155.4   1.937   54.1  0.1812   52.7  0.4243  -47.9
 1.960  0.3124  154.3   1.919   53.6  0.1829   52.6  0.4231  -48.1
 1.980  0.3129  153.3   1.901   53.0  0.1845   52.6  0.4219  -48.4
 2.000  0.3136  152.2   1.883   52.5  0.1861   52.6  0.4207  -48.7
 2.020  0.3146  151.3   1.868   52.0  0.1877   52.6  0.4193  -49.0
 2.040  0.3157  150.4   1.853   51.5  0.1894   52.6  0.4179  -49.4
 2.060  0.3169  149.5   1.838   51.0  0.1910   52.5  0.4165  -49.7
 2.080  0.3182  148.6   1.823   50.5  0.1927   52.5  0.4152  -50.1
 2.100  0.3195  147.8   1.808   50.0  0.1943   52.5  0.4138  -50.4
 2.120  0.3209  146.9   1.794   49.5  0.1960   52.5  0.4125  -50.8
 2.140  0.3224  146.0   1.779   48.9  0.1976   52.5  0.4112  -51.1
 2.160  0.3240  145.2   1.765   48.4  0.1993   52.4  0.4099  -51.5
 2.180  0.3256  144.3   1.751   47.9  0.2009   52.4  0.4086  -51.8
 2.200  0.3273  143.5   1.737   47.3  0.2026   52.4  0.4073  -52.2
 2.220  0.3289  142.6   1.726   46.8  0.2044   52.4  0.4057  -52.5
 2.240  0.3305  141.7   1.715   46.3  0.2061   52.3  0.4041  -52.9
 2.260  0.3323  140.8   1.705   45.8  0.2079   52.3  0.4025  -53.3
 2.280  0.3341  139.9   1.694   45.3  0.2096   52.3  0.4009  -53.6
 2.300  0.3360  139.0   1.684   44.8  0.2114   52.2  0.3994  -54.0
 2.320  0.3380  138.1   1.674   44.3  0.2132   52.2  0.3978  -54.3
 2.340  0.3401  137.2   1.663   43.7  0.2149   52.2  0.3963  -54.7
 2.360  0.3422  136.4   1.653   43.2  0.2167   52.2  0.3948  -55.1
 2.380  0.3444  135.5   1.644   42.6  0.2184   52.1  0.3933  -55.4
 2.400  0.3467  134.7   1.634   42.1  0.2202   52.1  0.3918  -55.8
 2.420  0.3488  133.9   1.623   41.7  0.2220   52.0  0.3902  -56.2
 2.440  0.3509  133.1   1.612   41.2  0.2238   51.9  0.3887  -56.6
 2.460  0.3531  132.3   1.601   40.8  0.2257   51.8  0.3871  -57.0
 2.480  0.3554  131.5   1.591   40.4  0.2275   51.8  0.3856  -57.4
 2.500  0.3578  130.8   1.580   39.9  0.2293   51.7  0.3841  -57.8
 2.520  0.3602  130.0   1.570   39.5  0.2311   51.6  0.3826  -58.2
 2.540  0.3626  129.3   1.559   39.0  0.2329   51.5  0.3812  -58.6
 2.560  0.3652  128.5   1.549   38.5  0.2348   51.5  0.3797  -59.1
 2.580  0.3678  127.8   1.539   38.1  0.2366   51.4  0.3783  -59.5
 2.600  0.3704  127.1   1.529   37.6  0.2384   51.3  0.3769  -59.9
 2.620  0.3718  126.5   1.521   37.2  0.2403   51.2  0.3755  -60.4
 2.640  0.3733  125.8   1.512   36.8  0.2423   51.1  0.3741  -60.8
 2.660  0.3749  125.2   1.504   36.4  0.2442   51.0  0.3727  -61.3
 2.680  0.3764  124.6   1.496   35.9  0.2462   50.9  0.3713  -61.8
 2.700  0.3780  123.9   1.488   35.5  0.2481   50.8  0.3700  -62.3
 2.720  0.3797  123.3   1.480   35.1  0.2500   50.7  0.3687  -62.7
 2.740  0.3814  122.7   1.472   34.6  0.2520   50.6  0.3675  -63.2
 2.760  0.3832  122.1   1.464   34.2  0.2539   50.5  0.3662  -63.7
 2.780  0.3850  121.5   1.457   33.8  0.2559   50.4  0.3650  -64.2
 2.800  0.3868  120.9   1.449   33.3  0.2578   50.3  0.3638  -64.7
 2.820  0.3892  120.3   1.441   32.9  0.2597   50.2  0.3619  -65.2
 2.840  0.3917  119.7   1.432   32.4  0.2615   50.0  0.3601  -65.7
 2.860  0.3942  119.2   1.424   32.0  0.2634   49.9  0.3583  -66.2
 2.880  0.3968  118.6   1.416   31.5  0.2653   49.7  0.3565  -66.7
 2.900  0.3993  118.1   1.408   31.1  0.2672   49.6  0.3547  -67.2
 2.920  0.4020  117.5   1.400   30.6  0.2691   49.4  0.3530  -67.7
 2.940  0.4046  117.0   1.392   30.1  0.2709   49.3  0.3513  -68.2
 2.960  0.4073  116.4   1.384   29.7  0.2728   49.2  0.3496  -68.7
 2.980  0.4100  115.9   1.377   29.2  0.2747   49.0  0.3479  -69.3
 3.000  0.4128  115.4   1.369   28.7  0.2766   48.9  0.3463  -69.8
 3.100  0.4231  112.9   1.335   26.9  0.2867   48.0  0.3371  -72.8
 3.200  0.4343  110.5   1.301   25.1  0.2968   47.1  0.3288  -76.0
 3.300  0.4461  108.2   1.270   23.2  0.3070   46.3  0.3217  -79.3
 3.400  0.4587  106.0   1.240   21.1  0.3173   45.6  0.3156  -82.8
 3.500  0.4718  104.0   1.211   19.0  0.3276   44.9  0.3108  -86.4
 3.600  0.4815  102.0   1.186   17.4  0.3376   43.7  0.3011  -90.4
 3.700  0.4919  100.0   1.161   15.7  0.3477   42.6  0.2929  -94.6
 3.800  0.5027   98.1   1.138   13.9  0.3579   41.6  0.2864  -99.0
 3.900  0.5141   96.3   1.116   12.1  0.3683   40.6  0.2817 -103.7
 4.000  0.5260   94.6   1.095   10.2  0.3787   39.7  0.2789 -108.4
 4.100  0.5336   93.1   1.075    8.8  0.3883   38.4  0.2724 -113.1
 4.200  0.5416   91.5   1.055    7.3  0.3981   37.1  0.2678 -118.1
 4.300  0.5499   90.1   1.036    5.7  0.4081   35.9  0.2653 -123.2
 4.400  0.5586   88.7   1.017    4.2  0.4183   34.8  0.2650 -128.3
 4.500  0.5676   87.3   1.000    2.5  0.4286   33.7  0.2667 -133.4
 4.600  0.5747   86.0   0.983    1.2  0.4375   32.4  0.2647 -138.4
 4.700  0.5821   84.6   0.967   -0.0  0.4466   31.1  0.2647 -143.4
 4.800  0.5898   83.4   0.951   -1.4  0.4560   29.8  0.2667 -148.4
 4.900  0.5978   82.1   0.936   -2.8  0.4656   28.6  0.2707 -153.3
 5.000  0.6061   80.9   0.921   -4.2  0.4753   27.5  0.2766 -158.0
 5.100  0.6113   79.6   0.905   -5.3  0.4829   26.0  0.2777 -162.9
 5.200  0.6168   78.4   0.889   -6.4  0.4908   24.6  0.2809 -167.7
 5.300  0.6226   77.1   0.874   -7.6  0.4991   23.2  0.2859 -172.3
 5.400  0.6287   75.9   0.859   -8.8  0.5076   21.8  0.2928 -176.8
 5.500  0.6351   74.7   0.845  -10.1  0.5164   20.5  0.3013  179.0
 5.600  0.6392   73.6   0.832  -11.1  0.5214   18.9  0.3019  174.7
 5.700  0.6436   72.5   0.820  -12.1  0.5268   17.4  0.3042  170.4
 5.800  0.6482   71.4   0.808  -13.2  0.5325   15.9  0.3081  166.2
 5.900  0.6530   70.3   0.796  -14.3  0.5386   14.4  0.3137  162.1
 6.000  0.6580   69.3   0.784  -15.4  0.5451   13.0  0.3208  158.2
!
!  f       NFmin   Gammaopt  rn/50
! GHz       dB    MAG  ANG    -
!
! noise parameter not available yet for this operation point!
!
! (c) 2015  Infineon Technologies AG, Munich
