! Infineon Technologies  Discrete & RF Semiconductors
! BFR106
! VCE =  3.0 V,  IC =  1.2 mA
! Common Emitter S-Parameters:                            Nov 2015
# GHz  S  MA  R  50
!  f         S11            S21            S12            S22
! GHz     MAG   ANG      MAG   ANG      MAG   ANG      MAG   ANG
 0.010  0.9585   -5.3   4.355  176.0  0.0072   88.9  0.9991   -1.6
 0.015  0.9559   -7.9   4.348  174.7  0.0110   85.9  0.9988   -2.3
 0.020  0.9553  -10.5   4.344  173.4  0.0149   84.5  0.9986   -3.1
 0.025  0.9486  -13.0   4.314  171.7  0.0183   81.5  0.9949   -3.8
 0.030  0.9438  -15.6   4.288  169.9  0.0218   79.5  0.9913   -4.5
 0.035  0.9409  -18.2   4.266  168.2  0.0253   78.1  0.9879   -5.3
 0.040  0.9399  -20.7   4.248  166.4  0.0288   77.0  0.9847   -6.0
 0.045  0.9409  -23.3   4.234  164.6  0.0324   76.1  0.9816   -6.8
 0.050  0.9437  -25.9   4.224  162.8  0.0359   75.4  0.9787   -7.5
 0.055  0.9331  -28.1   4.181  161.5  0.0389   73.3  0.9740   -8.1
 0.060  0.9239  -30.4   4.140  160.1  0.0418   71.5  0.9694   -8.7
 0.065  0.9162  -32.8   4.101  158.8  0.0449   69.9  0.9649   -9.4
 0.070  0.9101  -35.2   4.064  157.4  0.0479   68.5  0.9606  -10.0
 0.075  0.9056  -37.6   4.030  155.9  0.0510   67.3  0.9564  -10.6
 0.080  0.9026  -40.0   3.999  154.5  0.0541   66.3  0.9522  -11.3
 0.085  0.9013  -42.4   3.970  153.0  0.0573   65.3  0.9482  -11.9
 0.090  0.9017  -44.9   3.944  151.5  0.0604   64.5  0.9444  -12.6
 0.095  0.9036  -47.3   3.921  150.0  0.0635   63.7  0.9406  -13.2
 0.100  0.9072  -49.7   3.900  148.5  0.0667   63.0  0.9370  -13.9
 0.105  0.8976  -51.7   3.851  147.2  0.0687   61.5  0.9312  -14.4
 0.110  0.8891  -53.7   3.804  145.9  0.0708   60.1  0.9254  -14.9
 0.115  0.8817  -55.7   3.759  144.6  0.0729   58.8  0.9197  -15.3
 0.120  0.8755  -57.8   3.715  143.3  0.0751   57.5  0.9141  -15.8
 0.125  0.8704  -59.9   3.674  141.9  0.0773   56.3  0.9085  -16.3
 0.130  0.8665  -62.1   3.636  140.5  0.0795   55.2  0.9030  -16.8
 0.135  0.8638  -64.2   3.599  139.0  0.0818   54.1  0.8976  -17.3
 0.140  0.8624  -66.4   3.565  137.5  0.0841   53.1  0.8922  -17.9
 0.145  0.8622  -68.5   3.533  136.0  0.0864   52.2  0.8869  -18.4
 0.150  0.8632  -70.7   3.504  134.5  0.0887   51.3  0.8817  -18.9
 0.155  0.8569  -72.3   3.462  133.6  0.0901   50.4  0.8768  -19.2
 0.160  0.8513  -73.9   3.421  132.7  0.0914   49.5  0.8718  -19.5
 0.165  0.8464  -75.6   3.382  131.7  0.0928   48.7  0.8669  -19.9
 0.170  0.8423  -77.3   3.343  130.7  0.0942   47.9  0.8621  -20.2
 0.175  0.8388  -78.9   3.305  129.7  0.0957   47.1  0.8572  -20.5
 0.180  0.8361  -80.6   3.268  128.7  0.0971   46.3  0.8524  -20.8
 0.185  0.8341  -82.4   3.232  127.7  0.0986   45.6  0.8477  -21.2
 0.190  0.8328  -84.1   3.197  126.6  0.1001   44.9  0.8429  -21.5
 0.195  0.8323  -85.8   3.163  125.5  0.1016   44.2  0.8382  -21.9
 0.200  0.8326  -87.5   3.131  124.4  0.1031   43.5  0.8335  -22.2
 0.220  0.8146  -93.2   2.977  120.9  0.1069   40.5  0.8162  -23.2
 0.240  0.8051  -99.2   2.835  117.0  0.1110   37.6  0.7992  -24.3
 0.260  0.7964 -104.5   2.705  113.6  0.1141   35.3  0.7847  -25.3
 0.280  0.7861 -109.3   2.579  110.9  0.1162   33.5  0.7727  -26.1
 0.300  0.7812 -114.1   2.460  107.9  0.1184   31.7  0.7609  -26.9
 0.320  0.7702 -117.7   2.363  105.9  0.1192   30.2  0.7515  -27.5
 0.340  0.7623 -121.3   2.269  103.8  0.1200   28.7  0.7422  -28.2
 0.360  0.7575 -125.0   2.178  101.5  0.1210   27.2  0.7330  -28.9
 0.380  0.7559 -128.8   2.091   98.9  0.1220   25.7  0.7240  -29.6
 0.400  0.7575 -132.5   2.009   96.2  0.1231   24.3  0.7150  -30.3
 0.420  0.7510 -135.1   1.936   94.5  0.1228   23.4  0.7095  -30.9
 0.440  0.7460 -137.7   1.866   92.7  0.1226   22.4  0.7042  -31.6
 0.450  0.7441 -139.0   1.831   91.8  0.1225   22.0  0.7015  -31.9
 0.460  0.7426 -140.3   1.797   90.8  0.1224   21.5  0.6989  -32.2
 0.480  0.7408 -142.9   1.730   88.7  0.1222   20.5  0.6937  -32.8
 0.500  0.7405 -145.6   1.666   86.4  0.1221   19.6  0.6886  -33.5
 0.520  0.7365 -147.8   1.618   85.0  0.1214   19.1  0.6859  -34.2
 0.540  0.7336 -150.0   1.571   83.6  0.1207   18.6  0.6833  -34.9
 0.560  0.7317 -152.2   1.525   82.0  0.1200   18.1  0.6809  -35.6
 0.580  0.7310 -154.4   1.480   80.4  0.1193   17.6  0.6785  -36.3
 0.600  0.7313 -156.6   1.437   78.6  0.1186   17.1  0.6762  -37.0
 0.620  0.7295 -158.4   1.402   77.4  0.1175   17.0  0.6741  -37.8
 0.640  0.7283 -160.2   1.367   76.1  0.1164   16.9  0.6721  -38.5
 0.660  0.7279 -161.9   1.333   74.7  0.1152   16.7  0.6703  -39.3
 0.680  0.7282 -163.7   1.299   73.3  0.1141   16.6  0.6685  -40.0
 0.700  0.7292 -165.5   1.267   71.8  0.1130   16.5  0.6669  -40.8
 0.720  0.7278 -167.0   1.237   70.7  0.1118   16.7  0.6650  -41.6
 0.740  0.7268 -168.5   1.208   69.6  0.1106   16.9  0.6633  -42.3
 0.760  0.7264 -170.1   1.179   68.4  0.1095   17.1  0.6616  -43.1
 0.780  0.7265 -171.6   1.151   67.2  0.1083   17.3  0.6601  -43.8
 0.800  0.7271 -173.1   1.123   65.9  0.1071   17.5  0.6587  -44.6
 0.820  0.7260 -174.4   1.100   64.9  0.1057   18.0  0.6573  -45.4
 0.840  0.7253 -175.6   1.078   63.9  0.1044   18.5  0.6561  -46.2
 0.860  0.7249 -176.9   1.056   62.8  0.1030   19.1  0.6550  -47.0
 0.880  0.7249 -178.1   1.035   61.7  0.1016   19.6  0.6540  -47.8
 0.900  0.7252 -179.4   1.014   60.5  0.1003   20.2  0.6531  -48.6
 0.920  0.7244  179.3   0.995   59.6  0.0992   21.1  0.6525  -49.4
 0.940  0.7240  178.0   0.977   58.6  0.0980   22.0  0.6520  -50.3
 0.960  0.7240  176.8   0.959   57.6  0.0969   22.9  0.6517  -51.1
 0.980  0.7243  175.5   0.941   56.6  0.0958   23.8  0.6515  -52.0
 1.000  0.7250  174.2   0.924   55.5  0.0948   24.8  0.6515  -52.8
 1.020  0.7259  173.0   0.910   54.7  0.0939   26.0  0.6509  -53.7
 1.040  0.7271  171.9   0.895   53.8  0.0931   27.3  0.6504  -54.6
 1.060  0.7287  170.7   0.881   52.9  0.0923   28.6  0.6501  -55.6
 1.080  0.7305  169.5   0.868   52.0  0.0916   29.9  0.6500  -56.5
 1.100  0.7326  168.4   0.854   51.1  0.0909   31.2  0.6500  -57.4
 1.120  0.7330  167.4   0.841   50.3  0.0907   32.8  0.6492  -58.3
 1.140  0.7335  166.4   0.829   49.6  0.0905   34.5  0.6487  -59.2
 1.160  0.7343  165.4   0.817   48.8  0.0904   36.1  0.6482  -60.2
 1.180  0.7354  164.4   0.805   47.9  0.0904   37.8  0.6480  -61.1
 1.200  0.7366  163.4   0.793   47.1  0.0904   39.4  0.6479  -62.0
 1.220  0.7365  162.4   0.782   46.5  0.0911   41.1  0.6474  -62.9
 1.240  0.7367  161.4   0.770   45.9  0.0918   42.8  0.6470  -63.8
 1.260  0.7370  160.5   0.759   45.3  0.0926   44.5  0.6468  -64.8
 1.280  0.7376  159.5   0.748   44.7  0.0935   46.1  0.6468  -65.7
 1.300  0.7384  158.5   0.737   44.0  0.0945   47.7  0.6469  -66.6
 1.320  0.7393  157.6   0.727   43.4  0.0958   49.4  0.6470  -67.6
 1.340  0.7404  156.7   0.718   42.8  0.0972   51.0  0.6474  -68.5
 1.360  0.7416  155.9   0.709   42.2  0.0987   52.6  0.6479  -69.5
 1.380  0.7430  155.0   0.699   41.6  0.1002   54.1  0.6485  -70.4
 1.400  0.7446  154.1   0.690   41.0  0.1018   55.6  0.6494  -71.4
 1.420  0.7446  153.2   0.683   40.5  0.1042   57.0  0.6487  -72.4
 1.440  0.7447  152.4   0.677   40.1  0.1067   58.4  0.6481  -73.3
 1.460  0.7451  151.5   0.670   39.6  0.1092   59.7  0.6478  -74.3
 1.480  0.7455  150.7   0.664   39.1  0.1118   60.9  0.6476  -75.2
 1.500  0.7462  149.8   0.657   38.6  0.1144   62.1  0.6476  -76.2
 1.520  0.7462  149.0   0.648   38.0  0.1174   63.0  0.6468  -77.2
 1.540  0.7464  148.1   0.640   37.4  0.1204   63.9  0.6461  -78.2
 1.560  0.7467  147.3   0.632   36.8  0.1235   64.7  0.6457  -79.1
 1.580  0.7472  146.4   0.623   36.2  0.1266   65.5  0.6454  -80.1
 1.600  0.7479  145.6   0.615   35.5  0.1297   66.3  0.6453  -81.1
 1.620  0.7486  144.7   0.609   35.2  0.1334   66.9  0.6438  -82.1
 1.640  0.7494  143.8   0.604   34.9  0.1372   67.5  0.6425  -83.2
 1.660  0.7504  143.0   0.598   34.6  0.1409   68.1  0.6414  -84.2
 1.680  0.7516  142.1   0.593   34.2  0.1447   68.6  0.6405  -85.3
 1.700  0.7530  141.2   0.587   33.9  0.1485   69.1  0.6398  -86.3
 1.720  0.7543  140.5   0.582   33.6  0.1525   69.4  0.6396  -87.3
 1.740  0.7558  139.7   0.577   33.4  0.1564   69.7  0.6396  -88.3
 1.760  0.7574  139.0   0.572   33.1  0.1604   70.0  0.6398  -89.3
 1.780  0.7591  138.2   0.567   32.9  0.1643   70.2  0.6402  -90.3
 1.800  0.7609  137.5   0.562   32.6  0.1683   70.5  0.6408  -91.3
 1.820  0.7604  136.7   0.558   32.3  0.1728   70.6  0.6410  -92.4
 1.840  0.7601  135.9   0.554   32.0  0.1772   70.7  0.6415  -93.5
 1.860  0.7599  135.1   0.549   31.7  0.1817   70.8  0.6422  -94.6
 1.880  0.7599  134.3   0.545   31.4  0.1861   70.8  0.6431  -95.7
 1.900  0.7600  133.5   0.541   31.1  0.1906   70.9  0.6443  -96.8
 1.920  0.7596  132.8   0.537   31.0  0.1950   70.8  0.6436  -97.9
 1.940  0.7594  132.1   0.532   30.9  0.1994   70.7  0.6431  -99.0
 1.960  0.7593  131.5   0.528   30.7  0.2037   70.6  0.6428 -100.0
 1.980  0.7592  130.8   0.523   30.6  0.2081   70.6  0.6427 -101.1
 2.000  0.7593  130.1   0.519   30.5  0.2125   70.5  0.6429 -102.2
 2.020  0.7597  129.4   0.516   30.4  0.2172   70.2  0.6418 -103.3
 2.040  0.7602  128.7   0.513   30.3  0.2219   70.0  0.6409 -104.3
 2.060  0.7609  128.0   0.511   30.1  0.2267   69.7  0.6402 -105.4
 2.080  0.7616  127.4   0.508   30.0  0.2314   69.5  0.6398 -106.5
 2.100  0.7625  126.7   0.505   29.9  0.2362   69.2  0.6396 -107.5
 2.120  0.7634  126.0   0.502   29.7  0.2409   69.0  0.6396 -108.6
 2.140  0.7645  125.3   0.499   29.6  0.2456   68.8  0.6398 -109.7
 2.160  0.7656  124.6   0.497   29.5  0.2504   68.6  0.6402 -110.8
 2.180  0.7669  124.0   0.494   29.3  0.2551   68.4  0.6409 -111.8
 2.200  0.7683  123.3   0.491   29.2  0.2599   68.2  0.6418 -112.9
 2.220  0.7676  122.6   0.490   29.1  0.2645   67.8  0.6407 -114.1
 2.240  0.7670  121.9   0.489   29.1  0.2692   67.3  0.6398 -115.3
 2.260  0.7664  121.3   0.488   29.0  0.2739   66.9  0.6393 -116.4
 2.280  0.7660  120.6   0.487   28.9  0.2785   66.5  0.6390 -117.6
 2.300  0.7657  119.9   0.486   28.9  0.2832   66.1  0.6389 -118.8
 2.320  0.7656  119.2   0.485   28.8  0.2880   65.8  0.6392 -120.0
 2.340  0.7655  118.5   0.484   28.7  0.2927   65.4  0.6397 -121.2
 2.360  0.7655  117.9   0.483   28.6  0.2974   65.1  0.6405 -122.4
 2.380  0.7657  117.2   0.482   28.6  0.3021   64.7  0.6416 -123.5
 2.400  0.7659  116.5   0.481   28.5  0.3069   64.4  0.6429 -124.7
 2.420  0.7656  115.9   0.480   28.5  0.3112   63.9  0.6415 -125.8
 2.440  0.7653  115.2   0.480   28.4  0.3155   63.3  0.6404 -126.8
 2.460  0.7652  114.6   0.479   28.4  0.3199   62.8  0.6394 -127.9
 2.480  0.7651  114.0   0.479   28.3  0.3243   62.3  0.6387 -129.0
 2.500  0.7651  113.3   0.478   28.3  0.3287   61.8  0.6382 -130.0
 2.520  0.7653  112.7   0.478   28.2  0.3331   61.4  0.6379 -131.1
 2.540  0.7655  112.1   0.477   28.2  0.3375   60.9  0.6379 -132.2
 2.560  0.7658  111.5   0.477   28.1  0.3420   60.5  0.6381 -133.3
 2.580  0.7662  110.8   0.476   28.1  0.3465   60.0  0.6385 -134.3
 2.600  0.7667  110.2   0.476   28.0  0.3510   59.6  0.6391 -135.4
 2.620  0.7662  109.7   0.476   27.9  0.3550   59.0  0.6383 -136.5
 2.640  0.7658  109.1   0.477   27.8  0.3591   58.5  0.6377 -137.7
 2.660  0.7655  108.6   0.477   27.7  0.3632   57.9  0.6374 -138.9
 2.680  0.7652  108.0   0.478   27.6  0.3673   57.4  0.6373 -140.0
 2.700  0.7650  107.5   0.478   27.5  0.3714   56.9  0.6375 -141.2
 2.720  0.7649  107.0   0.479   27.5  0.3756   56.4  0.6380 -142.3
 2.740  0.7649  106.4   0.479   27.4  0.3798   55.9  0.6387 -143.5
 2.760  0.7649  105.9   0.480   27.3  0.3841   55.4  0.6397 -144.6
 2.780  0.7650  105.3   0.480   27.2  0.3883   55.0  0.6409 -145.8
 2.800  0.7651  104.8   0.481   27.1  0.3926   54.5  0.6424 -146.9
 2.820  0.7649  104.3   0.482   27.0  0.3963   53.9  0.6417 -147.9
 2.840  0.7649  103.8   0.483   26.8  0.4001   53.4  0.6413 -149.0
 2.860  0.7648  103.3   0.483   26.7  0.4038   52.9  0.6410 -150.0
 2.880  0.7648  102.8   0.484   26.6  0.4076   52.3  0.6410 -151.1
 2.900  0.7649  102.3   0.485   26.4  0.4115   51.8  0.6412 -152.1
 2.920  0.7651  101.8   0.486   26.3  0.4154   51.3  0.6416 -153.2
 2.940  0.7653  101.3   0.487   26.2  0.4193   50.8  0.6422 -154.2
 2.960  0.7655  100.8   0.487   26.1  0.4232   50.3  0.6430 -155.2
 2.980  0.7658  100.3   0.488   25.9  0.4272   49.9  0.6441 -156.3
 3.000  0.7662   99.8   0.489   25.8  0.4312   49.4  0.6453 -157.3
 3.100  0.7636   97.8   0.494   24.8  0.4440   46.5  0.6388 -162.3
 3.200  0.7619   95.9   0.500   23.9  0.4579   43.7  0.6373 -167.4
 3.300  0.7611   93.9   0.505   23.0  0.4728   41.2  0.6408 -172.5
 3.400  0.7613   91.9   0.511   22.1  0.4885   38.8  0.6493 -177.5
 3.500  0.7623   89.9   0.517   21.2  0.5051   36.5  0.6625  177.7
 3.600  0.7611   88.4   0.521   19.9  0.5116   34.0  0.6593  173.3
 3.700  0.7603   86.9   0.525   18.7  0.5190   31.6  0.6601  168.9
 3.800  0.7601   85.5   0.529   17.5  0.5274   29.2  0.6648  164.5
 3.900  0.7604   84.0   0.533   16.3  0.5366   26.9  0.6733  160.2
 4.000  0.7612   82.5   0.538   15.1  0.5466   24.7  0.6855  156.0
 4.100  0.7589   81.3   0.541   13.7  0.5486   22.7  0.6815  152.5
 4.200  0.7569   80.1   0.543   12.3  0.5513   20.6  0.6801  149.0
 4.300  0.7553   78.9   0.547   10.9  0.5547   18.6  0.6812  145.5
 4.400  0.7540   77.7   0.550    9.5  0.5587   16.6  0.6849  142.0
 4.500  0.7530   76.5   0.554    8.1  0.5634   14.7  0.6910  138.6
 4.600  0.7529   75.5   0.555    6.9  0.5640   13.1  0.6881  135.8
 4.700  0.7530   74.5   0.557    5.8  0.5650   11.5  0.6868  133.0
 4.800  0.7534   73.4   0.558    4.6  0.5664    9.9  0.6872  130.1
 4.900  0.7540   72.4   0.560    3.4  0.5683    8.3  0.6893  127.3
 5.000  0.7549   71.4   0.562    2.3  0.5706    6.7  0.6930  124.5
 5.100  0.7529   70.4   0.562    1.9  0.5712    6.0  0.6853  123.6
 5.200  0.7511   69.5   0.562    1.5  0.5719    5.2  0.6778  122.6
 5.300  0.7495   68.5   0.561    1.0  0.5727    4.5  0.6704  121.6
 5.400  0.7481   67.5   0.561    0.6  0.5736    3.7  0.6633  120.6
 5.500  0.7470   66.5   0.561    0.2  0.5746    3.0  0.6564  119.6
 5.600  0.7457   65.9   0.564   -1.2  0.5782    1.4  0.6663  117.3
 5.700  0.7445   65.2   0.568   -2.5  0.5822   -0.1  0.6773  115.0
 5.800  0.7434   64.6   0.571   -3.9  0.5867   -1.7  0.6893  112.8
 5.900  0.7424   63.9   0.576   -5.2  0.5916   -3.2  0.7023  110.7
 6.000  0.7415   63.3   0.580   -6.5  0.5969   -4.7  0.7162  108.7
!
!  f       NFmin   Gammaopt  rn/50
! GHz       dB    MAG  ANG    -
!
! noise parameter not available yet for this operation point!
!
! (c) 2015  Infineon Technologies AG, Munich
