! Infineon Technologies  Discrete & RF Semiconductors
! BFR182
! VCE =  6.0 V,  IC =  10 mA
! Common Emitter S-Parameters:                            Nov 2015
# GHz  S  MA  R  50
!  f         S11            S21            S12            S22
! GHz     MAG   ANG      MAG   ANG      MAG   ANG      MAG   ANG
 0.010  0.7287   -3.6  23.863  176.3  0.0016   91.4  0.9804   -1.6
 0.015  0.7235   -5.2  23.828  174.7  0.0025   86.4  0.9777   -2.5
 0.020  0.7188   -6.8  23.812  173.0  0.0034   84.0  0.9753   -3.5
 0.025  0.7157   -8.5  23.650  171.6  0.0043   82.9  0.9718   -4.3
 0.030  0.7132  -10.3  23.503  170.2  0.0053   82.2  0.9685   -5.1
 0.035  0.7115  -12.0  23.371  168.7  0.0062   81.7  0.9653   -5.9
 0.040  0.7103  -13.8  23.254  167.3  0.0072   81.4  0.9624   -6.7
 0.045  0.7099  -15.5  23.152  165.8  0.0081   81.1  0.9596   -7.6
 0.050  0.7101  -17.3  23.065  164.3  0.0091   80.9  0.9571   -8.4
 0.055  0.7016  -18.7  22.826  163.0  0.0099   80.0  0.9507   -9.0
 0.060  0.6936  -20.1  22.599  161.8  0.0107   79.2  0.9444   -9.7
 0.065  0.6860  -21.6  22.383  160.5  0.0115   78.5  0.9383  -10.3
 0.070  0.6789  -23.1  22.178  159.1  0.0123   78.0  0.9323  -11.0
 0.075  0.6722  -24.6  21.986  157.8  0.0131   77.4  0.9264  -11.6
 0.080  0.6660  -26.1  21.806  156.4  0.0139   77.0  0.9206  -12.3
 0.085  0.6603  -27.7  21.639  155.0  0.0147   76.6  0.9149  -13.0
 0.090  0.6551  -29.3  21.485  153.6  0.0155   76.2  0.9094  -13.7
 0.095  0.6504  -30.9  21.345  152.2  0.0163   75.9  0.9040  -14.4
 0.100  0.6463  -32.6  21.218  150.7  0.0171   75.6  0.8988  -15.1
 0.105  0.6368  -33.8  20.948  149.6  0.0177   75.0  0.8907  -15.6
 0.110  0.6275  -35.0  20.687  148.5  0.0184   74.4  0.8827  -16.0
 0.115  0.6185  -36.2  20.434  147.3  0.0190   73.9  0.8748  -16.5
 0.120  0.6098  -37.5  20.189  146.1  0.0197   73.4  0.8669  -17.0
 0.125  0.6015  -38.8  19.953  144.9  0.0203   72.9  0.8591  -17.5
 0.130  0.5934  -40.1  19.726  143.7  0.0210   72.5  0.8513  -18.0
 0.135  0.5857  -41.5  19.509  142.4  0.0216   72.1  0.8436  -18.6
 0.140  0.5783  -42.9  19.302  141.1  0.0223   71.7  0.8360  -19.1
 0.145  0.5713  -44.3  19.105  139.8  0.0229   71.3  0.8285  -19.6
 0.150  0.5646  -45.8  18.918  138.4  0.0236   71.0  0.8210  -20.2
 0.155  0.5571  -46.8  18.672  137.6  0.0241   70.7  0.8145  -20.5
 0.160  0.5497  -47.7  18.431  136.8  0.0247   70.5  0.8081  -20.7
 0.165  0.5425  -48.8  18.192  136.0  0.0252   70.2  0.8016  -21.0
 0.170  0.5355  -49.8  17.958  135.1  0.0257   70.0  0.7952  -21.3
 0.175  0.5287  -50.9  17.728  134.2  0.0262   69.7  0.7888  -21.5
 0.180  0.5221  -52.0  17.502  133.3  0.0268   69.5  0.7824  -21.8
 0.185  0.5156  -53.1  17.281  132.4  0.0273   69.3  0.7760  -22.1
 0.190  0.5094  -54.2  17.064  131.5  0.0278   69.1  0.7696  -22.4
 0.195  0.5033  -55.4  16.852  130.5  0.0284   68.9  0.7633  -22.7
 0.200  0.4975  -56.6  16.645  129.5  0.0289   68.7  0.7570  -23.0
 0.220  0.4715  -60.2  15.835  126.7  0.0308   67.7  0.7345  -23.6
 0.240  0.4475  -64.2  15.068  123.6  0.0327   66.7  0.7121  -24.3
 0.260  0.4238  -67.6  14.354  120.8  0.0345   66.4  0.6916  -24.8
 0.280  0.3994  -70.6  13.675  118.6  0.0362   66.7  0.6730  -25.1
 0.300  0.3762  -73.9  13.019  116.1  0.0379   66.9  0.6545  -25.5
 0.320  0.3605  -76.1  12.492  114.8  0.0395   66.8  0.6425  -25.6
 0.340  0.3453  -78.4  11.972  113.3  0.0411   66.7  0.6305  -25.6
 0.360  0.3308  -81.0  11.461  111.7  0.0426   66.6  0.6185  -25.7
 0.380  0.3170  -83.8  10.960  110.0  0.0442   66.6  0.6065  -25.7
 0.400  0.3040  -86.9  10.469  108.1  0.0458   66.5  0.5945  -25.8
 0.420  0.2920  -88.8  10.093  106.9  0.0473   66.7  0.5867  -25.8
 0.440  0.2804  -90.9   9.722  105.5  0.0489   66.8  0.5789  -25.7
 0.450  0.2747  -92.0   9.538  104.8  0.0496   66.9  0.5749  -25.7
 0.460  0.2692  -93.2   9.356  104.1  0.0504   66.9  0.5710  -25.7
 0.480  0.2584  -95.6   8.997  102.6  0.0520   67.1  0.5632  -25.6
 0.500  0.2482  -98.3   8.645  100.9  0.0535   67.2  0.5554  -25.6
 0.520  0.2394 -100.2   8.394  100.0  0.0551   67.3  0.5501  -25.6
 0.540  0.2308 -102.3   8.146   99.0  0.0567   67.5  0.5447  -25.5
 0.560  0.2226 -104.5   7.900   98.0  0.0583   67.6  0.5394  -25.5
 0.580  0.2148 -106.8   7.656   96.9  0.0599   67.7  0.5340  -25.4
 0.600  0.2073 -109.4   7.416   95.7  0.0615   67.8  0.5287  -25.4
 0.620  0.2013 -111.0   7.223   94.9  0.0631   67.9  0.5251  -25.4
 0.640  0.1955 -112.8   7.031   94.0  0.0647   68.0  0.5214  -25.4
 0.660  0.1898 -114.6   6.841   93.1  0.0662   68.1  0.5178  -25.3
 0.680  0.1844 -116.5   6.653   92.1  0.0678   68.1  0.5141  -25.3
 0.700  0.1792 -118.6   6.467   91.1  0.0694   68.2  0.5105  -25.3
 0.720  0.1746 -120.5   6.312   90.4  0.0710   68.2  0.5080  -25.3
 0.740  0.1702 -122.5   6.159   89.7  0.0727   68.2  0.5054  -25.3
 0.760  0.1660 -124.5   6.006   88.9  0.0743   68.2  0.5029  -25.4
 0.780  0.1621 -126.7   5.854   88.1  0.0760   68.2  0.5003  -25.4
 0.800  0.1584 -129.0   5.704   87.3  0.0776   68.2  0.4978  -25.4
 0.820  0.1551 -130.8   5.584   86.7  0.0794   68.2  0.4961  -25.5
 0.840  0.1520 -132.7   5.465   86.0  0.0811   68.2  0.4943  -25.5
 0.860  0.1490 -134.6   5.347   85.3  0.0829   68.3  0.4926  -25.6
 0.880  0.1462 -136.7   5.230   84.6  0.0846   68.3  0.4908  -25.6
 0.900  0.1436 -138.8   5.113   83.8  0.0864   68.3  0.4891  -25.7
 0.920  0.1410 -141.0   5.020   83.2  0.0880   68.3  0.4876  -25.8
 0.940  0.1387 -143.4   4.927   82.6  0.0896   68.3  0.4861  -25.9
 0.960  0.1366 -145.8   4.835   82.0  0.0911   68.3  0.4845  -26.0
 0.980  0.1347 -148.3   4.743   81.4  0.0927   68.3  0.4830  -26.1
 1.000  0.1331 -150.8   4.652   80.7  0.0943   68.3  0.4815  -26.2
 1.020  0.1316 -152.9   4.576   80.2  0.0960   68.3  0.4802  -26.3
 1.040  0.1302 -155.0   4.499   79.6  0.0977   68.2  0.4789  -26.5
 1.060  0.1291 -157.2   4.424   79.0  0.0993   68.2  0.4775  -26.6
 1.080  0.1281 -159.4   4.349   78.4  0.1010   68.1  0.4762  -26.8
 1.100  0.1273 -161.7   4.274   77.8  0.1027   68.1  0.4749  -26.9
 1.120  0.1266 -163.6   4.209   77.2  0.1044   68.1  0.4738  -27.1
 1.140  0.1260 -165.6   4.144   76.7  0.1061   68.1  0.4727  -27.2
 1.160  0.1255 -167.5   4.079   76.1  0.1078   68.0  0.4716  -27.4
 1.180  0.1252 -169.5   4.015   75.4  0.1095   68.0  0.4706  -27.5
 1.200  0.1251 -171.5   3.952   74.8  0.1112   68.0  0.4695  -27.7
 1.220  0.1241 -173.3   3.892   74.3  0.1130   67.9  0.4685  -27.9
 1.240  0.1232 -175.2   3.833   73.8  0.1148   67.7  0.4675  -28.0
 1.260  0.1225 -177.0   3.774   73.3  0.1167   67.6  0.4665  -28.2
 1.280  0.1219 -178.9   3.715   72.8  0.1185   67.5  0.4655  -28.3
 1.300  0.1214  179.2   3.656   72.3  0.1203   67.4  0.4645  -28.5
 1.320  0.1224  177.2   3.607   71.8  0.1218   67.4  0.4636  -28.7
 1.340  0.1236  175.3   3.558   71.3  0.1233   67.3  0.4628  -28.9
 1.360  0.1250  173.4   3.509   70.8  0.1248   67.3  0.4620  -29.2
 1.380  0.1264  171.6   3.460   70.3  0.1263   67.2  0.4611  -29.4
 1.400  0.1280  169.8   3.412   69.8  0.1278   67.2  0.4603  -29.6
 1.420  0.1271  168.6   3.373   69.4  0.1296   67.1  0.4594  -29.8
 1.440  0.1263  167.5   3.335   68.9  0.1314   67.0  0.4586  -30.0
 1.460  0.1255  166.3   3.297   68.5  0.1331   66.9  0.4577  -30.1
 1.480  0.1248  165.1   3.259   68.0  0.1349   66.8  0.4569  -30.3
 1.500  0.1241  163.9   3.221   67.5  0.1367   66.7  0.4560  -30.5
 1.520  0.1252  162.0   3.181   67.0  0.1385   66.6  0.4551  -30.7
 1.540  0.1265  160.1   3.142   66.4  0.1403   66.5  0.4543  -30.9
 1.560  0.1279  158.2   3.103   65.9  0.1421   66.3  0.4535  -31.2
 1.580  0.1294  156.4   3.064   65.3  0.1439   66.2  0.4526  -31.4
 1.600  0.1311  154.6   3.025   64.7  0.1457   66.1  0.4518  -31.6
 1.620  0.1327  153.3   2.993   64.3  0.1473   66.0  0.4507  -31.8
 1.640  0.1344  152.0   2.961   63.8  0.1490   65.9  0.4497  -32.1
 1.660  0.1362  150.8   2.930   63.3  0.1506   65.8  0.4486  -32.3
 1.680  0.1380  149.6   2.898   62.9  0.1523   65.7  0.4475  -32.6
 1.700  0.1399  148.4   2.867   62.4  0.1539   65.6  0.4465  -32.8
 1.720  0.1419  147.1   2.840   62.0  0.1557   65.4  0.4457  -33.1
 1.740  0.1440  145.9   2.813   61.6  0.1574   65.3  0.4449  -33.3
 1.760  0.1461  144.6   2.787   61.2  0.1592   65.1  0.4441  -33.6
 1.780  0.1483  143.4   2.760   60.7  0.1609   65.0  0.4434  -33.8
 1.800  0.1506  142.3   2.734   60.3  0.1627   64.8  0.4426  -34.1
 1.820  0.1523  141.5   2.710   59.9  0.1645   64.7  0.4417  -34.4
 1.840  0.1540  140.7   2.686   59.4  0.1664   64.5  0.4407  -34.7
 1.860  0.1557  140.0   2.662   58.9  0.1682   64.4  0.4398  -35.1
 1.880  0.1574  139.2   2.638   58.5  0.1701   64.2  0.4389  -35.4
 1.900  0.1592  138.5   2.615   58.0  0.1719   64.1  0.4380  -35.7
 1.920  0.1606  137.5   2.591   57.6  0.1736   64.0  0.4372  -35.9
 1.940  0.1621  136.5   2.566   57.1  0.1754   63.8  0.4364  -36.2
 1.960  0.1636  135.5   2.542   56.7  0.1771   63.7  0.4356  -36.4
 1.980  0.1652  134.5   2.518   56.3  0.1789   63.5  0.4349  -36.7
 2.000  0.1668  133.6   2.494   55.8  0.1806   63.4  0.4341  -36.9
 2.020  0.1684  132.9   2.473   55.4  0.1824   63.2  0.4328  -37.2
 2.040  0.1701  132.3   2.453   55.0  0.1843   63.1  0.4316  -37.5
 2.060  0.1717  131.6   2.432   54.6  0.1861   62.9  0.4303  -37.8
 2.080  0.1734  131.0   2.412   54.2  0.1879   62.7  0.4291  -38.1
 2.100  0.1751  130.4   2.392   53.7  0.1898   62.6  0.4279  -38.4
 2.120  0.1768  129.8   2.372   53.3  0.1916   62.4  0.4267  -38.7
 2.140  0.1786  129.2   2.352   52.9  0.1935   62.2  0.4255  -39.1
 2.160  0.1803  128.6   2.332   52.4  0.1953   62.1  0.4243  -39.4
 2.180  0.1821  128.1   2.312   52.0  0.1972   61.9  0.4232  -39.7
 2.200  0.1839  127.5   2.293   51.5  0.1990   61.8  0.4220  -40.0
 2.220  0.1858  126.7   2.278   51.1  0.2008   61.6  0.4208  -40.3
 2.240  0.1877  126.0   2.263   50.7  0.2026   61.5  0.4195  -40.6
 2.260  0.1896  125.2   2.248   50.2  0.2044   61.3  0.4183  -40.9
 2.280  0.1915  124.5   2.233   49.8  0.2062   61.2  0.4171  -41.2
 2.300  0.1935  123.8   2.218   49.4  0.2080   61.0  0.4160  -41.5
 2.320  0.1955  123.1   2.204   48.9  0.2098   60.9  0.4148  -41.8
 2.340  0.1976  122.4   2.189   48.5  0.2116   60.7  0.4136  -42.1
 2.360  0.1997  121.7   2.175   48.0  0.2134   60.6  0.4125  -42.4
 2.380  0.2018  121.0   2.161   47.6  0.2152   60.4  0.4113  -42.7
 2.400  0.2039  120.4   2.147   47.1  0.2170   60.3  0.4102  -43.0
 2.420  0.2064  119.9   2.133   46.7  0.2188   60.1  0.4086  -43.3
 2.440  0.2089  119.4   2.118   46.4  0.2206   59.9  0.4070  -43.7
 2.460  0.2114  118.9   2.104   46.0  0.2224   59.7  0.4055  -44.0
 2.480  0.2139  118.4   2.090   45.6  0.2243   59.5  0.4039  -44.4
 2.500  0.2165  118.0   2.076   45.2  0.2261   59.4  0.4024  -44.7
 2.520  0.2190  117.5   2.062   44.8  0.2279   59.2  0.4009  -45.1
 2.540  0.2216  117.1   2.048   44.4  0.2297   59.0  0.3994  -45.4
 2.560  0.2242  116.6   2.034   44.0  0.2315   58.8  0.3979  -45.8
 2.580  0.2268  116.2   2.021   43.6  0.2334   58.7  0.3965  -46.1
 2.600  0.2294  115.8   2.007   43.2  0.2352   58.5  0.3950  -46.5
 2.620  0.2312  115.3   1.996   42.9  0.2370   58.3  0.3937  -46.9
 2.640  0.2331  114.8   1.985   42.5  0.2388   58.1  0.3923  -47.2
 2.660  0.2350  114.2   1.974   42.2  0.2406   57.9  0.3910  -47.6
 2.680  0.2369  113.7   1.963   41.8  0.2424   57.7  0.3897  -48.0
 2.700  0.2388  113.3   1.953   41.4  0.2442   57.6  0.3884  -48.3
 2.720  0.2408  112.8   1.942   41.1  0.2460   57.4  0.3872  -48.7
 2.740  0.2427  112.3   1.931   40.7  0.2478   57.2  0.3859  -49.1
 2.760  0.2447  111.8   1.921   40.4  0.2497   57.0  0.3847  -49.4
 2.780  0.2467  111.4   1.910   40.0  0.2515   56.9  0.3835  -49.8
 2.800  0.2487  110.9   1.900   39.6  0.2533   56.7  0.3823  -50.2
 2.820  0.2511  110.6   1.889   39.2  0.2551   56.5  0.3805  -50.6
 2.840  0.2536  110.3   1.878   38.8  0.2570   56.3  0.3787  -51.0
 2.860  0.2560  110.0   1.868   38.4  0.2588   56.1  0.3769  -51.4
 2.880  0.2585  109.7   1.857   38.0  0.2607   55.9  0.3751  -51.8
 2.900  0.2609  109.4   1.847   37.6  0.2626   55.7  0.3733  -52.2
 2.920  0.2634  109.1   1.836   37.2  0.2644   55.5  0.3716  -52.6
 2.940  0.2659  108.8   1.826   36.8  0.2663   55.3  0.3699  -53.0
 2.960  0.2683  108.5   1.816   36.4  0.2682   55.2  0.3682  -53.4
 2.980  0.2708  108.3   1.806   35.9  0.2700   55.0  0.3665  -53.8
 3.000  0.2733  108.0   1.796   35.5  0.2719   54.8  0.3648  -54.2
 3.100  0.2856  106.3   1.752   33.9  0.2810   53.6  0.3549  -56.4
 3.200  0.2981  104.7   1.709   32.1  0.2902   52.6  0.3455  -58.7
 3.300  0.3109  103.2   1.668   30.3  0.2995   51.6  0.3368  -61.1
 3.400  0.3238  101.8   1.629   28.4  0.3088   50.6  0.3286  -63.7
 3.500  0.3369  100.6   1.592   26.4  0.3183   49.7  0.3212  -66.4
 3.600  0.3481   99.3   1.560   24.8  0.3272   48.5  0.3102  -69.3
 3.700  0.3594   98.1   1.529   23.1  0.3362   47.3  0.2999  -72.3
 3.800  0.3709   96.9   1.500   21.4  0.3454   46.2  0.2906  -75.6
 3.900  0.3825   95.8   1.472   19.6  0.3547   45.2  0.2824  -79.1
 4.000  0.3943   94.8   1.445   17.7  0.3641   44.2  0.2752  -82.8
 4.100  0.4053   93.7   1.419   16.2  0.3727   42.9  0.2651  -86.4
 4.200  0.4164   92.6   1.393   14.6  0.3815   41.6  0.2561  -90.2
 4.300  0.4276   91.6   1.369   13.0  0.3905   40.4  0.2483  -94.3
 4.400  0.4390   90.7   1.346   11.3  0.3997   39.3  0.2419  -98.6
 4.500  0.4505   89.8   1.324    9.5  0.4090   38.2  0.2369 -103.1
 4.600  0.4594   88.7   1.303    8.1  0.4172   36.9  0.2295 -107.3
 4.700  0.4686   87.6   1.282    6.6  0.4255   35.7  0.2234 -111.8
 4.800  0.4779   86.5   1.263    5.0  0.4341   34.5  0.2188 -116.5
 4.900  0.4873   85.5   1.245    3.4  0.4429   33.3  0.2157 -121.4
 5.000  0.4969   84.5   1.227    1.8  0.4518   32.2  0.2142 -126.4
 5.100  0.5065   83.4   1.206    0.5  0.4593   30.8  0.2100 -131.5
 5.200  0.5163   82.3   1.185   -0.9  0.4671   29.5  0.2076 -136.7
 5.300  0.5263   81.3   1.165   -2.3  0.4752   28.2  0.2069 -142.0
 5.400  0.5364   80.3   1.146   -3.8  0.4834   27.0  0.2080 -147.3
 5.500  0.5467   79.4   1.127   -5.3  0.4919   25.8  0.2108 -152.5
 5.600  0.5538   78.3   1.108   -6.6  0.4972   24.3  0.2078 -157.3
 5.700  0.5612   77.3   1.090   -7.9  0.5029   22.9  0.2063 -162.2
 5.800  0.5687   76.3   1.073   -9.3  0.5089   21.4  0.2063 -167.1
 5.900  0.5764   75.3   1.056  -10.7  0.5151   20.1  0.2078 -172.0
 6.000  0.5842   74.4   1.040  -12.2  0.5217   18.7  0.2108 -176.8
!
!  f       NFmin   Gammaopt  rn/50
! GHz       dB    MAG  ANG    -
 0.450      1.50  0.26   43   0.28
 0.900      1.60  0.24   87   0.22
 1.800      2.10  0.20  170   0.20
!
! (c) 2015  Infineon Technologies AG, Munich
