! Infineon Technologies  Discrete & RF Semiconductors
! BFR106
! VCE =  6.0 V,  IC =  20 mA
! Common Emitter S-Parameters:                            Nov 2015
# GHz  S  MA  R  50
!  f         S11            S21            S12            S22
! GHz     MAG   ANG      MAG   ANG      MAG   ANG      MAG   ANG
 0.010  0.5948  -18.2  45.380  168.8  0.0045   84.3  0.9693   -8.5
 0.015  0.5837  -26.5  44.159  164.3  0.0067   78.6  0.9479  -12.6
 0.020  0.5853  -35.0  43.223  159.6  0.0089   75.7  0.9314  -16.8
 0.025  0.5586  -41.1  41.321  156.6  0.0104   71.7  0.8958  -19.2
 0.030  0.5389  -47.8  39.543  153.3  0.0120   68.7  0.8618  -21.8
 0.035  0.5269  -54.9  37.909  149.7  0.0136   66.4  0.8298  -24.6
 0.040  0.5232  -62.1  36.436  145.8  0.0152   64.6  0.8000  -27.7
 0.045  0.5280  -69.4  35.145  141.6  0.0169   63.1  0.7726  -30.9
 0.050  0.5411  -76.4  34.058  137.1  0.0185   61.9  0.7478  -34.4
 0.055  0.5271  -80.1  32.799  135.7  0.0193   60.9  0.7232  -35.4
 0.060  0.5154  -83.9  31.561  134.3  0.0202   60.0  0.6988  -36.4
 0.065  0.5062  -88.0  30.344  132.7  0.0210   59.1  0.6746  -37.5
 0.070  0.4995  -92.1  29.153  131.0  0.0219   58.3  0.6507  -38.6
 0.075  0.4955  -96.4  27.990  129.1  0.0228   57.6  0.6271  -39.9
 0.080  0.4942 -100.6  26.859  127.1  0.0236   57.0  0.6038  -41.3
 0.085  0.4958 -104.9  25.765  124.9  0.0245   56.3  0.5809  -42.7
 0.090  0.5000 -109.2  24.712  122.5  0.0254   55.7  0.5584  -44.3
 0.095  0.5070 -113.3  23.705  119.9  0.0262   55.2  0.5363  -46.0
 0.100  0.5165 -117.3  22.751  117.1  0.0271   54.7  0.5148  -47.9
 0.105  0.5115 -119.2  22.080  116.3  0.0276   54.6  0.5019  -48.2
 0.110  0.5072 -121.2  21.413  115.4  0.0282   54.4  0.4889  -48.6
 0.115  0.5034 -123.2  20.752  114.5  0.0287   54.3  0.4760  -49.0
 0.120  0.5003 -125.2  20.096  113.5  0.0292   54.2  0.4631  -49.4
 0.125  0.4977 -127.2  19.446  112.5  0.0297   54.1  0.4503  -49.8
 0.130  0.4959 -129.3  18.804  111.3  0.0303   54.0  0.4374  -50.3
 0.135  0.4946 -131.4  18.169  110.1  0.0308   53.9  0.4246  -50.8
 0.140  0.4940 -133.4  17.543  108.9  0.0313   53.8  0.4118  -51.3
 0.145  0.4941 -135.5  16.926  107.5  0.0319   53.7  0.3991  -51.8
 0.150  0.4948 -137.6  16.320  106.0  0.0324   53.6  0.3864  -52.4
 0.155  0.4941 -138.8  15.951  105.5  0.0329   53.9  0.3796  -52.4
 0.160  0.4937 -140.1  15.583  105.0  0.0334   54.2  0.3728  -52.4
 0.165  0.4935 -141.3  15.216  104.5  0.0339   54.5  0.3659  -52.4
 0.170  0.4936 -142.5  14.850  103.9  0.0344   54.8  0.3591  -52.4
 0.175  0.4938 -143.8  14.487  103.3  0.0348   55.0  0.3523  -52.4
 0.180  0.4943 -145.0  14.124  102.7  0.0353   55.3  0.3455  -52.3
 0.185  0.4951 -146.2  13.764  102.0  0.0358   55.6  0.3387  -52.3
 0.190  0.4960 -147.5  13.406  101.3  0.0363   55.8  0.3318  -52.3
 0.195  0.4972 -148.7  13.049  100.6  0.0368   56.1  0.3250  -52.3
 0.200  0.4986 -149.9  12.695   99.8  0.0373   56.3  0.3182  -52.3
 0.220  0.4957 -153.2  11.716   98.1  0.0394   57.3  0.2995  -52.2
 0.240  0.4945 -156.5  10.750   96.1  0.0415   58.3  0.2808  -52.1
 0.260  0.4939 -159.4   9.946   94.3  0.0437   59.1  0.2661  -52.0
 0.280  0.4934 -161.8   9.296   93.1  0.0458   59.9  0.2556  -51.9
 0.300  0.4937 -164.2   8.651   91.6  0.0480   60.6  0.2450  -51.8
 0.320  0.4930 -166.0   8.231   90.7  0.0502   61.2  0.2381  -51.5
 0.340  0.4928 -167.8   7.813   89.8  0.0525   61.8  0.2312  -51.1
 0.360  0.4931 -169.6   7.398   88.7  0.0548   62.4  0.2243  -50.8
 0.380  0.4939 -171.4   6.986   87.5  0.0570   62.8  0.2174  -50.4
 0.400  0.4952 -173.2   6.577   86.1  0.0593   63.3  0.2105  -50.0
 0.420  0.4958 -174.4   6.315   85.3  0.0616   63.7  0.2068  -49.9
 0.440  0.4965 -175.6   6.054   84.4  0.0640   64.1  0.2032  -49.7
 0.450  0.4970 -176.2   5.924   83.9  0.0651   64.3  0.2013  -49.6
 0.460  0.4975 -176.8   5.794   83.4  0.0663   64.5  0.1995  -49.5
 0.480  0.4988 -178.0   5.537   82.4  0.0687   64.8  0.1959  -49.4
 0.500  0.5002 -179.2   5.281   81.2  0.0710   65.1  0.1922  -49.2
 0.520  0.5000  179.7   5.112   80.5  0.0735   65.4  0.1903  -49.3
 0.540  0.5000  178.6   4.944   79.7  0.0760   65.6  0.1884  -49.4
 0.560  0.5002  177.5   4.776   78.9  0.0784   65.9  0.1866  -49.5
 0.580  0.5006  176.4   4.610   78.0  0.0809   66.1  0.1847  -49.6
 0.600  0.5011  175.3   4.445   77.0  0.0834   66.3  0.1828  -49.7
 0.620  0.5013  174.4   4.323   76.3  0.0858   66.4  0.1813  -50.0
 0.640  0.5017  173.5   4.202   75.5  0.0881   66.5  0.1799  -50.4
 0.660  0.5022  172.6   4.081   74.7  0.0905   66.6  0.1784  -50.8
 0.680  0.5028  171.7   3.962   73.8  0.0928   66.7  0.1769  -51.1
 0.700  0.5035  170.8   3.843   72.9  0.0952   66.8  0.1755  -51.5
 0.720  0.5042  170.1   3.749   72.3  0.0977   66.8  0.1742  -51.8
 0.740  0.5050  169.3   3.655   71.6  0.1003   66.7  0.1728  -52.1
 0.760  0.5059  168.6   3.561   70.9  0.1028   66.7  0.1715  -52.4
 0.780  0.5069  167.8   3.468   70.2  0.1054   66.6  0.1702  -52.7
 0.800  0.5080  167.1   3.376   69.4  0.1079   66.6  0.1689  -53.0
 0.820  0.5073  166.4   3.303   68.8  0.1104   66.6  0.1683  -53.3
 0.840  0.5068  165.7   3.231   68.1  0.1129   66.5  0.1676  -53.5
 0.860  0.5063  164.9   3.159   67.4  0.1153   66.5  0.1670  -53.8
 0.880  0.5058  164.2   3.087   66.7  0.1178   66.4  0.1663  -54.0
 0.900  0.5055  163.5   3.016   65.9  0.1203   66.4  0.1657  -54.3
 0.920  0.5065  162.7   2.960   65.3  0.1227   66.3  0.1654  -54.9
 0.940  0.5075  161.8   2.904   64.7  0.1251   66.2  0.1651  -55.5
 0.960  0.5087  161.0   2.849   64.1  0.1276   66.2  0.1649  -56.2
 0.980  0.5099  160.2   2.794   63.4  0.1300   66.1  0.1646  -56.8
 1.000  0.5113  159.4   2.739   62.7  0.1324   66.0  0.1644  -57.4
 1.020  0.5130  158.7   2.693   62.1  0.1349   65.8  0.1639  -58.2
 1.040  0.5149  158.0   2.648   61.4  0.1374   65.7  0.1634  -58.9
 1.060  0.5168  157.3   2.603   60.7  0.1399   65.6  0.1629  -59.7
 1.080  0.5187  156.6   2.558   60.0  0.1424   65.4  0.1624  -60.4
 1.100  0.5208  155.9   2.514   59.3  0.1449   65.3  0.1620  -61.2
 1.120  0.5214  155.1   2.476   58.7  0.1474   65.2  0.1613  -61.8
 1.140  0.5221  154.4   2.438   58.1  0.1499   65.0  0.1606  -62.5
 1.160  0.5229  153.6   2.400   57.4  0.1524   64.9  0.1599  -63.1
 1.180  0.5237  152.9   2.362   56.8  0.1549   64.8  0.1592  -63.7
 1.200  0.5247  152.1   2.325   56.1  0.1574   64.7  0.1586  -64.4
 1.220  0.5250  151.6   2.291   55.6  0.1600   64.5  0.1582  -65.1
 1.240  0.5254  151.1   2.257   55.0  0.1625   64.2  0.1579  -65.7
 1.260  0.5258  150.5   2.223   54.5  0.1651   64.0  0.1575  -66.4
 1.280  0.5263  150.0   2.189   53.9  0.1676   63.8  0.1572  -67.0
 1.300  0.5268  149.5   2.156   53.3  0.1702   63.6  0.1569  -67.7
 1.320  0.5287  148.9   2.128   52.8  0.1726   63.5  0.1569  -68.5
 1.340  0.5307  148.2   2.101   52.2  0.1751   63.3  0.1568  -69.4
 1.360  0.5328  147.6   2.073   51.7  0.1775   63.2  0.1569  -70.2
 1.380  0.5349  147.0   2.046   51.1  0.1800   63.0  0.1569  -71.1
 1.400  0.5371  146.4   2.019   50.5  0.1824   62.9  0.1570  -71.9
 1.420  0.5367  145.9   1.998   50.0  0.1849   62.7  0.1567  -72.8
 1.440  0.5364  145.4   1.977   49.4  0.1874   62.5  0.1565  -73.7
 1.460  0.5361  144.9   1.957   48.9  0.1899   62.3  0.1563  -74.5
 1.480  0.5359  144.4   1.936   48.3  0.1924   62.1  0.1562  -75.4
 1.500  0.5357  143.9   1.916   47.7  0.1949   61.9  0.1561  -76.3
 1.520  0.5370  143.2   1.891   47.1  0.1974   61.7  0.1556  -77.2
 1.540  0.5384  142.6   1.867   46.5  0.1999   61.4  0.1552  -78.1
 1.560  0.5399  141.9   1.843   45.8  0.2025   61.2  0.1548  -79.0
 1.580  0.5415  141.3   1.819   45.2  0.2050   61.0  0.1544  -79.9
 1.600  0.5431  140.6   1.795   44.5  0.2075   60.8  0.1541  -80.8
 1.620  0.5445  140.0   1.776   43.9  0.2099   60.6  0.1536  -81.7
 1.640  0.5459  139.4   1.758   43.3  0.2123   60.4  0.1531  -82.6
 1.660  0.5474  138.8   1.740   42.7  0.2148   60.2  0.1526  -83.5
 1.680  0.5489  138.2   1.722   42.1  0.2172   60.0  0.1522  -84.4
 1.700  0.5505  137.6   1.704   41.5  0.2196   59.8  0.1518  -85.3
 1.720  0.5527  137.1   1.690   41.1  0.2221   59.5  0.1519  -86.2
 1.740  0.5550  136.6   1.676   40.6  0.2247   59.3  0.1521  -87.1
 1.760  0.5573  136.1   1.662   40.1  0.2272   59.0  0.1523  -87.9
 1.780  0.5596  135.6   1.649   39.7  0.2298   58.7  0.1525  -88.8
 1.800  0.5620  135.1   1.635   39.2  0.2323   58.5  0.1528  -89.7
 1.820  0.5624  134.6   1.620   38.7  0.2348   58.3  0.1532  -90.9
 1.840  0.5629  134.0   1.605   38.1  0.2373   58.0  0.1536  -92.1
 1.860  0.5635  133.5   1.591   37.6  0.2398   57.8  0.1541  -93.3
 1.880  0.5641  132.9   1.576   37.0  0.2424   57.6  0.1547  -94.5
 1.900  0.5647  132.4   1.562   36.4  0.2449   57.4  0.1553  -95.7
 1.920  0.5655  131.9   1.547   35.9  0.2474   57.1  0.1550  -96.9
 1.940  0.5664  131.4   1.533   35.4  0.2498   56.9  0.1547  -98.1
 1.960  0.5673  130.9   1.518   34.9  0.2523   56.6  0.1546  -99.3
 1.980  0.5683  130.4   1.504   34.4  0.2548   56.3  0.1544 -100.5
 2.000  0.5693  129.9   1.490   33.9  0.2573   56.1  0.1544 -101.7
 2.020  0.5706  129.4   1.478   33.4  0.2598   55.8  0.1544 -102.8
 2.040  0.5720  128.9   1.466   32.9  0.2623   55.6  0.1545 -103.8
 2.060  0.5734  128.4   1.454   32.5  0.2648   55.3  0.1546 -104.9
 2.080  0.5749  127.9   1.442   32.0  0.2674   55.0  0.1548 -105.9
 2.100  0.5764  127.4   1.430   31.5  0.2699   54.8  0.1550 -106.9
 2.120  0.5780  126.9   1.418   30.9  0.2724   54.5  0.1553 -108.0
 2.140  0.5796  126.4   1.407   30.4  0.2750   54.3  0.1556 -109.0
 2.160  0.5812  125.9   1.395   29.9  0.2775   54.1  0.1560 -110.1
 2.180  0.5829  125.4   1.384   29.3  0.2800   53.8  0.1564 -111.1
 2.200  0.5846  124.9   1.373   28.8  0.2826   53.6  0.1569 -112.1
 2.220  0.5856  124.4   1.364   28.3  0.2850   53.3  0.1572 -113.5
 2.240  0.5867  123.9   1.354   27.8  0.2875   53.0  0.1575 -114.9
 2.260  0.5878  123.3   1.345   27.3  0.2899   52.7  0.1580 -116.3
 2.280  0.5890  122.8   1.336   26.8  0.2924   52.4  0.1585 -117.6
 2.300  0.5902  122.3   1.327   26.3  0.2949   52.1  0.1591 -119.0
 2.320  0.5915  121.8   1.318   25.8  0.2973   51.9  0.1599 -120.3
 2.340  0.5928  121.3   1.310   25.3  0.2998   51.6  0.1607 -121.7
 2.360  0.5941  120.8   1.301   24.8  0.3023   51.3  0.1616 -123.0
 2.380  0.5956  120.3   1.292   24.2  0.3048   51.1  0.1625 -124.3
 2.400  0.5970  119.8   1.284   23.7  0.3073   50.8  0.1636 -125.6
 2.420  0.5991  119.3   1.275   23.3  0.3096   50.5  0.1642 -126.7
 2.440  0.6012  118.8   1.266   22.9  0.3119   50.2  0.1648 -127.9
 2.460  0.6034  118.3   1.257   22.5  0.3142   49.9  0.1656 -129.0
 2.480  0.6057  117.8   1.248   22.1  0.3165   49.6  0.1663 -130.1
 2.500  0.6080  117.3   1.239   21.7  0.3188   49.3  0.1672 -131.2
 2.520  0.6103  116.8   1.230   21.3  0.3211   49.1  0.1681 -132.3
 2.540  0.6127  116.3   1.221   20.8  0.3235   48.8  0.1690 -133.4
 2.560  0.6151  115.8   1.212   20.4  0.3258   48.5  0.1701 -134.5
 2.580  0.6176  115.3   1.204   19.9  0.3281   48.3  0.1712 -135.6
 2.600  0.6201  114.8   1.195   19.5  0.3305   48.0  0.1723 -136.6
 2.620  0.6211  114.4   1.188   19.1  0.3328   47.7  0.1734 -138.0
 2.640  0.6221  114.0   1.182   18.7  0.3351   47.4  0.1746 -139.3
 2.660  0.6232  113.6   1.175   18.3  0.3374   47.1  0.1759 -140.7
 2.680  0.6242  113.1   1.168   17.9  0.3398   46.8  0.1773 -142.0
 2.700  0.6253  112.7   1.162   17.5  0.3421   46.5  0.1788 -143.3
 2.720  0.6265  112.3   1.155   17.1  0.3444   46.2  0.1804 -144.5
 2.740  0.6277  111.9   1.149   16.7  0.3468   45.9  0.1820 -145.8
 2.760  0.6289  111.5   1.143   16.3  0.3492   45.6  0.1838 -147.0
 2.780  0.6301  111.1   1.136   15.8  0.3515   45.4  0.1856 -148.2
 2.800  0.6314  110.7   1.130   15.4  0.3539   45.1  0.1875 -149.4
 2.820  0.6334  110.3   1.123   15.0  0.3562   44.8  0.1889 -150.5
 2.840  0.6354  109.9   1.116   14.6  0.3585   44.5  0.1904 -151.5
 2.860  0.6375  109.4   1.109   14.2  0.3608   44.2  0.1920 -152.6
 2.880  0.6396  109.0   1.102   13.7  0.3631   43.9  0.1936 -153.6
 2.900  0.6417  108.6   1.095   13.3  0.3654   43.6  0.1953 -154.6
 2.920  0.6438  108.2   1.088   12.9  0.3677   43.3  0.1971 -155.6
 2.940  0.6460  107.8   1.082   12.4  0.3700   43.0  0.1989 -156.6
 2.960  0.6483  107.4   1.075   12.0  0.3724   42.8  0.2007 -157.5
 2.980  0.6505  107.0   1.069   11.6  0.3747   42.5  0.2026 -158.5
 3.000  0.6528  106.6   1.062   11.1  0.3771   42.2  0.2046 -159.4
 3.100  0.6592  104.6   1.033    9.5  0.3872   40.5  0.2139 -165.1
 3.200  0.6665  102.7   1.005    7.9  0.3977   39.0  0.2252 -170.3
 3.300  0.6744  100.8   0.978    6.2  0.4084   37.5  0.2382 -175.0
 3.400  0.6831   99.0   0.952    4.3  0.4195   36.0  0.2526 -179.2
 3.500  0.6924   97.2   0.927    2.4  0.4307   34.7  0.2682  177.1
 3.600  0.6984   95.5   0.905    1.1  0.4387   33.0  0.2805  172.4
 3.700  0.7051   93.8   0.884   -0.2  0.4471   31.3  0.2944  168.2
 3.800  0.7123   92.2   0.862   -1.5  0.4559   29.7  0.3099  164.4
 3.900  0.7201   90.6   0.842   -3.0  0.4650   28.1  0.3265  160.9
 4.000  0.7285   89.0   0.822   -4.5  0.4745   26.6  0.3443  157.8
 4.100  0.7306   87.5   0.805   -5.5  0.4800   25.0  0.3550  154.4
 4.200  0.7331   86.1   0.787   -6.6  0.4859   23.4  0.3669  151.2
 4.300  0.7362   84.6   0.771   -7.8  0.4922   21.8  0.3799  148.2
 4.400  0.7397   83.2   0.754   -9.0  0.4988   20.3  0.3938  145.5
 4.500  0.7436   81.8   0.738  -10.2  0.5058   18.8  0.4086  142.9
 4.600  0.7469   80.6   0.726  -11.0  0.5100   17.3  0.4181  140.1
 4.700  0.7506   79.4   0.713  -11.8  0.5146   15.9  0.4285  137.5
 4.800  0.7546   78.2   0.701  -12.6  0.5194   14.5  0.4398  135.0
 4.900  0.7589   77.0   0.689  -13.5  0.5246   13.1  0.4519  132.6
 5.000  0.7635   75.8   0.677  -14.4  0.5301   11.7  0.4647  130.4
 5.100  0.7613   74.6   0.666  -14.4  0.5326   10.9  0.4651  129.6
 5.200  0.7595   73.3   0.656  -14.3  0.5352   10.2  0.4657  128.8
 5.300  0.7581   72.1   0.645  -14.3  0.5379    9.5  0.4663  128.0
 5.400  0.7569   70.8   0.635  -14.2  0.5407    8.7  0.4670  127.2
 5.500  0.7562   69.6   0.624  -14.2  0.5436    8.0  0.4678  126.4
 5.600  0.7558   68.8   0.622  -15.0  0.5500    6.4  0.4851  123.9
 5.700  0.7555   67.9   0.619  -15.9  0.5568    4.8  0.5033  121.6
 5.800  0.7554   67.1   0.617  -16.7  0.5640    3.3  0.5222  119.5
 5.900  0.7554   66.2   0.615  -17.5  0.5715    1.8  0.5418  117.5
 6.000  0.7556   65.4   0.613  -18.4  0.5795    0.4  0.5620  115.7
!
!  f       NFmin   Gammaopt  rn/50
! GHz       dB    MAG  ANG    -
!
! noise parameter not available yet for this operation point!
!
! (c) 2015  Infineon Technologies AG, Munich
