! Infineon Technologies  Discrete & RF Semiconductors
! BFR182
! VCE =  5.0 V,  IC =  7.0 mA
! Common Emitter S-Parameters:                            Nov 2015
# GHz  S  MA  R  50
!  f         S11            S21            S12            S22
! GHz     MAG   ANG      MAG   ANG      MAG   ANG      MAG   ANG
 0.010  0.7852   -2.9  18.532  177.2  0.0018   90.6  0.9869   -1.4
 0.015  0.7838   -4.4  18.450  175.8  0.0028   88.6  0.9813   -2.1
 0.020  0.7829   -5.9  18.379  174.4  0.0038   87.6  0.9759   -2.8
 0.025  0.7792   -7.3  18.346  173.2  0.0048   85.8  0.9747   -3.5
 0.030  0.7761   -8.7  18.321  171.9  0.0058   84.7  0.9737   -4.2
 0.035  0.7734  -10.2  18.305  170.7  0.0067   83.9  0.9728   -4.8
 0.040  0.7712  -11.6  18.297  169.4  0.0077   83.3  0.9720   -5.5
 0.045  0.7694  -13.0  18.299  168.2  0.0087   82.8  0.9714   -6.2
 0.050  0.7682  -14.5  18.309  166.9  0.0097   82.4  0.9709   -6.9
 0.055  0.7620  -15.8  18.170  165.8  0.0105   81.4  0.9661   -7.5
 0.060  0.7562  -17.0  18.037  164.7  0.0113   80.6  0.9615   -8.1
 0.065  0.7508  -18.3  17.911  163.5  0.0122   79.9  0.9569   -8.7
 0.070  0.7458  -19.6  17.793  162.4  0.0130   79.2  0.9525   -9.3
 0.075  0.7411  -21.0  17.682  161.2  0.0138   78.7  0.9482   -9.9
 0.080  0.7369  -22.3  17.578  160.0  0.0147   78.2  0.9439  -10.5
 0.085  0.7331  -23.7  17.481  158.9  0.0155   77.8  0.9398  -11.1
 0.090  0.7297  -25.0  17.393  157.6  0.0163   77.4  0.9358  -11.7
 0.095  0.7267  -26.4  17.312  156.4  0.0172   77.0  0.9319  -12.4
 0.100  0.7241  -27.8  17.239  155.2  0.0180   76.7  0.9281  -13.0
 0.105  0.7162  -28.9  17.070  154.1  0.0187   76.0  0.9220  -13.5
 0.110  0.7087  -30.0  16.907  153.1  0.0194   75.3  0.9159  -13.9
 0.115  0.7013  -31.2  16.750  152.0  0.0201   74.7  0.9100  -14.4
 0.120  0.6943  -32.3  16.599  150.9  0.0208   74.1  0.9040  -14.8
 0.125  0.6876  -33.5  16.454  149.7  0.0215   73.6  0.8982  -15.3
 0.130  0.6811  -34.7  16.316  148.6  0.0222   73.1  0.8924  -15.8
 0.135  0.6750  -36.0  16.184  147.4  0.0230   72.6  0.8866  -16.3
 0.140  0.6692  -37.2  16.060  146.2  0.0237   72.2  0.8809  -16.8
 0.145  0.6637  -38.5  15.942  145.0  0.0244   71.8  0.8753  -17.3
 0.150  0.6586  -39.8  15.832  143.8  0.0251   71.4  0.8698  -17.8
 0.155  0.6511  -40.8  15.677  143.0  0.0258   71.0  0.8637  -18.1
 0.160  0.6439  -41.8  15.526  142.2  0.0264   70.6  0.8576  -18.4
 0.165  0.6368  -42.8  15.377  141.4  0.0271   70.3  0.8515  -18.8
 0.170  0.6300  -43.9  15.232  140.6  0.0277   69.9  0.8455  -19.1
 0.175  0.6234  -45.0  15.089  139.7  0.0284   69.6  0.8395  -19.4
 0.180  0.6170  -46.1  14.951  138.8  0.0290   69.3  0.8335  -19.8
 0.185  0.6108  -47.2  14.816  137.9  0.0297   69.0  0.8276  -20.1
 0.190  0.6049  -48.3  14.684  137.0  0.0304   68.7  0.8216  -20.5
 0.195  0.5992  -49.5  14.556  136.1  0.0310   68.5  0.8158  -20.8
 0.200  0.5938  -50.7  14.432  135.2  0.0317   68.2  0.8099  -21.2
 0.220  0.5687  -54.0  13.793  132.5  0.0336   67.0  0.7895  -22.0
 0.240  0.5456  -57.5  13.189  129.5  0.0355   65.9  0.7692  -22.9
 0.260  0.5221  -60.8  12.636  126.8  0.0374   65.3  0.7503  -23.7
 0.280  0.4974  -63.8  12.120  124.4  0.0393   65.0  0.7327  -24.2
 0.300  0.4743  -67.1  11.628  121.8  0.0412   64.8  0.7151  -24.8
 0.320  0.4550  -69.4  11.213  120.2  0.0429   64.4  0.7010  -25.1
 0.340  0.4365  -72.0  10.806  118.5  0.0445   64.0  0.6869  -25.3
 0.360  0.4190  -74.7  10.411  116.6  0.0462   63.7  0.6728  -25.6
 0.380  0.4024  -77.7  10.027  114.6  0.0478   63.4  0.6587  -25.9
 0.400  0.3871  -80.9   9.656  112.5  0.0495   63.1  0.6447  -26.2
 0.420  0.3732  -82.9   9.325  111.2  0.0508   63.2  0.6352  -26.3
 0.440  0.3598  -85.0   9.000  109.7  0.0522   63.3  0.6257  -26.4
 0.450  0.3533  -86.1   8.839  109.0  0.0528   63.3  0.6210  -26.4
 0.460  0.3470  -87.3   8.680  108.2  0.0535   63.4  0.6163  -26.4
 0.480  0.3347  -89.8   8.367  106.6  0.0549   63.4  0.6068  -26.5
 0.500  0.3231  -92.4   8.062  104.8  0.0562   63.5  0.5973  -26.6
 0.520  0.3132  -94.1   7.833  103.8  0.0578   63.5  0.5914  -26.6
 0.540  0.3035  -95.9   7.607  102.8  0.0594   63.5  0.5855  -26.6
 0.560  0.2942  -97.9   7.384  101.6  0.0610   63.5  0.5796  -26.7
 0.580  0.2853  -99.9   7.163  100.5  0.0626   63.5  0.5737  -26.7
 0.600  0.2767 -102.1   6.946   99.2  0.0642   63.5  0.5678  -26.7
 0.620  0.2687 -103.8   6.774   98.3  0.0656   63.7  0.5633  -26.7
 0.640  0.2608 -105.5   6.604   97.4  0.0670   63.8  0.5588  -26.8
 0.660  0.2533 -107.4   6.435   96.4  0.0683   63.9  0.5542  -26.8
 0.680  0.2460 -109.4   6.269   95.3  0.0697   64.1  0.5497  -26.9
 0.700  0.2391 -111.5   6.105   94.2  0.0711   64.2  0.5452  -26.9
 0.720  0.2334 -113.4   5.963   93.4  0.0727   64.2  0.5420  -26.9
 0.740  0.2281 -115.5   5.823   92.5  0.0743   64.3  0.5389  -26.9
 0.760  0.2230 -117.6   5.684   91.6  0.0758   64.3  0.5357  -27.0
 0.780  0.2182 -119.8   5.547   90.7  0.0774   64.4  0.5326  -27.0
 0.800  0.2138 -122.1   5.411   89.7  0.0790   64.4  0.5294  -27.0
 0.820  0.2079 -123.7   5.301   89.0  0.0805   64.5  0.5265  -27.0
 0.840  0.2021 -125.5   5.192   88.3  0.0819   64.6  0.5236  -27.1
 0.860  0.1966 -127.3   5.084   87.5  0.0834   64.7  0.5207  -27.1
 0.880  0.1912 -129.3   4.977   86.7  0.0848   64.8  0.5178  -27.2
 0.900  0.1861 -131.3   4.871   85.9  0.0863   64.9  0.5149  -27.2
 0.920  0.1823 -133.1   4.783   85.3  0.0879   65.0  0.5130  -27.3
 0.940  0.1787 -135.0   4.696   84.6  0.0895   65.0  0.5111  -27.4
 0.960  0.1753 -137.0   4.610   83.9  0.0910   65.1  0.5092  -27.5
 0.980  0.1722 -139.0   4.524   83.2  0.0926   65.1  0.5073  -27.6
 1.000  0.1692 -141.1   4.439   82.5  0.0942   65.2  0.5054  -27.7
 1.020  0.1679 -143.2   4.367   81.9  0.0957   65.2  0.5038  -27.8
 1.040  0.1667 -145.4   4.295   81.3  0.0973   65.2  0.5022  -28.0
 1.060  0.1659 -147.6   4.223   80.7  0.0988   65.2  0.5006  -28.1
 1.080  0.1653 -149.9   4.152   80.1  0.1004   65.2  0.4990  -28.3
 1.100  0.1649 -152.1   4.082   79.4  0.1019   65.2  0.4974  -28.4
 1.120  0.1630 -153.9   4.019   78.8  0.1035   65.2  0.4960  -28.5
 1.140  0.1613 -155.7   3.956   78.2  0.1051   65.2  0.4946  -28.7
 1.160  0.1598 -157.6   3.894   77.6  0.1066   65.3  0.4932  -28.8
 1.180  0.1584 -159.5   3.832   77.0  0.1082   65.3  0.4918  -29.0
 1.200  0.1572 -161.4   3.771   76.3  0.1098   65.3  0.4904  -29.1
 1.220  0.1556 -163.0   3.715   75.8  0.1114   65.3  0.4894  -29.3
 1.240  0.1541 -164.6   3.659   75.3  0.1130   65.2  0.4884  -29.4
 1.260  0.1527 -166.2   3.604   74.7  0.1146   65.2  0.4874  -29.6
 1.280  0.1514 -167.9   3.549   74.2  0.1162   65.1  0.4864  -29.7
 1.300  0.1503 -169.6   3.494   73.6  0.1178   65.1  0.4854  -29.9
 1.320  0.1499 -171.6   3.447   73.1  0.1194   65.1  0.4844  -30.1
 1.340  0.1497 -173.6   3.401   72.5  0.1210   65.1  0.4835  -30.3
 1.360  0.1497 -175.5   3.354   72.0  0.1225   65.2  0.4825  -30.5
 1.380  0.1499 -177.5   3.309   71.4  0.1241   65.2  0.4815  -30.7
 1.400  0.1502 -179.5   3.263   70.8  0.1257   65.2  0.4806  -30.9
 1.420  0.1500  179.2   3.228   70.3  0.1273   65.1  0.4795  -31.1
 1.440  0.1498  178.0   3.192   69.9  0.1289   65.0  0.4785  -31.3
 1.460  0.1497  176.7   3.157   69.4  0.1304   64.9  0.4775  -31.5
 1.480  0.1497  175.5   3.123   68.9  0.1320   64.8  0.4764  -31.7
 1.500  0.1497  174.2   3.088   68.4  0.1336   64.7  0.4754  -31.9
 1.520  0.1508  172.3   3.050   67.8  0.1353   64.6  0.4745  -32.1
 1.540  0.1521  170.4   3.012   67.2  0.1371   64.5  0.4737  -32.3
 1.560  0.1535  168.6   2.975   66.6  0.1388   64.5  0.4728  -32.5
 1.580  0.1551  166.8   2.938   66.0  0.1406   64.4  0.4719  -32.7
 1.600  0.1569  165.0   2.901   65.4  0.1423   64.3  0.4711  -32.9
 1.620  0.1572  163.4   2.871   64.9  0.1439   64.3  0.4698  -33.1
 1.640  0.1575  161.9   2.842   64.5  0.1455   64.3  0.4686  -33.3
 1.660  0.1580  160.4   2.813   64.0  0.1472   64.2  0.4673  -33.5
 1.680  0.1586  158.8   2.784   63.5  0.1488   64.2  0.4660  -33.7
 1.700  0.1593  157.3   2.755   63.0  0.1504   64.2  0.4648  -33.9
 1.720  0.1608  155.9   2.729   62.6  0.1521   64.1  0.4638  -34.2
 1.740  0.1625  154.5   2.704   62.1  0.1538   64.0  0.4628  -34.4
 1.760  0.1642  153.1   2.678   61.7  0.1556   63.8  0.4618  -34.7
 1.780  0.1660  151.8   2.653   61.3  0.1573   63.7  0.4608  -34.9
 1.800  0.1679  150.5   2.628   60.8  0.1590   63.6  0.4598  -35.2
 1.820  0.1693  149.6   2.605   60.3  0.1608   63.5  0.4588  -35.5
 1.840  0.1707  148.7   2.582   59.9  0.1626   63.4  0.4579  -35.8
 1.860  0.1721  147.9   2.559   59.4  0.1644   63.4  0.4569  -36.0
 1.880  0.1736  147.0   2.536   58.9  0.1662   63.3  0.4560  -36.3
 1.900  0.1751  146.2   2.514   58.4  0.1680   63.2  0.4551  -36.6
 1.920  0.1771  145.3   2.490   57.9  0.1696   63.0  0.4543  -36.9
 1.940  0.1792  144.4   2.466   57.5  0.1713   62.9  0.4535  -37.1
 1.960  0.1813  143.6   2.442   57.0  0.1729   62.7  0.4527  -37.4
 1.980  0.1835  142.7   2.418   56.5  0.1746   62.6  0.4520  -37.6
 2.000  0.1857  141.9   2.395   56.0  0.1762   62.4  0.4512  -37.9
 2.020  0.1870  140.9   2.376   55.6  0.1780   62.3  0.4500  -38.2
 2.040  0.1883  140.0   2.357   55.2  0.1797   62.2  0.4489  -38.5
 2.060  0.1897  139.0   2.338   54.8  0.1815   62.0  0.4477  -38.8
 2.080  0.1911  138.1   2.319   54.3  0.1833   61.9  0.4466  -39.1
 2.100  0.1926  137.2   2.301   53.9  0.1850   61.8  0.4455  -39.4
 2.120  0.1941  136.3   2.282   53.4  0.1868   61.7  0.4444  -39.7
 2.140  0.1957  135.4   2.264   53.0  0.1886   61.6  0.4433  -40.0
 2.160  0.1973  134.5   2.246   52.5  0.1904   61.5  0.4422  -40.3
 2.180  0.1990  133.6   2.228   52.1  0.1921   61.4  0.4412  -40.6
 2.200  0.2007  132.8   2.210   51.6  0.1939   61.3  0.4401  -40.9
 2.220  0.2025  132.0   2.195   51.2  0.1956   61.2  0.4389  -41.2
 2.240  0.2044  131.2   2.180   50.8  0.1974   61.0  0.4377  -41.5
 2.260  0.2063  130.5   2.165   50.3  0.1991   60.9  0.4365  -41.8
 2.280  0.2082  129.7   2.150   49.9  0.2009   60.8  0.4353  -42.1
 2.300  0.2102  129.0   2.135   49.5  0.2026   60.6  0.4341  -42.4
 2.320  0.2122  128.3   2.120   49.0  0.2044   60.5  0.4329  -42.7
 2.340  0.2142  127.5   2.106   48.6  0.2061   60.4  0.4318  -43.1
 2.360  0.2163  126.9   2.091   48.1  0.2079   60.2  0.4306  -43.4
 2.380  0.2184  126.2   2.077   47.7  0.2096   60.1  0.4295  -43.7
 2.400  0.2205  125.5   2.063   47.2  0.2114   60.0  0.4284  -44.0
 2.420  0.2227  124.8   2.050   46.8  0.2132   59.8  0.4269  -44.3
 2.440  0.2249  124.1   2.036   46.4  0.2150   59.7  0.4253  -44.7
 2.460  0.2272  123.5   2.023   46.0  0.2168   59.5  0.4238  -45.0
 2.480  0.2295  122.8   2.010   45.6  0.2187   59.3  0.4223  -45.3
 2.500  0.2319  122.2   1.997   45.2  0.2205   59.2  0.4208  -45.7
 2.520  0.2342  121.6   1.984   44.8  0.2223   59.0  0.4193  -46.0
 2.540  0.2366  121.0   1.972   44.4  0.2241   58.9  0.4179  -46.4
 2.560  0.2390  120.4   1.959   44.0  0.2259   58.7  0.4164  -46.7
 2.580  0.2414  119.8   1.946   43.5  0.2278   58.5  0.4150  -47.0
 2.600  0.2439  119.2   1.934   43.1  0.2296   58.4  0.4136  -47.4
 2.620  0.2458  118.7   1.923   42.7  0.2314   58.2  0.4123  -47.8
 2.640  0.2478  118.2   1.912   42.4  0.2333   58.1  0.4110  -48.1
 2.660  0.2498  117.6   1.901   42.0  0.2351   57.9  0.4097  -48.5
 2.680  0.2518  117.1   1.890   41.6  0.2369   57.7  0.4084  -48.9
 2.700  0.2538  116.7   1.879   41.3  0.2388   57.6  0.4072  -49.3
 2.720  0.2558  116.2   1.869   40.9  0.2406   57.4  0.4059  -49.7
 2.740  0.2578  115.7   1.858   40.5  0.2425   57.3  0.4047  -50.0
 2.760  0.2599  115.2   1.848   40.1  0.2443   57.1  0.4035  -50.4
 2.780  0.2620  114.8   1.837   39.7  0.2462   56.9  0.4024  -50.8
 2.800  0.2641  114.3   1.827   39.3  0.2480   56.8  0.4012  -51.2
 2.820  0.2664  113.8   1.817   38.9  0.2498   56.6  0.3995  -51.6
 2.840  0.2687  113.3   1.807   38.5  0.2516   56.4  0.3978  -52.0
 2.860  0.2710  112.8   1.797   38.1  0.2534   56.2  0.3962  -52.3
 2.880  0.2734  112.4   1.788   37.7  0.2552   56.0  0.3945  -52.7
 2.900  0.2757  111.9   1.778   37.3  0.2571   55.9  0.3929  -53.1
 2.920  0.2781  111.4   1.768   36.9  0.2589   55.7  0.3913  -53.5
 2.940  0.2805  111.0   1.759   36.5  0.2607   55.5  0.3897  -53.9
 2.960  0.2829  110.6   1.749   36.1  0.2625   55.3  0.3882  -54.3
 2.980  0.2854  110.1   1.740   35.6  0.2644   55.2  0.3866  -54.7
 3.000  0.2878  109.7   1.731   35.2  0.2662   55.0  0.3851  -55.1
 3.100  0.2999  107.8   1.688   33.5  0.2755   53.9  0.3753  -57.3
 3.200  0.3124  106.1   1.647   31.8  0.2848   52.9  0.3661  -59.7
 3.300  0.3251  104.5   1.607   29.9  0.2942   52.0  0.3575  -62.1
 3.400  0.3380  103.1   1.569   27.9  0.3037   51.1  0.3496  -64.7
 3.500  0.3511  101.7   1.533   25.9  0.3133   50.3  0.3425  -67.4
 3.600  0.3627  100.2   1.502   24.3  0.3226   49.1  0.3321  -70.3
 3.700  0.3744   98.8   1.473   22.6  0.3320   48.0  0.3226  -73.4
 3.800  0.3864   97.5   1.445   20.8  0.3415   46.9  0.3140  -76.7
 3.900  0.3986   96.3   1.418   19.0  0.3511   45.9  0.3066  -80.1
 4.000  0.4110   95.1   1.393   17.1  0.3608   45.0  0.3003  -83.7
 4.100  0.4218   93.9   1.367   15.6  0.3699   43.7  0.2901  -87.2
 4.200  0.4328   92.7   1.342   14.0  0.3791   42.5  0.2812  -91.0
 4.300  0.4439   91.6   1.318   12.4  0.3885   41.3  0.2735  -95.1
 4.400  0.4552   90.6   1.296   10.7  0.3981   40.2  0.2673  -99.3
 4.500  0.4667   89.6   1.274    8.9  0.4078   39.1  0.2626 -103.7
 4.600  0.4751   88.4   1.254    7.5  0.4164   37.8  0.2551 -107.8
 4.700  0.4837   87.3   1.235    6.0  0.4253   36.5  0.2491 -112.1
 4.800  0.4924   86.2   1.216    4.4  0.4343   35.3  0.2445 -116.7
 4.900  0.5013   85.2   1.199    2.8  0.4435   34.1  0.2415 -121.3
 5.000  0.5104   84.2   1.182    1.2  0.4529   33.0  0.2401 -126.1
 5.100  0.5193   83.1   1.161   -0.1  0.4608   31.6  0.2361 -131.0
 5.200  0.5284   82.0   1.140   -1.5  0.4689   30.2  0.2339 -136.0
 5.300  0.5376   80.9   1.120   -2.9  0.4773   28.9  0.2334 -141.0
 5.400  0.5471   79.9   1.101   -4.4  0.4859   27.6  0.2348 -146.1
 5.500  0.5567   78.9   1.083   -5.9  0.4948   26.4  0.2380 -151.0
 5.600  0.5639   77.8   1.064   -7.2  0.5005   24.9  0.2344 -155.6
 5.700  0.5714   76.7   1.046   -8.5  0.5065   23.4  0.2323 -160.4
 5.800  0.5790   75.7   1.029   -9.9  0.5129   22.0  0.2319 -165.1
 5.900  0.5868   74.7   1.012  -11.3  0.5196   20.6  0.2330 -169.9
 6.000  0.5948   73.7   0.996  -12.8  0.5266   19.2  0.2358 -174.6
!
!  f       NFmin   Gammaopt  rn/50
! GHz       dB    MAG  ANG    -
 0.450      1.30  0.26   40   0.29
 0.900      1.45  0.25   81   0.23
 1.800      2.00  0.21  157   0.20
!
! (c) 2015  Infineon Technologies AG, Munich
