! Infineon Technologies  Discrete & RF Semiconductors
! BFR182
! VCE = 0.75 V,  IC =  15 mA
! Common Emitter S-Parameters:                            Nov 2015
# GHz  S  MA  R  50
!  f         S11            S21            S12            S22
! GHz     MAG   ANG      MAG   ANG      MAG   ANG      MAG   ANG
 0.010  0.5390   -9.9  26.942  174.1  0.0029   81.8  0.8814   -3.7
 0.015  0.5323  -14.3  26.710  171.1  0.0045   83.1  0.8728   -5.6
 0.020  0.5289  -18.8  26.552  168.1  0.0062   83.7  0.8653   -7.6
 0.025  0.5175  -22.9  26.076  165.7  0.0075   80.0  0.8532   -9.2
 0.030  0.5089  -27.2  25.647  163.2  0.0089   77.3  0.8418  -10.8
 0.035  0.5032  -31.6  25.267  160.7  0.0102   75.4  0.8311  -12.5
 0.040  0.5006  -36.1  24.939  158.0  0.0116   73.9  0.8211  -14.2
 0.045  0.5010  -40.6  24.665  155.3  0.0129   72.7  0.8118  -16.0
 0.050  0.5046  -45.1  24.447  152.6  0.0143   71.8  0.8034  -17.8
 0.055  0.4922  -48.1  23.847  151.0  0.0153   70.6  0.7887  -18.7
 0.060  0.4811  -51.2  23.266  149.4  0.0162   69.6  0.7742  -19.6
 0.065  0.4716  -54.5  22.705  147.7  0.0172   68.7  0.7599  -20.5
 0.070  0.4637  -57.9  22.165  145.9  0.0182   67.8  0.7458  -21.5
 0.075  0.4575  -61.5  21.648  144.0  0.0192   67.1  0.7320  -22.5
 0.080  0.4531  -65.0  21.156  142.0  0.0201   66.4  0.7183  -23.6
 0.085  0.4505  -68.7  20.690  140.0  0.0211   65.8  0.7050  -24.7
 0.090  0.4497  -72.4  20.252  137.8  0.0221   65.3  0.6918  -25.8
 0.095  0.4508  -76.1  19.845  135.5  0.0231   64.8  0.6790  -27.0
 0.100  0.4537  -79.7  19.469  133.2  0.0241   64.3  0.6665  -28.2
 0.105  0.4459  -81.9  19.008  132.1  0.0247   63.8  0.6552  -28.6
 0.110  0.4388  -84.3  18.554  131.0  0.0253   63.4  0.6440  -28.9
 0.115  0.4325  -86.7  18.107  129.8  0.0259   62.9  0.6328  -29.3
 0.120  0.4269  -89.1  17.669  128.6  0.0264   62.5  0.6216  -29.7
 0.125  0.4222  -91.6  17.239  127.3  0.0270   62.1  0.6104  -30.1
 0.130  0.4183  -94.2  16.818  126.0  0.0276   61.8  0.5993  -30.5
 0.135  0.4152  -96.8  16.407  124.5  0.0282   61.4  0.5882  -31.0
 0.140  0.4130  -99.5  16.007  123.0  0.0288   61.1  0.5772  -31.4
 0.145  0.4117 -102.1  15.618  121.5  0.0294   60.7  0.5662  -31.9
 0.150  0.4113 -104.8  15.242  119.8  0.0300   60.4  0.5552  -32.4
 0.155  0.4076 -106.4  14.945  119.1  0.0305   60.4  0.5479  -32.5
 0.160  0.4043 -108.1  14.651  118.4  0.0310   60.5  0.5405  -32.6
 0.165  0.4012 -109.7  14.358  117.7  0.0315   60.5  0.5332  -32.7
 0.170  0.3986 -111.4  14.069  116.9  0.0320   60.6  0.5258  -32.8
 0.175  0.3962 -113.1  13.782  116.1  0.0325   60.6  0.5185  -32.9
 0.180  0.3943 -114.9  13.497  115.2  0.0330   60.7  0.5111  -33.0
 0.185  0.3927 -116.6  13.216  114.4  0.0335   60.7  0.5038  -33.1
 0.190  0.3915 -118.4  12.938  113.4  0.0340   60.7  0.4965  -33.3
 0.195  0.3906 -120.1  12.664  112.5  0.0345   60.8  0.4891  -33.4
 0.200  0.3901 -121.9  12.393  111.5  0.0350   60.8  0.4818  -33.5
 0.220  0.3831 -126.6  11.534  109.3  0.0370   60.6  0.4632  -33.4
 0.240  0.3789 -131.5  10.695  106.7  0.0391   60.5  0.4447  -33.3
 0.260  0.3761 -136.0   9.975  104.5  0.0410   60.8  0.4294  -33.1
 0.280  0.3742 -139.9   9.361  102.7  0.0429   61.7  0.4174  -32.8
 0.300  0.3740 -143.9   8.758  100.6  0.0448   62.4  0.4054  -32.5
 0.320  0.3703 -146.7   8.347   99.5  0.0468   62.8  0.3971  -32.2
 0.340  0.3675 -149.6   7.939   98.3  0.0488   63.2  0.3887  -32.0
 0.360  0.3656 -152.5   7.535   97.0  0.0507   63.6  0.3804  -31.7
 0.380  0.3647 -155.4   7.135   95.5  0.0527   63.9  0.3721  -31.4
 0.400  0.3647 -158.3   6.741   93.8  0.0547   64.2  0.3638  -31.1
 0.420  0.3642 -160.2   6.481   92.9  0.0567   64.5  0.3590  -30.9
 0.440  0.3640 -162.1   6.223   91.8  0.0587   64.8  0.3543  -30.7
 0.450  0.3641 -163.1   6.095   91.3  0.0597   65.0  0.3519  -30.6
 0.460  0.3643 -164.1   5.968   90.7  0.0607   65.1  0.3495  -30.5
 0.480  0.3650 -166.0   5.714   89.5  0.0627   65.4  0.3448  -30.3
 0.500  0.3661 -167.9   5.464   88.2  0.0647   65.6  0.3400  -30.1
 0.520  0.3659 -169.5   5.293   87.4  0.0668   65.8  0.3377  -30.0
 0.540  0.3659 -171.1   5.123   86.5  0.0688   66.0  0.3354  -29.9
 0.560  0.3662 -172.6   4.954   85.6  0.0709   66.2  0.3330  -29.8
 0.580  0.3668 -174.2   4.786   84.6  0.0729   66.3  0.3307  -29.7
 0.600  0.3677 -175.8   4.620   83.6  0.0750   66.5  0.3284  -29.6
 0.620  0.3675 -177.1   4.491   82.9  0.0770   66.6  0.3263  -29.7
 0.640  0.3675 -178.5   4.363   82.1  0.0790   66.8  0.3243  -29.7
 0.660  0.3678 -179.8   4.236   81.2  0.0811   66.9  0.3222  -29.8
 0.680  0.3682  178.8   4.109   80.3  0.0831   67.0  0.3202  -29.8
 0.700  0.3688  177.5   3.984   79.4  0.0851   67.1  0.3181  -29.9
 0.720  0.3690  176.3   3.885   78.7  0.0872   67.1  0.3167  -30.0
 0.740  0.3694  175.2   3.787   78.0  0.0894   67.0  0.3152  -30.0
 0.760  0.3699  174.0   3.689   77.2  0.0915   67.0  0.3138  -30.1
 0.780  0.3706  172.9   3.592   76.4  0.0937   66.9  0.3123  -30.1
 0.800  0.3714  171.7   3.496   75.6  0.0958   66.9  0.3109  -30.2
 0.820  0.3705  170.7   3.421   75.0  0.0980   66.9  0.3093  -30.4
 0.840  0.3696  169.7   3.346   74.3  0.1003   66.9  0.3077  -30.5
 0.860  0.3689  168.7   3.271   73.7  0.1025   67.0  0.3062  -30.7
 0.880  0.3683  167.7   3.197   72.9  0.1048   67.0  0.3046  -30.8
 0.900  0.3678  166.7   3.124   72.2  0.1070   67.0  0.3030  -31.0
 0.920  0.3694  165.7   3.069   71.6  0.1091   67.0  0.3020  -31.2
 0.940  0.3710  164.6   3.015   71.0  0.1113   66.9  0.3010  -31.4
 0.960  0.3728  163.6   2.961   70.3  0.1134   66.9  0.3000  -31.7
 0.980  0.3748  162.6   2.907   69.7  0.1156   66.8  0.2990  -31.9
 1.000  0.3768  161.6   2.854   69.0  0.1177   66.8  0.2980  -32.1
 1.020  0.3780  160.7   2.806   68.4  0.1199   66.7  0.2970  -32.4
 1.040  0.3793  159.8   2.759   67.9  0.1221   66.6  0.2960  -32.6
 1.060  0.3807  158.9   2.712   67.3  0.1242   66.5  0.2950  -32.9
 1.080  0.3821  158.0   2.665   66.6  0.1264   66.4  0.2940  -33.1
 1.100  0.3837  157.1   2.619   66.0  0.1286   66.3  0.2930  -33.4
 1.120  0.3846  156.2   2.579   65.4  0.1308   66.2  0.2922  -33.7
 1.140  0.3855  155.3   2.540   64.8  0.1330   66.1  0.2913  -33.9
 1.160  0.3865  154.4   2.501   64.2  0.1353   66.0  0.2905  -34.2
 1.180  0.3877  153.6   2.462   63.6  0.1375   65.9  0.2897  -34.4
 1.200  0.3889  152.7   2.423   62.9  0.1397   65.8  0.2889  -34.7
 1.220  0.3890  152.0   2.387   62.4  0.1418   65.6  0.2882  -35.0
 1.240  0.3892  151.3   2.352   61.9  0.1438   65.4  0.2875  -35.3
 1.260  0.3895  150.6   2.316   61.3  0.1459   65.2  0.2868  -35.6
 1.280  0.3898  149.9   2.281   60.8  0.1479   65.1  0.2862  -35.9
 1.300  0.3902  149.2   2.246   60.2  0.1500   64.9  0.2855  -36.2
 1.320  0.3917  148.4   2.217   59.7  0.1522   64.8  0.2845  -36.6
 1.340  0.3933  147.7   2.187   59.2  0.1544   64.6  0.2836  -37.0
 1.360  0.3950  146.9   2.158   58.6  0.1565   64.5  0.2826  -37.3
 1.380  0.3967  146.1   2.130   58.1  0.1587   64.4  0.2817  -37.7
 1.400  0.3985  145.4   2.101   57.5  0.1609   64.3  0.2808  -38.1
 1.420  0.3988  144.8   2.077   57.0  0.1631   64.1  0.2801  -38.4
 1.440  0.3992  144.1   2.054   56.4  0.1653   63.9  0.2795  -38.7
 1.460  0.3996  143.5   2.031   55.9  0.1675   63.7  0.2788  -39.1
 1.480  0.4001  142.8   2.008   55.3  0.1697   63.6  0.2781  -39.4
 1.500  0.4006  142.2   1.985   54.7  0.1719   63.4  0.2775  -39.7
 1.520  0.4026  141.5   1.959   54.1  0.1741   63.2  0.2765  -40.1
 1.540  0.4047  140.8   1.933   53.5  0.1763   63.0  0.2754  -40.5
 1.560  0.4068  140.1   1.908   52.9  0.1786   62.8  0.2744  -40.8
 1.580  0.4090  139.5   1.882   52.3  0.1808   62.7  0.2734  -41.2
 1.600  0.4113  138.8   1.857   51.7  0.1830   62.5  0.2724  -41.6
 1.620  0.4130  138.1   1.838   51.2  0.1851   62.3  0.2710  -42.0
 1.640  0.4148  137.5   1.819   50.7  0.1872   62.1  0.2696  -42.3
 1.660  0.4167  136.8   1.800   50.2  0.1894   61.9  0.2682  -42.7
 1.680  0.4186  136.1   1.781   49.6  0.1915   61.8  0.2668  -43.0
 1.700  0.4205  135.5   1.762   49.1  0.1936   61.6  0.2654  -43.4
 1.720  0.4216  134.8   1.747   48.7  0.1959   61.4  0.2644  -43.9
 1.740  0.4227  134.1   1.732   48.2  0.1982   61.2  0.2633  -44.4
 1.760  0.4239  133.4   1.718   47.8  0.2005   61.0  0.2623  -44.9
 1.780  0.4251  132.7   1.703   47.4  0.2028   60.8  0.2614  -45.4
 1.800  0.4264  132.0   1.689   46.9  0.2051   60.6  0.2604  -45.9
 1.820  0.4282  131.5   1.675   46.4  0.2073   60.4  0.2591  -46.3
 1.840  0.4299  131.0   1.661   45.9  0.2094   60.2  0.2578  -46.8
 1.860  0.4318  130.5   1.647   45.4  0.2116   60.0  0.2565  -47.2
 1.880  0.4336  130.0   1.633   44.9  0.2137   59.9  0.2552  -47.7
 1.900  0.4355  129.5   1.619   44.4  0.2159   59.7  0.2539  -48.1
 1.920  0.4363  128.9   1.604   43.9  0.2180   59.5  0.2530  -48.6
 1.940  0.4370  128.3   1.590   43.5  0.2201   59.2  0.2522  -49.1
 1.960  0.4379  127.8   1.575   43.0  0.2222   59.0  0.2513  -49.5
 1.980  0.4388  127.2   1.561   42.5  0.2243   58.8  0.2505  -50.0
 2.000  0.4397  126.6   1.547   42.0  0.2264   58.6  0.2497  -50.5
 2.020  0.4413  126.0   1.534   41.5  0.2286   58.3  0.2481  -51.0
 2.040  0.4430  125.5   1.521   41.1  0.2308   58.1  0.2466  -51.5
 2.060  0.4447  124.9   1.507   40.6  0.2331   57.9  0.2450  -52.0
 2.080  0.4464  124.3   1.495   40.1  0.2353   57.6  0.2435  -52.5
 2.100  0.4482  123.8   1.482   39.7  0.2376   57.4  0.2420  -53.1
 2.120  0.4501  123.2   1.469   39.2  0.2398   57.2  0.2405  -53.6
 2.140  0.4519  122.7   1.456   38.7  0.2420   56.9  0.2390  -54.1
 2.160  0.4539  122.2   1.444   38.1  0.2443   56.7  0.2376  -54.7
 2.180  0.4558  121.6   1.431   37.6  0.2465   56.5  0.2362  -55.2
 2.200  0.4578  121.1   1.419   37.1  0.2488   56.3  0.2348  -55.8
 2.220  0.4592  120.5   1.410   36.7  0.2509   56.1  0.2332  -56.3
 2.240  0.4606  120.0   1.402   36.3  0.2530   55.8  0.2317  -56.8
 2.260  0.4621  119.4   1.393   35.8  0.2551   55.6  0.2302  -57.3
 2.280  0.4636  118.9   1.385   35.4  0.2572   55.4  0.2287  -57.9
 2.300  0.4652  118.3   1.376   35.0  0.2593   55.2  0.2272  -58.4
 2.320  0.4668  117.8   1.368   34.5  0.2614   54.9  0.2257  -59.0
 2.340  0.4685  117.2   1.360   34.1  0.2635   54.7  0.2243  -59.5
 2.360  0.4702  116.7   1.352   33.6  0.2656   54.5  0.2229  -60.1
 2.380  0.4719  116.1   1.344   33.2  0.2677   54.3  0.2215  -60.6
 2.400  0.4737  115.6   1.336   32.7  0.2698   54.1  0.2201  -61.2
 2.420  0.4758  115.1   1.327   32.3  0.2719   53.8  0.2183  -61.8
 2.440  0.4779  114.6   1.317   31.9  0.2740   53.6  0.2166  -62.4
 2.460  0.4801  114.1   1.308   31.5  0.2761   53.3  0.2148  -63.0
 2.480  0.4823  113.7   1.298   31.1  0.2783   53.1  0.2131  -63.6
 2.500  0.4845  113.2   1.289   30.7  0.2804   52.8  0.2115  -64.3
 2.520  0.4868  112.7   1.280   30.3  0.2825   52.6  0.2098  -64.9
 2.540  0.4891  112.3   1.271   29.9  0.2847   52.3  0.2082  -65.6
 2.560  0.4914  111.8   1.262   29.5  0.2868   52.1  0.2066  -66.2
 2.580  0.4938  111.4   1.253   29.0  0.2889   51.8  0.2050  -66.9
 2.600  0.4962  110.9   1.244   28.6  0.2911   51.6  0.2035  -67.6
 2.620  0.4970  110.4   1.238   28.2  0.2932   51.4  0.2019  -68.4
 2.640  0.4979  109.9   1.231   27.9  0.2953   51.1  0.2003  -69.1
 2.660  0.4988  109.5   1.225   27.5  0.2974   50.9  0.1987  -69.9
 2.680  0.4998  109.0   1.219   27.1  0.2995   50.6  0.1972  -70.7
 2.700  0.5008  108.5   1.213   26.7  0.3016   50.4  0.1957  -71.5
 2.720  0.5018  108.1   1.207   26.3  0.3038   50.2  0.1943  -72.3
 2.740  0.5028  107.6   1.201   25.9  0.3059   50.0  0.1929  -73.1
 2.760  0.5039  107.1   1.195   25.5  0.3080   49.7  0.1915  -74.0
 2.780  0.5050  106.7   1.189   25.1  0.3102   49.5  0.1902  -74.8
 2.800  0.5062  106.2   1.183   24.7  0.3123   49.3  0.1889  -75.7
 2.820  0.5083  105.8   1.176   24.3  0.3143   49.0  0.1870  -76.5
 2.840  0.5104  105.4   1.169   24.0  0.3164   48.7  0.1851  -77.3
 2.860  0.5125  105.0   1.161   23.6  0.3184   48.5  0.1833  -78.2
 2.880  0.5147  104.6   1.154   23.2  0.3205   48.2  0.1815  -79.0
 2.900  0.5169  104.2   1.147   22.8  0.3225   47.9  0.1798  -79.9
 2.920  0.5191  103.8   1.140   22.4  0.3246   47.6  0.1781  -80.8
 2.940  0.5214  103.4   1.133   22.0  0.3266   47.4  0.1764  -81.7
 2.960  0.5236  103.1   1.127   21.6  0.3287   47.1  0.1748  -82.6
 2.980  0.5259  102.7   1.120   21.2  0.3308   46.9  0.1732  -83.5
 3.000  0.5282  102.3   1.113   20.8  0.3329   46.6  0.1717  -84.5
 3.100  0.5372  100.3   1.085   19.3  0.3425   45.2  0.1621  -89.8
 3.200  0.5468   98.5   1.058   17.7  0.3522   43.8  0.1541  -95.8
 3.300  0.5569   96.6   1.031   16.0  0.3622   42.5  0.1479 -102.3
 3.400  0.5676   94.9   1.006   14.3  0.3723   41.3  0.1438 -109.3
 3.500  0.5788   93.2   0.981   12.4  0.3826   40.1  0.1419 -116.6
 3.600  0.5850   91.6   0.961   11.1  0.3909   38.6  0.1380 -124.1
 3.700  0.5917   90.0   0.942    9.7  0.3995   37.2  0.1366 -131.9
 3.800  0.5988   88.5   0.924    8.2  0.4083   35.9  0.1378 -139.8
 3.900  0.6064   87.0   0.906    6.7  0.4174   34.6  0.1414 -147.3
 4.000  0.6143   85.5   0.889    5.1  0.4266   33.4  0.1474 -154.4
 4.100  0.6199   84.2   0.874    3.9  0.4338   31.9  0.1508 -161.6
 4.200  0.6258   82.9   0.859    2.7  0.4413   30.5  0.1564 -168.3
 4.300  0.6320   81.6   0.845    1.5  0.4491   29.2  0.1641 -174.5
 4.400  0.6385   80.4   0.831    0.2  0.4571   27.9  0.1734  179.9
 4.500  0.6453   79.2   0.818   -1.1  0.4653   26.6  0.1843  174.9
 4.600  0.6491   78.0   0.806   -2.1  0.4717   25.2  0.1918  169.9
 4.700  0.6532   76.8   0.794   -3.1  0.4784   23.9  0.2006  165.2
 4.800  0.6576   75.6   0.782   -4.2  0.4853   22.6  0.2107  161.0
 4.900  0.6623   74.4   0.771   -5.3  0.4924   21.3  0.2217  157.2
 5.000  0.6672   73.2   0.760   -6.4  0.4998   20.1  0.2337  153.8
 5.100  0.6702   72.1   0.749   -7.2  0.5050   18.7  0.2426  150.4
 5.200  0.6734   71.1   0.739   -8.0  0.5104   17.4  0.2522  147.2
 5.300  0.6768   70.0   0.728   -8.8  0.5162   16.1  0.2626  144.2
 5.400  0.6804   69.0   0.718   -9.7  0.5222   14.8  0.2737  141.5
 5.500  0.6843   68.0   0.708  -10.6  0.5284   13.6  0.2853  139.0
 5.600  0.6867   67.1   0.700  -11.4  0.5314   12.2  0.2910  135.8
 5.700  0.6892   66.1   0.692  -12.3  0.5346   10.8  0.2976  132.8
 5.800  0.6920   65.2   0.684  -13.1  0.5382    9.4  0.3050  129.9
 5.900  0.6949   64.3   0.676  -14.0  0.5421    8.0  0.3131  127.1
 6.000  0.6980   63.4   0.668  -14.9  0.5463    6.7  0.3219  124.5
!
!  f       NFmin   Gammaopt  rn/50
! GHz       dB    MAG  ANG    -
!
! noise parameter not available yet for this operation point!
!
! (c) 2015  Infineon Technologies AG, Munich
