! Infineon Technologies  Discrete & RF Semiconductors
! BFR106
! VCE = 0.50 V,  IC =  50 mA
! Common Emitter S-Parameters:                            Nov 2015
# GHz  S  MA  R  50
!  f         S11            S21            S12            S22
! GHz     MAG   ANG      MAG   ANG      MAG   ANG      MAG   ANG
 0.010  0.4400 -112.3  44.267  145.0  0.0124   59.0  0.5498  -66.0
 0.015  0.5059 -128.0  37.393  137.1  0.0154   51.4  0.5192  -85.4
 0.020  0.6003 -139.5  31.540  125.9  0.0186   46.3  0.5512 -104.8
 0.025  0.6104 -143.8  28.647  124.1  0.0195   45.7  0.5285 -111.0
 0.030  0.6238 -147.9  25.788  121.9  0.0204   45.1  0.5125 -117.7
 0.035  0.6403 -151.8  22.976  119.2  0.0213   44.6  0.5038 -124.7
 0.040  0.6595 -155.5  20.230  115.7  0.0223   44.1  0.5028 -131.8
 0.045  0.6814 -159.0  17.581  111.2  0.0232   43.6  0.5096 -138.8
 0.050  0.7056 -162.2  15.081  105.1  0.0241   43.2  0.5238 -145.6
 0.055  0.7069 -163.4  14.342  104.5  0.0249   44.1  0.5209 -147.4
 0.060  0.7086 -164.6  13.604  103.9  0.0257   45.0  0.5185 -149.3
 0.065  0.7105 -165.7  12.868  103.2  0.0266   45.8  0.5166 -151.2
 0.070  0.7128 -166.9  12.135  102.4  0.0274   46.6  0.5153 -153.1
 0.075  0.7153 -168.1  11.404  101.6  0.0282   47.3  0.5146 -155.0
 0.080  0.7181 -169.2  10.676  100.6  0.0291   48.0  0.5144 -156.9
 0.085  0.7212 -170.3   9.951   99.4  0.0299   48.7  0.5148 -158.8
 0.090  0.7246 -171.5   9.232   98.1  0.0308   49.3  0.5158 -160.6
 0.095  0.7283 -172.6   8.518   96.5  0.0316   49.9  0.5173 -162.5
 0.100  0.7322 -173.7   7.811   94.7  0.0325   50.4  0.5194 -164.4
 0.105  0.7325 -174.2   7.553   94.4  0.0333   51.2  0.5197 -165.1
 0.110  0.7329 -174.7   7.295   94.0  0.0342   52.0  0.5200 -165.8
 0.115  0.7333 -175.2   7.037   93.6  0.0350   52.8  0.5204 -166.4
 0.120  0.7338 -175.7   6.780   93.2  0.0359   53.5  0.5209 -167.1
 0.125  0.7344 -176.2   6.523   92.7  0.0367   54.2  0.5215 -167.8
 0.130  0.7349 -176.7   6.267   92.2  0.0376   54.9  0.5221 -168.4
 0.135  0.7356 -177.2   6.011   91.6  0.0385   55.5  0.5229 -169.1
 0.140  0.7363 -177.7   5.755   91.1  0.0393   56.1  0.5236 -169.8
 0.145  0.7371 -178.2   5.501   90.4  0.0402   56.7  0.5245 -170.4
 0.150  0.7379 -178.7   5.247   89.7  0.0411   57.2  0.5254 -171.1
 0.155  0.7383 -179.0   5.119   89.4  0.0421   57.7  0.5246 -171.5
 0.160  0.7387 -179.3   4.991   89.1  0.0431   58.2  0.5237 -171.9
 0.165  0.7391 -179.7   4.863   88.8  0.0441   58.7  0.5229 -172.3
 0.170  0.7395 -180.0   4.736   88.5  0.0451   59.1  0.5222 -172.8
 0.175  0.7400  179.7   4.608   88.2  0.0461   59.5  0.5214 -173.2
 0.180  0.7404  179.4   4.481   87.8  0.0471   59.9  0.5207 -173.6
 0.185  0.7409  179.1   4.354   87.5  0.0481   60.3  0.5201 -174.0
 0.190  0.7415  178.7   4.227   87.1  0.0492   60.7  0.5194 -174.5
 0.195  0.7420  178.4   4.100   86.6  0.0502   61.1  0.5188 -174.9
 0.200  0.7426  178.1   3.974   86.2  0.0512   61.4  0.5182 -175.3
 0.220  0.7430  177.1   3.651   85.2  0.0551   62.4  0.5192 -176.6
 0.240  0.7435  176.1   3.329   84.1  0.0591   63.3  0.5204 -177.9
 0.260  0.7434  175.2   3.067   83.0  0.0632   64.0  0.5213 -178.9
 0.280  0.7424  174.3   2.863   82.2  0.0675   64.5  0.5218 -179.6
 0.300  0.7416  173.4   2.660   81.2  0.0717   65.0  0.5223  179.6
 0.320  0.7415  172.5   2.536   80.5  0.0758   65.3  0.5219  178.9
 0.340  0.7415  171.7   2.412   79.7  0.0799   65.6  0.5216  178.2
 0.360  0.7418  170.8   2.289   78.8  0.0840   65.9  0.5214  177.4
 0.380  0.7421  170.0   2.166   77.9  0.0881   66.2  0.5213  176.7
 0.400  0.7427  169.1   2.044   76.8  0.0922   66.4  0.5212  176.0
 0.420  0.7432  168.4   1.968   76.1  0.0962   66.3  0.5208  175.4
 0.440  0.7437  167.8   1.893   75.4  0.1003   66.3  0.5205  174.8
 0.450  0.7440  167.4   1.855   75.0  0.1023   66.2  0.5204  174.5
 0.460  0.7444  167.1   1.817   74.6  0.1043   66.2  0.5203  174.1
 0.480  0.7451  166.5   1.742   73.7  0.1084   66.2  0.5201  173.5
 0.500  0.7460  165.8   1.668   72.8  0.1124   66.1  0.5200  172.9
 0.520  0.7453  165.1   1.617   72.1  0.1165   65.9  0.5196  172.4
 0.540  0.7447  164.3   1.566   71.3  0.1206   65.8  0.5192  171.9
 0.560  0.7442  163.6   1.515   70.4  0.1248   65.7  0.5188  171.4
 0.580  0.7438  162.8   1.465   69.6  0.1289   65.5  0.5185  170.9
 0.600  0.7436  162.1   1.415   68.6  0.1330   65.4  0.5182  170.4
 0.620  0.7436  161.4   1.381   67.9  0.1370   65.2  0.5189  169.9
 0.640  0.7437  160.7   1.347   67.1  0.1410   64.9  0.5196  169.5
 0.660  0.7440  159.9   1.313   66.3  0.1450   64.7  0.5203  169.0
 0.680  0.7443  159.2   1.280   65.5  0.1490   64.5  0.5211  168.6
 0.700  0.7448  158.5   1.247   64.6  0.1530   64.3  0.5219  168.1
 0.720  0.7446  158.0   1.222   64.0  0.1571   63.9  0.5222  167.6
 0.740  0.7444  157.5   1.197   63.3  0.1611   63.5  0.5226  167.1
 0.760  0.7443  156.9   1.173   62.6  0.1652   63.2  0.5230  166.5
 0.780  0.7442  156.4   1.148   61.9  0.1693   62.8  0.5234  166.0
 0.800  0.7442  155.9   1.124   61.2  0.1734   62.5  0.5239  165.5
 0.820  0.7435  155.2   1.106   60.6  0.1774   62.2  0.5236  165.0
 0.840  0.7429  154.5   1.088   59.9  0.1814   61.8  0.5233  164.5
 0.860  0.7424  153.8   1.071   59.3  0.1854   61.5  0.5230  164.1
 0.880  0.7420  153.1   1.053   58.6  0.1894   61.2  0.5228  163.6
 0.900  0.7417  152.4   1.036   57.9  0.1934   60.9  0.5226  163.1
 0.920  0.7410  151.6   1.021   57.3  0.1972   60.5  0.5229  162.7
 0.940  0.7405  150.9   1.005   56.6  0.2009   60.1  0.5233  162.3
 0.960  0.7401  150.1   0.990   56.0  0.2047   59.8  0.5237  161.9
 0.980  0.7398  149.4   0.975   55.3  0.2085   59.4  0.5241  161.5
 1.000  0.7397  148.6   0.960   54.6  0.2123   59.1  0.5245  161.1
 1.020  0.7407  148.0   0.948   54.0  0.2159   58.7  0.5250  160.7
 1.040  0.7419  147.4   0.935   53.3  0.2195   58.3  0.5256  160.3
 1.060  0.7431  146.7   0.923   52.7  0.2231   58.0  0.5262  159.9
 1.080  0.7444  146.1   0.911   52.0  0.2267   57.6  0.5268  159.5
 1.100  0.7458  145.5   0.899   51.3  0.2303   57.3  0.5275  159.1
 1.120  0.7456  144.9   0.889   50.8  0.2340   56.9  0.5276  158.6
 1.140  0.7454  144.3   0.880   50.2  0.2376   56.5  0.5277  158.1
 1.160  0.7454  143.6   0.871   49.7  0.2413   56.1  0.5279  157.7
 1.180  0.7454  143.0   0.861   49.1  0.2450   55.7  0.5281  157.2
 1.200  0.7455  142.4   0.852   48.5  0.2487   55.3  0.5284  156.7
 1.220  0.7447  141.9   0.845   47.9  0.2522   54.8  0.5287  156.2
 1.240  0.7441  141.3   0.837   47.3  0.2557   54.4  0.5291  155.8
 1.260  0.7434  140.8   0.830   46.7  0.2592   53.9  0.5294  155.3
 1.280  0.7429  140.2   0.823   46.0  0.2628   53.5  0.5299  154.9
 1.300  0.7424  139.7   0.816   45.4  0.2663   53.1  0.5303  154.4
 1.320  0.7430  139.1   0.810   45.0  0.2697   52.7  0.5308  154.0
 1.340  0.7436  138.6   0.804   44.6  0.2730   52.3  0.5313  153.6
 1.360  0.7443  138.0   0.798   44.2  0.2764   51.9  0.5318  153.2
 1.380  0.7451  137.5   0.792   43.7  0.2798   51.5  0.5323  152.8
 1.400  0.7460  136.9   0.786   43.3  0.2832   51.1  0.5329  152.4
 1.420  0.7456  136.3   0.783   42.8  0.2865   50.7  0.5334  152.0
 1.440  0.7453  135.7   0.780   42.2  0.2898   50.3  0.5340  151.6
 1.460  0.7451  135.2   0.777   41.7  0.2932   49.9  0.5346  151.2
 1.480  0.7449  134.6   0.774   41.1  0.2965   49.6  0.5352  150.8
 1.500  0.7448  134.0   0.771   40.6  0.2999   49.2  0.5359  150.4
 1.520  0.7447  133.4   0.764   40.1  0.3028   48.8  0.5364  150.0
 1.540  0.7448  132.8   0.757   39.5  0.3058   48.4  0.5370  149.6
 1.560  0.7449  132.1   0.750   39.0  0.3087   48.0  0.5376  149.1
 1.580  0.7451  131.5   0.743   38.4  0.3117   47.6  0.5382  148.7
 1.600  0.7454  130.9   0.736   37.8  0.3147   47.2  0.5388  148.3
 1.620  0.7449  130.3   0.733   37.3  0.3175   46.8  0.5391  147.9
 1.640  0.7444  129.8   0.731   36.8  0.3204   46.4  0.5395  147.4
 1.660  0.7440  129.2   0.729   36.3  0.3232   46.0  0.5398  147.0
 1.680  0.7437  128.7   0.726   35.8  0.3261   45.7  0.5403  146.5
 1.700  0.7435  128.1   0.724   35.3  0.3290   45.3  0.5407  146.1
 1.720  0.7444  127.6   0.722   34.9  0.3319   44.9  0.5407  145.7
 1.740  0.7454  127.1   0.720   34.6  0.3347   44.4  0.5408  145.3
 1.760  0.7464  126.5   0.717   34.2  0.3376   44.0  0.5409  145.0
 1.780  0.7475  126.0   0.715   33.9  0.3406   43.6  0.5410  144.6
 1.800  0.7486  125.5   0.713   33.5  0.3435   43.2  0.5411  144.2
 1.820  0.7483  124.9   0.709   33.0  0.3461   42.8  0.5419  143.8
 1.840  0.7481  124.4   0.705   32.6  0.3488   42.4  0.5427  143.4
 1.860  0.7480  123.8   0.701   32.1  0.3514   42.0  0.5436  143.1
 1.880  0.7479  123.3   0.698   31.6  0.3541   41.6  0.5445  142.7
 1.900  0.7479  122.7   0.694   31.1  0.3568   41.2  0.5454  142.3
 1.920  0.7474  122.2   0.691   30.7  0.3593   40.8  0.5467  141.9
 1.940  0.7469  121.7   0.689   30.3  0.3618   40.4  0.5480  141.5
 1.960  0.7465  121.3   0.686   29.8  0.3644   40.0  0.5494  141.0
 1.980  0.7461  120.8   0.684   29.4  0.3669   39.6  0.5508  140.6
 2.000  0.7458  120.3   0.681   29.0  0.3695   39.2  0.5522  140.2
 2.020  0.7459  119.8   0.679   28.6  0.3718   38.8  0.5526  139.8
 2.040  0.7460  119.3   0.676   28.2  0.3742   38.4  0.5531  139.4
 2.060  0.7462  118.8   0.674   27.8  0.3766   38.0  0.5535  139.0
 2.080  0.7464  118.3   0.672   27.4  0.3790   37.6  0.5540  138.6
 2.100  0.7467  117.8   0.670   27.0  0.3814   37.2  0.5545  138.1
 2.120  0.7470  117.3   0.667   26.6  0.3839   36.8  0.5551  137.7
 2.140  0.7474  116.8   0.665   26.2  0.3863   36.4  0.5557  137.3
 2.160  0.7479  116.3   0.663   25.7  0.3888   36.0  0.5563  136.9
 2.180  0.7484  115.8   0.661   25.3  0.3913   35.7  0.5569  136.5
 2.200  0.7490  115.3   0.659   24.9  0.3938   35.3  0.5576  136.1
 2.220  0.7486  114.8   0.658   24.5  0.3958   34.9  0.5589  135.7
 2.240  0.7482  114.3   0.656   24.2  0.3979   34.5  0.5602  135.3
 2.260  0.7479  113.8   0.655   23.8  0.3999   34.1  0.5615  134.9
 2.280  0.7476  113.3   0.654   23.4  0.4020   33.7  0.5629  134.5
 2.300  0.7474  112.8   0.653   23.1  0.4041   33.4  0.5643  134.1
 2.320  0.7473  112.2   0.651   22.7  0.4062   33.0  0.5657  133.7
 2.340  0.7472  111.7   0.650   22.3  0.4083   32.6  0.5672  133.3
 2.360  0.7472  111.2   0.649   22.0  0.4105   32.2  0.5687  132.9
 2.380  0.7472  110.7   0.648   21.6  0.4126   31.9  0.5702  132.5
 2.400  0.7473  110.2   0.647   21.2  0.4148   31.5  0.5717  132.1
 2.420  0.7476  109.7   0.645   20.8  0.4165   31.1  0.5721  131.7
 2.440  0.7479  109.3   0.644   20.5  0.4182   30.8  0.5725  131.4
 2.460  0.7482  108.8   0.642   20.1  0.4199   30.4  0.5729  131.0
 2.480  0.7486  108.4   0.640   19.8  0.4216   30.0  0.5734  130.6
 2.500  0.7491  107.9   0.639   19.4  0.4233   29.7  0.5739  130.2
 2.520  0.7496  107.5   0.637   19.1  0.4251   29.3  0.5744  129.9
 2.540  0.7501  107.0   0.636   18.7  0.4269   28.9  0.5749  129.5
 2.560  0.7507  106.6   0.634   18.3  0.4287   28.6  0.5755  129.1
 2.580  0.7513  106.1   0.632   18.0  0.4305   28.2  0.5761  128.8
 2.600  0.7520  105.7   0.631   17.6  0.4323   27.9  0.5767  128.4
 2.620  0.7520  105.3   0.630   17.3  0.4337   27.5  0.5780  128.0
 2.640  0.7520  104.9   0.629   17.0  0.4352   27.2  0.5793  127.7
 2.660  0.7521  104.5   0.628   16.7  0.4366   26.9  0.5806  127.3
 2.680  0.7522  104.1   0.627   16.4  0.4381   26.5  0.5819  126.9
 2.700  0.7524  103.6   0.626   16.1  0.4396   26.2  0.5833  126.6
 2.720  0.7526  103.2   0.625   15.8  0.4411   25.8  0.5847  126.2
 2.740  0.7528  102.8   0.624   15.5  0.4426   25.5  0.5861  125.9
 2.760  0.7531  102.4   0.623   15.2  0.4442   25.2  0.5876  125.5
 2.780  0.7534  102.0   0.622   14.9  0.4457   24.8  0.5890  125.2
 2.800  0.7537  101.6   0.621   14.6  0.4473   24.5  0.5905  124.8
 2.820  0.7543  101.2   0.620   14.3  0.4487   24.1  0.5913  124.4
 2.840  0.7549  100.8   0.618   13.9  0.4501   23.8  0.5920  124.1
 2.860  0.7555  100.4   0.617   13.6  0.4515   23.4  0.5928  123.7
 2.880  0.7562  100.0   0.616   13.3  0.4529   23.0  0.5937  123.3
 2.900  0.7569   99.6   0.614   12.9  0.4544   22.7  0.5945  122.9
 2.920  0.7577   99.3   0.613   12.6  0.4558   22.3  0.5954  122.6
 2.940  0.7584   98.9   0.612   12.2  0.4573   22.0  0.5963  122.2
 2.960  0.7593   98.5   0.610   11.9  0.4588   21.6  0.5973  121.8
 2.980  0.7601   98.1   0.609   11.5  0.4604   21.2  0.5982  121.5
 3.000  0.7610   97.7   0.608   11.2  0.4619   20.9  0.5992  121.1
 3.100  0.7613   96.0   0.603   10.0  0.4663   19.3  0.6043  119.4
 3.200  0.7623   94.3   0.599    8.7  0.4710   17.8  0.6099  117.8
 3.300  0.7639   92.6   0.595    7.4  0.4761   16.3  0.6160  116.2
 3.400  0.7662   91.0   0.591    6.1  0.4814   14.8  0.6226  114.6
 3.500  0.7691   89.3   0.587    4.8  0.4871   13.4  0.6296  113.1
 3.600  0.7705   87.9   0.583    3.8  0.4893   12.0  0.6348  111.5
 3.700  0.7724   86.5   0.579    2.7  0.4918   10.6  0.6405  110.0
 3.800  0.7747   85.1   0.576    1.7  0.4946    9.2  0.6466  108.5
 3.900  0.7775   83.7   0.572    0.6  0.4977    7.8  0.6532  107.0
 4.000  0.7808   82.3   0.569   -0.5  0.5011    6.4  0.6602  105.6
 4.100  0.7798   81.1   0.566   -1.5  0.5017    5.2  0.6612  104.2
 4.200  0.7791   79.9   0.563   -2.4  0.5025    4.0  0.6626  102.8
 4.300  0.7788   78.8   0.560   -3.4  0.5035    2.8  0.6644  101.4
 4.400  0.7788   77.6   0.557   -4.4  0.5047    1.7  0.6666  100.1
 4.500  0.7791   76.4   0.554   -5.4  0.5061    0.5  0.6691   98.7
 4.600  0.7799   75.4   0.552   -6.3  0.5067   -0.5  0.6693   97.5
 4.700  0.7810   74.3   0.550   -7.2  0.5074   -1.5  0.6698   96.2
 4.800  0.7824   73.3   0.548   -8.1  0.5083   -2.5  0.6707   95.0
 4.900  0.7840   72.3   0.546   -9.0  0.5094   -3.5  0.6718   93.7
 5.000  0.7858   71.3   0.544   -9.9  0.5106   -4.5  0.6733   92.5
 5.100  0.7828   70.3   0.544  -10.2  0.5136   -5.0  0.6711   92.4
 5.200  0.7801   69.4   0.544  -10.5  0.5166   -5.5  0.6689   92.3
 5.300  0.7776   68.4   0.545  -10.7  0.5196   -6.0  0.6667   92.3
 5.400  0.7753   67.4   0.545  -11.0  0.5227   -6.4  0.6645   92.2
 5.500  0.7732   66.4   0.545  -11.3  0.5258   -6.9  0.6623   92.1
 5.600  0.7733   65.7   0.546  -12.2  0.5281   -8.1  0.6691   90.9
 5.700  0.7735   65.0   0.546  -13.1  0.5306   -9.3  0.6761   89.7
 5.800  0.7739   64.3   0.547  -14.0  0.5333  -10.5  0.6835   88.5
 5.900  0.7743   63.6   0.548  -14.9  0.5363  -11.6  0.6912   87.3
 6.000  0.7749   62.9   0.549  -15.8  0.5395  -12.8  0.6991   86.2
!
!  f       NFmin   Gammaopt  rn/50
! GHz       dB    MAG  ANG    -
!
! noise parameter not available yet for this operation point!
!
! (c) 2015  Infineon Technologies AG, Munich
