! Infineon Technologies  Discrete & RF Semiconductors
! BFR106
! VCE =  1.0 V,  IC =  40 mA
! Common Emitter S-Parameters:                            Nov 2015
# GHz  S  MA  R  50
!  f         S11            S21            S12            S22
! GHz     MAG   ANG      MAG   ANG      MAG   ANG      MAG   ANG
 0.010  0.3232  -58.9  60.740  159.6  0.0071   75.2  0.8795  -24.4
 0.015  0.3457  -78.8  56.053  152.4  0.0100   68.3  0.8178  -34.5
 0.020  0.4029  -94.7  52.408  144.0  0.0130   64.6  0.7852  -45.9
 0.025  0.4069 -103.3  48.470  141.3  0.0143   61.6  0.7230  -50.3
 0.030  0.4196 -111.5  44.659  138.1  0.0156   59.0  0.6658  -55.5
 0.035  0.4404 -119.1  41.010  134.4  0.0170   56.9  0.6150  -61.6
 0.040  0.4682 -125.9  37.569  129.9  0.0184   55.1  0.5724  -68.7
 0.045  0.5018 -131.8  34.400  124.6  0.0198   53.5  0.5399  -76.8
 0.050  0.5401 -137.0  31.584  118.3  0.0212   52.2  0.5194  -85.7
 0.055  0.5420 -139.4  30.128  117.4  0.0220   52.6  0.4983  -88.0
 0.060  0.5448 -141.9  28.680  116.4  0.0228   53.0  0.4781  -90.5
 0.065  0.5486 -144.2  27.242  115.3  0.0237   53.4  0.4589  -93.2
 0.070  0.5533 -146.6  25.815  114.1  0.0245   53.7  0.4409  -96.2
 0.075  0.5589 -148.9  24.401  112.7  0.0253   54.0  0.4240  -99.4
 0.080  0.5655 -151.2  23.002  111.2  0.0261   54.3  0.4086 -102.8
 0.085  0.5728 -153.4  21.622  109.5  0.0269   54.6  0.3948 -106.5
 0.090  0.5810 -155.5  20.264  107.5  0.0278   54.8  0.3828 -110.4
 0.095  0.5900 -157.6  18.934  105.3  0.0286   55.1  0.3726 -114.6
 0.100  0.5998 -159.6  17.636  102.7  0.0294   55.3  0.3646 -119.0
 0.105  0.6003 -160.5  17.066  102.2  0.0302   55.7  0.3591 -120.5
 0.110  0.6010 -161.5  16.498  101.7  0.0309   56.0  0.3538 -122.1
 0.115  0.6018 -162.4  15.931  101.1  0.0317   56.4  0.3489 -123.7
 0.120  0.6028 -163.4  15.366  100.5  0.0324   56.7  0.3442 -125.4
 0.125  0.6039 -164.3  14.803   99.8  0.0332   57.0  0.3398 -127.1
 0.130  0.6052 -165.2  14.241   99.1  0.0339   57.3  0.3357 -128.9
 0.135  0.6067 -166.2  13.683   98.3  0.0347   57.6  0.3320 -130.7
 0.140  0.6083 -167.1  13.127   97.5  0.0355   57.9  0.3286 -132.5
 0.145  0.6101 -168.0  12.574   96.6  0.0362   58.1  0.3255 -134.4
 0.150  0.6120 -168.9  12.024   95.6  0.0370   58.4  0.3228 -136.3
 0.155  0.6122 -169.4  11.733   95.2  0.0378   58.9  0.3198 -137.2
 0.160  0.6124 -169.9  11.441   94.9  0.0386   59.3  0.3170 -138.2
 0.165  0.6126 -170.4  11.151   94.5  0.0394   59.7  0.3142 -139.2
 0.170  0.6129 -170.9  10.861   94.1  0.0403   60.2  0.3115 -140.2
 0.175  0.6133 -171.5  10.571   93.7  0.0411   60.5  0.3089 -141.2
 0.180  0.6137 -172.0  10.283   93.2  0.0419   60.9  0.3064 -142.2
 0.185  0.6142 -172.5   9.995   92.7  0.0427   61.3  0.3040 -143.3
 0.190  0.6147 -173.0   9.707   92.2  0.0435   61.6  0.3017 -144.3
 0.195  0.6152 -173.5   9.421   91.7  0.0444   62.0  0.2995 -145.4
 0.200  0.6158 -174.0   9.135   91.1  0.0452   62.3  0.2974 -146.5
 0.220  0.6177 -175.7   8.400   89.9  0.0485   63.2  0.2935 -149.7
 0.240  0.6202 -177.4   7.669   88.5  0.0518   64.0  0.2906 -152.9
 0.260  0.6212 -178.8   7.068   87.2  0.0553   64.8  0.2887 -155.5
 0.280  0.6207 -179.9   6.596   86.3  0.0590   65.6  0.2873 -157.4
 0.300  0.6204  179.0   6.126   85.1  0.0627   66.3  0.2863 -159.3
 0.320  0.6204  178.0   5.826   84.4  0.0662   66.6  0.2850 -160.8
 0.340  0.6206  176.9   5.526   83.5  0.0696   66.9  0.2838 -162.3
 0.360  0.6210  175.9   5.228   82.6  0.0731   67.2  0.2829 -163.8
 0.380  0.6216  174.8   4.932   81.6  0.0765   67.4  0.2821 -165.3
 0.400  0.6224  173.8   4.637   80.4  0.0800   67.6  0.2816 -166.8
 0.420  0.6231  173.0   4.454   79.7  0.0835   67.6  0.2809 -167.8
 0.440  0.6240  172.3   4.272   79.0  0.0871   67.6  0.2803 -168.9
 0.450  0.6244  171.9   4.181   78.6  0.0888   67.7  0.2800 -169.4
 0.460  0.6249  171.5   4.091   78.2  0.0906   67.7  0.2798 -169.9
 0.480  0.6259  170.8   3.910   77.3  0.0942   67.7  0.2793 -171.0
 0.500  0.6271  170.0   3.731   76.4  0.0977   67.7  0.2790 -172.0
 0.520  0.6278  169.2   3.610   75.7  0.1012   67.6  0.2789 -172.7
 0.540  0.6285  168.4   3.489   74.9  0.1047   67.5  0.2789 -173.4
 0.560  0.6294  167.6   3.369   74.0  0.1082   67.4  0.2789 -174.1
 0.580  0.6305  166.8   3.250   73.1  0.1117   67.3  0.2789 -174.8
 0.600  0.6316  166.0   3.132   72.1  0.1152   67.2  0.2790 -175.5
 0.620  0.6311  165.3   3.048   71.4  0.1188   67.0  0.2795 -176.1
 0.640  0.6308  164.6   2.964   70.7  0.1223   66.8  0.2801 -176.7
 0.660  0.6305  163.8   2.881   69.9  0.1259   66.6  0.2807 -177.3
 0.680  0.6304  163.1   2.799   69.1  0.1294   66.4  0.2813 -177.9
 0.700  0.6303  162.4   2.717   68.2  0.1330   66.2  0.2820 -178.5
 0.720  0.6304  161.8   2.652   67.6  0.1365   65.9  0.2824 -179.1
 0.740  0.6307  161.1   2.588   66.9  0.1401   65.7  0.2828 -179.8
 0.760  0.6310  160.5   2.524   66.2  0.1436   65.4  0.2833  179.6
 0.780  0.6313  159.8   2.460   65.5  0.1472   65.2  0.2838  178.9
 0.800  0.6318  159.2   2.397   64.7  0.1507   65.0  0.2843  178.3
 0.820  0.6311  158.6   2.348   64.1  0.1542   64.7  0.2842  177.7
 0.840  0.6305  158.0   2.299   63.4  0.1577   64.4  0.2842  177.1
 0.860  0.6300  157.3   2.250   62.7  0.1612   64.1  0.2842  176.6
 0.880  0.6296  156.7   2.202   62.0  0.1648   63.9  0.2842  176.0
 0.900  0.6292  156.1   2.154   61.3  0.1683   63.6  0.2843  175.4
 0.920  0.6296  155.3   2.115   60.7  0.1717   63.3  0.2851  175.1
 0.940  0.6301  154.6   2.076   60.0  0.1750   63.0  0.2859  174.7
 0.960  0.6307  153.8   2.037   59.3  0.1784   62.7  0.2867  174.4
 0.980  0.6314  153.1   1.999   58.6  0.1817   62.4  0.2875  174.0
 1.000  0.6322  152.3   1.961   57.9  0.1851   62.1  0.2883  173.7
 1.020  0.6338  151.7   1.930   57.3  0.1884   61.8  0.2894  173.3
 1.040  0.6355  151.1   1.899   56.6  0.1917   61.4  0.2905  172.8
 1.060  0.6372  150.5   1.868   55.9  0.1950   61.1  0.2916  172.4
 1.080  0.6390  149.9   1.837   55.2  0.1984   60.8  0.2927  171.9
 1.100  0.6409  149.3   1.807   54.5  0.2017   60.5  0.2939  171.5
 1.120  0.6413  148.7   1.781   53.9  0.2050   60.2  0.2946  171.0
 1.140  0.6417  148.0   1.756   53.4  0.2083   59.8  0.2952  170.6
 1.160  0.6423  147.4   1.730   52.8  0.2116   59.5  0.2959  170.1
 1.180  0.6429  146.7   1.705   52.1  0.2150   59.2  0.2967  169.7
 1.200  0.6436  146.1   1.680   51.5  0.2183   58.9  0.2974  169.2
 1.220  0.6427  145.5   1.657   50.9  0.2215   58.5  0.2979  168.8
 1.240  0.6418  144.9   1.633   50.3  0.2247   58.1  0.2985  168.3
 1.260  0.6411  144.4   1.610   49.7  0.2279   57.8  0.2991  167.9
 1.280  0.6403  143.8   1.588   49.1  0.2312   57.4  0.2997  167.4
 1.300  0.6397  143.2   1.565   48.4  0.2344   57.1  0.3003  167.0
 1.320  0.6415  142.7   1.547   47.9  0.2375   56.7  0.3014  166.7
 1.340  0.6433  142.1   1.528   47.4  0.2406   56.4  0.3024  166.3
 1.360  0.6452  141.6   1.510   46.8  0.2437   56.0  0.3035  166.0
 1.380  0.6472  141.0   1.492   46.3  0.2469   55.6  0.3046  165.6
 1.400  0.6492  140.5   1.474   45.7  0.2500   55.3  0.3057  165.3
 1.420  0.6486  140.0   1.461   45.1  0.2530   54.9  0.3067  165.0
 1.440  0.6480  139.5   1.448   44.6  0.2560   54.6  0.3078  164.6
 1.460  0.6475  139.0   1.436   44.0  0.2590   54.3  0.3088  164.3
 1.480  0.6470  138.5   1.423   43.4  0.2621   53.9  0.3099  163.9
 1.500  0.6466  138.0   1.411   42.8  0.2651   53.6  0.3110  163.6
 1.520  0.6472  137.4   1.394   42.2  0.2681   53.2  0.3122  163.2
 1.540  0.6479  136.8   1.377   41.6  0.2710   52.9  0.3134  162.7
 1.560  0.6487  136.3   1.360   41.0  0.2740   52.5  0.3146  162.3
 1.580  0.6495  135.7   1.343   40.4  0.2770   52.1  0.3158  161.8
 1.600  0.6504  135.1   1.327   39.8  0.2800   51.8  0.3171  161.4
 1.620  0.6518  134.5   1.314   39.3  0.2827   51.4  0.3182  161.0
 1.640  0.6533  134.0   1.302   38.7  0.2854   51.1  0.3193  160.5
 1.660  0.6548  133.4   1.289   38.2  0.2882   50.8  0.3205  160.1
 1.680  0.6564  132.9   1.277   37.6  0.2909   50.4  0.3216  159.6
 1.700  0.6581  132.3   1.265   37.0  0.2937   50.1  0.3228  159.2
 1.720  0.6592  131.7   1.256   36.6  0.2965   49.7  0.3236  158.8
 1.740  0.6604  131.2   1.247   36.1  0.2992   49.3  0.3243  158.4
 1.760  0.6616  130.6   1.238   35.7  0.3020   48.9  0.3251  158.1
 1.780  0.6629  130.1   1.229   35.3  0.3048   48.5  0.3259  157.7
 1.800  0.6643  129.5   1.220   34.8  0.3076   48.1  0.3267  157.3
 1.820  0.6643  129.0   1.210   34.3  0.3103   47.7  0.3284  157.0
 1.840  0.6644  128.5   1.200   33.7  0.3131   47.4  0.3301  156.7
 1.860  0.6646  127.9   1.191   33.1  0.3158   47.1  0.3318  156.4
 1.880  0.6648  127.4   1.181   32.6  0.3186   46.7  0.3336  156.1
 1.900  0.6650  126.9   1.172   32.0  0.3214   46.4  0.3353  155.8
 1.920  0.6654  126.4   1.162   31.5  0.3239   46.0  0.3372  155.4
 1.940  0.6658  126.0   1.152   31.0  0.3265   45.6  0.3390  154.9
 1.960  0.6662  125.5   1.142   30.5  0.3290   45.2  0.3409  154.5
 1.980  0.6667  125.1   1.133   30.0  0.3316   44.9  0.3429  154.0
 2.000  0.6672  124.6   1.123   29.5  0.3342   44.5  0.3448  153.6
 2.020  0.6680  124.1   1.115   29.1  0.3367   44.1  0.3460  153.2
 2.040  0.6688  123.6   1.107   28.6  0.3392   43.8  0.3472  152.8
 2.060  0.6697  123.1   1.100   28.2  0.3417   43.4  0.3484  152.3
 2.080  0.6707  122.6   1.092   27.7  0.3442   43.0  0.3497  151.9
 2.100  0.6717  122.1   1.085   27.2  0.3467   42.7  0.3510  151.5
 2.120  0.6727  121.6   1.077   26.8  0.3492   42.3  0.3523  151.1
 2.140  0.6738  121.1   1.070   26.3  0.3518   42.0  0.3536  150.7
 2.160  0.6750  120.6   1.062   25.8  0.3543   41.7  0.3549  150.3
 2.180  0.6762  120.1   1.055   25.3  0.3569   41.3  0.3562  149.9
 2.200  0.6774  119.6   1.048   24.8  0.3595   41.0  0.3576  149.5
 2.220  0.6778  119.1   1.042   24.4  0.3617   40.6  0.3597  149.1
 2.240  0.6783  118.6   1.037   23.9  0.3640   40.3  0.3618  148.6
 2.260  0.6789  118.1   1.031   23.5  0.3663   39.9  0.3639  148.2
 2.280  0.6795  117.6   1.026   23.0  0.3685   39.5  0.3661  147.8
 2.300  0.6801  117.1   1.020   22.6  0.3708   39.2  0.3683  147.4
 2.320  0.6808  116.6   1.015   22.1  0.3731   38.8  0.3705  147.0
 2.340  0.6815  116.1   1.010   21.6  0.3755   38.5  0.3727  146.6
 2.360  0.6823  115.6   1.004   21.2  0.3778   38.2  0.3749  146.2
 2.380  0.6832  115.1   0.999   20.7  0.3801   37.8  0.3771  145.8
 2.400  0.6841  114.6   0.994   20.2  0.3825   37.5  0.3794  145.4
 2.420  0.6851  114.1   0.988   19.8  0.3844   37.1  0.3807  145.0
 2.440  0.6861  113.6   0.982   19.5  0.3863   36.8  0.3820  144.6
 2.460  0.6871  113.1   0.976   19.1  0.3882   36.4  0.3833  144.2
 2.480  0.6882  112.7   0.970   18.7  0.3902   36.1  0.3846  143.8
 2.500  0.6894  112.2   0.964   18.3  0.3921   35.7  0.3859  143.5
 2.520  0.6906  111.7   0.958   17.9  0.3941   35.4  0.3873  143.1
 2.540  0.6919  111.2   0.952   17.5  0.3961   35.0  0.3887  142.7
 2.560  0.6932  110.7   0.946   17.1  0.3981   34.7  0.3901  142.3
 2.580  0.6945  110.3   0.941   16.7  0.4001   34.3  0.3915  142.0
 2.600  0.6959  109.8   0.935   16.3  0.4021   34.0  0.3929  141.6
 2.620  0.6966  109.4   0.930   15.9  0.4038   33.6  0.3951  141.2
 2.640  0.6972  109.0   0.926   15.6  0.4056   33.3  0.3974  140.8
 2.660  0.6980  108.6   0.921   15.2  0.4073   32.9  0.3996  140.4
 2.680  0.6987  108.2   0.917   14.9  0.4091   32.6  0.4019  139.9
 2.700  0.6995  107.8   0.912   14.5  0.4109   32.3  0.4042  139.5
 2.720  0.7003  107.4   0.908   14.1  0.4127   31.9  0.4065  139.1
 2.740  0.7012  107.1   0.903   13.7  0.4145   31.6  0.4089  138.8
 2.760  0.7020  106.7   0.899   13.4  0.4163   31.3  0.4112  138.4
 2.780  0.7030  106.3   0.894   13.0  0.4181   30.9  0.4136  138.0
 2.800  0.7039  105.9   0.890   12.6  0.4200   30.6  0.4160  137.6
 2.820  0.7050  105.5   0.886   12.2  0.4217   30.2  0.4176  137.2
 2.840  0.7061  105.0   0.882   11.9  0.4234   29.9  0.4192  136.8
 2.860  0.7073  104.6   0.878   11.5  0.4251   29.6  0.4208  136.5
 2.880  0.7085  104.2   0.874   11.1  0.4269   29.2  0.4225  136.1
 2.900  0.7097  103.8   0.871   10.7  0.4286   28.9  0.4241  135.7
 2.920  0.7110  103.4   0.867   10.4  0.4304   28.5  0.4258  135.3
 2.940  0.7123  102.9   0.863   10.0  0.4322   28.2  0.4275  135.0
 2.960  0.7137  102.5   0.859    9.6  0.4340   27.9  0.4292  134.6
 2.980  0.7151  102.1   0.856    9.2  0.4358   27.5  0.4310  134.3
 3.000  0.7165  101.7   0.852    8.8  0.4376   27.2  0.4327  133.9
 3.100  0.7198   99.9   0.833    7.4  0.4438   25.6  0.4426  132.0
 3.200  0.7237   98.2   0.815    6.0  0.4504   24.0  0.4529  130.1
 3.300  0.7284   96.4   0.797    4.5  0.4573   22.5  0.4638  128.4
 3.400  0.7337   94.7   0.780    2.9  0.4645   21.0  0.4750  126.7
 3.500  0.7396   93.0   0.763    1.3  0.4720   19.6  0.4866  125.1
 3.600  0.7428   91.4   0.750    0.2  0.4758   18.1  0.4962  123.3
 3.700  0.7466   89.9   0.737   -0.9  0.4799   16.6  0.5063  121.5
 3.800  0.7510   88.3   0.724   -2.1  0.4844   15.1  0.5169  119.8
 3.900  0.7559   86.8   0.711   -3.3  0.4891   13.6  0.5279  118.2
 4.000  0.7613   85.3   0.699   -4.5  0.4942   12.2  0.5393  116.6
 4.100  0.7623   84.0   0.689   -5.5  0.4961   10.9  0.5445  115.0
 4.200  0.7637   82.8   0.680   -6.5  0.4983    9.6  0.5502  113.3
 4.300  0.7655   81.5   0.671   -7.5  0.5007    8.3  0.5563  111.8
 4.400  0.7676   80.2   0.662   -8.5  0.5034    7.1  0.5628  110.2
 4.500  0.7701   79.0   0.653   -9.6  0.5063    5.8  0.5697  108.7
 4.600  0.7709   77.9   0.646  -10.4  0.5079    4.7  0.5738  107.3
 4.700  0.7720   76.7   0.639  -11.1  0.5097    3.5  0.5782  105.9
 4.800  0.7734   75.6   0.632  -11.9  0.5117    2.4  0.5830  104.6
 4.900  0.7752   74.4   0.625  -12.8  0.5138    1.3  0.5881  103.2
 5.000  0.7772   73.3   0.618  -13.6  0.5162    0.2  0.5935  101.9
 5.100  0.7752   72.3   0.613  -13.8  0.5183   -0.3  0.5902  101.6
 5.200  0.7734   71.2   0.607  -13.9  0.5205   -0.8  0.5870  101.4
 5.300  0.7718   70.2   0.602  -14.1  0.5227   -1.3  0.5837  101.1
 5.400  0.7705   69.1   0.596  -14.2  0.5250   -1.8  0.5805  100.9
 5.500  0.7695   68.1   0.591  -14.4  0.5273   -2.3  0.5773  100.6
 5.600  0.7699   67.3   0.590  -15.3  0.5312   -3.6  0.5896   99.2
 5.700  0.7704   66.6   0.590  -16.2  0.5353   -5.0  0.6021   97.9
 5.800  0.7710   65.8   0.589  -17.1  0.5398   -6.3  0.6150   96.6
 5.900  0.7718   65.1   0.589  -18.0  0.5445   -7.5  0.6282   95.4
 6.000  0.7727   64.3   0.589  -18.9  0.5495   -8.8  0.6417   94.2
!
!  f       NFmin   Gammaopt  rn/50
! GHz       dB    MAG  ANG    -
!
! noise parameter not available yet for this operation point!
!
! (c) 2015  Infineon Technologies AG, Munich
