! Infineon Technologies  Discrete & RF Semiconductors
! BFR106
! VCE =  2.5 V,  IC =  2.5 mA
! Common Emitter S-Parameters:                            Nov 2015
# GHz  S  MA  R  50
!  f         S11            S21            S12            S22
! GHz     MAG   ANG      MAG   ANG      MAG   ANG      MAG   ANG
 0.010  0.9150   -7.0   8.695  175.0  0.0077   87.2  0.9976   -2.8
 0.015  0.9125  -10.5   8.660  173.2  0.0114   84.5  0.9933   -4.1
 0.020  0.9135  -14.1   8.634  171.3  0.0152   83.2  0.9896   -5.4
 0.025  0.9014  -17.3   8.532  169.2  0.0187   79.5  0.9820   -6.6
 0.030  0.8922  -20.5   8.441  167.1  0.0223   76.9  0.9748   -7.8
 0.035  0.8859  -23.8   8.363  164.9  0.0259   75.1  0.9681   -9.1
 0.040  0.8825  -27.2   8.296  162.7  0.0295   73.7  0.9619  -10.3
 0.045  0.8823  -30.5   8.242  160.5  0.0332   72.6  0.9561  -11.6
 0.050  0.8850  -33.9   8.201  158.2  0.0368   71.7  0.9508  -12.9
 0.055  0.8701  -36.6   8.072  156.7  0.0394   69.4  0.9405  -13.8
 0.060  0.8572  -39.4   7.949  155.2  0.0421   67.4  0.9304  -14.7
 0.065  0.8465  -42.3   7.831  153.6  0.0448   65.6  0.9206  -15.7
 0.070  0.8379  -45.2   7.720  151.9  0.0476   64.0  0.9110  -16.6
 0.075  0.8315  -48.2   7.615  150.3  0.0503   62.6  0.9017  -17.6
 0.080  0.8275  -51.2   7.517  148.5  0.0532   61.4  0.8926  -18.6
 0.085  0.8258  -54.3   7.426  146.8  0.0560   60.3  0.8839  -19.6
 0.090  0.8264  -57.3   7.343  144.9  0.0588   59.3  0.8754  -20.7
 0.095  0.8294  -60.4   7.266  143.1  0.0617   58.3  0.8672  -21.7
 0.100  0.8347  -63.4   7.198  141.2  0.0646   57.5  0.8593  -22.8
 0.105  0.8232  -65.6   7.069  140.0  0.0662   56.1  0.8490  -23.4
 0.110  0.8129  -67.8   6.944  138.7  0.0678   54.8  0.8389  -24.0
 0.115  0.8038  -70.0   6.822  137.3  0.0694   53.5  0.8288  -24.6
 0.120  0.7960  -72.3   6.705  135.9  0.0710   52.3  0.8188  -25.2
 0.125  0.7895  -74.7   6.591  134.5  0.0727   51.1  0.8090  -25.9
 0.130  0.7843  -77.1   6.482  133.0  0.0745   50.0  0.7992  -26.5
 0.135  0.7806  -79.5   6.377  131.5  0.0762   49.0  0.7895  -27.2
 0.140  0.7782  -81.9   6.276  129.9  0.0780   48.0  0.7800  -27.9
 0.145  0.7772  -84.4   6.181  128.3  0.0798   47.0  0.7705  -28.6
 0.150  0.7777  -86.8   6.091  126.6  0.0816   46.1  0.7612  -29.3
 0.155  0.7719  -88.5   5.996  125.8  0.0825   45.3  0.7536  -29.6
 0.160  0.7667  -90.2   5.903  124.9  0.0835   44.6  0.7460  -29.9
 0.165  0.7623  -92.0   5.811  124.0  0.0844   43.9  0.7384  -30.2
 0.170  0.7586  -93.7   5.720  123.0  0.0854   43.2  0.7309  -30.6
 0.175  0.7556  -95.5   5.631  122.1  0.0863   42.5  0.7234  -30.9
 0.180  0.7533  -97.3   5.544  121.1  0.0873   41.8  0.7159  -31.3
 0.185  0.7518  -99.1   5.458  120.1  0.0883   41.2  0.7084  -31.6
 0.190  0.7510 -100.9   5.374  119.0  0.0893   40.5  0.7010  -32.0
 0.195  0.7510 -102.7   5.292  117.9  0.0904   39.9  0.6936  -32.3
 0.200  0.7517 -104.5   5.212  116.8  0.0914   39.3  0.6862  -32.7
 0.220  0.7336 -110.0   4.891  113.7  0.0936   37.2  0.6619  -33.6
 0.240  0.7226 -115.7   4.587  110.1  0.0959   35.3  0.6378  -34.6
 0.260  0.7143 -120.7   4.320  107.1  0.0978   33.7  0.6183  -35.4
 0.280  0.7060 -124.8   4.081  104.8  0.0993   32.5  0.6034  -36.0
 0.300  0.7016 -129.1   3.850  102.2  0.1009   31.3  0.5886  -36.7
 0.320  0.6933 -132.3   3.683  100.6  0.1013   30.5  0.5774  -37.1
 0.340  0.6873 -135.6   3.519   98.8  0.1018   29.8  0.5663  -37.5
 0.360  0.6835 -139.0   3.359   96.8  0.1023   29.0  0.5552  -38.0
 0.380  0.6821 -142.3   3.204   94.7  0.1028   28.2  0.5441  -38.4
 0.400  0.6831 -145.7   3.053   92.3  0.1033   27.5  0.5331  -38.9
 0.420  0.6799 -147.9   2.936   90.9  0.1034   27.3  0.5271  -39.3
 0.440  0.6777 -150.2   2.822   89.4  0.1035   27.2  0.5212  -39.8
 0.450  0.6770 -151.3   2.765   88.6  0.1035   27.1  0.5182  -40.0
 0.460  0.6766 -152.4   2.709   87.8  0.1035   27.0  0.5152  -40.2
 0.480  0.6765 -154.7   2.599   86.0  0.1036   26.9  0.5094  -40.7
 0.500  0.6774 -156.9   2.491   84.1  0.1037   26.7  0.5035  -41.2
 0.520  0.6745 -158.8   2.415   82.9  0.1037   26.8  0.5005  -41.7
 0.540  0.6723 -160.6   2.340   81.6  0.1037   26.9  0.4975  -42.3
 0.560  0.6708 -162.5   2.266   80.3  0.1038   27.1  0.4945  -42.9
 0.580  0.6701 -164.4   2.193   78.8  0.1038   27.2  0.4916  -43.4
 0.600  0.6701 -166.3   2.122   77.3  0.1038   27.3  0.4888  -44.0
 0.620  0.6693 -167.8   2.067   76.2  0.1037   27.7  0.4868  -44.7
 0.640  0.6690 -169.2   2.012   75.1  0.1035   28.1  0.4848  -45.3
 0.660  0.6692 -170.7   1.959   74.0  0.1034   28.5  0.4830  -46.0
 0.680  0.6697 -172.1   1.906   72.7  0.1033   28.9  0.4811  -46.7
 0.700  0.6707 -173.6   1.854   71.4  0.1032   29.3  0.4794  -47.4
 0.720  0.6698 -174.9   1.810   70.5  0.1033   29.9  0.4776  -48.1
 0.740  0.6693 -176.1   1.766   69.5  0.1033   30.5  0.4760  -48.7
 0.760  0.6691 -177.4   1.723   68.4  0.1034   31.0  0.4743  -49.4
 0.780  0.6692 -178.6   1.681   67.3  0.1035   31.6  0.4728  -50.1
 0.800  0.6696 -179.9   1.639   66.2  0.1036   32.2  0.4713  -50.8
 0.820  0.6690  179.0   1.605   65.3  0.1039   33.0  0.4701  -51.5
 0.840  0.6686  177.9   1.572   64.3  0.1042   33.7  0.4689  -52.2
 0.860  0.6684  176.8   1.540   63.3  0.1045   34.5  0.4678  -53.0
 0.880  0.6685  175.7   1.508   62.3  0.1048   35.2  0.4668  -53.7
 0.900  0.6689  174.6   1.476   61.2  0.1052   36.0  0.4659  -54.4
 0.920  0.6692  173.5   1.449   60.4  0.1055   36.9  0.4655  -55.2
 0.940  0.6699  172.4   1.421   59.6  0.1059   37.7  0.4652  -56.1
 0.960  0.6707  171.2   1.395   58.7  0.1063   38.6  0.4650  -56.9
 0.980  0.6718  170.1   1.368   57.8  0.1067   39.5  0.4649  -57.8
 1.000  0.6732  169.0   1.342   56.9  0.1071   40.3  0.4649  -58.6
 1.020  0.6744  168.0   1.321   56.1  0.1079   41.2  0.4644  -59.5
 1.040  0.6759  166.9   1.300   55.2  0.1087   42.1  0.4640  -60.4
 1.060  0.6776  165.9   1.280   54.3  0.1096   43.0  0.4637  -61.3
 1.080  0.6795  164.9   1.260   53.4  0.1105   43.8  0.4635  -62.2
 1.100  0.6816  163.9   1.240   52.5  0.1114   44.7  0.4634  -63.1
 1.120  0.6818  163.0   1.221   51.7  0.1126   45.6  0.4631  -64.0
 1.140  0.6822  162.1   1.202   51.0  0.1138   46.6  0.4630  -64.9
 1.160  0.6827  161.3   1.183   50.2  0.1150   47.5  0.4630  -65.9
 1.180  0.6834  160.4   1.165   49.4  0.1163   48.3  0.4631  -66.8
 1.200  0.6842  159.5   1.147   48.5  0.1176   49.2  0.4633  -67.7
 1.220  0.6841  158.7   1.131   47.9  0.1193   50.0  0.4632  -68.6
 1.240  0.6841  157.9   1.115   47.2  0.1210   50.7  0.4631  -69.4
 1.260  0.6842  157.0   1.099   46.5  0.1228   51.4  0.4632  -70.3
 1.280  0.6845  156.2   1.083   45.8  0.1245   52.1  0.4633  -71.1
 1.300  0.6849  155.4   1.067   45.1  0.1263   52.8  0.4636  -72.0
 1.320  0.6866  154.6   1.054   44.5  0.1283   53.5  0.4641  -73.0
 1.340  0.6884  153.8   1.040   43.9  0.1304   54.3  0.4647  -73.9
 1.360  0.6904  153.0   1.027   43.2  0.1324   55.0  0.4655  -74.9
 1.380  0.6925  152.3   1.014   42.6  0.1345   55.6  0.4664  -75.8
 1.400  0.6947  151.5   1.001   41.9  0.1366   56.3  0.4674  -76.8
 1.420  0.6960  150.7   0.991   41.3  0.1392   56.9  0.4671  -77.8
 1.440  0.6974  150.0   0.981   40.7  0.1417   57.5  0.4669  -78.8
 1.460  0.6989  149.2   0.971   40.1  0.1443   58.0  0.4668  -79.7
 1.480  0.7005  148.5   0.961   39.4  0.1469   58.6  0.4669  -80.7
 1.500  0.7023  147.7   0.951   38.8  0.1495   59.1  0.4671  -81.7
 1.520  0.7015  146.9   0.939   38.2  0.1523   59.5  0.4669  -82.7
 1.540  0.7008  146.1   0.926   37.6  0.1551   59.9  0.4668  -83.7
 1.560  0.7002  145.4   0.914   37.0  0.1579   60.2  0.4669  -84.6
 1.580  0.6998  144.6   0.902   36.4  0.1608   60.6  0.4671  -85.6
 1.600  0.6995  143.8   0.890   35.7  0.1636   60.9  0.4674  -86.6
 1.620  0.7007  143.0   0.881   35.2  0.1668   61.1  0.4666  -87.6
 1.640  0.7020  142.2   0.873   34.6  0.1700   61.4  0.4659  -88.7
 1.660  0.7034  141.5   0.864   34.1  0.1732   61.6  0.4653  -89.7
 1.680  0.7050  140.7   0.855   33.5  0.1764   61.8  0.4649  -90.8
 1.700  0.7067  139.9   0.847   32.9  0.1796   62.0  0.4647  -91.8
 1.720  0.7086  139.3   0.840   32.5  0.1830   62.1  0.4651  -92.8
 1.740  0.7107  138.6   0.834   32.0  0.1864   62.2  0.4656  -93.8
 1.760  0.7128  138.0   0.827   31.6  0.1899   62.2  0.4663  -94.7
 1.780  0.7150  137.3   0.821   31.2  0.1933   62.3  0.4671  -95.7
 1.800  0.7173  136.7   0.814   30.7  0.1967   62.4  0.4680  -96.7
 1.820  0.7170  136.0   0.807   30.3  0.2003   62.4  0.4688  -97.8
 1.840  0.7168  135.2   0.799   29.8  0.2039   62.5  0.4698  -98.9
 1.860  0.7167  134.5   0.792   29.4  0.2075   62.5  0.4710 -100.0
 1.880  0.7167  133.7   0.784   29.0  0.2111   62.6  0.4724 -101.1
 1.900  0.7169  133.0   0.777   28.5  0.2147   62.6  0.4739 -102.2
 1.920  0.7173  132.4   0.770   28.1  0.2184   62.5  0.4739 -103.3
 1.940  0.7178  131.8   0.762   27.7  0.2221   62.3  0.4741 -104.4
 1.960  0.7184  131.3   0.755   27.3  0.2257   62.2  0.4745 -105.5
 1.980  0.7191  130.7   0.748   26.8  0.2294   62.1  0.4750 -106.6
 2.000  0.7198  130.1   0.741   26.4  0.2331   62.0  0.4757 -107.7
 2.020  0.7205  129.4   0.735   26.1  0.2370   61.8  0.4758 -108.8
 2.040  0.7214  128.8   0.730   25.7  0.2409   61.6  0.4761 -109.8
 2.060  0.7223  128.1   0.725   25.4  0.2449   61.4  0.4766 -110.9
 2.080  0.7233  127.5   0.719   25.0  0.2488   61.3  0.4772 -112.0
 2.100  0.7244  126.8   0.714   24.7  0.2527   61.1  0.4780 -113.0
 2.120  0.7256  126.2   0.708   24.3  0.2567   60.9  0.4790 -114.1
 2.140  0.7269  125.5   0.703   23.9  0.2606   60.8  0.4801 -115.2
 2.160  0.7283  124.9   0.698   23.6  0.2645   60.6  0.4814 -116.2
 2.180  0.7298  124.2   0.692   23.2  0.2685   60.4  0.4828 -117.3
 2.200  0.7314  123.6   0.687   22.8  0.2724   60.3  0.4844 -118.3
 2.220  0.7313  123.0   0.683   22.5  0.2763   60.0  0.4845 -119.5
 2.240  0.7313  122.3   0.679   22.3  0.2803   59.7  0.4848 -120.7
 2.260  0.7314  121.7   0.676   22.0  0.2842   59.3  0.4854 -121.9
 2.280  0.7315  121.0   0.672   21.7  0.2882   59.0  0.4861 -123.1
 2.300  0.7318  120.4   0.668   21.4  0.2922   58.8  0.4871 -124.3
 2.320  0.7322  119.8   0.665   21.2  0.2961   58.5  0.4882 -125.4
 2.340  0.7326  119.1   0.661   20.9  0.3001   58.2  0.4896 -126.6
 2.360  0.7331  118.5   0.657   20.6  0.3041   57.9  0.4912 -127.8
 2.380  0.7338  117.8   0.654   20.3  0.3081   57.7  0.4929 -128.9
 2.400  0.7345  117.2   0.650   20.0  0.3121   57.4  0.4949 -130.1
 2.420  0.7351  116.6   0.646   19.8  0.3158   57.0  0.4949 -131.2
 2.440  0.7357  116.0   0.643   19.7  0.3195   56.6  0.4951 -132.2
 2.460  0.7364  115.4   0.639   19.5  0.3232   56.2  0.4955 -133.3
 2.480  0.7372  114.8   0.636   19.3  0.3270   55.8  0.4961 -134.4
 2.500  0.7381  114.2   0.632   19.1  0.3307   55.4  0.4968 -135.4
 2.520  0.7391  113.6   0.629   18.9  0.3345   55.0  0.4977 -136.5
 2.540  0.7401  113.1   0.625   18.8  0.3383   54.7  0.4988 -137.6
 2.560  0.7412  112.5   0.622   18.6  0.3421   54.3  0.5000 -138.6
 2.580  0.7424  111.9   0.618   18.4  0.3459   53.9  0.5014 -139.7
 2.600  0.7437  111.3   0.615   18.2  0.3497   53.6  0.5030 -140.7
 2.620  0.7437  110.8   0.613   18.0  0.3533   53.1  0.5036 -141.9
 2.640  0.7438  110.3   0.611   17.8  0.3568   52.7  0.5044 -143.0
 2.660  0.7439  109.8   0.609   17.6  0.3604   52.3  0.5053 -144.2
 2.680  0.7441  109.3   0.607   17.5  0.3641   51.8  0.5065 -145.3
 2.700  0.7443  108.8   0.604   17.3  0.3677   51.4  0.5079 -146.5
 2.720  0.7446  108.3   0.602   17.1  0.3714   51.0  0.5095 -147.6
 2.740  0.7449  107.8   0.600   16.9  0.3750   50.6  0.5113 -148.8
 2.760  0.7453  107.3   0.598   16.7  0.3787   50.2  0.5133 -149.9
 2.780  0.7458  106.8   0.596   16.5  0.3825   49.8  0.5155 -151.0
 2.800  0.7463  106.3   0.594   16.3  0.3862   49.4  0.5179 -152.1
 2.820  0.7466  105.8   0.592   16.1  0.3896   48.9  0.5186 -153.1
 2.840  0.7470  105.3   0.590   16.0  0.3930   48.5  0.5196 -154.2
 2.860  0.7475  104.8   0.588   15.8  0.3964   48.1  0.5206 -155.2
 2.880  0.7480  104.3   0.586   15.7  0.3999   47.6  0.5219 -156.2
 2.900  0.7486  103.8   0.584   15.5  0.4033   47.2  0.5233 -157.3
 2.920  0.7492  103.4   0.583   15.4  0.4068   46.8  0.5249 -158.3
 2.940  0.7499  102.9   0.581   15.2  0.4103   46.4  0.5267 -159.3
 2.960  0.7506  102.4   0.579   15.0  0.4139   46.0  0.5286 -160.3
 2.980  0.7514  101.9   0.577   14.9  0.4174   45.6  0.5307 -161.3
 3.000  0.7522  101.4   0.575   14.7  0.4210   45.2  0.5329 -162.3
 3.100  0.7514   99.4   0.571   14.0  0.4334   42.7  0.5341 -167.4
 3.200  0.7516   97.3   0.568   13.3  0.4466   40.3  0.5394 -172.4
 3.300  0.7528   95.3   0.564   12.6  0.4605   38.0  0.5488 -177.3
 3.400  0.7549   93.2   0.560   11.8  0.4751   35.9  0.5621  178.0
 3.500  0.7580   91.2   0.557   11.1  0.4903   33.9  0.5790  173.5
 3.600  0.7584   89.6   0.556   10.3  0.4972   31.6  0.5820  169.1
 3.700  0.7594   88.1   0.554    9.6  0.5049   29.4  0.5883  164.8
 3.800  0.7610   86.6   0.553    8.8  0.5133   27.2  0.5979  160.5
 3.900  0.7631   85.0   0.552    8.1  0.5225   25.1  0.6107  156.5
 4.000  0.7657   83.5   0.551    7.3  0.5323   23.1  0.6264  152.6
 4.100  0.7642   82.3   0.551    6.3  0.5350   21.2  0.6267  149.2
 4.200  0.7631   81.1   0.551    5.3  0.5383   19.3  0.6293  145.8
 4.300  0.7623   79.8   0.551    4.4  0.5421   17.4  0.6340  142.4
 4.400  0.7619   78.6   0.551    3.4  0.5466   15.5  0.6409  139.1
 4.500  0.7618   77.4   0.552    2.4  0.5516   13.7  0.6499  135.9
 4.600  0.7616   76.3   0.552    1.5  0.5528   12.1  0.6500  133.2
 4.700  0.7617   75.2   0.553    0.6  0.5544   10.6  0.6516  130.4
 4.800  0.7620   74.1   0.553   -0.4  0.5565    9.0  0.6547  127.7
 4.900  0.7627   73.0   0.554   -1.3  0.5589    7.5  0.6592  125.0
 5.000  0.7636   71.9   0.555   -2.2  0.5617    6.0  0.6652  122.4
 5.100  0.7610   70.9   0.554   -2.4  0.5626    5.3  0.6594  121.5
 5.200  0.7587   69.8   0.554   -2.6  0.5637    4.6  0.6539  120.6
 5.300  0.7567   68.8   0.553   -2.7  0.5648    3.8  0.6484  119.7
 5.400  0.7549   67.8   0.553   -2.9  0.5660    3.1  0.6432  118.8
 5.500  0.7533   66.7   0.552   -3.1  0.5673    2.4  0.6381  117.8
 5.600  0.7524   66.0   0.556   -4.3  0.5710    0.8  0.6488  115.5
 5.700  0.7516   65.3   0.560   -5.5  0.5751   -0.7  0.6606  113.3
 5.800  0.7509   64.7   0.564   -6.7  0.5796   -2.2  0.6732  111.2
 5.900  0.7503   64.0   0.568   -7.9  0.5845   -3.7  0.6868  109.2
 6.000  0.7498   63.3   0.573   -9.0  0.5898   -5.2  0.7012  107.2
!
!  f       NFmin   Gammaopt  rn/50
! GHz       dB    MAG  ANG    -
!
! noise parameter not available yet for this operation point!
!
! (c) 2015  Infineon Technologies AG, Munich
