! Infineon Technologies  Discrete & RF Semiconductors
! BFR193W
! VCE =  2.0 V,  IC =  10 mA
! Common Emitter S-Parameters:                            Nov 2015
# GHz  S  MA  R  50
!  f         S11            S21            S12            S22
! GHz     MAG   ANG      MAG   ANG      MAG   ANG      MAG   ANG
 0.100  0.6623  -70.8  21.213  138.7  0.0341   59.8  0.7691  -36.8
 0.105  0.6531  -72.9  20.786  137.6  0.0349   59.0  0.7547  -37.6
 0.110  0.6449  -75.2  20.366  136.6  0.0358   58.2  0.7405  -38.5
 0.115  0.6377  -77.4  19.954  135.4  0.0366   57.4  0.7264  -39.4
 0.120  0.6314  -79.7  19.550  134.2  0.0375   56.7  0.7126  -40.4
 0.125  0.6262  -82.1  19.155  133.0  0.0383   56.0  0.6989  -41.4
 0.130  0.6221  -84.5  18.770  131.7  0.0392   55.4  0.6855  -42.4
 0.135  0.6191  -86.9  18.394  130.4  0.0401   54.7  0.6722  -43.4
 0.140  0.6172  -89.3  18.029  129.0  0.0409   54.1  0.6593  -44.6
 0.145  0.6164  -91.8  17.674  127.5  0.0418   53.6  0.6465  -45.7
 0.150  0.6167  -94.2  17.332  126.0  0.0427   53.0  0.6341  -46.9
 0.155  0.6118  -95.8  17.022  125.2  0.0432   52.6  0.6236  -47.5
 0.160  0.6075  -97.4  16.715  124.5  0.0438   52.3  0.6133  -48.1
 0.165  0.6036  -99.1  16.411  123.6  0.0443   51.9  0.6029  -48.7
 0.170  0.6003 -100.8  16.110  122.8  0.0449   51.5  0.5927  -49.3
 0.175  0.5974 -102.5  15.814  121.9  0.0454   51.2  0.5825  -50.0
 0.180  0.5951 -104.2  15.521  121.0  0.0460   50.9  0.5724  -50.6
 0.185  0.5934 -105.9  15.232  120.1  0.0465   50.5  0.5624  -51.3
 0.190  0.5921 -107.6  14.947  119.1  0.0471   50.2  0.5525  -52.1
 0.195  0.5914 -109.4  14.667  118.1  0.0476   49.9  0.5426  -52.8
 0.200  0.5913 -111.1  14.392  117.0  0.0482   49.6  0.5329  -53.6
 0.220  0.5804 -116.0  13.470  114.7  0.0499   48.9  0.5010  -55.3
 0.240  0.5740 -121.1  12.573  112.1  0.0516   48.2  0.4695  -57.2
 0.260  0.5692 -125.5  11.794  109.7  0.0532   47.9  0.4433  -58.7
 0.280  0.5642 -129.2  11.119  107.8  0.0546   47.9  0.4219  -59.8
 0.300  0.5617 -133.0  10.459  105.6  0.0560   47.9  0.4007  -61.0
 0.320  0.5570 -135.8   9.977  104.4  0.0573   48.1  0.3852  -61.6
 0.340  0.5536 -138.6   9.501  103.0  0.0586   48.4  0.3698  -62.3
 0.360  0.5515 -141.4   9.030  101.6  0.0598   48.6  0.3545  -63.0
 0.380  0.5508 -144.3   8.565   99.9  0.0611   48.8  0.3392  -63.8
 0.400  0.5515 -147.1   8.109   98.1  0.0624   49.0  0.3240  -64.7
 0.420  0.5500 -149.0   7.804   97.2  0.0638   49.5  0.3147  -65.1
 0.440  0.5491 -150.8   7.501   96.2  0.0651   49.9  0.3053  -65.5
 0.450  0.5489 -151.7   7.351   95.7  0.0658   50.1  0.3007  -65.7
 0.460  0.5488 -152.7   7.201   95.1  0.0665   50.3  0.2960  -65.9
 0.480  0.5491 -154.5   6.903   94.0  0.0679   50.7  0.2868  -66.4
 0.500  0.5499 -156.4   6.609   92.7  0.0693   51.1  0.2775  -66.9
 0.520  0.5482 -157.8   6.398   91.9  0.0707   51.5  0.2715  -67.3
 0.540  0.5468 -159.2   6.189   91.1  0.0722   51.9  0.2654  -67.7
 0.560  0.5457 -160.6   5.981   90.2  0.0736   52.3  0.2594  -68.2
 0.580  0.5450 -162.1   5.775   89.3  0.0751   52.6  0.2534  -68.6
 0.600  0.5446 -163.5   5.570   88.3  0.0765   53.0  0.2474  -69.1
 0.620  0.5442 -164.6   5.413   87.6  0.0778   53.4  0.2435  -69.4
 0.640  0.5440 -165.7   5.256   86.9  0.0792   53.9  0.2396  -69.6
 0.660  0.5439 -166.8   5.100   86.1  0.0805   54.3  0.2357  -69.9
 0.680  0.5441 -167.9   4.946   85.3  0.0819   54.7  0.2319  -70.2
 0.700  0.5445 -169.0   4.792   84.4  0.0832   55.1  0.2280  -70.5
 0.720  0.5450 -170.0   4.679   83.8  0.0847   55.4  0.2253  -70.9
 0.740  0.5457 -171.0   4.566   83.1  0.0862   55.8  0.2226  -71.2
 0.760  0.5466 -172.1   4.454   82.5  0.0877   56.1  0.2199  -71.6
 0.780  0.5476 -173.1   4.343   81.7  0.0892   56.4  0.2173  -72.0
 0.800  0.5488 -174.1   4.232   81.0  0.0907   56.7  0.2146  -72.4
 0.820  0.5477 -174.9   4.140   80.4  0.0923   57.0  0.2125  -72.6
 0.840  0.5467 -175.7   4.049   79.8  0.0940   57.3  0.2103  -72.9
 0.860  0.5458 -176.5   3.958   79.2  0.0956   57.6  0.2082  -73.1
 0.880  0.5450 -177.3   3.867   78.6  0.0973   57.8  0.2060  -73.4
 0.900  0.5443 -178.1   3.777   77.9  0.0989   58.1  0.2039  -73.6
 0.920  0.5456 -178.8   3.707   77.4  0.1004   58.4  0.2027  -73.9
 0.940  0.5471 -179.6   3.638   76.8  0.1019   58.6  0.2015  -74.3
 0.960  0.5486  179.7   3.568   76.2  0.1035   58.8  0.2003  -74.6
 0.980  0.5502  178.9   3.499   75.6  0.1050   59.1  0.1992  -75.0
 1.000  0.5519  178.2   3.431   75.0  0.1065   59.3  0.1980  -75.3
 1.020  0.5516  177.6   3.375   74.6  0.1081   59.5  0.1969  -75.7
 1.040  0.5513  176.9   3.320   74.1  0.1098   59.7  0.1959  -76.1
 1.060  0.5511  176.3   3.264   73.6  0.1114   59.8  0.1948  -76.5
 1.080  0.5510  175.6   3.209   73.2  0.1130   60.0  0.1938  -76.9
 1.100  0.5510  175.0   3.154   72.7  0.1147   60.2  0.1927  -77.3
 1.120  0.5510  174.4   3.100   72.2  0.1163   60.3  0.1917  -77.7
 1.140  0.5511  173.7   3.045   71.6  0.1180   60.5  0.1907  -78.1
 1.160  0.5513  173.1   2.991   71.1  0.1196   60.6  0.1897  -78.5
 1.180  0.5515  172.4   2.938   70.5  0.1213   60.8  0.1887  -79.0
 1.200  0.5518  171.8   2.884   69.9  0.1229   60.9  0.1877  -79.4
 1.220  0.5524  171.3   2.845   69.5  0.1246   61.0  0.1874  -79.8
 1.240  0.5531  170.7   2.806   69.0  0.1263   61.1  0.1871  -80.2
 1.260  0.5538  170.2   2.767   68.6  0.1280   61.3  0.1868  -80.6
 1.280  0.5545  169.7   2.728   68.1  0.1297   61.4  0.1865  -80.9
 1.300  0.5554  169.1   2.689   67.7  0.1313   61.5  0.1862  -81.3
 1.320  0.5562  168.6   2.651   67.2  0.1330   61.6  0.1859  -81.7
 1.340  0.5571  168.1   2.612   66.7  0.1347   61.7  0.1856  -82.1
 1.360  0.5581  167.5   2.574   66.2  0.1364   61.8  0.1854  -82.5
 1.380  0.5591  167.0   2.537   65.6  0.1381   61.9  0.1851  -82.9
 1.400  0.5601  166.5   2.499   65.1  0.1398   62.0  0.1849  -83.3
 1.420  0.5610  166.1   2.469   64.7  0.1415   62.1  0.1849  -83.8
 1.440  0.5620  165.7   2.439   64.2  0.1432   62.1  0.1849  -84.3
 1.460  0.5630  165.3   2.409   63.8  0.1448   62.2  0.1849  -84.7
 1.480  0.5640  164.9   2.379   63.3  0.1465   62.2  0.1849  -85.2
 1.500  0.5651  164.5   2.349   62.8  0.1482   62.3  0.1849  -85.7
 1.520  0.5646  163.9   2.323   62.4  0.1501   62.3  0.1847  -86.0
 1.540  0.5642  163.3   2.296   62.0  0.1519   62.3  0.1846  -86.3
 1.560  0.5638  162.7   2.270   61.5  0.1538   62.4  0.1844  -86.7
 1.580  0.5635  162.1   2.244   61.1  0.1556   62.4  0.1842  -87.0
 1.600  0.5632  161.5   2.218   60.6  0.1575   62.4  0.1841  -87.3
 1.620  0.5636  161.1   2.195   60.2  0.1593   62.4  0.1844  -87.7
 1.640  0.5641  160.6   2.173   59.8  0.1611   62.5  0.1847  -88.2
 1.660  0.5646  160.2   2.150   59.4  0.1629   62.5  0.1850  -88.6
 1.680  0.5651  159.8   2.128   58.9  0.1647   62.5  0.1853  -89.1
 1.700  0.5657  159.3   2.106   58.5  0.1664   62.6  0.1857  -89.5
 1.720  0.5663  158.9   2.084   58.1  0.1682   62.6  0.1860  -90.0
 1.740  0.5669  158.5   2.062   57.6  0.1700   62.6  0.1864  -90.4
 1.760  0.5676  158.1   2.040   57.2  0.1718   62.6  0.1867  -90.8
 1.780  0.5683  157.6   2.019   56.7  0.1736   62.7  0.1871  -91.3
 1.800  0.5690  157.2   1.997   56.2  0.1754   62.7  0.1875  -91.7
 1.820  0.5689  156.7   1.979   55.8  0.1772   62.7  0.1880  -92.1
 1.840  0.5689  156.3   1.962   55.4  0.1790   62.7  0.1886  -92.5
 1.860  0.5689  155.8   1.944   55.0  0.1809   62.7  0.1891  -93.0
 1.880  0.5689  155.4   1.927   54.6  0.1827   62.7  0.1897  -93.4
 1.900  0.5690  154.9   1.910   54.2  0.1845   62.6  0.1903  -93.8
 1.920  0.5691  154.5   1.893   53.8  0.1863   62.6  0.1909  -94.2
 1.940  0.5692  154.0   1.876   53.4  0.1881   62.6  0.1915  -94.6
 1.960  0.5694  153.6   1.859   53.0  0.1900   62.6  0.1921  -95.0
 1.980  0.5696  153.1   1.842   52.5  0.1918   62.6  0.1927  -95.4
 2.000  0.5698  152.7   1.825   52.1  0.1936   62.6  0.1933  -95.8
 2.020  0.5700  152.3   1.810   51.8  0.1955   62.6  0.1939  -96.2
 2.040  0.5702  151.9   1.796   51.4  0.1974   62.5  0.1945  -96.5
 2.060  0.5704  151.5   1.781   51.1  0.1993   62.5  0.1950  -96.9
 2.080  0.5706  151.1   1.767   50.7  0.2012   62.4  0.1956  -97.3
 2.100  0.5709  150.7   1.753   50.3  0.2030   62.4  0.1963  -97.6
 2.120  0.5712  150.4   1.738   50.0  0.2049   62.4  0.1969  -98.0
 2.140  0.5716  150.0   1.724   49.6  0.2068   62.3  0.1975  -98.3
 2.160  0.5719  149.6   1.710   49.2  0.2087   62.3  0.1981  -98.7
 2.180  0.5723  149.2   1.696   48.8  0.2106   62.2  0.1988  -99.1
 2.200  0.5727  148.8   1.682   48.4  0.2125   62.2  0.1994  -99.4
 2.220  0.5732  148.4   1.670   48.1  0.2144   62.1  0.2002  -99.9
 2.240  0.5737  148.0   1.658   47.7  0.2163   62.1  0.2011 -100.3
 2.260  0.5742  147.7   1.647   47.3  0.2182   62.0  0.2019 -100.8
 2.280  0.5747  147.3   1.635   47.0  0.2201   61.9  0.2028 -101.2
 2.300  0.5753  146.9   1.624   46.6  0.2220   61.8  0.2036 -101.7
 2.320  0.5759  146.5   1.612   46.2  0.2239   61.8  0.2045 -102.1
 2.340  0.5765  146.1   1.601   45.9  0.2258   61.7  0.2054 -102.6
 2.360  0.5771  145.8   1.589   45.5  0.2277   61.6  0.2063 -103.0
 2.380  0.5778  145.4   1.578   45.1  0.2296   61.6  0.2073 -103.5
 2.400  0.5785  145.0   1.567   44.7  0.2315   61.5  0.2082 -103.9
 2.420  0.5785  144.6   1.555   44.3  0.2334   61.4  0.2088 -104.2
 2.440  0.5786  144.2   1.544   44.0  0.2354   61.3  0.2093 -104.5
 2.460  0.5787  143.8   1.532   43.6  0.2373   61.3  0.2099 -104.7
 2.480  0.5788  143.4   1.520   43.2  0.2393   61.2  0.2105 -105.0
 2.500  0.5790  143.0   1.509   42.8  0.2412   61.1  0.2111 -105.3
 2.520  0.5795  142.6   1.500   42.5  0.2431   61.0  0.2119 -105.7
 2.540  0.5799  142.3   1.492   42.2  0.2451   60.9  0.2127 -106.2
 2.560  0.5804  141.9   1.483   41.9  0.2470   60.7  0.2135 -106.6
 2.580  0.5810  141.6   1.475   41.7  0.2489   60.6  0.2143 -107.1
 2.600  0.5815  141.2   1.467   41.4  0.2509   60.5  0.2152 -107.5
 2.620  0.5821  140.8   1.458   41.1  0.2528   60.4  0.2160 -107.9
 2.640  0.5827  140.5   1.450   40.8  0.2547   60.3  0.2169 -108.3
 2.660  0.5833  140.1   1.442   40.5  0.2567   60.2  0.2178 -108.8
 2.680  0.5839  139.8   1.433   40.1  0.2586   60.1  0.2187 -109.2
 2.700  0.5846  139.4   1.425   39.8  0.2605   60.0  0.2196 -109.6
 2.720  0.5853  139.1   1.417   39.5  0.2625   59.9  0.2205 -110.0
 2.740  0.5860  138.7   1.409   39.2  0.2644   59.8  0.2214 -110.4
 2.760  0.5867  138.4   1.401   38.9  0.2664   59.7  0.2224 -110.8
 2.780  0.5874  138.0   1.393   38.6  0.2683   59.6  0.2233 -111.2
 2.800  0.5882  137.7   1.385   38.2  0.2702   59.5  0.2243 -111.6
 2.820  0.5890  137.3   1.377   37.9  0.2722   59.4  0.2252 -112.0
 2.840  0.5898  137.0   1.369   37.5  0.2741   59.3  0.2262 -112.4
 2.860  0.5906  136.6   1.361   37.2  0.2761   59.2  0.2272 -112.8
 2.880  0.5915  136.3   1.354   36.9  0.2780   59.1  0.2282 -113.2
 2.900  0.5924  135.9   1.346   36.5  0.2800   59.0  0.2292 -113.5
 2.920  0.5933  135.6   1.338   36.2  0.2819   58.9  0.2302 -113.9
 2.940  0.5942  135.2   1.331   35.8  0.2839   58.9  0.2313 -114.3
 2.960  0.5951  134.9   1.323   35.4  0.2858   58.8  0.2323 -114.7
 2.980  0.5961  134.5   1.315   35.1  0.2878   58.7  0.2333 -115.0
 3.000  0.5971  134.2   1.308   34.7  0.2897   58.6  0.2344 -115.4
 3.100  0.5974  132.6   1.278   33.4  0.2998   57.8  0.2397 -117.9
 3.200  0.5981  130.9   1.249   32.0  0.3100   57.0  0.2455 -120.2
 3.300  0.5994  129.3   1.220   30.5  0.3203   56.3  0.2516 -122.4
 3.400  0.6011  127.7   1.193   29.0  0.3306   55.6  0.2581 -124.6
 3.500  0.6033  126.1   1.166   27.4  0.3409   55.0  0.2650 -126.6
 3.600  0.6062  124.3   1.143   26.3  0.3502   54.1  0.2698 -128.9
 3.700  0.6096  122.5   1.121   25.1  0.3597   53.2  0.2749 -131.0
 3.800  0.6136  120.7   1.099   23.8  0.3692   52.4  0.2805 -133.2
 3.900  0.6182  119.0   1.078   22.5  0.3787   51.6  0.2864 -135.2
 4.000  0.6234  117.3   1.057   21.2  0.3884   50.8  0.2926 -137.1
 4.100  0.6239  115.9   1.038   20.3  0.3971   49.9  0.2973 -139.6
 4.200  0.6248  114.4   1.019   19.3  0.4059   49.0  0.3025 -142.0
 4.300  0.6261  113.0   1.001   18.3  0.4148   48.2  0.3082 -144.3
 4.400  0.6278  111.6   0.983   17.3  0.4238   47.4  0.3144 -146.5
 4.500  0.6299  110.2   0.965   16.2  0.4329   46.6  0.3210 -148.6
 4.600  0.6330  108.9   0.953   15.2  0.4416   45.6  0.3239 -150.9
 4.700  0.6364  107.6   0.941   14.2  0.4505   44.7  0.3272 -153.1
 4.800  0.6401  106.3   0.929   13.2  0.4594   43.8  0.3311 -155.2
 4.900  0.6441  105.0   0.917   12.2  0.4685   42.9  0.3354 -157.3
 5.000  0.6485  103.8   0.906   11.1  0.4777   42.1  0.3401 -159.4
 5.100  0.6488  102.3   0.894   10.3  0.4857   41.1  0.3426 -161.3
 5.200  0.6496  100.9   0.882    9.4  0.4939   40.2  0.3455 -163.2
 5.300  0.6508   99.4   0.871    8.6  0.5022   39.3  0.3487 -165.1
 5.400  0.6524   97.9   0.859    7.7  0.5106   38.4  0.3523 -166.9
 5.500  0.6544   96.5   0.848    6.8  0.5191   37.6  0.3563 -168.7
 5.600  0.6522   95.2   0.838    6.2  0.5267   36.6  0.3584 -170.1
 5.700  0.6504   93.8   0.828    5.5  0.5345   35.6  0.3606 -171.6
 5.800  0.6489   92.5   0.818    4.8  0.5425   34.6  0.3632 -173.0
 5.900  0.6478   91.2   0.809    4.1  0.5506   33.6  0.3659 -174.3
 6.000  0.6470   89.8   0.799    3.4  0.5589   32.7  0.3688 -175.7
!
!  f       NFmin   Gammaopt  rn/50
! GHz       dB    MAG  ANG    -
 0.450      1.30  0.22  143   0.11
 0.900      1.30  0.34  160   0.11
 1.800      2.05  0.54 -153   0.14
!
! (c) 2015  Infineon Technologies AG, Munich
