! Infineon Technologies  Discrete & RF Semiconductors
! BFR193W
! VCE =  3.0 V,  IC =  40 mA
! Common Emitter S-Parameters:                            Nov 2015
# GHz  S  MA  R  50
!  f         S11            S21            S12            S22
! GHz     MAG   ANG      MAG   ANG      MAG   ANG      MAG   ANG
 0.100  0.4569 -122.2  32.177  121.4  0.0202   60.0  0.5249  -57.8
 0.105  0.4563 -124.1  31.271  120.6  0.0207   60.1  0.5107  -58.6
 0.110  0.4563 -126.0  30.371  119.8  0.0212   60.1  0.4966  -59.4
 0.115  0.4567 -128.0  29.478  118.9  0.0218   60.2  0.4827  -60.2
 0.120  0.4577 -129.9  28.593  117.9  0.0223   60.2  0.4688  -61.1
 0.125  0.4592 -131.8  27.715  116.9  0.0228   60.3  0.4551  -62.1
 0.130  0.4611 -133.7  26.847  115.9  0.0233   60.3  0.4414  -63.1
 0.135  0.4636 -135.5  25.989  114.7  0.0238   60.4  0.4280  -64.1
 0.140  0.4666 -137.4  25.142  113.5  0.0244   60.4  0.4147  -65.3
 0.145  0.4700 -139.2  24.307  112.2  0.0249   60.5  0.4015  -66.5
 0.150  0.4739 -141.0  23.486  110.8  0.0254   60.5  0.3886  -67.8
 0.155  0.4743 -142.0  22.957  110.3  0.0258   60.7  0.3805  -68.3
 0.160  0.4748 -143.0  22.431  109.7  0.0263   61.0  0.3725  -68.8
 0.165  0.4754 -144.0  21.906  109.1  0.0267   61.2  0.3645  -69.4
 0.170  0.4762 -145.0  21.384  108.5  0.0271   61.4  0.3565  -70.0
 0.175  0.4772 -146.1  20.864  107.9  0.0275   61.6  0.3486  -70.6
 0.180  0.4783 -147.1  20.347  107.2  0.0280   61.8  0.3407  -71.2
 0.185  0.4795 -148.0  19.833  106.5  0.0284   62.0  0.3328  -71.9
 0.190  0.4809 -149.0  19.322  105.8  0.0288   62.1  0.3250  -72.6
 0.195  0.4824 -150.0  18.815  105.0  0.0293   62.3  0.3173  -73.3
 0.200  0.4841 -151.0  18.311  104.2  0.0297   62.5  0.3096  -74.1
 0.220  0.4847 -153.8  16.946  102.7  0.0318   63.3  0.2880  -75.8
 0.240  0.4864 -156.6  15.596  100.8  0.0339   64.0  0.2667  -77.9
 0.260  0.4876 -159.0  14.461   99.2  0.0358   64.7  0.2495  -79.5
 0.280  0.4878 -161.1  13.532   97.9  0.0377   65.5  0.2362  -80.6
 0.300  0.4887 -163.2  12.611   96.4  0.0396   66.2  0.2230  -81.9
 0.320  0.4902 -164.7  11.994   95.6  0.0416   66.8  0.2139  -82.8
 0.340  0.4919 -166.2  11.379   94.7  0.0435   67.4  0.2048  -83.7
 0.360  0.4941 -167.7  10.768   93.7  0.0455   68.0  0.1959  -84.7
 0.380  0.4965 -169.1  10.160   92.6  0.0474   68.4  0.1869  -85.9
 0.400  0.4993 -170.6   9.556   91.4  0.0494   68.9  0.1781  -87.1
 0.420  0.4997 -171.6   9.183   90.8  0.0515   69.2  0.1730  -87.8
 0.440  0.5002 -172.6   8.810   90.1  0.0536   69.6  0.1678  -88.6
 0.450  0.5005 -173.1   8.625   89.7  0.0547   69.7  0.1653  -88.9
 0.460  0.5008 -173.5   8.440   89.3  0.0558   69.9  0.1628  -89.4
 0.480  0.5016 -174.5   8.070   88.5  0.0579   70.1  0.1577  -90.2
 0.500  0.5026 -175.5   7.703   87.6  0.0600   70.4  0.1527  -91.1
 0.520  0.5029 -176.3   7.451   87.0  0.0621   70.6  0.1498  -91.9
 0.540  0.5033 -177.2   7.200   86.4  0.0641   70.8  0.1468  -92.7
 0.560  0.5038 -178.0   6.950   85.8  0.0662   71.0  0.1440  -93.6
 0.580  0.5044 -178.9   6.701   85.1  0.0682   71.1  0.1411  -94.5
 0.600  0.5051 -179.7   6.453   84.3  0.0703   71.3  0.1383  -95.4
 0.620  0.5053  179.6   6.267   83.8  0.0724   71.4  0.1364  -95.9
 0.640  0.5056  179.0   6.082   83.2  0.0744   71.5  0.1346  -96.5
 0.660  0.5060  178.3   5.897   82.6  0.0765   71.6  0.1327  -97.0
 0.680  0.5064  177.7   5.713   82.0  0.0785   71.6  0.1309  -97.6
 0.700  0.5069  177.0   5.530   81.3  0.0806   71.7  0.1291  -98.2
 0.720  0.5081  176.4   5.397   80.8  0.0827   71.7  0.1280  -98.8
 0.740  0.5093  175.8   5.265   80.3  0.0847   71.7  0.1270  -99.5
 0.760  0.5106  175.1   5.133   79.8  0.0868   71.8  0.1259 -100.1
 0.780  0.5120  174.5   5.001   79.3  0.0888   71.8  0.1249 -100.8
 0.800  0.5134  173.9   4.870   78.7  0.0909   71.8  0.1239 -101.5
 0.820  0.5129  173.4   4.763   78.2  0.0931   71.8  0.1228 -102.0
 0.840  0.5125  172.8   4.657   77.8  0.0953   71.8  0.1218 -102.4
 0.860  0.5121  172.3   4.550   77.3  0.0974   71.7  0.1208 -102.9
 0.880  0.5118  171.7   4.444   76.7  0.0996   71.7  0.1197 -103.4
 0.900  0.5115  171.2   4.339   76.2  0.1018   71.7  0.1187 -103.9
 0.920  0.5123  170.7   4.258   75.7  0.1039   71.6  0.1184 -104.3
 0.940  0.5131  170.2   4.176   75.3  0.1060   71.6  0.1182 -104.8
 0.960  0.5139  169.6   4.096   74.8  0.1080   71.5  0.1180 -105.2
 0.980  0.5148  169.1   4.015   74.2  0.1101   71.5  0.1177 -105.7
 1.000  0.5157  168.6   3.935   73.7  0.1122   71.4  0.1175 -106.1
 1.020  0.5158  168.1   3.871   73.3  0.1143   71.3  0.1172 -106.7
 1.040  0.5158  167.6   3.807   73.0  0.1163   71.2  0.1170 -107.3
 1.060  0.5160  167.2   3.743   72.6  0.1184   71.1  0.1167 -107.8
 1.080  0.5161  166.7   3.680   72.2  0.1204   71.0  0.1165 -108.4
 1.100  0.5163  166.2   3.617   71.8  0.1225   71.0  0.1162 -109.0
 1.120  0.5166  165.7   3.553   71.4  0.1246   70.9  0.1160 -109.6
 1.140  0.5169  165.2   3.491   70.9  0.1266   70.8  0.1158 -110.2
 1.160  0.5172  164.8   3.428   70.5  0.1287   70.7  0.1156 -110.8
 1.180  0.5175  164.3   3.365   70.0  0.1307   70.7  0.1155 -111.4
 1.200  0.5179  163.8   3.303   69.5  0.1328   70.6  0.1153 -112.0
 1.220  0.5184  163.4   3.258   69.1  0.1349   70.5  0.1154 -112.4
 1.240  0.5189  163.0   3.213   68.8  0.1369   70.4  0.1156 -112.8
 1.260  0.5194  162.6   3.168   68.4  0.1390   70.2  0.1158 -113.2
 1.280  0.5200  162.1   3.123   68.0  0.1410   70.1  0.1159 -113.6
 1.300  0.5206  161.7   3.078   67.6  0.1431   70.0  0.1161 -114.0
 1.320  0.5212  161.3   3.033   67.1  0.1452   69.9  0.1163 -114.4
 1.340  0.5219  160.9   2.989   66.7  0.1472   69.8  0.1164 -114.8
 1.360  0.5226  160.5   2.945   66.2  0.1493   69.7  0.1166 -115.2
 1.380  0.5233  160.1   2.901   65.8  0.1513   69.6  0.1168 -115.6
 1.400  0.5240  159.7   2.857   65.3  0.1534   69.5  0.1170 -116.0
 1.420  0.5249  159.4   2.822   64.9  0.1554   69.4  0.1174 -116.5
 1.440  0.5259  159.1   2.787   64.6  0.1575   69.3  0.1179 -117.0
 1.460  0.5269  158.7   2.752   64.2  0.1595   69.2  0.1184 -117.5
 1.480  0.5279  158.4   2.718   63.8  0.1616   69.1  0.1188 -117.9
 1.500  0.5289  158.1   2.683   63.4  0.1636   69.0  0.1193 -118.4
 1.520  0.5289  157.6   2.653   63.0  0.1657   68.9  0.1193 -118.7
 1.540  0.5290  157.1   2.623   62.6  0.1678   68.7  0.1194 -119.0
 1.560  0.5291  156.6   2.593   62.2  0.1698   68.6  0.1194 -119.4
 1.580  0.5292  156.1   2.563   61.7  0.1719   68.4  0.1195 -119.7
 1.600  0.5294  155.6   2.533   61.3  0.1740   68.3  0.1195 -120.0
 1.620  0.5303  155.3   2.507   61.0  0.1760   68.2  0.1201 -120.4
 1.640  0.5312  154.9   2.481   60.6  0.1781   68.0  0.1206 -120.7
 1.660  0.5321  154.6   2.456   60.2  0.1801   67.9  0.1212 -121.1
 1.680  0.5331  154.2   2.430   59.9  0.1822   67.7  0.1218 -121.5
 1.700  0.5341  153.9   2.405   59.5  0.1842   67.6  0.1223 -121.8
 1.720  0.5351  153.5   2.379   59.1  0.1863   67.5  0.1229 -122.2
 1.740  0.5361  153.2   2.354   58.7  0.1883   67.4  0.1235 -122.6
 1.760  0.5371  152.9   2.329   58.3  0.1904   67.2  0.1241 -122.9
 1.780  0.5381  152.5   2.304   57.9  0.1924   67.1  0.1247 -123.3
 1.800  0.5392  152.2   2.279   57.5  0.1945   67.0  0.1253 -123.6
 1.820  0.5386  151.8   2.258   57.2  0.1965   66.8  0.1259 -123.9
 1.840  0.5381  151.4   2.238   56.8  0.1985   66.7  0.1266 -124.2
 1.860  0.5376  151.0   2.218   56.4  0.2005   66.5  0.1272 -124.4
 1.880  0.5371  150.6   2.197   56.1  0.2024   66.4  0.1278 -124.7
 1.900  0.5366  150.3   2.177   55.7  0.2044   66.2  0.1285 -125.0
 1.920  0.5362  149.9   2.157   55.3  0.2064   66.1  0.1291 -125.3
 1.940  0.5358  149.5   2.137   54.9  0.2084   65.9  0.1298 -125.5
 1.960  0.5354  149.1   2.117   54.5  0.2104   65.8  0.1304 -125.8
 1.980  0.5350  148.7   2.098   54.1  0.2124   65.6  0.1310 -126.0
 2.000  0.5347  148.3   2.078   53.7  0.2144   65.5  0.1317 -126.3
 2.020  0.5349  147.9   2.061   53.4  0.2164   65.3  0.1323 -126.5
 2.040  0.5352  147.6   2.045   53.0  0.2184   65.2  0.1329 -126.8
 2.060  0.5354  147.2   2.028   52.7  0.2204   65.0  0.1335 -127.0
 2.080  0.5357  146.9   2.012   52.4  0.2224   64.8  0.1341 -127.2
 2.100  0.5360  146.5   1.996   52.0  0.2244   64.7  0.1347 -127.4
 2.120  0.5364  146.2   1.979   51.7  0.2264   64.5  0.1353 -127.6
 2.140  0.5367  145.8   1.963   51.3  0.2284   64.4  0.1359 -127.9
 2.160  0.5371  145.5   1.947   50.9  0.2304   64.2  0.1366 -128.1
 2.180  0.5375  145.1   1.931   50.6  0.2324   64.0  0.1372 -128.3
 2.200  0.5379  144.8   1.915   50.2  0.2344   63.9  0.1378 -128.5
 2.220  0.5383  144.5   1.902   49.9  0.2364   63.7  0.1386 -128.8
 2.240  0.5387  144.2   1.888   49.6  0.2384   63.6  0.1395 -129.1
 2.260  0.5391  143.9   1.875   49.2  0.2404   63.4  0.1403 -129.3
 2.280  0.5396  143.6   1.862   48.9  0.2425   63.2  0.1411 -129.6
 2.300  0.5400  143.3   1.849   48.6  0.2445   63.1  0.1420 -129.9
 2.320  0.5405  143.0   1.836   48.2  0.2465   62.9  0.1428 -130.2
 2.340  0.5410  142.7   1.823   47.9  0.2485   62.8  0.1436 -130.4
 2.360  0.5415  142.4   1.810   47.5  0.2505   62.6  0.1445 -130.7
 2.380  0.5420  142.1   1.798   47.2  0.2526   62.4  0.1453 -130.9
 2.400  0.5425  141.8   1.785   46.8  0.2546   62.3  0.1462 -131.2
 2.420  0.5422  141.4   1.771   46.5  0.2565   62.2  0.1466 -131.4
 2.440  0.5419  141.0   1.757   46.2  0.2584   62.0  0.1470 -131.6
 2.460  0.5416  140.6   1.743   45.9  0.2602   61.9  0.1473 -131.8
 2.480  0.5413  140.2   1.730   45.5  0.2621   61.7  0.1477 -132.0
 2.500  0.5411  139.8   1.716   45.2  0.2640   61.6  0.1481 -132.2
 2.520  0.5416  139.5   1.706   44.9  0.2659   61.4  0.1489 -132.5
 2.540  0.5422  139.1   1.697   44.6  0.2677   61.2  0.1497 -132.7
 2.560  0.5427  138.8   1.687   44.4  0.2696   61.0  0.1505 -133.0
 2.580  0.5433  138.4   1.677   44.1  0.2715   60.8  0.1513 -133.3
 2.600  0.5439  138.1   1.668   43.8  0.2734   60.6  0.1521 -133.5
 2.620  0.5445  137.8   1.658   43.5  0.2752   60.4  0.1530 -133.8
 2.640  0.5451  137.4   1.649   43.2  0.2771   60.2  0.1538 -134.0
 2.660  0.5458  137.1   1.640   42.9  0.2790   60.1  0.1546 -134.3
 2.680  0.5465  136.7   1.630   42.6  0.2809   59.9  0.1554 -134.5
 2.700  0.5472  136.4   1.621   42.3  0.2828   59.7  0.1562 -134.8
 2.720  0.5479  136.1   1.612   42.0  0.2847   59.5  0.1571 -135.0
 2.740  0.5486  135.7   1.602   41.7  0.2866   59.4  0.1579 -135.3
 2.760  0.5493  135.4   1.593   41.4  0.2885   59.2  0.1588 -135.5
 2.780  0.5501  135.1   1.584   41.1  0.2904   59.0  0.1596 -135.8
 2.800  0.5509  134.8   1.575   40.7  0.2923   58.9  0.1604 -136.0
 2.820  0.5517  134.4   1.566   40.4  0.2942   58.7  0.1613 -136.2
 2.840  0.5525  134.1   1.557   40.1  0.2961   58.5  0.1621 -136.4
 2.860  0.5533  133.8   1.548   39.7  0.2980   58.4  0.1630 -136.7
 2.880  0.5542  133.4   1.539   39.4  0.3000   58.2  0.1638 -136.9
 2.900  0.5551  133.1   1.530   39.1  0.3019   58.1  0.1647 -137.1
 2.920  0.5560  132.8   1.522   38.7  0.3038   57.9  0.1655 -137.3
 2.940  0.5569  132.5   1.513   38.4  0.3057   57.7  0.1664 -137.6
 2.960  0.5578  132.1   1.504   38.0  0.3076   57.6  0.1673 -137.8
 2.980  0.5587  131.8   1.496   37.7  0.3096   57.4  0.1681 -138.0
 3.000  0.5597  131.5   1.487   37.3  0.3115   57.3  0.1690 -138.2
 3.100  0.5604  130.1   1.453   36.0  0.3207   56.3  0.1746 -139.9
 3.200  0.5614  128.8   1.420   34.6  0.3299   55.4  0.1804 -141.5
 3.300  0.5627  127.5   1.388   33.2  0.3392   54.5  0.1863 -143.0
 3.400  0.5643  126.1   1.357   31.7  0.3486   53.7  0.1923 -144.4
 3.500  0.5662  124.8   1.327   30.1  0.3581   52.9  0.1984 -145.7
 3.600  0.5687  123.1   1.302   28.9  0.3663   51.9  0.2033 -147.4
 3.700  0.5716  121.5   1.277   27.6  0.3746   50.9  0.2083 -149.0
 3.800  0.5750  119.9   1.253   26.3  0.3830   50.0  0.2135 -150.5
 3.900  0.5789  118.3   1.230   25.0  0.3914   49.1  0.2189 -152.0
 4.000  0.5832  116.7   1.207   23.6  0.4000   48.3  0.2244 -153.4
 4.100  0.5846  115.2   1.186   22.6  0.4074   47.4  0.2295 -155.5
 4.200  0.5864  113.8   1.166   21.6  0.4149   46.5  0.2348 -157.4
 4.300  0.5886  112.3   1.146   20.5  0.4225   45.7  0.2404 -159.3
 4.400  0.5911  110.9   1.126   19.4  0.4302   44.9  0.2463 -161.1
 4.500  0.5940  109.5   1.107   18.2  0.4380   44.1  0.2524 -162.8
 4.600  0.5978  108.4   1.093   17.1  0.4454   43.2  0.2557 -164.7
 4.700  0.6019  107.4   1.079   16.0  0.4530   42.3  0.2593 -166.5
 4.800  0.6061  106.3   1.065   14.9  0.4607   41.4  0.2632 -168.3
 4.900  0.6106  105.3   1.052   13.8  0.4684   40.5  0.2673 -170.0
 5.000  0.6152  104.3   1.039   12.6  0.4763   39.7  0.2716 -171.7
 5.100  0.6152  102.8   1.025   11.7  0.4831   38.8  0.2740 -173.2
 5.200  0.6156  101.3   1.011   10.7  0.4900   37.9  0.2767 -174.7
 5.300  0.6165   99.8   0.997    9.7  0.4970   37.1  0.2795 -176.2
 5.400  0.6177   98.4   0.983    8.7  0.5042   36.3  0.2825 -177.7
 5.500  0.6194   96.9   0.970    7.7  0.5114   35.5  0.2857 -179.1
 5.600  0.6195   95.8   0.959    6.8  0.5181   34.6  0.2877  180.0
 5.700  0.6198   94.7   0.948    5.9  0.5249   33.7  0.2897  179.0
 5.800  0.6204   93.5   0.937    5.0  0.5318   32.8  0.2918  178.1
 5.900  0.6212   92.4   0.926    4.1  0.5389   31.9  0.2940  177.2
 6.000  0.6223   91.3   0.916    3.1  0.5461   31.1  0.2963  176.3
!
!  f       NFmin   Gammaopt  rn/50
! GHz       dB    MAG  ANG    -
!
! noise parameter not available yet for this operation point!
!
! (c) 2015  Infineon Technologies AG, Munich
