! Infineon Technologies  Discrete & RF Semiconductors
! BFR182
! VCE =  10. V,  IC =  4.5 mA
! Common Emitter S-Parameters:                            Nov 2015
# GHz  S  MA  R  50
!  f         S11            S21            S12            S22
! GHz     MAG   ANG      MAG   ANG      MAG   ANG      MAG   ANG
 0.010  0.8751   -2.1  13.028  177.7  0.0017   86.1  0.9881   -1.0
 0.015  0.8703   -3.0  13.035  176.6  0.0026   88.4  0.9831   -1.5
 0.020  0.8657   -4.0  13.047  175.6  0.0036   89.5  0.9781   -2.0
 0.025  0.8646   -5.1  13.046  174.7  0.0046   87.0  0.9780   -2.5
 0.030  0.8638   -6.2  13.049  173.8  0.0056   85.4  0.9780   -3.0
 0.035  0.8633   -7.2  13.054  172.8  0.0066   84.3  0.9780   -3.6
 0.040  0.8631   -8.3  13.064  171.9  0.0076   83.5  0.9782   -4.1
 0.045  0.8633   -9.4  13.076  171.0  0.0086   82.9  0.9784   -4.6
 0.050  0.8637  -10.5  13.092  170.1  0.0096   82.4  0.9787   -5.1
 0.055  0.8601  -11.5  13.023  169.3  0.0105   81.7  0.9762   -5.6
 0.060  0.8568  -12.4  12.956  168.4  0.0114   81.1  0.9737   -6.0
 0.065  0.8537  -13.4  12.892  167.6  0.0123   80.5  0.9713   -6.5
 0.070  0.8509  -14.4  12.832  166.7  0.0132   80.1  0.9690   -6.9
 0.075  0.8483  -15.4  12.774  165.8  0.0141   79.7  0.9667   -7.4
 0.080  0.8460  -16.4  12.719  165.0  0.0151   79.3  0.9645   -7.8
 0.085  0.8440  -17.4  12.667  164.1  0.0160   79.0  0.9624   -8.3
 0.090  0.8422  -18.5  12.618  163.2  0.0169   78.8  0.9603   -8.8
 0.095  0.8407  -19.5  12.572  162.3  0.0178   78.5  0.9583   -9.2
 0.100  0.8394  -20.5  12.529  161.4  0.0187   78.3  0.9563   -9.7
 0.105  0.8330  -21.4  12.471  160.4  0.0196   77.6  0.9523  -10.1
 0.110  0.8268  -22.4  12.416  159.5  0.0204   77.0  0.9483  -10.6
 0.115  0.8208  -23.3  12.365  158.5  0.0213   76.4  0.9443  -11.0
 0.120  0.8151  -24.3  12.317  157.5  0.0221   75.8  0.9404  -11.4
 0.125  0.8096  -25.2  12.273  156.5  0.0230   75.3  0.9366  -11.9
 0.130  0.8043  -26.2  12.233  155.5  0.0238   74.9  0.9328  -12.3
 0.135  0.7993  -27.2  12.196  154.5  0.0247   74.4  0.9291  -12.7
 0.140  0.7945  -28.2  12.163  153.5  0.0256   74.0  0.9255  -13.2
 0.145  0.7900  -29.3  12.134  152.5  0.0264   73.7  0.9218  -13.6
 0.150  0.7857  -30.3  12.109  151.5  0.0273   73.3  0.9183  -14.1
 0.155  0.7805  -31.1  12.022  150.8  0.0280   72.9  0.9142  -14.4
 0.160  0.7755  -31.9  11.936  150.1  0.0288   72.6  0.9102  -14.8
 0.165  0.7706  -32.7  11.852  149.4  0.0295   72.2  0.9062  -15.1
 0.170  0.7659  -33.6  11.770  148.7  0.0302   71.9  0.9022  -15.4
 0.175  0.7613  -34.4  11.690  148.0  0.0309   71.6  0.8983  -15.8
 0.180  0.7569  -35.3  11.612  147.2  0.0317   71.3  0.8943  -16.1
 0.185  0.7527  -36.1  11.536  146.5  0.0324   71.1  0.8905  -16.4
 0.190  0.7487  -37.0  11.462  145.7  0.0331   70.8  0.8866  -16.8
 0.195  0.7448  -37.9  11.389  145.0  0.0339   70.5  0.8828  -17.1
 0.200  0.7411  -38.8  11.319  144.2  0.0346   70.3  0.8790  -17.5
 0.220  0.7176  -41.9  10.975  141.5  0.0371   68.8  0.8628  -18.5
 0.240  0.6964  -45.3  10.657  138.6  0.0395   67.5  0.8468  -19.6
 0.260  0.6738  -48.3  10.363  135.9  0.0419   66.4  0.8310  -20.6
 0.280  0.6491  -51.2  10.086  133.4  0.0440   65.6  0.8151  -21.5
 0.300  0.6262  -54.2   9.829  130.7  0.0461   64.8  0.7994  -22.4
 0.320  0.6047  -56.4   9.543  129.0  0.0479   64.0  0.7850  -22.9
 0.340  0.5842  -58.7   9.266  127.2  0.0497   63.3  0.7707  -23.5
 0.360  0.5647  -61.1   8.999  125.2  0.0515   62.7  0.7565  -24.0
 0.380  0.5463  -63.8   8.742  123.2  0.0533   62.1  0.7424  -24.6
 0.400  0.5291  -66.6   8.498  121.0  0.0551   61.5  0.7283  -25.2
 0.420  0.5133  -68.3   8.237  119.5  0.0566   61.2  0.7180  -25.5
 0.440  0.4979  -70.2   7.981  118.0  0.0581   60.9  0.7078  -25.8
 0.450  0.4905  -71.1   7.856  117.1  0.0588   60.8  0.7027  -26.0
 0.460  0.4831  -72.1   7.732  116.3  0.0596   60.6  0.6976  -26.1
 0.480  0.4689  -74.2   7.490  114.5  0.0611   60.4  0.6874  -26.5
 0.500  0.4554  -76.4   7.256  112.6  0.0626   60.1  0.6772  -26.8
 0.520  0.4421  -78.2   7.081  111.4  0.0640   59.9  0.6693  -27.0
 0.540  0.4293  -80.1   6.909  110.2  0.0655   59.7  0.6615  -27.1
 0.560  0.4169  -82.0   6.741  108.8  0.0669   59.5  0.6537  -27.3
 0.580  0.4051  -84.2   6.576  107.5  0.0684   59.3  0.6458  -27.5
 0.600  0.3939  -86.4   6.416  106.0  0.0698   59.1  0.6380  -27.7
 0.620  0.3822  -88.0   6.274  104.9  0.0711   59.2  0.6318  -27.8
 0.640  0.3708  -89.7   6.133  103.8  0.0723   59.2  0.6256  -27.9
 0.660  0.3597  -91.5   5.996  102.7  0.0736   59.3  0.6195  -28.1
 0.680  0.3491  -93.4   5.860  101.5  0.0748   59.3  0.6133  -28.2
 0.700  0.3388  -95.4   5.728  100.2  0.0761   59.4  0.6071  -28.3
 0.720  0.3301  -96.8   5.603   99.3  0.0775   59.3  0.6024  -28.4
 0.740  0.3216  -98.2   5.479   98.3  0.0789   59.3  0.5978  -28.4
 0.760  0.3134  -99.8   5.357   97.3  0.0802   59.2  0.5931  -28.5
 0.780  0.3054 -101.4   5.237   96.2  0.0816   59.2  0.5885  -28.5
 0.800  0.2976 -103.1   5.119   95.1  0.0830   59.1  0.5838  -28.6
 0.820  0.2902 -104.4   5.018   94.3  0.0843   59.2  0.5800  -28.7
 0.840  0.2829 -105.8   4.919   93.5  0.0856   59.4  0.5763  -28.8
 0.860  0.2759 -107.3   4.820   92.6  0.0870   59.5  0.5725  -28.9
 0.880  0.2690 -108.8   4.722   91.7  0.0883   59.6  0.5688  -29.0
 0.900  0.2623 -110.4   4.626   90.8  0.0896   59.7  0.5650  -29.1
 0.920  0.2572 -111.9   4.545   90.1  0.0908   59.7  0.5625  -29.2
 0.940  0.2523 -113.5   4.465   89.4  0.0921   59.7  0.5600  -29.3
 0.960  0.2476 -115.1   4.386   88.7  0.0933   59.8  0.5574  -29.5
 0.980  0.2431 -116.8   4.307   87.9  0.0946   59.8  0.5549  -29.6
 1.000  0.2388 -118.5   4.229   87.1  0.0958   59.8  0.5524  -29.7
 1.020  0.2340 -120.3   4.164   86.4  0.0971   59.8  0.5502  -29.8
 1.040  0.2294 -122.2   4.100   85.8  0.0985   59.9  0.5480  -29.9
 1.060  0.2250 -124.2   4.036   85.1  0.0998   59.9  0.5459  -30.0
 1.080  0.2210 -126.2   3.973   84.3  0.1012   60.0  0.5437  -30.1
 1.100  0.2172 -128.3   3.911   83.6  0.1025   60.0  0.5415  -30.2
 1.120  0.2127 -129.9   3.853   82.9  0.1039   60.1  0.5395  -30.4
 1.140  0.2083 -131.6   3.795   82.2  0.1052   60.1  0.5375  -30.5
 1.160  0.2041 -133.3   3.738   81.5  0.1066   60.2  0.5355  -30.7
 1.180  0.2001 -135.1   3.681   80.8  0.1079   60.2  0.5336  -30.8
 1.200  0.1963 -137.0   3.625   80.0  0.1093   60.3  0.5316  -31.0
 1.220  0.1935 -138.2   3.573   79.4  0.1107   60.3  0.5300  -31.1
 1.240  0.1907 -139.5   3.522   78.9  0.1122   60.3  0.5283  -31.3
 1.260  0.1881 -140.8   3.471   78.3  0.1136   60.4  0.5267  -31.4
 1.280  0.1855 -142.2   3.420   77.6  0.1151   60.4  0.5250  -31.6
 1.300  0.1831 -143.6   3.370   77.0  0.1165   60.4  0.5234  -31.7
 1.320  0.1803 -145.7   3.327   76.4  0.1178   60.5  0.5221  -31.9
 1.340  0.1777 -147.8   3.284   75.8  0.1192   60.5  0.5207  -32.1
 1.360  0.1754 -150.0   3.242   75.2  0.1205   60.6  0.5194  -32.2
 1.380  0.1734 -152.2   3.200   74.6  0.1219   60.6  0.5181  -32.4
 1.400  0.1716 -154.5   3.158   74.0  0.1232   60.7  0.5168  -32.6
 1.420  0.1705 -155.9   3.125   73.5  0.1247   60.7  0.5153  -32.8
 1.440  0.1694 -157.3   3.092   73.0  0.1263   60.7  0.5138  -32.9
 1.460  0.1685 -158.7   3.059   72.4  0.1278   60.8  0.5123  -33.1
 1.480  0.1677 -160.2   3.026   71.9  0.1294   60.8  0.5108  -33.2
 1.500  0.1670 -161.6   2.994   71.3  0.1309   60.8  0.5093  -33.4
 1.520  0.1662 -163.7   2.958   70.7  0.1324   60.8  0.5080  -33.6
 1.540  0.1657 -165.8   2.923   70.1  0.1338   60.7  0.5068  -33.8
 1.560  0.1653 -167.9   2.888   69.5  0.1353   60.7  0.5055  -33.9
 1.580  0.1652 -170.0   2.853   68.9  0.1367   60.6  0.5042  -34.1
 1.600  0.1653 -172.1   2.819   68.2  0.1382   60.6  0.5030  -34.3
 1.620  0.1645 -174.0   2.790   67.7  0.1396   60.6  0.5016  -34.5
 1.640  0.1638 -175.8   2.762   67.2  0.1411   60.7  0.5001  -34.7
 1.660  0.1633 -177.7   2.734   66.7  0.1425   60.7  0.4987  -34.8
 1.680  0.1630 -179.6   2.706   66.1  0.1440   60.8  0.4973  -35.0
 1.700  0.1629  178.5   2.678   65.6  0.1454   60.8  0.4959  -35.2
 1.720  0.1629  176.9   2.652   65.1  0.1470   60.7  0.4950  -35.5
 1.740  0.1631  175.2   2.627   64.7  0.1486   60.7  0.4940  -35.7
 1.760  0.1633  173.6   2.601   64.2  0.1501   60.6  0.4931  -36.0
 1.780  0.1638  171.9   2.576   63.7  0.1517   60.6  0.4922  -36.2
 1.800  0.1643  170.3   2.551   63.2  0.1533   60.5  0.4913  -36.5
 1.820  0.1654  168.9   2.529   62.7  0.1549   60.5  0.4904  -36.7
 1.840  0.1666  167.6   2.506   62.2  0.1564   60.4  0.4894  -37.0
 1.860  0.1679  166.2   2.484   61.7  0.1580   60.4  0.4885  -37.2
 1.880  0.1693  164.9   2.463   61.1  0.1595   60.3  0.4876  -37.5
 1.900  0.1708  163.6   2.441   60.6  0.1611   60.3  0.4867  -37.7
 1.920  0.1720  162.4   2.418   60.1  0.1627   60.2  0.4859  -37.9
 1.940  0.1732  161.3   2.396   59.6  0.1643   60.1  0.4852  -38.2
 1.960  0.1746  160.2   2.374   59.1  0.1660   60.1  0.4845  -38.4
 1.980  0.1759  159.1   2.352   58.6  0.1676   60.0  0.4837  -38.7
 2.000  0.1774  158.0   2.330   58.1  0.1692   59.9  0.4830  -38.9
 2.020  0.1779  156.7   2.312   57.7  0.1708   59.8  0.4815  -39.2
 2.040  0.1785  155.5   2.294   57.2  0.1724   59.8  0.4801  -39.4
 2.060  0.1791  154.3   2.277   56.8  0.1740   59.7  0.4787  -39.7
 2.080  0.1799  153.0   2.259   56.3  0.1756   59.6  0.4772  -40.0
 2.100  0.1807  151.8   2.242   55.8  0.1772   59.6  0.4758  -40.2
 2.120  0.1816  150.6   2.225   55.4  0.1789   59.5  0.4744  -40.5
 2.140  0.1826  149.4   2.208   54.9  0.1805   59.5  0.4730  -40.8
 2.160  0.1836  148.2   2.191   54.4  0.1821   59.4  0.4716  -41.0
 2.180  0.1848  147.1   2.175   53.9  0.1837   59.4  0.4703  -41.3
 2.200  0.1860  145.9   2.158   53.4  0.1853   59.3  0.4689  -41.6
 2.220  0.1878  144.8   2.143   53.0  0.1870   59.2  0.4678  -41.9
 2.240  0.1897  143.7   2.128   52.5  0.1886   59.1  0.4668  -42.2
 2.260  0.1917  142.6   2.114   52.1  0.1903   59.0  0.4658  -42.5
 2.280  0.1937  141.5   2.099   51.6  0.1919   58.9  0.4647  -42.8
 2.300  0.1958  140.5   2.085   51.1  0.1936   58.8  0.4637  -43.1
 2.320  0.1980  139.5   2.071   50.7  0.1953   58.7  0.4627  -43.4
 2.340  0.2002  138.5   2.056   50.2  0.1969   58.7  0.4618  -43.7
 2.360  0.2025  137.5   2.042   49.7  0.1986   58.6  0.4608  -44.0
 2.380  0.2048  136.5   2.029   49.2  0.2002   58.5  0.4598  -44.3
 2.400  0.2072  135.6   2.015   48.7  0.2019   58.4  0.4589  -44.6
 2.420  0.2093  134.7   2.002   48.3  0.2037   58.3  0.4572  -44.9
 2.440  0.2115  133.7   1.990   47.9  0.2054   58.2  0.4555  -45.2
 2.460  0.2137  132.8   1.977   47.5  0.2072   58.1  0.4539  -45.5
 2.480  0.2160  131.9   1.965   47.1  0.2090   57.9  0.4523  -45.9
 2.500  0.2183  131.1   1.953   46.7  0.2107   57.8  0.4506  -46.2
 2.520  0.2207  130.2   1.941   46.2  0.2125   57.7  0.4490  -46.5
 2.540  0.2231  129.4   1.928   45.8  0.2143   57.6  0.4474  -46.8
 2.560  0.2255  128.6   1.917   45.4  0.2161   57.5  0.4458  -47.1
 2.580  0.2280  127.8   1.905   44.9  0.2178   57.4  0.4443  -47.5
 2.600  0.2306  127.0   1.893   44.5  0.2196   57.3  0.4427  -47.8
 2.620  0.2325  126.3   1.882   44.1  0.2213   57.2  0.4416  -48.2
 2.640  0.2345  125.7   1.871   43.8  0.2229   57.0  0.4405  -48.5
 2.660  0.2365  125.1   1.860   43.4  0.2246   56.9  0.4394  -48.9
 2.680  0.2385  124.4   1.849   43.0  0.2262   56.8  0.4383  -49.2
 2.700  0.2405  123.8   1.838   42.6  0.2279   56.6  0.4373  -49.6
 2.720  0.2426  123.2   1.827   42.2  0.2295   56.5  0.4363  -49.9
 2.740  0.2447  122.6   1.816   41.8  0.2312   56.4  0.4352  -50.3
 2.760  0.2468  122.0   1.806   41.4  0.2329   56.2  0.4342  -50.7
 2.780  0.2489  121.5   1.795   41.0  0.2345   56.1  0.4333  -51.0
 2.800  0.2511  120.9   1.785   40.6  0.2362   56.0  0.4323  -51.4
 2.820  0.2534  120.3   1.776   40.2  0.2381   55.9  0.4305  -51.7
 2.840  0.2558  119.8   1.766   39.8  0.2399   55.7  0.4288  -52.1
 2.860  0.2582  119.2   1.757   39.3  0.2418   55.6  0.4271  -52.5
 2.880  0.2606  118.7   1.748   38.9  0.2437   55.4  0.4254  -52.8
 2.900  0.2630  118.1   1.739   38.5  0.2455   55.3  0.4237  -53.2
 2.920  0.2655  117.6   1.730   38.0  0.2474   55.1  0.4220  -53.5
 2.940  0.2679  117.1   1.722   37.6  0.2493   55.0  0.4204  -53.9
 2.960  0.2704  116.6   1.713   37.1  0.2511   54.9  0.4187  -54.3
 2.980  0.2730  116.1   1.704   36.7  0.2530   54.7  0.4171  -54.6
 3.000  0.2755  115.6   1.696   36.2  0.2549   54.6  0.4155  -55.0
 3.100  0.2880  113.1   1.654   34.5  0.2640   53.7  0.4064  -57.2
 3.200  0.3011  110.8   1.614   32.7  0.2732   52.8  0.3979  -59.4
 3.300  0.3146  108.7   1.576   30.8  0.2825   52.0  0.3901  -61.7
 3.400  0.3285  106.8   1.539   28.9  0.2918   51.3  0.3829  -64.2
 3.500  0.3427  105.0   1.504   26.8  0.3011   50.6  0.3765  -66.7
 3.600  0.3540  103.3   1.474   25.1  0.3104   49.5  0.3665  -69.5
 3.700  0.3655  101.8   1.445   23.4  0.3197   48.5  0.3573  -72.4
 3.800  0.3773  100.3   1.418   21.6  0.3292   47.6  0.3492  -75.5
 3.900  0.3893   98.9   1.391   19.7  0.3387   46.7  0.3421  -78.7
 4.000  0.4016   97.6   1.367   17.8  0.3483   45.8  0.3362  -82.1
 4.100  0.4129   96.2   1.342   16.3  0.3577   44.6  0.3267  -85.5
 4.200  0.4245   94.9   1.318   14.7  0.3672   43.4  0.3183  -89.0
 4.300  0.4363   93.7   1.295   13.0  0.3768   42.3  0.3113  -92.8
 4.400  0.4483   92.5   1.273   11.3  0.3866   41.3  0.3056  -96.7
 4.500  0.4604   91.4   1.252    9.5  0.3965   40.3  0.3014 -100.7
 4.600  0.4689   90.2   1.232    8.0  0.4057   39.0  0.2934 -104.6
 4.700  0.4775   89.0   1.213    6.5  0.4150   37.8  0.2867 -108.6
 4.800  0.4864   87.8   1.195    4.9  0.4245   36.6  0.2816 -112.8
 4.900  0.4955   86.7   1.177    3.3  0.4342   35.5  0.2780 -117.2
 5.000  0.5047   85.6   1.161    1.6  0.4441   34.4  0.2761 -121.6
 5.100  0.5131   84.4   1.140    0.3  0.4525   33.0  0.2709 -126.1
 5.200  0.5216   83.2   1.120   -1.1  0.4611   31.7  0.2674 -130.8
 5.300  0.5305   82.0   1.101   -2.6  0.4700   30.4  0.2658 -135.6
 5.400  0.5395   80.9   1.082   -4.1  0.4792   29.1  0.2660 -140.4
 5.500  0.5487   79.8   1.064   -5.6  0.4885   27.9  0.2680 -145.1
 5.600  0.5568   78.6   1.045   -6.8  0.4947   26.3  0.2636 -149.5
 5.700  0.5651   77.5   1.027   -8.1  0.5012   24.8  0.2607 -154.0
 5.800  0.5736   76.3   1.009   -9.5  0.5081   23.3  0.2595 -158.6
 5.900  0.5824   75.3   0.992  -10.9  0.5153   21.9  0.2600 -163.2
 6.000  0.5913   74.2   0.975  -12.3  0.5228   20.5  0.2622 -167.8
!
!  f       NFmin   Gammaopt  rn/50
! GHz       dB    MAG  ANG    -
!
! noise parameter not available yet for this operation point!
!
! (c) 2015  Infineon Technologies AG, Munich
