! Infineon Technologies  Discrete & RF Semiconductors
! BFR106
! VCE =  1.7 V,  IC =  20 mA
! Common Emitter S-Parameters:                            Nov 2015
# GHz  S  MA  R  50
!  f         S11            S21            S12            S22
! GHz     MAG   ANG      MAG   ANG      MAG   ANG      MAG   ANG
 0.010  0.5250  -26.2  44.812  166.5  0.0068   81.1  0.9525  -13.4
 0.015  0.5108  -37.9  43.136  161.1  0.0098   74.7  0.9183  -19.5
 0.020  0.5185  -49.7  41.866  155.4  0.0129   71.4  0.8952  -26.0
 0.025  0.4962  -57.4  39.589  152.3  0.0148   67.1  0.8461  -29.4
 0.030  0.4837  -65.7  37.441  148.8  0.0167   63.8  0.8003  -33.2
 0.035  0.4818  -74.2  35.446  145.0  0.0186   61.1  0.7585  -37.4
 0.040  0.4904  -82.7  33.630  140.7  0.0206   59.0  0.7212  -42.1
 0.045  0.5092  -90.6  32.025  135.9  0.0227   57.3  0.6893  -47.3
 0.050  0.5370  -97.9  30.663  130.7  0.0247   55.8  0.6635  -52.9
 0.055  0.5292 -101.6  29.403  129.5  0.0256   55.1  0.6360  -54.4
 0.060  0.5236 -105.4  28.157  128.1  0.0266   54.4  0.6090  -56.1
 0.065  0.5203 -109.2  26.928  126.7  0.0275   53.7  0.5826  -58.0
 0.070  0.5194 -113.1  25.718  125.1  0.0284   53.1  0.5568  -60.0
 0.075  0.5208 -116.9  24.529  123.4  0.0294   52.6  0.5318  -62.2
 0.080  0.5246 -120.8  23.366  121.4  0.0303   52.0  0.5077  -64.6
 0.085  0.5307 -124.5  22.232  119.3  0.0313   51.5  0.4845  -67.2
 0.090  0.5391 -128.2  21.131  117.0  0.0322   51.1  0.4625  -70.1
 0.095  0.5495 -131.7  20.070  114.4  0.0331   50.6  0.4417  -73.3
 0.100  0.5620 -135.1  19.054  111.5  0.0341   50.2  0.4225  -76.8
 0.105  0.5596 -136.8  18.466  110.8  0.0347   50.3  0.4104  -77.9
 0.110  0.5578 -138.5  17.881  110.0  0.0353   50.4  0.3985  -79.0
 0.115  0.5564 -140.2  17.299  109.2  0.0359   50.5  0.3868  -80.2
 0.120  0.5556 -142.0  16.721  108.4  0.0365   50.6  0.3752  -81.5
 0.125  0.5552 -143.7  16.147  107.5  0.0370   50.7  0.3639  -82.8
 0.130  0.5554 -145.4  15.577  106.5  0.0376   50.8  0.3527  -84.2
 0.135  0.5561 -147.2  15.012  105.4  0.0382   50.9  0.3418  -85.8
 0.140  0.5572 -148.9  14.453  104.3  0.0388   50.9  0.3311  -87.4
 0.145  0.5589 -150.6  13.900  103.0  0.0394   51.0  0.3208  -89.1
 0.150  0.5611 -152.3  13.354  101.7  0.0400   51.1  0.3107  -91.0
 0.155  0.5617 -153.2  13.043  101.3  0.0406   51.4  0.3042  -91.7
 0.160  0.5625 -154.0  12.733  100.8  0.0412   51.7  0.2978  -92.4
 0.165  0.5633 -154.9  12.424  100.3  0.0418   52.1  0.2914  -93.1
 0.170  0.5643 -155.7  12.116   99.8  0.0424   52.4  0.2850  -93.9
 0.175  0.5654 -156.5  11.809   99.2  0.0430   52.7  0.2787  -94.7
 0.180  0.5667 -157.4  11.503   98.6  0.0436   52.9  0.2725  -95.5
 0.185  0.5680 -158.2  11.199   98.0  0.0442   53.2  0.2663  -96.4
 0.190  0.5695 -159.1  10.895   97.4  0.0448   53.5  0.2602  -97.3
 0.195  0.5711 -159.9  10.593   96.7  0.0454   53.7  0.2542  -98.3
 0.200  0.5728 -160.7  10.293   96.0  0.0460   54.0  0.2482  -99.3
 0.220  0.5714 -163.3   9.480   94.4  0.0485   54.9  0.2323 -102.3
 0.240  0.5712 -165.9   8.675   92.6  0.0510   55.6  0.2171 -105.8
 0.260  0.5712 -168.2   8.009   91.0  0.0537   56.6  0.2057 -108.8
 0.280  0.5711 -170.1   7.477   89.8  0.0566   57.6  0.1976 -111.2
 0.300  0.5717 -172.0   6.949   88.5  0.0596   58.6  0.1899 -113.7
 0.320  0.5720 -173.5   6.612   87.7  0.0623   59.3  0.1838 -115.5
 0.340  0.5726 -174.9   6.277   86.7  0.0649   59.9  0.1779 -117.4
 0.360  0.5736 -176.4   5.944   85.7  0.0676   60.4  0.1722 -119.4
 0.380  0.5750 -177.9   5.613   84.5  0.0703   60.9  0.1667 -121.6
 0.400  0.5768 -179.3   5.284   83.2  0.0730   61.4  0.1615 -123.9
 0.420  0.5773  179.7   5.074   82.4  0.0758   61.8  0.1585 -125.3
 0.440  0.5779  178.8   4.865   81.6  0.0786   62.2  0.1555 -126.7
 0.450  0.5782  178.3   4.761   81.1  0.0800   62.3  0.1541 -127.4
 0.460  0.5787  177.8   4.657   80.6  0.0815   62.5  0.1527 -128.2
 0.480  0.5796  176.9   4.451   79.6  0.0843   62.8  0.1499 -129.7
 0.500  0.5807  175.9   4.246   78.5  0.0871   63.1  0.1473 -131.3
 0.520  0.5808  174.9   4.108   77.7  0.0901   63.2  0.1462 -132.3
 0.540  0.5811  173.9   3.971   76.9  0.0932   63.3  0.1452 -133.3
 0.560  0.5816  172.8   3.835   76.0  0.0962   63.4  0.1443 -134.3
 0.580  0.5823  171.8   3.700   75.0  0.0993   63.4  0.1434 -135.4
 0.600  0.5832  170.8   3.566   74.0  0.1023   63.5  0.1425 -136.4
 0.620  0.5832  170.0   3.469   73.3  0.1052   63.6  0.1424 -137.5
 0.640  0.5833  169.1   3.372   72.5  0.1081   63.6  0.1423 -138.5
 0.660  0.5836  168.3   3.277   71.7  0.1110   63.7  0.1422 -139.6
 0.680  0.5840  167.4   3.181   70.9  0.1139   63.7  0.1422 -140.6
 0.700  0.5845  166.6   3.087   70.0  0.1168   63.8  0.1423 -141.7
 0.720  0.5848  166.0   3.012   69.3  0.1199   63.7  0.1420 -142.7
 0.740  0.5852  165.3   2.938   68.6  0.1231   63.6  0.1418 -143.6
 0.760  0.5857  164.7   2.865   67.9  0.1262   63.5  0.1416 -144.6
 0.780  0.5862  164.0   2.792   67.1  0.1294   63.4  0.1415 -145.5
 0.800  0.5868  163.4   2.719   66.3  0.1325   63.3  0.1414 -146.5
 0.820  0.5861  162.7   2.662   65.7  0.1354   63.2  0.1413 -147.2
 0.840  0.5855  162.0   2.606   65.0  0.1383   63.0  0.1411 -148.0
 0.860  0.5850  161.2   2.550   64.3  0.1413   62.9  0.1410 -148.7
 0.880  0.5845  160.5   2.495   63.6  0.1442   62.8  0.1410 -149.5
 0.900  0.5842  159.8   2.440   62.8  0.1471   62.7  0.1409 -150.2
 0.920  0.5857  159.0   2.395   62.2  0.1501   62.5  0.1418 -150.7
 0.940  0.5873  158.1   2.349   61.5  0.1530   62.4  0.1427 -151.2
 0.960  0.5891  157.3   2.305   60.8  0.1560   62.2  0.1436 -151.7
 0.980  0.5909  156.5   2.260   60.1  0.1589   62.0  0.1446 -152.1
 1.000  0.5929  155.7   2.216   59.3  0.1619   61.9  0.1455 -152.6
 1.020  0.5936  155.0   2.179   58.7  0.1649   61.7  0.1466 -153.3
 1.040  0.5943  154.4   2.143   58.0  0.1679   61.5  0.1477 -153.9
 1.060  0.5952  153.7   2.106   57.3  0.1710   61.3  0.1489 -154.5
 1.080  0.5961  153.1   2.071   56.6  0.1740   61.2  0.1500 -155.2
 1.100  0.5971  152.4   2.035   55.9  0.1770   61.0  0.1512 -155.8
 1.120  0.5982  151.7   2.005   55.3  0.1798   60.8  0.1519 -156.5
 1.140  0.5995  151.1   1.975   54.7  0.1827   60.5  0.1526 -157.2
 1.160  0.6008  150.4   1.945   54.0  0.1855   60.3  0.1534 -157.9
 1.180  0.6021  149.8   1.915   53.4  0.1884   60.1  0.1541 -158.5
 1.200  0.6036  149.1   1.886   52.7  0.1912   59.9  0.1549 -159.2
 1.220  0.6036  148.5   1.860   52.1  0.1942   59.6  0.1557 -159.7
 1.240  0.6036  148.0   1.835   51.5  0.1972   59.4  0.1565 -160.3
 1.260  0.6037  147.4   1.809   50.9  0.2002   59.2  0.1574 -160.8
 1.280  0.6039  146.9   1.784   50.3  0.2033   58.9  0.1582 -161.3
 1.300  0.6041  146.3   1.759   49.6  0.2063   58.7  0.1591 -161.8
 1.320  0.6052  145.7   1.736   49.1  0.2092   58.4  0.1605 -162.3
 1.340  0.6063  145.1   1.714   48.5  0.2120   58.1  0.1619 -162.7
 1.360  0.6075  144.4   1.692   48.0  0.2149   57.8  0.1634 -163.2
 1.380  0.6088  143.8   1.670   47.4  0.2178   57.6  0.1648 -163.7
 1.400  0.6101  143.2   1.648   46.8  0.2207   57.3  0.1663 -164.1
 1.420  0.6099  142.7   1.632   46.2  0.2235   57.0  0.1677 -164.6
 1.440  0.6097  142.2   1.617   45.6  0.2263   56.8  0.1691 -165.2
 1.460  0.6096  141.6   1.602   45.0  0.2291   56.6  0.1706 -165.7
 1.480  0.6095  141.1   1.587   44.4  0.2319   56.3  0.1720 -166.2
 1.500  0.6095  140.6   1.572   43.8  0.2347   56.1  0.1735 -166.7
 1.520  0.6104  140.0   1.552   43.2  0.2375   55.8  0.1749 -167.4
 1.540  0.6114  139.5   1.532   42.6  0.2402   55.4  0.1763 -168.1
 1.560  0.6124  138.9   1.512   42.0  0.2430   55.1  0.1777 -168.7
 1.580  0.6135  138.4   1.492   41.4  0.2458   54.8  0.1791 -169.4
 1.600  0.6146  137.8   1.473   40.8  0.2486   54.5  0.1806 -170.0
 1.620  0.6161  137.2   1.459   40.2  0.2513   54.2  0.1819 -170.7
 1.640  0.6177  136.7   1.446   39.6  0.2541   54.0  0.1833 -171.3
 1.660  0.6193  136.1   1.432   39.0  0.2568   53.8  0.1846 -171.9
 1.680  0.6210  135.6   1.419   38.4  0.2596   53.5  0.1860 -172.6
 1.700  0.6227  135.0   1.406   37.8  0.2623   53.3  0.1874 -173.2
 1.720  0.6246  134.4   1.394   37.4  0.2650   53.0  0.1887 -173.6
 1.740  0.6265  133.8   1.383   36.9  0.2678   52.6  0.1900 -174.0
 1.760  0.6284  133.2   1.372   36.4  0.2706   52.3  0.1913 -174.4
 1.780  0.6305  132.7   1.360   36.0  0.2733   52.0  0.1926 -174.8
 1.800  0.6326  132.1   1.349   35.5  0.2761   51.7  0.1939 -175.2
 1.820  0.6323  131.6   1.337   34.9  0.2788   51.4  0.1962 -175.7
 1.840  0.6321  131.0   1.326   34.4  0.2815   51.1  0.1985 -176.2
 1.860  0.6320  130.5   1.314   33.8  0.2842   50.8  0.2009 -176.6
 1.880  0.6318  129.9   1.303   33.2  0.2870   50.6  0.2032 -177.1
 1.900  0.6318  129.4   1.292   32.6  0.2897   50.3  0.2056 -177.5
 1.920  0.6323  128.9   1.280   32.2  0.2923   50.0  0.2075 -178.2
 1.940  0.6329  128.4   1.269   31.7  0.2949   49.6  0.2095 -178.9
 1.960  0.6335  127.9   1.258   31.2  0.2975   49.3  0.2115 -179.5
 1.980  0.6341  127.4   1.246   30.8  0.3002   49.0  0.2135  179.8
 2.000  0.6348  126.9   1.235   30.3  0.3028   48.7  0.2156  179.2
 2.020  0.6360  126.4   1.226   29.8  0.3054   48.4  0.2172  178.6
 2.040  0.6373  125.9   1.217   29.4  0.3079   48.0  0.2189  178.1
 2.060  0.6387  125.4   1.208   28.9  0.3105   47.7  0.2206  177.5
 2.080  0.6400  124.9   1.199   28.4  0.3131   47.4  0.2223  176.9
 2.100  0.6415  124.4   1.190   27.9  0.3157   47.1  0.2241  176.4
 2.120  0.6429  123.9   1.181   27.4  0.3184   46.8  0.2258  175.9
 2.140  0.6445  123.4   1.172   26.9  0.3210   46.5  0.2276  175.3
 2.160  0.6460  123.0   1.164   26.4  0.3236   46.2  0.2294  174.8
 2.180  0.6476  122.5   1.155   25.8  0.3262   45.9  0.2312  174.3
 2.200  0.6493  122.0   1.147   25.3  0.3289   45.6  0.2330  173.8
 2.220  0.6499  121.5   1.140   24.8  0.3313   45.2  0.2354  173.2
 2.240  0.6505  121.0   1.133   24.4  0.3337   44.9  0.2379  172.5
 2.260  0.6511  120.4   1.126   23.9  0.3362   44.6  0.2404  171.9
 2.280  0.6519  119.9   1.119   23.4  0.3386   44.2  0.2429  171.3
 2.300  0.6526  119.4   1.112   22.9  0.3411   43.9  0.2455  170.7
 2.320  0.6535  118.9   1.105   22.4  0.3435   43.6  0.2481  170.1
 2.340  0.6543  118.3   1.099   21.9  0.3460   43.2  0.2507  169.5
 2.360  0.6553  117.8   1.092   21.4  0.3485   42.9  0.2533  169.0
 2.380  0.6563  117.3   1.085   20.9  0.3510   42.6  0.2559  168.4
 2.400  0.6573  116.8   1.079   20.4  0.3535   42.3  0.2586  167.9
 2.420  0.6588  116.3   1.072   20.0  0.3556   42.0  0.2604  167.4
 2.440  0.6603  115.8   1.065   19.6  0.3578   41.6  0.2623  166.8
 2.460  0.6619  115.3   1.058   19.2  0.3599   41.3  0.2641  166.3
 2.480  0.6636  114.9   1.051   18.8  0.3621   41.0  0.2660  165.8
 2.500  0.6653  114.4   1.044   18.4  0.3643   40.7  0.2679  165.3
 2.520  0.6670  113.9   1.037   18.0  0.3665   40.3  0.2699  164.8
 2.540  0.6688  113.4   1.030   17.6  0.3687   40.0  0.2718  164.3
 2.560  0.6706  112.9   1.023   17.2  0.3709   39.7  0.2738  163.8
 2.580  0.6725  112.5   1.017   16.7  0.3732   39.4  0.2758  163.4
 2.600  0.6744  112.0   1.010   16.3  0.3754   39.1  0.2778  162.9
 2.620  0.6751  111.6   1.005   15.9  0.3775   38.8  0.2805  162.3
 2.640  0.6759  111.2   0.999   15.6  0.3796   38.4  0.2833  161.7
 2.660  0.6767  110.8   0.994   15.2  0.3817   38.1  0.2861  161.1
 2.680  0.6775  110.3   0.988   14.8  0.3838   37.8  0.2889  160.6
 2.700  0.6784  109.9   0.983   14.5  0.3859   37.5  0.2917  160.0
 2.720  0.6793  109.5   0.978   14.1  0.3881   37.1  0.2946  159.5
 2.740  0.6803  109.1   0.972   13.7  0.3903   36.8  0.2975  158.9
 2.760  0.6812  108.7   0.967   13.3  0.3924   36.5  0.3004  158.4
 2.780  0.6823  108.3   0.962   12.9  0.3946   36.2  0.3033  157.9
 2.800  0.6833  107.9   0.957   12.5  0.3968   35.9  0.3063  157.4
 2.820  0.6848  107.5   0.952   12.1  0.3988   35.6  0.3085  156.9
 2.840  0.6863  107.0   0.946   11.8  0.4007   35.2  0.3107  156.4
 2.860  0.6879  106.6   0.941   11.4  0.4027   34.9  0.3129  155.9
 2.880  0.6895  106.2   0.936   11.0  0.4047   34.6  0.3152  155.4
 2.900  0.6912  105.7   0.930   10.6  0.4067   34.3  0.3175  154.9
 2.920  0.6929  105.3   0.925   10.2  0.4087   33.9  0.3198  154.4
 2.940  0.6946  104.9   0.920    9.8  0.4107   33.6  0.3221  154.0
 2.960  0.6964  104.4   0.915    9.4  0.4128   33.3  0.3244  153.5
 2.980  0.6982  104.0   0.910    9.0  0.4148   33.0  0.3268  153.0
 3.000  0.7000  103.6   0.905    8.6  0.4169   32.7  0.3292  152.6
 3.100  0.7039  101.7   0.883    7.2  0.4249   31.0  0.3421  149.9
 3.200  0.7085   99.8   0.862    5.7  0.4333   29.4  0.3557  147.4
 3.300  0.7138   98.0   0.842    4.2  0.4420   27.8  0.3699  145.1
 3.400  0.7199   96.2   0.822    2.6  0.4511   26.3  0.3847  143.0
 3.500  0.7267   94.4   0.803    0.9  0.4604   24.9  0.4000  141.0
 3.600  0.7308   92.8   0.787   -0.2  0.4658   23.3  0.4126  138.5
 3.700  0.7355   91.1   0.771   -1.4  0.4715   21.7  0.4260  136.1
 3.800  0.7408   89.5   0.756   -2.6  0.4777   20.1  0.4400  133.9
 3.900  0.7467   88.0   0.741   -3.9  0.4841   18.6  0.4547  131.8
 4.000  0.7531   86.4   0.726   -5.2  0.4909   17.1  0.4699  129.9
 4.100  0.7543   85.1   0.714   -6.1  0.4941   15.6  0.4782  127.8
 4.200  0.7558   83.8   0.701   -7.0  0.4976   14.2  0.4872  125.7
 4.300  0.7577   82.5   0.689   -8.0  0.5014   12.8  0.4968  123.7
 4.400  0.7600   81.3   0.678   -9.0  0.5055   11.4  0.5070  121.8
 4.500  0.7627   80.0   0.666  -10.0  0.5099   10.0  0.5177  120.0
 4.600  0.7639   78.8   0.658  -10.7  0.5123    8.8  0.5240  118.2
 4.700  0.7655   77.5   0.650  -11.5  0.5150    7.5  0.5309  116.4
 4.800  0.7674   76.3   0.642  -12.2  0.5178    6.3  0.5382  114.6
 4.900  0.7697   75.1   0.634  -13.0  0.5210    5.1  0.5461  112.9
 5.000  0.7723   73.9   0.626  -13.8  0.5243    3.9  0.5544  111.3
 5.100  0.7702   72.9   0.620  -13.8  0.5266    3.3  0.5531  110.9
 5.200  0.7684   71.8   0.613  -13.8  0.5290    2.7  0.5519  110.5
 5.300  0.7669   70.8   0.607  -13.9  0.5314    2.1  0.5507  110.2
 5.400  0.7656   69.7   0.600  -13.9  0.5339    1.6  0.5495  109.8
 5.500  0.7645   68.7   0.594  -13.9  0.5364    1.0  0.5483  109.4
 5.600  0.7650   67.9   0.593  -14.8  0.5409   -0.5  0.5622  107.6
 5.700  0.7656   67.1   0.592  -15.6  0.5457   -1.9  0.5766  106.0
 5.800  0.7664   66.2   0.591  -16.5  0.5509   -3.3  0.5915  104.4
 5.900  0.7673   65.4   0.590  -17.3  0.5564   -4.7  0.6068  102.8
 6.000  0.7684   64.6   0.589  -18.2  0.5622   -6.0  0.6225  101.4
!
!  f       NFmin   Gammaopt  rn/50
! GHz       dB    MAG  ANG    -
!
! noise parameter not available yet for this operation point!
!
! (c) 2015  Infineon Technologies AG, Munich
