! Infineon Technologies  Discrete & RF Semiconductors
! BFR106
! VCE =  10. V,  IC =  40 mA
! Common Emitter S-Parameters:                            Nov 2015
# GHz  S  MA  R  50
!  f         S11            S21            S12            S22
! GHz     MAG   ANG      MAG   ANG      MAG   ANG      MAG   ANG
 0.010  0.5504  -23.0  64.414  165.7  0.0040   82.8  0.9418  -11.0
 0.015  0.5334  -33.2  61.801  160.2  0.0059   76.5  0.9083  -16.0
 0.020  0.5343  -43.8  59.802  154.3  0.0079   73.3  0.8822  -21.4
 0.025  0.5037  -50.4  56.413  151.3  0.0091   70.3  0.8382  -23.9
 0.030  0.4807  -57.8  53.199  147.9  0.0104   68.1  0.7959  -26.6
 0.035  0.4665  -65.8  50.194  144.1  0.0117   66.3  0.7557  -29.7
 0.040  0.4617  -74.1  47.438  139.8  0.0129   64.9  0.7178  -33.1
 0.045  0.4667  -82.4  44.977  135.1  0.0142   63.8  0.6828  -36.9
 0.050  0.4812  -90.4  42.860  129.8  0.0155   62.8  0.6510  -41.0
 0.055  0.4704  -93.9  41.094  128.6  0.0162   62.2  0.6266  -41.8
 0.060  0.4614  -97.5  39.346  127.4  0.0168   61.7  0.6024  -42.6
 0.065  0.4544 -101.3  37.620  126.0  0.0175   61.2  0.5782  -43.5
 0.070  0.4493 -105.1  35.918  124.4  0.0181   60.7  0.5543  -44.4
 0.075  0.4463 -109.1  34.244  122.8  0.0188   60.3  0.5304  -45.5
 0.080  0.4455 -113.0  32.602  120.9  0.0194   59.9  0.5068  -46.6
 0.085  0.4468 -117.0  30.999  118.9  0.0201   59.5  0.4834  -47.9
 0.090  0.4502 -120.9  29.438  116.6  0.0208   59.1  0.4603  -49.3
 0.095  0.4557 -124.8  27.929  114.1  0.0214   58.8  0.4375  -50.8
 0.100  0.4632 -128.5  26.479  111.3  0.0221   58.5  0.4150  -52.5
 0.105  0.4597 -130.2  25.657  110.6  0.0227   58.7  0.4041  -52.7
 0.110  0.4567 -132.0  24.838  109.9  0.0233   59.0  0.3932  -53.0
 0.115  0.4541 -133.8  24.023  109.1  0.0240   59.2  0.3823  -53.2
 0.120  0.4520 -135.6  23.214  108.3  0.0246   59.4  0.3714  -53.5
 0.125  0.4503 -137.5  22.409  107.4  0.0252   59.6  0.3606  -53.8
 0.130  0.4491 -139.3  21.610  106.5  0.0258   59.7  0.3497  -54.1
 0.135  0.4483 -141.1  20.817  105.5  0.0264   59.9  0.3389  -54.4
 0.140  0.4481 -143.0  20.031  104.4  0.0271   60.1  0.3280  -54.7
 0.145  0.4482 -144.9  19.254  103.2  0.0277   60.2  0.3172  -55.1
 0.150  0.4489 -146.7  18.485  101.9  0.0283   60.4  0.3064  -55.5
 0.155  0.4483 -147.7  18.054  101.5  0.0289   60.8  0.3009  -55.4
 0.160  0.4479 -148.6  17.624  101.0  0.0294   61.2  0.2954  -55.3
 0.165  0.4476 -149.6  17.195  100.6  0.0300   61.5  0.2899  -55.2
 0.170  0.4474 -150.6  16.767  100.1  0.0305   61.9  0.2843  -55.1
 0.175  0.4473 -151.6  16.340   99.6  0.0311   62.2  0.2788  -55.0
 0.180  0.4474 -152.5  15.915   99.1  0.0316   62.5  0.2733  -54.8
 0.185  0.4476 -153.5  15.491   98.5  0.0322   62.8  0.2678  -54.7
 0.190  0.4479 -154.5  15.069   97.9  0.0328   63.1  0.2623  -54.6
 0.195  0.4483 -155.4  14.649   97.3  0.0333   63.4  0.2568  -54.4
 0.200  0.4489 -156.4  14.230   96.6  0.0339   63.7  0.2513  -54.3
 0.220  0.4472 -159.4  13.106   95.2  0.0363   64.4  0.2361  -53.9
 0.240  0.4466 -162.3  11.991   93.5  0.0387   65.0  0.2208  -53.5
 0.260  0.4468 -164.8  11.069   92.0  0.0411   65.7  0.2091  -53.2
 0.280  0.4472 -166.8  10.333   90.9  0.0434   66.6  0.2010  -52.9
 0.300  0.4482 -168.8   9.601   89.6  0.0458   67.3  0.1929  -52.6
 0.320  0.4475 -170.2   9.133   88.8  0.0484   67.8  0.1874  -52.2
 0.340  0.4471 -171.7   8.667   88.0  0.0510   68.2  0.1819  -51.8
 0.360  0.4469 -173.1   8.202   87.0  0.0535   68.5  0.1764  -51.3
 0.380  0.4471 -174.6   7.741   86.0  0.0561   68.9  0.1709  -50.8
 0.400  0.4475 -176.0   7.282   84.8  0.0587   69.2  0.1654  -50.3
 0.420  0.4483 -177.2   6.992   84.1  0.0613   69.4  0.1625  -50.0
 0.440  0.4494 -178.3   6.703   83.3  0.0639   69.6  0.1597  -49.7
 0.450  0.4500 -178.9   6.559   82.9  0.0651   69.6  0.1583  -49.5
 0.460  0.4506 -179.5   6.416   82.5  0.0664   69.7  0.1569  -49.3
 0.480  0.4520  179.3   6.130   81.5  0.0690   69.9  0.1540  -49.0
 0.500  0.4536  178.2   5.846   80.5  0.0716   70.0  0.1512  -48.6
 0.520  0.4540  177.2   5.657   79.8  0.0742   70.0  0.1498  -48.7
 0.540  0.4545  176.2   5.469   79.1  0.0768   70.0  0.1484  -48.8
 0.560  0.4551  175.2   5.281   78.3  0.0793   69.9  0.1471  -49.0
 0.580  0.4559  174.2   5.095   77.5  0.0819   69.9  0.1457  -49.1
 0.600  0.4568  173.2   4.910   76.6  0.0845   69.9  0.1443  -49.2
 0.620  0.4566  172.4   4.774   75.9  0.0872   69.9  0.1429  -49.5
 0.640  0.4565  171.6   4.639   75.2  0.0898   69.9  0.1416  -49.7
 0.660  0.4565  170.9   4.504   74.5  0.0925   69.8  0.1402  -50.0
 0.680  0.4566  170.1   4.371   73.7  0.0951   69.8  0.1389  -50.3
 0.700  0.4567  169.3   4.238   72.8  0.0978   69.8  0.1375  -50.6
 0.720  0.4582  168.6   4.133   72.2  0.1004   69.6  0.1365  -50.9
 0.740  0.4597  167.9   4.028   71.6  0.1030   69.5  0.1354  -51.1
 0.760  0.4614  167.2   3.924   70.9  0.1057   69.3  0.1344  -51.4
 0.780  0.4631  166.6   3.821   70.2  0.1083   69.1  0.1333  -51.7
 0.800  0.4648  165.9   3.718   69.5  0.1109   69.0  0.1323  -52.0
 0.820  0.4648  165.2   3.639   68.9  0.1135   68.8  0.1317  -52.2
 0.840  0.4648  164.4   3.560   68.3  0.1161   68.6  0.1311  -52.4
 0.860  0.4649  163.7   3.481   67.7  0.1188   68.4  0.1306  -52.5
 0.880  0.4651  162.9   3.403   67.0  0.1214   68.3  0.1300  -52.7
 0.900  0.4654  162.2   3.326   66.3  0.1240   68.1  0.1294  -52.9
 0.920  0.4661  161.5   3.263   65.7  0.1266   67.9  0.1290  -53.6
 0.940  0.4668  160.7   3.200   65.1  0.1291   67.8  0.1287  -54.3
 0.960  0.4677  160.0   3.138   64.5  0.1317   67.7  0.1283  -55.0
 0.980  0.4686  159.2   3.076   63.8  0.1342   67.5  0.1280  -55.7
 1.000  0.4696  158.5   3.015   63.1  0.1368   67.4  0.1277  -56.4
 1.020  0.4709  157.9   2.965   62.5  0.1393   67.2  0.1272  -57.1
 1.040  0.4723  157.2   2.915   62.0  0.1419   66.9  0.1266  -57.9
 1.060  0.4738  156.6   2.866   61.4  0.1444   66.7  0.1261  -58.6
 1.080  0.4752  156.0   2.817   60.7  0.1470   66.5  0.1257  -59.3
 1.100  0.4768  155.4   2.768   60.1  0.1495   66.3  0.1252  -60.1
 1.120  0.4783  154.6   2.725   59.5  0.1520   66.1  0.1245  -60.7
 1.140  0.4800  153.9   2.682   58.9  0.1546   65.9  0.1238  -61.3
 1.160  0.4817  153.2   2.639   58.3  0.1571   65.7  0.1231  -61.9
 1.180  0.4834  152.4   2.597   57.7  0.1597   65.5  0.1225  -62.5
 1.200  0.4853  151.7   2.555   57.0  0.1622   65.3  0.1218  -63.1
 1.220  0.4847  151.2   2.517   56.5  0.1648   65.0  0.1215  -63.7
 1.240  0.4842  150.7   2.479   55.9  0.1673   64.7  0.1212  -64.4
 1.260  0.4837  150.2   2.441   55.3  0.1699   64.4  0.1210  -65.0
 1.280  0.4832  149.7   2.403   54.7  0.1724   64.2  0.1207  -65.7
 1.300  0.4828  149.2   2.366   54.1  0.1750   63.9  0.1205  -66.3
 1.320  0.4847  148.6   2.335   53.6  0.1774   63.7  0.1203  -67.1
 1.340  0.4866  148.0   2.304   53.1  0.1798   63.5  0.1202  -68.0
 1.360  0.4885  147.4   2.274   52.6  0.1822   63.3  0.1201  -68.8
 1.380  0.4905  146.9   2.243   52.0  0.1846   63.2  0.1200  -69.7
 1.400  0.4926  146.3   2.213   51.5  0.1870   63.0  0.1199  -70.5
 1.420  0.4927  145.8   2.189   51.0  0.1895   62.7  0.1196  -71.5
 1.440  0.4929  145.4   2.166   50.4  0.1919   62.4  0.1194  -72.4
 1.460  0.4931  144.9   2.143   49.9  0.1944   62.1  0.1191  -73.4
 1.480  0.4933  144.5   2.120   49.3  0.1969   61.9  0.1190  -74.3
 1.500  0.4936  144.0   2.097   48.7  0.1994   61.6  0.1188  -75.3
 1.520  0.4953  143.4   2.071   48.1  0.2018   61.3  0.1182  -76.2
 1.540  0.4971  142.7   2.045   47.5  0.2043   61.1  0.1175  -77.2
 1.560  0.4990  142.1   2.019   46.9  0.2067   60.9  0.1170  -78.1
 1.580  0.5009  141.4   1.993   46.3  0.2092   60.6  0.1164  -79.0
 1.600  0.5029  140.8   1.968   45.7  0.2116   60.4  0.1159  -80.0
 1.620  0.5045  140.3   1.948   45.2  0.2140   60.1  0.1153  -80.9
 1.640  0.5061  139.7   1.927   44.7  0.2164   59.9  0.1148  -81.9
 1.660  0.5077  139.2   1.907   44.1  0.2188   59.6  0.1143  -82.9
 1.680  0.5095  138.6   1.888   43.6  0.2213   59.3  0.1138  -83.8
 1.700  0.5112  138.1   1.868   43.0  0.2237   59.1  0.1134  -84.8
 1.720  0.5126  137.5   1.851   42.5  0.2261   58.8  0.1135  -85.7
 1.740  0.5140  136.9   1.834   42.1  0.2285   58.6  0.1136  -86.6
 1.760  0.5155  136.3   1.817   41.6  0.2309   58.3  0.1137  -87.6
 1.780  0.5170  135.7   1.800   41.1  0.2334   58.0  0.1139  -88.5
 1.800  0.5186  135.1   1.783   40.6  0.2358   57.8  0.1141  -89.4
 1.820  0.5197  134.6   1.767   40.1  0.2383   57.5  0.1143  -90.8
 1.840  0.5209  134.1   1.751   39.5  0.2408   57.2  0.1146  -92.1
 1.860  0.5222  133.7   1.736   39.0  0.2433   56.9  0.1150  -93.4
 1.880  0.5234  133.2   1.720   38.4  0.2459   56.7  0.1154  -94.8
 1.900  0.5247  132.7   1.705   37.8  0.2484   56.4  0.1159  -96.1
 1.920  0.5259  132.3   1.690   37.3  0.2507   56.1  0.1154  -97.5
 1.940  0.5271  131.9   1.675   36.9  0.2531   55.9  0.1150  -98.8
 1.960  0.5284  131.4   1.660   36.4  0.2554   55.6  0.1147 -100.2
 1.980  0.5297  131.0   1.646   35.9  0.2577   55.4  0.1144 -101.6
 2.000  0.5310  130.6   1.631   35.4  0.2601   55.1  0.1142 -103.0
 2.020  0.5323  130.1   1.617   34.9  0.2624   54.8  0.1142 -104.1
 2.040  0.5336  129.6   1.604   34.4  0.2648   54.5  0.1142 -105.2
 2.060  0.5350  129.0   1.591   34.0  0.2671   54.2  0.1143 -106.4
 2.080  0.5364  128.5   1.578   33.5  0.2695   54.0  0.1144 -107.5
 2.100  0.5379  128.0   1.564   33.0  0.2719   53.7  0.1146 -108.6
 2.120  0.5394  127.5   1.552   32.4  0.2742   53.4  0.1148 -109.7
 2.140  0.5410  127.0   1.539   31.9  0.2766   53.2  0.1150 -110.8
 2.160  0.5426  126.5   1.526   31.4  0.2790   52.9  0.1153 -111.9
 2.180  0.5442  126.0   1.513   30.8  0.2814   52.6  0.1156 -113.0
 2.200  0.5459  125.5   1.501   30.3  0.2838   52.4  0.1160 -114.1
 2.220  0.5474  125.0   1.491   29.8  0.2861   52.1  0.1161 -115.7
 2.240  0.5490  124.5   1.481   29.4  0.2883   51.8  0.1163 -117.2
 2.260  0.5505  124.0   1.471   28.9  0.2906   51.5  0.1166 -118.8
 2.280  0.5522  123.5   1.461   28.4  0.2929   51.2  0.1170 -120.4
 2.300  0.5538  123.0   1.451   27.9  0.2952   50.9  0.1175 -121.9
 2.320  0.5556  122.5   1.441   27.4  0.2975   50.7  0.1181 -123.4
 2.340  0.5573  122.0   1.431   26.9  0.2998   50.4  0.1187 -125.0
 2.360  0.5591  121.6   1.422   26.4  0.3021   50.1  0.1194 -126.5
 2.380  0.5609  121.1   1.412   25.9  0.3045   49.9  0.1202 -127.9
 2.400  0.5628  120.6   1.403   25.4  0.3068   49.6  0.1211 -129.4
 2.420  0.5648  120.1   1.393   25.0  0.3089   49.3  0.1217 -130.6
 2.440  0.5668  119.7   1.383   24.6  0.3110   49.0  0.1224 -131.9
 2.460  0.5689  119.2   1.373   24.1  0.3132   48.7  0.1231 -133.1
 2.480  0.5710  118.7   1.363   23.7  0.3153   48.4  0.1239 -134.3
 2.500  0.5732  118.3   1.353   23.2  0.3175   48.2  0.1247 -135.4
 2.520  0.5754  117.8   1.344   22.8  0.3196   47.9  0.1256 -136.6
 2.540  0.5776  117.3   1.334   22.3  0.3218   47.6  0.1265 -137.8
 2.560  0.5799  116.9   1.325   21.9  0.3239   47.3  0.1275 -138.9
 2.580  0.5822  116.4   1.315   21.4  0.3261   47.1  0.1285 -140.0
 2.600  0.5845  116.0   1.306   20.9  0.3283   46.8  0.1296 -141.1
 2.620  0.5860  115.6   1.298   20.5  0.3304   46.5  0.1307 -142.6
 2.640  0.5876  115.1   1.291   20.1  0.3325   46.2  0.1320 -144.1
 2.660  0.5891  114.7   1.283   19.7  0.3347   45.9  0.1333 -145.6
 2.680  0.5907  114.3   1.276   19.3  0.3368   45.6  0.1347 -147.0
 2.700  0.5924  113.8   1.269   18.9  0.3389   45.3  0.1362 -148.4
 2.720  0.5941  113.4   1.261   18.4  0.3411   45.0  0.1377 -149.7
 2.740  0.5958  113.0   1.254   18.0  0.3433   44.7  0.1394 -151.1
 2.760  0.5975  112.5   1.247   17.6  0.3454   44.5  0.1411 -152.4
 2.780  0.5993  112.1   1.240   17.1  0.3476   44.2  0.1428 -153.7
 2.800  0.6011  111.7   1.233   16.7  0.3498   43.9  0.1447 -154.9
 2.820  0.6031  111.3   1.226   16.3  0.3519   43.6  0.1461 -156.0
 2.840  0.6052  110.9   1.218   15.9  0.3540   43.3  0.1476 -157.1
 2.860  0.6073  110.5   1.211   15.5  0.3561   43.0  0.1491 -158.2
 2.880  0.6095  110.1   1.204   15.1  0.3582   42.7  0.1507 -159.2
 2.900  0.6116  109.7   1.197   14.7  0.3603   42.5  0.1524 -160.2
 2.920  0.6138  109.3   1.190   14.2  0.3624   42.2  0.1540 -161.2
 2.940  0.6160  108.9   1.183   13.8  0.3646   41.9  0.1558 -162.2
 2.960  0.6183  108.5   1.176   13.4  0.3667   41.6  0.1575 -163.2
 2.980  0.6206  108.1   1.169   12.9  0.3688   41.4  0.1593 -164.1
 3.000  0.6229  107.7   1.162   12.5  0.3710   41.1  0.1612 -165.0
 3.100  0.6305  105.7   1.130   10.9  0.3804   39.5  0.1710 -170.8
 3.200  0.6387  103.8   1.099    9.2  0.3900   38.0  0.1823 -175.9
 3.300  0.6477  102.0   1.069    7.3  0.3999   36.5  0.1949  179.6
 3.400  0.6573  100.2   1.041    5.4  0.4101   35.1  0.2086  175.6
 3.500  0.6676   98.4   1.013    3.4  0.4205   33.8  0.2231  172.2
 3.600  0.6746   96.7   0.988    2.0  0.4280   32.2  0.2357  167.8
 3.700  0.6821   95.1   0.964    0.6  0.4357   30.7  0.2495  163.8
 3.800  0.6902   93.5   0.941   -0.9  0.4438   29.2  0.2645  160.3
 3.900  0.6988   91.9   0.918   -2.4  0.4522   27.8  0.2803  157.2
 4.000  0.7079   90.4   0.896   -4.1  0.4608   26.4  0.2968  154.4
 4.100  0.7115   88.9   0.876   -5.3  0.4663   24.9  0.3079  151.3
 4.200  0.7156   87.4   0.856   -6.5  0.4721   23.4  0.3199  148.4
 4.300  0.7201   86.0   0.837   -7.8  0.4782   21.9  0.3326  145.7
 4.400  0.7251   84.5   0.818   -9.2  0.4846   20.5  0.3460  143.2
 4.500  0.7306   83.1   0.800  -10.6  0.4913   19.1  0.3600  140.9
 4.600  0.7343   81.8   0.785  -11.5  0.4960   17.7  0.3702  138.4
 4.700  0.7384   80.6   0.771  -12.4  0.5009   16.4  0.3812  136.0
 4.800  0.7428   79.3   0.757  -13.4  0.5062   15.1  0.3927  133.8
 4.900  0.7476   78.1   0.743  -14.4  0.5117   13.8  0.4048  131.7
 5.000  0.7527   76.9   0.729  -15.4  0.5174   12.5  0.4174  129.7
 5.100  0.7521   75.6   0.713  -15.6  0.5187   11.7  0.4157  128.8
 5.200  0.7519   74.4   0.698  -15.7  0.5201   11.0  0.4141  127.8
 5.300  0.7521   73.1   0.682  -15.9  0.5216   10.2  0.4127  126.9
 5.400  0.7526   71.9   0.667  -16.1  0.5232    9.5  0.4113  126.0
 5.500  0.7535   70.6   0.651  -16.3  0.5249    8.7  0.4101  125.0
 5.600  0.7535   69.7   0.649  -17.1  0.5331    7.2  0.4307  123.0
 5.700  0.7536   68.9   0.648  -18.0  0.5416    5.7  0.4517  121.1
 5.800  0.7539   68.0   0.646  -18.8  0.5504    4.3  0.4732  119.4
 5.900  0.7544   67.2   0.645  -19.7  0.5596    2.9  0.4950  117.9
 6.000  0.7550   66.3   0.644  -20.5  0.5691    1.6  0.5172  116.5
!
!  f       NFmin   Gammaopt  rn/50
! GHz       dB    MAG  ANG    -
!
! noise parameter not available yet for this operation point!
!
! (c) 2015  Infineon Technologies AG, Munich
