! Infineon Technologies  Discrete & RF Semiconductors
! BFR106
! VCE =  1.7 V,  IC =  1.5 mA
! Common Emitter S-Parameters:                            Nov 2015
# GHz  S  MA  R  50
!  f         S11            S21            S12            S22
! GHz     MAG   ANG      MAG   ANG      MAG   ANG      MAG   ANG
 0.010  0.9502   -6.1   5.396  175.4  0.0089   87.5  0.9985   -2.2
 0.015  0.9469   -9.0   5.396  173.9  0.0133   84.4  0.9954   -3.3
 0.020  0.9460  -11.9   5.400  172.4  0.0177   82.9  0.9927   -4.4
 0.025  0.9375  -14.8   5.344  170.5  0.0220   79.7  0.9877   -5.4
 0.030  0.9313  -17.7   5.293  168.6  0.0263   77.5  0.9830   -6.4
 0.035  0.9277  -20.6   5.249  166.6  0.0307   75.9  0.9787   -7.4
 0.040  0.9264  -23.6   5.211  164.6  0.0350   74.7  0.9746   -8.4
 0.045  0.9277  -26.6   5.180  162.6  0.0394   73.8  0.9708   -9.5
 0.050  0.9314  -29.5   5.155  160.5  0.0438   73.1  0.9674  -10.5
 0.055  0.9187  -32.0   5.091  159.1  0.0472   70.8  0.9598  -11.3
 0.060  0.9078  -34.5   5.030  157.6  0.0506   68.8  0.9524  -12.1
 0.065  0.8986  -37.1   4.973  156.1  0.0541   67.1  0.9452  -12.9
 0.070  0.8914  -39.8   4.919  154.5  0.0577   65.6  0.9381  -13.8
 0.075  0.8861  -42.4   4.869  152.9  0.0612   64.3  0.9313  -14.6
 0.080  0.8827  -45.1   4.823  151.3  0.0649   63.1  0.9247  -15.5
 0.085  0.8814  -47.9   4.780  149.7  0.0685   62.0  0.9183  -16.4
 0.090  0.8820  -50.6   4.742  148.0  0.0721   61.0  0.9122  -17.3
 0.095  0.8846  -53.3   4.707  146.3  0.0758   60.2  0.9062  -18.2
 0.100  0.8892  -56.0   4.677  144.6  0.0795   59.4  0.9005  -19.1
 0.105  0.8781  -58.1   4.607  143.3  0.0816   57.9  0.8923  -19.7
 0.110  0.8681  -60.2   4.538  142.0  0.0838   56.5  0.8843  -20.3
 0.115  0.8593  -62.3   4.473  140.6  0.0861   55.2  0.8763  -20.9
 0.120  0.8518  -64.6   4.410  139.2  0.0884   53.9  0.8685  -21.6
 0.125  0.8456  -66.8   4.350  137.8  0.0907   52.7  0.8607  -22.2
 0.130  0.8407  -69.1   4.292  136.3  0.0930   51.6  0.8531  -22.9
 0.135  0.8371  -71.4   4.238  134.8  0.0954   50.5  0.8456  -23.5
 0.140  0.8349  -73.7   4.186  133.2  0.0979   49.5  0.8382  -24.2
 0.145  0.8340  -76.0   4.138  131.6  0.1003   48.5  0.8309  -24.9
 0.150  0.8345  -78.3   4.093  130.0  0.1028   47.6  0.8237  -25.6
 0.155  0.8282  -80.0   4.036  129.1  0.1042   46.7  0.8173  -25.9
 0.160  0.8226  -81.7   3.980  128.2  0.1057   45.9  0.8110  -26.3
 0.165  0.8178  -83.4   3.925  127.2  0.1071   45.0  0.8047  -26.6
 0.170  0.8137  -85.2   3.871  126.3  0.1086   44.2  0.7984  -27.0
 0.175  0.8104  -86.9   3.818  125.2  0.1101   43.4  0.7922  -27.4
 0.180  0.8078  -88.7   3.766  124.2  0.1116   42.7  0.7860  -27.7
 0.185  0.8060  -90.5   3.716  123.2  0.1132   41.9  0.7798  -28.1
 0.190  0.8051  -92.3   3.667  122.1  0.1147   41.2  0.7737  -28.5
 0.195  0.8049  -94.1   3.619  120.9  0.1163   40.5  0.7676  -28.9
 0.200  0.8055  -95.9   3.573  119.8  0.1179   39.8  0.7615  -29.3
 0.220  0.7862 -101.7   3.378  116.3  0.1211   37.0  0.7390  -30.5
 0.240  0.7752 -107.7   3.197  112.5  0.1246   34.4  0.7168  -31.7
 0.260  0.7663 -112.9   3.034  109.2  0.1275   32.2  0.6983  -32.8
 0.280  0.7565 -117.3   2.884  106.5  0.1295   30.4  0.6835  -33.7
 0.300  0.7513 -121.8   2.740  103.6  0.1316   28.7  0.6689  -34.6
 0.320  0.7416 -125.1   2.623  101.7  0.1321   27.4  0.6584  -35.3
 0.340  0.7345 -128.5   2.509   99.7  0.1327   26.1  0.6480  -35.9
 0.360  0.7300 -132.0   2.399   97.5  0.1333   24.8  0.6377  -36.6
 0.380  0.7283 -135.5   2.292   95.1  0.1340   23.5  0.6274  -37.4
 0.400  0.7292 -139.0   2.190   92.4  0.1348   22.2  0.6173  -38.1
 0.420  0.7247 -141.4   2.109   90.8  0.1346   21.5  0.6115  -38.8
 0.440  0.7215 -143.9   2.030   89.1  0.1343   20.8  0.6057  -39.4
 0.450  0.7204 -145.2   1.991   88.2  0.1342   20.4  0.6029  -39.8
 0.460  0.7196 -146.4   1.953   87.3  0.1341   20.0  0.6001  -40.1
 0.480  0.7191 -148.9   1.878   85.3  0.1340   19.3  0.5945  -40.8
 0.500  0.7200 -151.4   1.806   83.1  0.1338   18.6  0.5890  -41.5
 0.520  0.7172 -153.4   1.754   81.7  0.1330   18.2  0.5857  -42.2
 0.540  0.7153 -155.4   1.703   80.3  0.1323   17.8  0.5825  -43.0
 0.560  0.7143 -157.4   1.653   78.8  0.1315   17.4  0.5794  -43.8
 0.580  0.7142 -159.5   1.604   77.1  0.1307   17.0  0.5764  -44.5
 0.600  0.7150 -161.5   1.557   75.4  0.1300   16.6  0.5735  -45.3
 0.620  0.7128 -163.1   1.517   74.2  0.1289   16.6  0.5712  -46.1
 0.640  0.7111 -164.7   1.478   72.9  0.1278   16.7  0.5690  -47.0
 0.660  0.7100 -166.3   1.440   71.6  0.1267   16.7  0.5669  -47.9
 0.680  0.7094 -167.9   1.403   70.2  0.1256   16.8  0.5649  -48.7
 0.700  0.7094 -169.5   1.366   68.7  0.1245   16.8  0.5631  -49.6
 0.720  0.7092 -170.9   1.333   67.6  0.1235   17.1  0.5613  -50.5
 0.740  0.7093 -172.3   1.301   66.5  0.1225   17.3  0.5596  -51.3
 0.760  0.7099 -173.7   1.269   65.3  0.1214   17.6  0.5580  -52.2
 0.780  0.7110 -175.1   1.238   64.1  0.1204   17.8  0.5566  -53.0
 0.800  0.7124 -176.5   1.207   62.8  0.1194   18.1  0.5553  -53.9
 0.820  0.7117 -177.7   1.182   61.8  0.1183   18.6  0.5544  -54.8
 0.840  0.7114 -178.9   1.157   60.8  0.1172   19.2  0.5537  -55.7
 0.860  0.7113  179.9   1.132   59.8  0.1162   19.7  0.5530  -56.5
 0.880  0.7116  178.7   1.108   58.7  0.1151   20.3  0.5526  -57.4
 0.900  0.7122  177.5   1.084   57.5  0.1141   20.9  0.5522  -58.3
 0.920  0.7126  176.4   1.064   56.6  0.1131   21.8  0.5520  -59.2
 0.940  0.7133  175.3   1.045   55.7  0.1122   22.6  0.5520  -60.2
 0.960  0.7142  174.1   1.026   54.8  0.1113   23.5  0.5522  -61.1
 0.980  0.7154  173.0   1.007   53.8  0.1104   24.4  0.5525  -62.1
 1.000  0.7169  171.9   0.988   52.8  0.1096   25.3  0.5529  -63.0
 1.020  0.7172  170.7   0.973   51.9  0.1092   26.4  0.5526  -64.0
 1.040  0.7178  169.6   0.958   51.0  0.1088   27.5  0.5526  -65.1
 1.060  0.7187  168.4   0.943   50.1  0.1085   28.6  0.5527  -66.1
 1.080  0.7198  167.3   0.928   49.1  0.1082   29.8  0.5529  -67.2
 1.100  0.7213  166.1   0.914   48.1  0.1079   30.9  0.5534  -68.2
 1.120  0.7224  165.2   0.901   47.3  0.1080   32.2  0.5531  -69.2
 1.140  0.7237  164.2   0.888   46.6  0.1081   33.6  0.5530  -70.3
 1.160  0.7252  163.3   0.876   45.8  0.1083   34.9  0.5530  -71.3
 1.180  0.7268  162.3   0.863   44.9  0.1086   36.2  0.5533  -72.4
 1.200  0.7287  161.4   0.851   44.1  0.1089   37.5  0.5537  -73.4
 1.220  0.7279  160.5   0.839   43.5  0.1099   38.9  0.5532  -74.4
 1.240  0.7274  159.5   0.828   42.9  0.1109   40.3  0.5530  -75.4
 1.260  0.7270  158.6   0.817   42.3  0.1120   41.6  0.5529  -76.5
 1.280  0.7269  157.6   0.805   41.7  0.1132   42.9  0.5529  -77.5
 1.300  0.7269  156.7   0.794   41.0  0.1144   44.2  0.5532  -78.5
 1.320  0.7287  155.9   0.784   40.4  0.1159   45.5  0.5537  -79.6
 1.340  0.7306  155.1   0.775   39.8  0.1175   46.8  0.5543  -80.6
 1.360  0.7327  154.3   0.766   39.2  0.1192   48.0  0.5552  -81.7
 1.380  0.7349  153.5   0.756   38.6  0.1209   49.2  0.5563  -82.7
 1.400  0.7372  152.7   0.747   37.9  0.1226   50.4  0.5575  -83.8
 1.420  0.7372  151.9   0.740   37.4  0.1251   51.5  0.5571  -84.9
 1.440  0.7374  151.1   0.732   36.9  0.1277   52.6  0.5569  -85.9
 1.460  0.7377  150.3   0.725   36.3  0.1303   53.6  0.5569  -87.0
 1.480  0.7381  149.5   0.718   35.8  0.1330   54.6  0.5570  -88.0
 1.500  0.7387  148.7   0.711   35.2  0.1357   55.5  0.5574  -89.1
 1.520  0.7395  147.9   0.701   34.7  0.1387   56.2  0.5572  -90.2
 1.540  0.7404  147.0   0.691   34.2  0.1418   56.9  0.5572  -91.3
 1.560  0.7415  146.2   0.681   33.7  0.1449   57.6  0.5574  -92.4
 1.580  0.7428  145.3   0.672   33.2  0.1480   58.2  0.5578  -93.5
 1.600  0.7442  144.5   0.662   32.7  0.1511   58.8  0.5584  -94.6
 1.620  0.7449  143.7   0.656   32.3  0.1547   59.4  0.5578  -95.7
 1.640  0.7457  142.9   0.649   31.8  0.1583   59.9  0.5575  -96.9
 1.660  0.7466  142.2   0.643   31.3  0.1619   60.4  0.5573  -98.0
 1.680  0.7477  141.4   0.637   30.9  0.1655   60.9  0.5574  -99.2
 1.700  0.7489  140.6   0.631   30.4  0.1691   61.4  0.5577 -100.3
 1.720  0.7501  139.9   0.626   30.1  0.1729   61.6  0.5582 -101.4
 1.740  0.7514  139.2   0.620   29.9  0.1767   61.8  0.5589 -102.4
 1.760  0.7528  138.5   0.615   29.6  0.1806   62.0  0.5598 -103.5
 1.780  0.7544  137.8   0.609   29.4  0.1844   62.1  0.5609 -104.5
 1.800  0.7560  137.1   0.604   29.1  0.1882   62.3  0.5622 -105.6
 1.820  0.7557  136.3   0.600   28.8  0.1925   62.5  0.5632 -106.8
 1.840  0.7555  135.5   0.595   28.4  0.1968   62.6  0.5644 -108.0
 1.860  0.7554  134.6   0.591   28.0  0.2012   62.7  0.5659 -109.2
 1.880  0.7555  133.8   0.586   27.7  0.2055   62.9  0.5676 -110.3
 1.900  0.7558  133.0   0.582   27.3  0.2098   63.0  0.5695 -111.5
 1.920  0.7555  132.4   0.577   27.1  0.2141   62.9  0.5695 -112.7
 1.940  0.7553  131.8   0.573   26.9  0.2184   62.8  0.5697 -113.8
 1.960  0.7552  131.1   0.568   26.8  0.2227   62.7  0.5701 -115.0
 1.980  0.7551  130.5   0.564   26.6  0.2270   62.6  0.5708 -116.1
 2.000  0.7552  129.9   0.559   26.4  0.2313   62.5  0.5717 -117.3
 2.020  0.7554  129.2   0.556   26.2  0.2358   62.2  0.5713 -118.4
 2.040  0.7558  128.6   0.552   26.1  0.2403   62.0  0.5711 -119.6
 2.060  0.7562  127.9   0.549   25.9  0.2448   61.8  0.5711 -120.7
 2.080  0.7568  127.2   0.545   25.7  0.2494   61.5  0.5714 -121.8
 2.100  0.7574  126.5   0.542   25.5  0.2539   61.3  0.5719 -122.9
 2.120  0.7582  125.9   0.539   25.3  0.2584   61.1  0.5726 -124.1
 2.140  0.7590  125.2   0.535   25.2  0.2630   60.9  0.5735 -125.2
 2.160  0.7600  124.5   0.532   25.0  0.2675   60.7  0.5746 -126.3
 2.180  0.7610  123.9   0.528   24.8  0.2721   60.5  0.5759 -127.4
 2.200  0.7622  123.2   0.525   24.6  0.2766   60.3  0.5775 -128.5
 2.220  0.7619  122.5   0.524   24.5  0.2810   59.9  0.5775 -129.7
 2.240  0.7617  121.9   0.522   24.3  0.2854   59.5  0.5778 -130.9
 2.260  0.7615  121.2   0.521   24.2  0.2899   59.1  0.5783 -132.1
 2.280  0.7615  120.6   0.519   24.1  0.2943   58.8  0.5791 -133.4
 2.300  0.7616  119.9   0.518   24.0  0.2988   58.4  0.5801 -134.6
 2.320  0.7618  119.2   0.517   23.8  0.3033   58.1  0.5814 -135.8
 2.340  0.7620  118.6   0.515   23.7  0.3078   57.7  0.5829 -137.0
 2.360  0.7624  117.9   0.514   23.6  0.3123   57.4  0.5847 -138.1
 2.380  0.7629  117.3   0.512   23.4  0.3168   57.1  0.5868 -139.3
 2.400  0.7635  116.6   0.511   23.3  0.3213   56.8  0.5891 -140.5
 2.420  0.7636  116.0   0.510   23.2  0.3253   56.3  0.5886 -141.6
 2.440  0.7638  115.4   0.508   23.1  0.3293   55.8  0.5882 -142.6
 2.460  0.7641  114.8   0.507   23.1  0.3333   55.4  0.5881 -143.7
 2.480  0.7644  114.2   0.505   23.0  0.3374   54.9  0.5882 -144.8
 2.500  0.7649  113.5   0.504   22.9  0.3414   54.5  0.5885 -145.9
 2.520  0.7654  112.9   0.503   22.8  0.3455   54.0  0.5890 -146.9
 2.540  0.7660  112.3   0.501   22.7  0.3497   53.6  0.5897 -148.0
 2.560  0.7667  111.7   0.500   22.7  0.3538   53.2  0.5907 -149.1
 2.580  0.7675  111.1   0.498   22.6  0.3579   52.8  0.5918 -150.1
 2.600  0.7684  110.5   0.497   22.5  0.3621   52.4  0.5931 -151.2
 2.620  0.7676  110.0   0.497   22.4  0.3657   51.9  0.5934 -152.3
 2.640  0.7668  109.5   0.498   22.3  0.3694   51.4  0.5939 -153.5
 2.660  0.7661  108.9   0.498   22.3  0.3731   50.9  0.5946 -154.6
 2.680  0.7654  108.4   0.498   22.2  0.3768   50.4  0.5955 -155.7
 2.700  0.7649  107.9   0.498   22.1  0.3806   49.9  0.5967 -156.9
 2.720  0.7643  107.4   0.499   22.0  0.3844   49.5  0.5982 -158.0
 2.740  0.7639  106.9   0.499   21.9  0.3882   49.0  0.5998 -159.1
 2.760  0.7635  106.3   0.499   21.9  0.3920   48.6  0.6017 -160.2
 2.780  0.7632  105.8   0.500   21.8  0.3958   48.1  0.6038 -161.3
 2.800  0.7629  105.3   0.500   21.7  0.3997   47.7  0.6061 -162.4
 2.820  0.7634  104.8   0.500   21.5  0.4031   47.2  0.6063 -163.4
 2.840  0.7639  104.3   0.501   21.4  0.4066   46.7  0.6066 -164.4
 2.860  0.7644  103.9   0.501   21.2  0.4101   46.1  0.6071 -165.4
 2.880  0.7651  103.4   0.502   21.1  0.4136   45.6  0.6079 -166.4
 2.900  0.7657  102.9   0.502   20.9  0.4172   45.1  0.6088 -167.4
 2.920  0.7665  102.4   0.502   20.8  0.4208   44.7  0.6099 -168.4
 2.940  0.7672  101.9   0.503   20.6  0.4244   44.2  0.6112 -169.4
 2.960  0.7681  101.5   0.503   20.5  0.4280   43.7  0.6126 -170.4
 2.980  0.7690  101.0   0.504   20.3  0.4317   43.3  0.6143 -171.4
 3.000  0.7699  100.5   0.504   20.2  0.4354   42.8  0.6161 -172.4
 3.100  0.7673   98.5   0.507   19.3  0.4467   40.2  0.6146 -177.1
 3.200  0.7657   96.5   0.510   18.4  0.4589   37.7  0.6173  178.2
 3.300  0.7649   94.5   0.513   17.5  0.4719   35.3  0.6241  173.5
 3.400  0.7651   92.5   0.516   16.7  0.4856   33.1  0.6348  169.0
 3.500  0.7663   90.5   0.519   15.8  0.5001   31.0  0.6494  164.7
 3.600  0.7658   89.0   0.522   14.7  0.5058   28.7  0.6497  160.7
 3.700  0.7659   87.4   0.525   13.6  0.5122   26.5  0.6532  156.7
 3.800  0.7666   85.9   0.528   12.6  0.5195   24.3  0.6598  152.8
 3.900  0.7678   84.3   0.531   11.5  0.5274   22.2  0.6694  149.0
 4.000  0.7695   82.8   0.535   10.5  0.5360   20.2  0.6819  145.3
 4.100  0.7678   81.6   0.537    9.3  0.5376   18.3  0.6801  142.2
 4.200  0.7664   80.5   0.538    8.1  0.5398   16.5  0.6803  139.1
 4.300  0.7653   79.3   0.540    6.9  0.5426   14.7  0.6825  136.0
 4.400  0.7645   78.2   0.543    5.8  0.5459   12.9  0.6867  132.9
 4.500  0.7640   77.0   0.545    4.6  0.5497   11.1  0.6928  129.9
 4.600  0.7640   76.0   0.546    3.4  0.5504    9.6  0.6912  127.4
 4.700  0.7643   74.9   0.546    2.2  0.5514    8.2  0.6909  125.0
 4.800  0.7649   73.9   0.547    1.0  0.5528    6.7  0.6918  122.5
 4.900  0.7657   72.8   0.549   -0.1  0.5545    5.2  0.6941  120.0
 5.000  0.7667   71.8   0.550   -1.3  0.5566    3.8  0.6976  117.6
 5.100  0.7640   70.8   0.550   -1.6  0.5576    3.1  0.6906  116.8
 5.200  0.7616   69.8   0.550   -1.9  0.5587    2.5  0.6836  116.0
 5.300  0.7594   68.8   0.551   -2.1  0.5598    1.8  0.6769  115.1
 5.400  0.7574   67.7   0.551   -2.4  0.5610    1.2  0.6703  114.3
 5.500  0.7557   66.7   0.551   -2.7  0.5623    0.5  0.6638  113.4
 5.600  0.7551   66.0   0.553   -4.0  0.5657   -1.0  0.6736  111.3
 5.700  0.7546   65.4   0.556   -5.2  0.5694   -2.6  0.6844  109.3
 5.800  0.7543   64.7   0.559   -6.5  0.5736   -4.1  0.6959  107.3
 5.900  0.7540   64.1   0.562   -7.7  0.5782   -5.5  0.7082  105.4
 6.000  0.7538   63.4   0.565   -8.9  0.5831   -7.0  0.7213  103.6
!
!  f       NFmin   Gammaopt  rn/50
! GHz       dB    MAG  ANG    -
!
! noise parameter not available yet for this operation point!
!
! (c) 2015  Infineon Technologies AG, Munich
