! Infineon Technologies  Discrete & RF Semiconductors
! BFR106
! VCE = 0.75 V,  IC =  15 mA
! Common Emitter S-Parameters:                            Nov 2015
# GHz  S  MA  R  50
!  f         S11            S21            S12            S22
! GHz     MAG   ANG      MAG   ANG      MAG   ANG      MAG   ANG
 0.010  0.5914  -28.2  37.084  165.5  0.0104   79.9  0.9458  -16.5
 0.015  0.5754  -40.9  35.522  159.7  0.0149   72.7  0.9074  -24.1
 0.020  0.5885  -53.7  34.358  153.4  0.0195   68.9  0.8861  -32.2
 0.025  0.5616  -61.5  32.323  150.3  0.0219   64.0  0.8309  -36.3
 0.030  0.5462  -70.0  30.393  146.9  0.0245   60.1  0.7805  -40.9
 0.035  0.5432  -78.8  28.590  142.9  0.0272   57.0  0.7359  -46.1
 0.040  0.5528  -87.4  26.938  138.5  0.0299   54.4  0.6981  -51.9
 0.045  0.5744  -95.6  25.467  133.5  0.0327   52.3  0.6683  -58.4
 0.050  0.6067 -103.0  24.211  128.0  0.0355   50.5  0.6476  -65.3
 0.055  0.5981 -106.6  23.189  126.8  0.0365   49.4  0.6203  -67.4
 0.060  0.5919 -110.2  22.179  125.5  0.0376   48.4  0.5939  -69.6
 0.065  0.5882 -114.0  21.180  124.1  0.0386   47.5  0.5685  -72.1
 0.070  0.5870 -117.7  20.196  122.5  0.0397   46.6  0.5443  -74.8
 0.075  0.5883 -121.5  19.228  120.8  0.0408   45.7  0.5213  -77.7
 0.080  0.5922 -125.2  18.280  118.9  0.0419   44.9  0.4999  -80.9
 0.085  0.5984 -128.9  17.353  116.8  0.0430   44.2  0.4802  -84.4
 0.090  0.6071 -132.4  16.452  114.5  0.0441   43.4  0.4623  -88.2
 0.095  0.6181 -135.9  15.582  111.9  0.0452   42.8  0.4466  -92.2
 0.100  0.6312 -139.2  14.748  109.0  0.0463   42.1  0.4333  -96.5
 0.105  0.6288 -140.7  14.284  108.3  0.0469   42.2  0.4232  -98.0
 0.110  0.6268 -142.3  13.822  107.6  0.0475   42.3  0.4134  -99.6
 0.115  0.6252 -143.8  13.363  106.9  0.0480   42.4  0.4039 -101.3
 0.120  0.6241 -145.4  12.906  106.1  0.0486   42.5  0.3948 -103.0
 0.125  0.6235 -146.9  12.451  105.2  0.0492   42.6  0.3860 -104.8
 0.130  0.6233 -148.5  12.000  104.3  0.0498   42.7  0.3777 -106.7
 0.135  0.6236 -150.0  11.552  103.2  0.0504   42.8  0.3698 -108.7
 0.140  0.6244 -151.6  11.108  102.2  0.0509   42.8  0.3624 -110.8
 0.145  0.6256 -153.2  10.669  101.0  0.0515   42.9  0.3554 -113.0
 0.150  0.6273 -154.7  10.234   99.7  0.0521   43.0  0.3490 -115.2
 0.155  0.6274 -155.6   9.992   99.3  0.0527   43.3  0.3438 -116.2
 0.160  0.6276 -156.4   9.750   98.8  0.0533   43.6  0.3388 -117.2
 0.165  0.6280 -157.3   9.509   98.3  0.0539   43.8  0.3338 -118.3
 0.170  0.6286 -158.1   9.269   97.8  0.0546   44.1  0.3290 -119.4
 0.175  0.6292 -159.0   9.030   97.2  0.0552   44.4  0.3242 -120.5
 0.180  0.6300 -159.8   8.792   96.7  0.0558   44.6  0.3197 -121.6
 0.185  0.6310 -160.7   8.554   96.0  0.0564   44.9  0.3152 -122.8
 0.190  0.6320 -161.5   8.318   95.4  0.0571   45.1  0.3109 -124.1
 0.195  0.6332 -162.4   8.082   94.7  0.0577   45.4  0.3067 -125.3
 0.200  0.6346 -163.2   7.848   94.0  0.0583   45.6  0.3027 -126.6
 0.220  0.6352 -165.8   7.226   92.5  0.0608   46.7  0.2926 -130.4
 0.240  0.6371 -168.3   6.611   90.6  0.0633   47.7  0.2838 -134.5
 0.260  0.6383 -170.4   6.102   89.1  0.0658   48.8  0.2777 -137.8
 0.280  0.6383 -172.1   5.696   87.9  0.0684   49.9  0.2734 -140.3
 0.300  0.6389 -173.7   5.293   86.5  0.0709   51.0  0.2697 -142.8
 0.320  0.6390 -175.1   5.036   85.6  0.0738   51.8  0.2663 -144.7
 0.340  0.6394 -176.5   4.780   84.7  0.0767   52.6  0.2632 -146.6
 0.360  0.6402 -177.9   4.526   83.6  0.0796   53.3  0.2605 -148.5
 0.380  0.6414 -179.3   4.273   82.4  0.0825   53.9  0.2580 -150.5
 0.400  0.6430  179.3   4.023   81.0  0.0854   54.5  0.2558 -152.5
 0.420  0.6432  178.3   3.865   80.2  0.0883   55.0  0.2543 -153.8
 0.440  0.6436  177.3   3.707   79.3  0.0912   55.5  0.2529 -155.1
 0.450  0.6438  176.8   3.628   78.9  0.0927   55.7  0.2522 -155.8
 0.460  0.6442  176.3   3.550   78.4  0.0941   55.9  0.2516 -156.4
 0.480  0.6449  175.3   3.394   77.3  0.0971   56.3  0.2505 -157.8
 0.500  0.6459  174.3   3.240   76.2  0.1000   56.7  0.2495 -159.1
 0.520  0.6460  173.4   3.136   75.4  0.1031   57.0  0.2492 -159.9
 0.540  0.6462  172.5   3.033   74.5  0.1062   57.2  0.2490 -160.8
 0.560  0.6466  171.5   2.930   73.6  0.1092   57.5  0.2488 -161.6
 0.580  0.6472  170.6   2.829   72.6  0.1123   57.7  0.2487 -162.5
 0.600  0.6479  169.7   2.728   71.5  0.1154   57.9  0.2486 -163.3
 0.620  0.6481  168.8   2.656   70.7  0.1186   58.0  0.2492 -164.0
 0.640  0.6485  168.0   2.584   69.8  0.1218   58.0  0.2499 -164.8
 0.660  0.6491  167.1   2.512   69.0  0.1250   58.1  0.2506 -165.5
 0.680  0.6498  166.3   2.442   68.0  0.1282   58.1  0.2514 -166.3
 0.700  0.6506  165.4   2.372   67.0  0.1314   58.2  0.2522 -167.0
 0.720  0.6506  164.7   2.315   66.3  0.1347   58.2  0.2525 -167.7
 0.740  0.6506  164.0   2.259   65.7  0.1380   58.2  0.2529 -168.4
 0.760  0.6508  163.4   2.203   64.9  0.1412   58.1  0.2533 -169.2
 0.780  0.6511  162.7   2.147   64.2  0.1445   58.1  0.2537 -169.9
 0.800  0.6514  162.0   2.092   63.4  0.1478   58.1  0.2542 -170.6
 0.820  0.6504  161.2   2.050   62.7  0.1510   58.0  0.2542 -171.2
 0.840  0.6494  160.4   2.008   61.9  0.1542   58.0  0.2543 -171.8
 0.860  0.6486  159.7   1.967   61.2  0.1573   57.9  0.2544 -172.3
 0.880  0.6480  158.9   1.926   60.3  0.1605   57.9  0.2545 -172.9
 0.900  0.6474  158.1   1.885   59.5  0.1637   57.8  0.2547 -173.5
 0.920  0.6483  157.4   1.851   58.9  0.1669   57.6  0.2558 -173.9
 0.940  0.6493  156.6   1.818   58.2  0.1700   57.5  0.2569 -174.3
 0.960  0.6504  155.9   1.785   57.5  0.1732   57.3  0.2580 -174.6
 0.980  0.6517  155.1   1.752   56.8  0.1763   57.1  0.2591 -175.0
 1.000  0.6530  154.4   1.719   56.0  0.1795   57.0  0.2602 -175.4
 1.020  0.6537  153.7   1.692   55.3  0.1826   56.8  0.2616 -175.9
 1.040  0.6544  153.0   1.666   54.6  0.1857   56.7  0.2630 -176.4
 1.060  0.6552  152.4   1.640   53.9  0.1887   56.5  0.2645 -176.9
 1.080  0.6562  151.7   1.614   53.1  0.1918   56.3  0.2659 -177.3
 1.100  0.6572  151.0   1.588   52.3  0.1949   56.2  0.2674 -177.8
 1.120  0.6580  150.3   1.565   51.7  0.1981   56.0  0.2684 -178.3
 1.140  0.6588  149.6   1.542   51.0  0.2012   55.8  0.2695 -178.8
 1.160  0.6598  148.9   1.520   50.3  0.2044   55.6  0.2705 -179.3
 1.180  0.6608  148.2   1.497   49.6  0.2075   55.4  0.2716 -179.8
 1.200  0.6620  147.5   1.475   48.9  0.2107   55.2  0.2727  179.7
 1.220  0.6616  146.9   1.455   48.3  0.2139   54.9  0.2736  179.2
 1.240  0.6612  146.3   1.436   47.7  0.2170   54.7  0.2746  178.8
 1.260  0.6610  145.8   1.417   47.1  0.2202   54.4  0.2755  178.3
 1.280  0.6607  145.2   1.398   46.5  0.2234   54.1  0.2765  177.9
 1.300  0.6606  144.6   1.379   45.8  0.2266   53.9  0.2775  177.4
 1.320  0.6619  144.1   1.363   45.3  0.2296   53.6  0.2790  177.0
 1.340  0.6633  143.5   1.347   44.7  0.2326   53.4  0.2805  176.6
 1.360  0.6647  143.0   1.332   44.2  0.2356   53.1  0.2820  176.2
 1.380  0.6662  142.4   1.316   43.6  0.2387   52.8  0.2835  175.9
 1.400  0.6677  141.9   1.301   43.0  0.2417   52.6  0.2850  175.5
 1.420  0.6675  141.3   1.290   42.4  0.2447   52.3  0.2865  175.1
 1.440  0.6675  140.7   1.279   41.8  0.2476   52.1  0.2879  174.8
 1.460  0.6674  140.2   1.269   41.2  0.2506   51.9  0.2894  174.4
 1.480  0.6675  139.6   1.258   40.5  0.2536   51.6  0.2909  174.1
 1.500  0.6676  139.0   1.248   39.9  0.2566   51.4  0.2924  173.7
 1.520  0.6685  138.4   1.233   39.3  0.2595   51.1  0.2940  173.2
 1.540  0.6694  137.8   1.218   38.7  0.2624   50.8  0.2956  172.7
 1.560  0.6704  137.3   1.203   38.0  0.2653   50.5  0.2972  172.2
 1.580  0.6715  136.7   1.188   37.4  0.2682   50.2  0.2988  171.8
 1.600  0.6726  136.1   1.174   36.7  0.2711   49.9  0.3005  171.3
 1.620  0.6735  135.5   1.164   36.2  0.2740   49.6  0.3019  170.8
 1.640  0.6744  134.9   1.154   35.6  0.2769   49.3  0.3034  170.3
 1.660  0.6755  134.2   1.144   35.1  0.2798   49.0  0.3049  169.8
 1.680  0.6766  133.6   1.134   34.6  0.2828   48.8  0.3064  169.3
 1.700  0.6778  133.0   1.124   34.0  0.2857   48.5  0.3079  168.8
 1.720  0.6790  132.4   1.115   33.6  0.2885   48.2  0.3092  168.5
 1.740  0.6803  131.9   1.107   33.1  0.2912   47.8  0.3105  168.1
 1.760  0.6816  131.3   1.099   32.6  0.2940   47.5  0.3118  167.8
 1.780  0.6830  130.8   1.090   32.2  0.2968   47.2  0.3131  167.4
 1.800  0.6845  130.2   1.082   31.7  0.2996   46.9  0.3144  167.1
 1.820  0.6847  129.7   1.074   31.2  0.3024   46.6  0.3165  166.7
 1.840  0.6850  129.2   1.065   30.6  0.3051   46.2  0.3187  166.3
 1.860  0.6853  128.7   1.057   30.0  0.3079   45.9  0.3208  165.9
 1.880  0.6857  128.2   1.049   29.5  0.3107   45.6  0.3230  165.6
 1.900  0.6861  127.7   1.041   28.9  0.3135   45.3  0.3252  165.2
 1.920  0.6864  127.2   1.033   28.4  0.3162   45.0  0.3274  164.7
 1.940  0.6867  126.7   1.024   27.9  0.3190   44.6  0.3296  164.2
 1.960  0.6871  126.2   1.016   27.4  0.3218   44.3  0.3318  163.7
 1.980  0.6875  125.7   1.008   26.9  0.3245   44.0  0.3340  163.2
 2.000  0.6880  125.2   1.000   26.4  0.3273   43.7  0.3363  162.7
 2.020  0.6886  124.7   0.993   26.0  0.3298   43.4  0.3379  162.2
 2.040  0.6892  124.2   0.986   25.5  0.3324   43.0  0.3396  161.8
 2.060  0.6899  123.7   0.980   25.1  0.3349   42.7  0.3412  161.3
 2.080  0.6907  123.2   0.973   24.7  0.3375   42.4  0.3429  160.9
 2.100  0.6915  122.7   0.966   24.2  0.3400   42.0  0.3446  160.4
 2.120  0.6923  122.2   0.960   23.8  0.3426   41.7  0.3464  160.0
 2.140  0.6933  121.7   0.953   23.3  0.3452   41.4  0.3481  159.6
 2.160  0.6942  121.2   0.947   22.8  0.3478   41.1  0.3499  159.1
 2.180  0.6952  120.7   0.940   22.4  0.3504   40.8  0.3517  158.7
 2.200  0.6963  120.2   0.934   21.9  0.3530   40.5  0.3535  158.3
 2.220  0.6965  119.6   0.929   21.5  0.3554   40.1  0.3560  157.8
 2.240  0.6968  119.1   0.924   21.0  0.3579   39.8  0.3585  157.3
 2.260  0.6971  118.5   0.919   20.6  0.3603   39.5  0.3610  156.8
 2.280  0.6975  118.0   0.914   20.1  0.3628   39.1  0.3635  156.3
 2.300  0.6980  117.4   0.909   19.7  0.3652   38.8  0.3661  155.8
 2.320  0.6985  116.9   0.904   19.2  0.3677   38.5  0.3687  155.3
 2.340  0.6991  116.3   0.900   18.7  0.3702   38.1  0.3714  154.9
 2.360  0.6998  115.8   0.895   18.3  0.3727   37.8  0.3740  154.4
 2.380  0.7005  115.2   0.891   17.8  0.3753   37.5  0.3767  153.9
 2.400  0.7013  114.7   0.886   17.3  0.3778   37.2  0.3794  153.5
 2.420  0.7022  114.2   0.881   16.9  0.3799   36.8  0.3811  153.1
 2.440  0.7032  113.7   0.876   16.6  0.3819   36.5  0.3828  152.6
 2.460  0.7043  113.2   0.871   16.2  0.3840   36.1  0.3845  152.2
 2.480  0.7054  112.7   0.866   15.8  0.3862   35.8  0.3862  151.7
 2.500  0.7066  112.2   0.861   15.4  0.3883   35.5  0.3880  151.3
 2.520  0.7078  111.7   0.856   15.0  0.3904   35.1  0.3898  150.9
 2.540  0.7090  111.3   0.851   14.6  0.3926   34.8  0.3916  150.4
 2.560  0.7103  110.8   0.846   14.2  0.3947   34.5  0.3934  150.0
 2.580  0.7117  110.3   0.841   13.8  0.3969   34.1  0.3952  149.6
 2.600  0.7131  109.8   0.836   13.4  0.3991   33.8  0.3971  149.2
 2.620  0.7137  109.4   0.832   13.1  0.4010   33.5  0.3997  148.7
 2.640  0.7143  109.0   0.828   12.8  0.4029   33.1  0.4023  148.2
 2.660  0.7150  108.6   0.825   12.4  0.4048   32.8  0.4049  147.8
 2.680  0.7157  108.1   0.821   12.1  0.4067   32.4  0.4076  147.3
 2.700  0.7165  107.7   0.817   11.8  0.4086   32.1  0.4103  146.8
 2.720  0.7173  107.3   0.813   11.5  0.4106   31.8  0.4130  146.4
 2.740  0.7181  106.9   0.810   11.1  0.4125   31.5  0.4157  145.9
 2.760  0.7190  106.5   0.806   10.8  0.4145   31.1  0.4185  145.5
 2.780  0.7199  106.1   0.803   10.4  0.4165   30.8  0.4213  145.0
 2.800  0.7208  105.7   0.799   10.1  0.4185   30.5  0.4241  144.6
 2.820  0.7219  105.3   0.795    9.8  0.4204   30.2  0.4261  144.2
 2.840  0.7230  104.8   0.791    9.4  0.4222   29.8  0.4281  143.7
 2.860  0.7241  104.4   0.787    9.1  0.4241   29.5  0.4301  143.3
 2.880  0.7253  104.0   0.783    8.7  0.4260   29.1  0.4321  142.9
 2.900  0.7265  103.6   0.780    8.4  0.4280   28.8  0.4342  142.4
 2.920  0.7278  103.2   0.776    8.0  0.4299   28.5  0.4362  142.0
 2.940  0.7291  102.7   0.772    7.7  0.4319   28.2  0.4383  141.6
 2.960  0.7304  102.3   0.768    7.3  0.4338   27.8  0.4405  141.2
 2.980  0.7318  101.9   0.765    7.0  0.4358   27.5  0.4426  140.8
 3.000  0.7332  101.5   0.761    6.6  0.4378   27.2  0.4448  140.4
 3.100  0.7354   99.6   0.746    5.4  0.4446   25.6  0.4559  138.1
 3.200  0.7385   97.8   0.731    4.2  0.4517   24.0  0.4677  136.0
 3.300  0.7422   95.9   0.716    2.9  0.4592   22.4  0.4802  134.0
 3.400  0.7468   94.1   0.702    1.5  0.4670   20.9  0.4932  132.0
 3.500  0.7521   92.3   0.688    0.1  0.4751   19.5  0.5067  130.2
 3.600  0.7544   90.8   0.678   -0.8  0.4792   17.9  0.5171  128.1
 3.700  0.7572   89.3   0.668   -1.7  0.4837   16.4  0.5282  126.0
 3.800  0.7605   87.8   0.658   -2.7  0.4886   14.8  0.5399  124.1
 3.900  0.7643   86.4   0.648   -3.7  0.4938   13.4  0.5523  122.2
 4.000  0.7686   84.9   0.639   -4.7  0.4993   11.9  0.5652  120.4
 4.100  0.7690   83.6   0.630   -5.6  0.5012   10.5  0.5707  118.5
 4.200  0.7698   82.3   0.622   -6.5  0.5034    9.2  0.5768  116.7
 4.300  0.7710   81.0   0.614   -7.4  0.5059    7.8  0.5835  114.9
 4.400  0.7726   79.7   0.606   -8.3  0.5086    6.5  0.5907  113.2
 4.500  0.7746   78.4   0.598   -9.3  0.5116    5.2  0.5985  111.5
 4.600  0.7756   77.3   0.593  -10.0  0.5129    4.0  0.6020  109.9
 4.700  0.7770   76.1   0.587  -10.7  0.5144    2.9  0.6060  108.2
 4.800  0.7786   75.0   0.582  -11.5  0.5161    1.7  0.6105  106.6
 4.900  0.7806   73.9   0.577  -12.2  0.5181    0.5  0.6155  105.1
 5.000  0.7828   72.8   0.572  -13.0  0.5202   -0.6  0.6209  103.5
 5.100  0.7799   71.8   0.571  -13.0  0.5235   -1.2  0.6213  103.3
 5.200  0.7773   70.7   0.569  -13.1  0.5269   -1.7  0.6217  103.0
 5.300  0.7750   69.7   0.568  -13.1  0.5304   -2.3  0.6222  102.8
 5.400  0.7728   68.7   0.566  -13.2  0.5339   -2.9  0.6226  102.5
 5.500  0.7710   67.6   0.565  -13.2  0.5374   -3.4  0.6231  102.3
 5.600  0.7709   66.8   0.564  -14.1  0.5401   -4.7  0.6321  100.7
 5.700  0.7709   66.1   0.563  -14.9  0.5432   -6.0  0.6415   99.2
 5.800  0.7710   65.3   0.562  -15.8  0.5465   -7.2  0.6514   97.7
 5.900  0.7713   64.6   0.561  -16.6  0.5500   -8.5  0.6617   96.2
 6.000  0.7717   63.8   0.560  -17.5  0.5538   -9.7  0.6724   94.8
!
!  f       NFmin   Gammaopt  rn/50
! GHz       dB    MAG  ANG    -
!
! noise parameter not available yet for this operation point!
!
! (c) 2015  Infineon Technologies AG, Munich
