! Infineon Technologies  Discrete & RF Semiconductors
! BFR106
! VCE = 0.50 V,  IC =  5.0 mA
! Common Emitter S-Parameters:                            Nov 2015
# GHz  S  MA  R  50
!  f         S11            S21            S12            S22
! GHz     MAG   ANG      MAG   ANG      MAG   ANG      MAG   ANG
 0.010  0.8285  -14.9  16.062  170.8  0.0146   83.2  0.9800   -9.2
 0.015  0.8174  -21.9  15.812  167.1  0.0217   77.8  0.9663  -13.6
 0.020  0.8187  -29.0  15.631  163.2  0.0289   75.1  0.9584  -18.1
 0.025  0.7894  -34.5  15.089  160.2  0.0340   69.8  0.9255  -21.3
 0.030  0.7679  -40.4  14.592  157.0  0.0393   66.0  0.8956  -24.7
 0.035  0.7548  -46.5  14.144  153.5  0.0448   63.0  0.8691  -28.3
 0.040  0.7507  -52.8  13.750  149.9  0.0503   60.7  0.8463  -32.2
 0.045  0.7557  -59.1  13.415  146.0  0.0559   58.9  0.8275  -36.2
 0.050  0.7695  -65.2  13.144  142.0  0.0616   57.4  0.8130  -40.4
 0.055  0.7486  -68.9  12.713  140.4  0.0639   55.1  0.7861  -42.2
 0.060  0.7309  -72.7  12.293  138.8  0.0663   53.0  0.7601  -44.1
 0.065  0.7168  -76.8  11.883  137.0  0.0688   51.1  0.7349  -46.1
 0.070  0.7063  -80.9  11.486  135.1  0.0714   49.3  0.7108  -48.3
 0.075  0.6996  -85.2  11.103  133.0  0.0740   47.6  0.6877  -50.7
 0.080  0.6969  -89.6  10.734  130.8  0.0767   46.0  0.6659  -53.2
 0.085  0.6982  -93.9  10.383  128.5  0.0794   44.5  0.6454  -55.8
 0.090  0.7036  -98.2  10.050  126.0  0.0822   43.2  0.6264  -58.6
 0.095  0.7128 -102.4   9.737  123.3  0.0850   41.9  0.6090  -61.6
 0.100  0.7257 -106.5   9.447  120.5  0.0879   40.7  0.5934  -64.8
 0.105  0.7170 -108.6   9.181  119.5  0.0889   39.8  0.5784  -66.0
 0.110  0.7094 -110.8   8.918  118.5  0.0899   39.0  0.5636  -67.2
 0.115  0.7028 -113.0   8.657  117.4  0.0910   38.1  0.5491  -68.5
 0.120  0.6972 -115.3   8.400  116.3  0.0920   37.3  0.5349  -69.8
 0.125  0.6927 -117.5   8.147  115.0  0.0931   36.5  0.5210  -71.3
 0.130  0.6894 -119.8   7.897  113.7  0.0942   35.7  0.5075  -72.8
 0.135  0.6872 -122.2   7.652  112.3  0.0953   35.0  0.4943  -74.4
 0.140  0.6861 -124.5   7.412  110.9  0.0964   34.2  0.4816  -76.1
 0.145  0.6862 -126.9   7.177  109.3  0.0975   33.5  0.4693  -77.8
 0.150  0.6874 -129.2   6.948  107.6  0.0987   32.8  0.4574  -79.7
 0.155  0.6854 -130.6   6.798  107.0  0.0992   32.5  0.4487  -80.5
 0.160  0.6838 -131.9   6.649  106.3  0.0997   32.2  0.4400  -81.3
 0.165  0.6825 -133.3   6.500  105.6  0.1003   31.9  0.4315  -82.1
 0.170  0.6817 -134.7   6.353  104.8  0.1008   31.6  0.4230  -83.0
 0.175  0.6813 -136.0   6.207  104.1  0.1013   31.4  0.4147  -83.9
 0.180  0.6812 -137.4   6.062  103.3  0.1019   31.1  0.4065  -84.8
 0.185  0.6815 -138.8   5.918  102.4  0.1024   30.8  0.3983  -85.8
 0.190  0.6823 -140.2   5.776  101.5  0.1029   30.5  0.3903  -86.8
 0.195  0.6834 -141.5   5.635  100.6  0.1035   30.3  0.3824  -87.9
 0.200  0.6849 -142.9   5.496   99.6  0.1040   30.0  0.3747  -89.0
 0.220  0.6788 -146.8   5.078   97.4  0.1054   29.4  0.3521  -92.0
 0.240  0.6759 -150.8   4.669   94.8  0.1067   28.9  0.3306  -95.5
 0.260  0.6741 -154.2   4.327   92.5  0.1079   28.6  0.3143  -98.5
 0.280  0.6719 -156.9   4.048   90.8  0.1090   28.5  0.3026 -100.8
 0.300  0.6713 -159.6   3.773   88.9  0.1101   28.5  0.2914 -103.3
 0.320  0.6698 -161.6   3.594   87.7  0.1113   28.8  0.2832 -104.9
 0.340  0.6691 -163.7   3.416   86.3  0.1124   29.0  0.2752 -106.7
 0.360  0.6693 -165.7   3.241   84.8  0.1136   29.2  0.2675 -108.5
 0.380  0.6703 -167.8   3.068   83.2  0.1147   29.5  0.2600 -110.4
 0.400  0.6722 -169.8   2.898   81.3  0.1159   29.7  0.2529 -112.5
 0.420  0.6717 -171.2   2.786   80.2  0.1170   30.2  0.2491 -113.8
 0.440  0.6715 -172.6   2.674   79.1  0.1181   30.6  0.2455 -115.2
 0.450  0.6716 -173.3   2.619   78.4  0.1187   30.9  0.2438 -115.9
 0.460  0.6718 -174.0   2.564   77.8  0.1192   31.1  0.2421 -116.6
 0.480  0.6724 -175.4   2.455   76.4  0.1204   31.6  0.2388 -118.1
 0.500  0.6735 -176.8   2.348   74.9  0.1215   32.0  0.2356 -119.6
 0.520  0.6731 -178.1   2.274   73.9  0.1229   32.5  0.2347 -120.7
 0.540  0.6731 -179.3   2.201   72.7  0.1242   33.0  0.2340 -121.7
 0.560  0.6734  179.4   2.129   71.5  0.1256   33.5  0.2333 -122.8
 0.580  0.6740  178.2   2.057   70.3  0.1270   34.0  0.2326 -123.9
 0.600  0.6750  176.9   1.987   68.9  0.1284   34.5  0.2321 -125.0
 0.620  0.6756  175.9   1.935   67.9  0.1299   35.0  0.2326 -126.0
 0.640  0.6764  175.0   1.883   66.9  0.1313   35.5  0.2331 -127.0
 0.660  0.6774  174.0   1.832   65.8  0.1328   36.0  0.2337 -128.0
 0.680  0.6785  173.1   1.782   64.7  0.1343   36.5  0.2344 -128.9
 0.700  0.6799  172.1   1.732   63.5  0.1358   37.0  0.2351 -129.9
 0.720  0.6795  171.3   1.691   62.7  0.1376   37.4  0.2356 -130.8
 0.740  0.6793  170.4   1.651   61.8  0.1394   37.9  0.2362 -131.7
 0.760  0.6793  169.6   1.611   60.9  0.1412   38.3  0.2368 -132.6
 0.780  0.6794  168.7   1.572   59.9  0.1431   38.7  0.2375 -133.5
 0.800  0.6796  167.9   1.533   58.9  0.1449   39.1  0.2382 -134.4
 0.820  0.6788  167.0   1.502   58.1  0.1469   39.5  0.2393 -135.1
 0.840  0.6782  166.1   1.472   57.2  0.1488   39.9  0.2404 -135.9
 0.860  0.6777  165.3   1.442   56.4  0.1508   40.3  0.2416 -136.6
 0.880  0.6774  164.4   1.412   55.5  0.1528   40.7  0.2428 -137.3
 0.900  0.6773  163.5   1.383   54.5  0.1548   41.1  0.2440 -138.0
 0.920  0.6784  162.6   1.359   53.7  0.1568   41.5  0.2462 -138.7
 0.940  0.6796  161.7   1.335   52.9  0.1588   41.8  0.2485 -139.4
 0.960  0.6810  160.8   1.311   52.0  0.1608   42.1  0.2508 -140.1
 0.980  0.6825  160.0   1.288   51.1  0.1628   42.5  0.2531 -140.7
 1.000  0.6842  159.1   1.265   50.2  0.1648   42.8  0.2555 -141.4
 1.020  0.6849  158.3   1.247   49.4  0.1671   43.1  0.2579 -142.2
 1.040  0.6857  157.6   1.229   48.7  0.1693   43.3  0.2603 -143.0
 1.060  0.6867  156.8   1.211   47.9  0.1716   43.6  0.2627 -143.8
 1.080  0.6877  156.1   1.193   47.0  0.1739   43.9  0.2652 -144.5
 1.100  0.6889  155.3   1.176   46.2  0.1762   44.1  0.2678 -145.3
 1.120  0.6902  154.5   1.159   45.5  0.1786   44.3  0.2699 -146.1
 1.140  0.6915  153.8   1.143   44.8  0.1811   44.5  0.2721 -146.9
 1.160  0.6930  153.0   1.127   44.0  0.1835   44.7  0.2743 -147.7
 1.180  0.6947  152.3   1.111   43.3  0.1860   44.9  0.2766 -148.4
 1.200  0.6964  151.5   1.095   42.5  0.1884   45.1  0.2789 -149.2
 1.220  0.6960  150.8   1.081   41.9  0.1911   45.2  0.2809 -149.9
 1.240  0.6957  150.2   1.067   41.2  0.1938   45.3  0.2829 -150.6
 1.260  0.6955  149.5   1.053   40.5  0.1964   45.5  0.2849 -151.3
 1.280  0.6954  148.9   1.039   39.8  0.1991   45.6  0.2870 -152.0
 1.300  0.6954  148.2   1.025   39.1  0.2018   45.7  0.2891 -152.7
 1.320  0.6969  147.6   1.013   38.6  0.2045   45.8  0.2920 -153.3
 1.340  0.6985  147.0   1.001   38.0  0.2072   45.8  0.2950 -154.0
 1.360  0.7002  146.3   0.989   37.5  0.2099   45.9  0.2980 -154.6
 1.380  0.7020  145.7   0.978   36.9  0.2126   45.9  0.3010 -155.2
 1.400  0.7038  145.1   0.966   36.3  0.2153   46.0  0.3041 -155.8
 1.420  0.7040  144.5   0.958   35.7  0.2182   46.0  0.3067 -156.5
 1.440  0.7043  143.8   0.950   35.1  0.2211   46.1  0.3093 -157.3
 1.460  0.7047  143.2   0.942   34.5  0.2239   46.1  0.3120 -158.0
 1.480  0.7051  142.5   0.935   33.8  0.2268   46.2  0.3147 -158.7
 1.500  0.7057  141.9   0.927   33.2  0.2297   46.2  0.3175 -159.4
 1.520  0.7064  141.2   0.916   32.6  0.2326   46.1  0.3201 -160.1
 1.540  0.7073  140.6   0.904   32.0  0.2355   46.1  0.3228 -160.9
 1.560  0.7082  139.9   0.893   31.3  0.2383   46.0  0.3256 -161.6
 1.580  0.7092  139.3   0.882   30.7  0.2412   46.0  0.3284 -162.3
 1.600  0.7103  138.6   0.871   30.0  0.2441   45.9  0.3312 -163.0
 1.620  0.7116  137.9   0.863   29.5  0.2470   45.8  0.3335 -163.8
 1.640  0.7129  137.3   0.856   29.0  0.2499   45.8  0.3358 -164.6
 1.660  0.7143  136.6   0.849   28.5  0.2529   45.7  0.3382 -165.4
 1.680  0.7159  136.0   0.841   27.9  0.2558   45.7  0.3407 -166.1
 1.700  0.7175  135.3   0.834   27.4  0.2587   45.6  0.3432 -166.9
 1.720  0.7184  134.7   0.828   27.0  0.2617   45.4  0.3456 -167.5
 1.740  0.7194  134.0   0.822   26.6  0.2648   45.3  0.3481 -168.2
 1.760  0.7204  133.4   0.816   26.2  0.2678   45.1  0.3506 -168.8
 1.780  0.7216  132.7   0.810   25.7  0.2709   45.0  0.3532 -169.4
 1.800  0.7228  132.1   0.804   25.3  0.2739   44.8  0.3558 -170.0
 1.820  0.7232  131.5   0.798   24.8  0.2770   44.6  0.3591 -170.7
 1.840  0.7238  130.9   0.793   24.3  0.2801   44.5  0.3626 -171.4
 1.860  0.7244  130.3   0.788   23.8  0.2833   44.3  0.3660 -172.1
 1.880  0.7250  129.7   0.782   23.3  0.2864   44.2  0.3695 -172.8
 1.900  0.7258  129.1   0.777   22.8  0.2895   44.0  0.3731 -173.5
 1.920  0.7260  128.6   0.771   22.4  0.2926   43.8  0.3760 -174.3
 1.940  0.7263  128.1   0.764   22.1  0.2957   43.5  0.3790 -175.1
 1.960  0.7266  127.5   0.758   21.7  0.2988   43.3  0.3820 -175.8
 1.980  0.7270  127.0   0.751   21.3  0.3019   43.1  0.3851 -176.6
 2.000  0.7275  126.5   0.745   20.9  0.3050   42.9  0.3883 -177.3
 2.020  0.7279  125.9   0.740   20.5  0.3080   42.6  0.3908 -178.0
 2.040  0.7283  125.4   0.735   20.2  0.3111   42.4  0.3934 -178.7
 2.060  0.7289  124.8   0.731   19.8  0.3141   42.1  0.3961 -179.4
 2.080  0.7295  124.2   0.726   19.4  0.3172   41.9  0.3988  179.9
 2.100  0.7301  123.7   0.721   19.0  0.3202   41.6  0.4016  179.3
 2.120  0.7309  123.1   0.716   18.6  0.3233   41.4  0.4044  178.6
 2.140  0.7317  122.6   0.712   18.2  0.3264   41.2  0.4073  178.0
 2.160  0.7325  122.0   0.707   17.8  0.3294   40.9  0.4102  177.3
 2.180  0.7335  121.5   0.703   17.4  0.3325   40.7  0.4132  176.7
 2.200  0.7345  120.9   0.698   17.0  0.3356   40.5  0.4162  176.1
 2.220  0.7346  120.3   0.695   16.7  0.3385   40.2  0.4192  175.3
 2.240  0.7348  119.8   0.692   16.3  0.3413   39.9  0.4222  174.5
 2.260  0.7350  119.2   0.688   16.0  0.3442   39.5  0.4253  173.8
 2.280  0.7353  118.6   0.685   15.7  0.3471   39.2  0.4285  173.0
 2.300  0.7357  118.0   0.682   15.3  0.3500   38.9  0.4318  172.3
 2.320  0.7361  117.5   0.679   15.0  0.3529   38.6  0.4351  171.5
 2.340  0.7367  116.9   0.676   14.7  0.3559   38.3  0.4386  170.8
 2.360  0.7373  116.3   0.673   14.3  0.3588   38.1  0.4420  170.1
 2.380  0.7380  115.8   0.670   14.0  0.3617   37.8  0.4456  169.4
 2.400  0.7387  115.2   0.667   13.6  0.3647   37.5  0.4492  168.7
 2.420  0.7394  114.7   0.663   13.4  0.3672   37.2  0.4514  168.0
 2.440  0.7402  114.1   0.660   13.1  0.3698   36.8  0.4536  167.4
 2.460  0.7410  113.6   0.656   12.8  0.3724   36.5  0.4559  166.7
 2.480  0.7419  113.1   0.653   12.6  0.3750   36.2  0.4582  166.1
 2.500  0.7429  112.5   0.649   12.3  0.3776   35.8  0.4606  165.5
 2.520  0.7439  112.0   0.646   12.1  0.3802   35.5  0.4631  164.8
 2.540  0.7450  111.5   0.642   11.8  0.3828   35.2  0.4656  164.2
 2.560  0.7461  110.9   0.639   11.5  0.3854   34.9  0.4681  163.6
 2.580  0.7473  110.4   0.635   11.3  0.3880   34.6  0.4707  163.0
 2.600  0.7486  109.9   0.632   11.0  0.3907   34.3  0.4734  162.4
 2.620  0.7488  109.4   0.630   10.8  0.3931   34.0  0.4762  161.7
 2.640  0.7490  109.0   0.628   10.6  0.3955   33.6  0.4791  161.0
 2.660  0.7492  108.5   0.626   10.4  0.3978   33.3  0.4821  160.3
 2.680  0.7495  108.1   0.624   10.1  0.4003   32.9  0.4852  159.6
 2.700  0.7498  107.6   0.622    9.9  0.4027   32.6  0.4883  158.9
 2.720  0.7502  107.1   0.620    9.7  0.4051   32.3  0.4914  158.3
 2.740  0.7507  106.7   0.619    9.5  0.4076   31.9  0.4947  157.6
 2.760  0.7512  106.2   0.617    9.3  0.4100   31.6  0.4980  157.0
 2.780  0.7517  105.8   0.615    9.0  0.4125   31.3  0.5014  156.3
 2.800  0.7523  105.3   0.613    8.8  0.4150   31.0  0.5048  155.7
 2.820  0.7530  104.8   0.611    8.6  0.4172   30.6  0.5070  155.1
 2.840  0.7538  104.4   0.609    8.4  0.4194   30.3  0.5093  154.5
 2.860  0.7547  103.9   0.606    8.1  0.4217   29.9  0.5116  153.8
 2.880  0.7556  103.4   0.604    7.9  0.4239   29.6  0.5140  153.2
 2.900  0.7565  103.0   0.602    7.7  0.4262   29.2  0.5164  152.6
 2.920  0.7575  102.5   0.600    7.4  0.4285   28.9  0.5189  152.0
 2.940  0.7585  102.1   0.597    7.2  0.4308   28.5  0.5215  151.4
 2.960  0.7596  101.6   0.595    7.0  0.4331   28.2  0.5241  150.9
 2.980  0.7607  101.2   0.593    6.7  0.4354   27.8  0.5268  150.3
 3.000  0.7619  100.7   0.591    6.5  0.4378   27.5  0.5295  149.7
 3.100  0.7622   98.8   0.584    5.7  0.4456   25.7  0.5394  146.7
 3.200  0.7634   97.0   0.577    4.9  0.4539   23.9  0.5508  143.7
 3.300  0.7653   95.1   0.571    4.1  0.4625   22.2  0.5635  140.9
 3.400  0.7681   93.2   0.564    3.3  0.4716   20.6  0.5776  138.2
 3.500  0.7716   91.4   0.558    2.4  0.4810   19.0  0.5928  135.7
 3.600  0.7724   89.8   0.555    1.7  0.4854   17.3  0.6011  133.1
 3.700  0.7738   88.3   0.552    1.0  0.4902   15.7  0.6107  130.5
 3.800  0.7757   86.8   0.549    0.3  0.4953   14.1  0.6215  128.0
 3.900  0.7782   85.2   0.546   -0.5  0.5009   12.5  0.6334  125.6
 4.000  0.7812   83.7   0.543   -1.2  0.5068   11.0  0.6464  123.3
 4.100  0.7800   82.4   0.540   -2.0  0.5082    9.6  0.6493  121.1
 4.200  0.7793   81.1   0.538   -2.8  0.5100    8.1  0.6531  119.0
 4.300  0.7789   79.9   0.535   -3.6  0.5121    6.7  0.6577  116.9
 4.400  0.7789   78.6   0.533   -4.4  0.5145    5.3  0.6633  114.8
 4.500  0.7793   77.3   0.531   -5.2  0.5172    3.9  0.6697  112.8
 4.600  0.7797   76.2   0.531   -6.0  0.5181    2.7  0.6707  111.0
 4.700  0.7803   75.1   0.530   -6.8  0.5191    1.6  0.6725  109.2
 4.800  0.7813   74.1   0.530   -7.5  0.5204    0.4  0.6748  107.4
 4.900  0.7825   73.0   0.530   -8.3  0.5219   -0.8  0.6779  105.6
 5.000  0.7840   71.9   0.530   -9.1  0.5236   -1.9  0.6816  103.8
 5.100  0.7810   70.9   0.531   -9.2  0.5266   -2.5  0.6803  103.4
 5.200  0.7782   70.0   0.532   -9.3  0.5296   -3.0  0.6790  103.0
 5.300  0.7757   69.0   0.533   -9.5  0.5327   -3.6  0.6778  102.6
 5.400  0.7734   68.0   0.534   -9.6  0.5359   -4.2  0.6766  102.2
 5.500  0.7713   67.0   0.535   -9.7  0.5391   -4.7  0.6754  101.8
 5.600  0.7705   66.2   0.536  -10.8  0.5415   -6.0  0.6827  100.2
 5.700  0.7699   65.5   0.538  -11.8  0.5442   -7.3  0.6905   98.6
 5.800  0.7695   64.7   0.539  -12.8  0.5472   -8.6  0.6989   97.0
 5.900  0.7691   64.0   0.541  -13.9  0.5504   -9.8  0.7077   95.5
 6.000  0.7689   63.2   0.543  -14.9  0.5539  -11.1  0.7171   94.0
!
!  f       NFmin   Gammaopt  rn/50
! GHz       dB    MAG  ANG    -
!
! noise parameter not available yet for this operation point!
!
! (c) 2015  Infineon Technologies AG, Munich
