! Infineon Technologies  Discrete & RF Semiconductors
! BFR106
! VCE =  8.0 V,  IC =  4.0 mA
! Common Emitter S-Parameters:                            Nov 2015
# GHz  S  MA  R  50
!  f         S11            S21            S12            S22
! GHz     MAG   ANG      MAG   ANG      MAG   ANG      MAG   ANG
 0.010  0.8815   -7.4  13.234  174.6  0.0052   88.4  0.9952   -2.8
 0.015  0.8762  -11.0  13.137  172.7  0.0079   85.4  0.9914   -4.1
 0.020  0.8743  -14.6  13.056  170.7  0.0107   83.9  0.9882   -5.4
 0.025  0.8618  -18.0  12.869  168.5  0.0130   79.8  0.9796   -6.6
 0.030  0.8524  -21.4  12.700  166.3  0.0154   77.0  0.9714   -7.8
 0.035  0.8462  -25.0  12.551  164.0  0.0179   75.0  0.9637   -9.0
 0.040  0.8432  -28.6  12.422  161.7  0.0203   73.4  0.9564  -10.2
 0.045  0.8436  -32.1  12.315  159.3  0.0227   72.2  0.9495  -11.4
 0.050  0.8472  -35.7  12.229  156.9  0.0252   71.2  0.9431  -12.7
 0.055  0.8310  -38.5  12.019  155.4  0.0270   69.1  0.9318  -13.5
 0.060  0.8167  -41.3  11.817  153.8  0.0287   67.3  0.9208  -14.3
 0.065  0.8046  -44.3  11.625  152.2  0.0306   65.7  0.9099  -15.2
 0.070  0.7947  -47.3  11.442  150.5  0.0324   64.2  0.8992  -16.1
 0.075  0.7871  -50.5  11.270  148.8  0.0342   62.9  0.8888  -16.9
 0.080  0.7819  -53.6  11.107  147.0  0.0361   61.8  0.8785  -17.8
 0.085  0.7791  -56.8  10.956  145.2  0.0380   60.8  0.8685  -18.8
 0.090  0.7787  -60.0  10.817  143.3  0.0399   59.8  0.8587  -19.7
 0.095  0.7807  -63.2  10.689  141.4  0.0418   59.0  0.8492  -20.7
 0.100  0.7852  -66.4  10.574  139.4  0.0437   58.2  0.8399  -21.7
 0.105  0.7731  -68.5  10.367  138.2  0.0447   57.0  0.8297  -22.2
 0.110  0.7622  -70.7  10.164  137.0  0.0457   55.9  0.8196  -22.6
 0.115  0.7524  -73.0   9.967  135.7  0.0468   54.8  0.8095  -23.1
 0.120  0.7438  -75.3   9.775  134.3  0.0478   53.8  0.7994  -23.6
 0.125  0.7364  -77.6   9.588  132.9  0.0489   52.8  0.7895  -24.1
 0.130  0.7302  -80.0   9.407  131.5  0.0500   51.8  0.7796  -24.6
 0.135  0.7254  -82.5   9.233  130.0  0.0511   50.9  0.7697  -25.1
 0.140  0.7219  -84.9   9.065  128.4  0.0522   50.0  0.7599  -25.7
 0.145  0.7198  -87.4   8.904  126.8  0.0534   49.2  0.7502  -26.2
 0.150  0.7190  -89.9   8.751  125.1  0.0545   48.4  0.7406  -26.8
 0.155  0.7125  -91.6   8.606  124.3  0.0551   47.8  0.7334  -27.0
 0.160  0.7067  -93.3   8.462  123.5  0.0557   47.2  0.7262  -27.2
 0.165  0.7014  -95.0   8.320  122.7  0.0562   46.6  0.7190  -27.4
 0.170  0.6969  -96.8   8.180  121.8  0.0568   46.0  0.7118  -27.7
 0.175  0.6930  -98.5   8.042  120.9  0.0574   45.5  0.7047  -27.9
 0.180  0.6897 -100.3   7.906  120.0  0.0580   44.9  0.6975  -28.1
 0.185  0.6871 -102.1   7.772  119.0  0.0586   44.4  0.6904  -28.4
 0.190  0.6853 -103.9   7.640  118.0  0.0593   43.8  0.6832  -28.6
 0.195  0.6841 -105.8   7.511  117.0  0.0599   43.3  0.6761  -28.8
 0.200  0.6836 -107.6   7.384  115.9  0.0605   42.8  0.6690  -29.1
 0.220  0.6684 -113.0   6.920  113.0  0.0622   41.3  0.6460  -29.6
 0.240  0.6595 -118.6   6.477  109.7  0.0640   40.0  0.6231  -30.1
 0.260  0.6517 -123.5   6.087  106.9  0.0653   39.1  0.6045  -30.5
 0.280  0.6427 -127.7   5.737  104.8  0.0661   38.7  0.5902  -30.8
 0.300  0.6371 -131.9   5.397  102.4  0.0669   38.3  0.5759  -31.0
 0.320  0.6299 -135.0   5.154  101.0  0.0677   38.1  0.5667  -31.1
 0.340  0.6246 -138.1   4.916   99.4  0.0685   38.0  0.5575  -31.3
 0.360  0.6212 -141.2   4.681   97.6  0.0693   37.8  0.5484  -31.4
 0.380  0.6196 -144.4   4.451   95.7  0.0701   37.7  0.5392  -31.6
 0.400  0.6200 -147.6   4.226   93.6  0.0709   37.5  0.5300  -31.7
 0.420  0.6169 -149.8   4.066   92.3  0.0715   37.7  0.5249  -31.9
 0.440  0.6147 -151.9   3.907   91.0  0.0721   38.0  0.5198  -32.0
 0.450  0.6140 -153.0   3.829   90.3  0.0724   38.1  0.5173  -32.1
 0.460  0.6134 -154.1   3.751   89.5  0.0727   38.2  0.5147  -32.2
 0.480  0.6130 -156.3   3.598   87.9  0.0733   38.4  0.5097  -32.4
 0.500  0.6135 -158.5   3.448   86.2  0.0739   38.6  0.5046  -32.6
 0.520  0.6114 -160.3   3.342   85.2  0.0745   39.1  0.5016  -33.0
 0.540  0.6098 -162.0   3.237   84.1  0.0752   39.7  0.4986  -33.3
 0.560  0.6089 -163.8   3.134   82.9  0.0759   40.2  0.4956  -33.7
 0.580  0.6085 -165.6   3.032   81.6  0.0765   40.7  0.4926  -34.0
 0.600  0.6087 -167.4   2.931   80.3  0.0772   41.2  0.4897  -34.4
 0.620  0.6085 -168.8   2.852   79.4  0.0778   41.8  0.4878  -34.8
 0.640  0.6087 -170.3   2.774   78.4  0.0783   42.4  0.4859  -35.3
 0.660  0.6092 -171.7   2.697   77.3  0.0789   43.0  0.4841  -35.7
 0.680  0.6102 -173.2   2.621   76.2  0.0795   43.6  0.4823  -36.2
 0.700  0.6115 -174.6   2.546   75.0  0.0801   44.2  0.4805  -36.6
 0.720  0.6107 -175.8   2.484   74.1  0.0811   45.0  0.4788  -37.0
 0.740  0.6102 -177.0   2.422   73.2  0.0821   45.7  0.4772  -37.4
 0.760  0.6099 -178.1   2.362   72.3  0.0831   46.4  0.4756  -37.9
 0.780  0.6099 -179.3   2.301   71.3  0.0841   47.1  0.4740  -38.3
 0.800  0.6101  179.5   2.242   70.2  0.0851   47.8  0.4724  -38.7
 0.820  0.6088  178.4   2.195   69.4  0.0861   48.5  0.4717  -39.2
 0.840  0.6077  177.2   2.148   68.6  0.0872   49.1  0.4710  -39.7
 0.860  0.6069  176.1   2.101   67.7  0.0882   49.7  0.4704  -40.2
 0.880  0.6063  174.9   2.055   66.8  0.0893   50.3  0.4698  -40.7
 0.900  0.6060  173.8   2.010   65.8  0.0904   50.9  0.4692  -41.2
 0.920  0.6066  172.7   1.973   65.0  0.0915   51.6  0.4686  -41.8
 0.940  0.6073  171.5   1.936   64.2  0.0926   52.3  0.4681  -42.4
 0.960  0.6084  170.4   1.900   63.4  0.0937   52.9  0.4676  -42.9
 0.980  0.6096  169.3   1.864   62.5  0.0948   53.6  0.4672  -43.5
 1.000  0.6111  168.2   1.829   61.6  0.0959   54.2  0.4668  -44.1
 1.020  0.6119  167.3   1.799   60.9  0.0973   54.9  0.4661  -44.7
 1.040  0.6128  166.4   1.770   60.1  0.0987   55.5  0.4655  -45.4
 1.060  0.6139  165.4   1.741   59.3  0.1002   56.1  0.4649  -46.0
 1.080  0.6152  164.5   1.712   58.5  0.1016   56.7  0.4644  -46.7
 1.100  0.6166  163.6   1.684   57.7  0.1031   57.3  0.4640  -47.3
 1.120  0.6172  162.7   1.658   57.0  0.1047   57.9  0.4632  -48.0
 1.140  0.6179  161.9   1.633   56.3  0.1064   58.4  0.4625  -48.6
 1.160  0.6187  161.0   1.608   55.5  0.1081   59.0  0.4619  -49.3
 1.180  0.6197  160.2   1.583   54.8  0.1097   59.5  0.4613  -49.9
 1.200  0.6208  159.3   1.558   54.0  0.1114   60.0  0.4608  -50.6
 1.220  0.6211  158.5   1.535   53.3  0.1133   60.4  0.4603  -51.2
 1.240  0.6216  157.7   1.513   52.7  0.1153   60.9  0.4599  -51.8
 1.260  0.6222  156.8   1.490   52.0  0.1172   61.3  0.4596  -52.5
 1.280  0.6229  156.0   1.468   51.2  0.1191   61.7  0.4593  -53.1
 1.300  0.6238  155.2   1.446   50.5  0.1211   62.1  0.4590  -53.7
 1.320  0.6255  154.5   1.427   49.9  0.1231   62.5  0.4589  -54.4
 1.340  0.6274  153.7   1.409   49.3  0.1250   63.0  0.4588  -55.1
 1.360  0.6294  153.0   1.390   48.7  0.1270   63.4  0.4588  -55.9
 1.380  0.6314  152.2   1.372   48.1  0.1290   63.8  0.4589  -56.6
 1.400  0.6336  151.5   1.354   47.4  0.1310   64.2  0.4591  -57.3
 1.420  0.6333  150.8   1.340   46.8  0.1333   64.5  0.4584  -58.0
 1.440  0.6330  150.1   1.325   46.3  0.1356   64.7  0.4577  -58.8
 1.460  0.6328  149.4   1.311   45.7  0.1379   65.0  0.4571  -59.5
 1.480  0.6328  148.7   1.297   45.1  0.1402   65.3  0.4566  -60.3
 1.500  0.6328  148.0   1.283   44.5  0.1425   65.5  0.4562  -61.0
 1.520  0.6344  147.2   1.266   43.9  0.1450   65.7  0.4556  -61.7
 1.540  0.6360  146.5   1.249   43.2  0.1475   65.9  0.4551  -62.5
 1.560  0.6378  145.7   1.232   42.6  0.1501   66.1  0.4547  -63.2
 1.580  0.6397  145.0   1.215   41.9  0.1526   66.2  0.4543  -64.0
 1.600  0.6417  144.2   1.199   41.2  0.1551   66.4  0.4540  -64.7
 1.620  0.6427  143.5   1.187   40.6  0.1577   66.5  0.4532  -65.5
 1.640  0.6438  142.8   1.175   40.0  0.1603   66.7  0.4525  -66.3
 1.660  0.6450  142.2   1.164   39.4  0.1630   66.8  0.4519  -67.2
 1.680  0.6463  141.5   1.152   38.7  0.1656   67.0  0.4514  -68.0
 1.700  0.6477  140.8   1.141   38.1  0.1682   67.1  0.4510  -68.8
 1.720  0.6494  140.1   1.131   37.6  0.1710   67.1  0.4510  -69.5
 1.740  0.6512  139.3   1.121   37.2  0.1738   67.1  0.4511  -70.3
 1.760  0.6531  138.6   1.111   36.7  0.1766   67.2  0.4513  -71.0
 1.780  0.6551  137.8   1.101   36.2  0.1794   67.2  0.4516  -71.8
 1.800  0.6572  137.1   1.091   35.7  0.1822   67.2  0.4519  -72.5
 1.820  0.6575  136.5   1.081   35.1  0.1852   67.2  0.4519  -73.4
 1.840  0.6579  135.9   1.072   34.5  0.1883   67.2  0.4520  -74.3
 1.860  0.6583  135.3   1.062   33.9  0.1913   67.2  0.4523  -75.3
 1.880  0.6588  134.7   1.053   33.3  0.1944   67.2  0.4526  -76.2
 1.900  0.6594  134.1   1.044   32.7  0.1974   67.2  0.4531  -77.1
 1.920  0.6598  133.4   1.034   32.2  0.2005   67.1  0.4523  -78.0
 1.940  0.6603  132.7   1.024   31.8  0.2035   67.0  0.4517  -78.9
 1.960  0.6609  132.1   1.014   31.3  0.2066   67.0  0.4512  -79.7
 1.980  0.6615  131.4   1.004   30.8  0.2096   66.9  0.4507  -80.6
 2.000  0.6623  130.7   0.994   30.3  0.2127   66.8  0.4504  -81.5
 2.020  0.6633  130.1   0.986   29.9  0.2160   66.7  0.4499  -82.4
 2.040  0.6643  129.5   0.977   29.4  0.2193   66.5  0.4495  -83.3
 2.060  0.6654  128.9   0.969   29.0  0.2226   66.4  0.4492  -84.1
 2.080  0.6666  128.3   0.960   28.6  0.2259   66.2  0.4490  -85.0
 2.100  0.6679  127.7   0.952   28.1  0.2292   66.1  0.4490  -85.9
 2.120  0.6692  127.1   0.944   27.6  0.2325   66.0  0.4490  -86.8
 2.140  0.6706  126.5   0.936   27.2  0.2359   65.9  0.4491  -87.7
 2.160  0.6721  126.0   0.928   26.7  0.2392   65.7  0.4494  -88.5
 2.180  0.6736  125.4   0.920   26.2  0.2425   65.6  0.4497  -89.4
 2.200  0.6752  124.8   0.912   25.7  0.2458   65.5  0.4502  -90.3
 2.220  0.6756  124.2   0.906   25.3  0.2492   65.2  0.4494  -91.3
 2.240  0.6761  123.6   0.900   24.9  0.2526   65.0  0.4487  -92.4
 2.260  0.6766  123.0   0.895   24.5  0.2560   64.7  0.4482  -93.4
 2.280  0.6772  122.4   0.889   24.1  0.2595   64.5  0.4479  -94.4
 2.300  0.6779  121.8   0.883   23.7  0.2629   64.2  0.4477  -95.5
 2.320  0.6787  121.2   0.878   23.3  0.2663   64.0  0.4476  -96.5
 2.340  0.6795  120.6   0.872   22.9  0.2698   63.8  0.4477  -97.6
 2.360  0.6804  120.0   0.867   22.5  0.2732   63.5  0.4479  -98.6
 2.380  0.6814  119.4   0.861   22.0  0.2767   63.3  0.4483  -99.7
 2.400  0.6825  118.8   0.856   21.6  0.2801   63.1  0.4488 -100.7
 2.420  0.6839  118.2   0.850   21.3  0.2835   62.8  0.4482 -101.7
 2.440  0.6853  117.6   0.844   21.0  0.2869   62.4  0.4478 -102.6
 2.460  0.6868  117.0   0.837   20.7  0.2903   62.1  0.4475 -103.6
 2.480  0.6884  116.4   0.831   20.3  0.2937   61.8  0.4473 -104.6
 2.500  0.6900  115.9   0.825   20.0  0.2971   61.5  0.4472 -105.6
 2.520  0.6917  115.3   0.819   19.7  0.3006   61.2  0.4473 -106.5
 2.540  0.6935  114.7   0.813   19.3  0.3040   60.9  0.4475 -107.5
 2.560  0.6954  114.1   0.807   19.0  0.3075   60.6  0.4478 -108.5
 2.580  0.6973  113.6   0.801   18.7  0.3109   60.4  0.4482 -109.4
 2.600  0.6993  113.0   0.795   18.3  0.3144   60.1  0.4488 -110.4
 2.620  0.6998  112.5   0.790   18.0  0.3178   59.7  0.4484 -111.5
 2.640  0.7003  111.9   0.786   17.7  0.3212   59.4  0.4482 -112.6
 2.660  0.7009  111.4   0.781   17.5  0.3247   59.0  0.4481 -113.8
 2.680  0.7016  110.9   0.777   17.2  0.3281   58.7  0.4483 -114.9
 2.700  0.7023  110.3   0.772   16.9  0.3316   58.3  0.4485 -116.0
 2.720  0.7031  109.8   0.768   16.6  0.3350   58.0  0.4490 -117.1
 2.740  0.7040  109.3   0.763   16.3  0.3385   57.6  0.4497 -118.3
 2.760  0.7049  108.8   0.759   16.0  0.3420   57.3  0.4505 -119.4
 2.780  0.7059  108.2   0.754   15.7  0.3455   57.0  0.4514 -120.5
 2.800  0.7069  107.7   0.750   15.4  0.3490   56.7  0.4526 -121.6
 2.820  0.7078  107.2   0.746   15.1  0.3524   56.3  0.4526 -122.6
 2.840  0.7088  106.7   0.742   14.9  0.3559   55.9  0.4528 -123.7
 2.860  0.7098  106.3   0.738   14.6  0.3593   55.5  0.4531 -124.7
 2.880  0.7109  105.8   0.733   14.4  0.3628   55.1  0.4536 -125.8
 2.900  0.7120  105.3   0.729   14.1  0.3663   54.8  0.4543 -126.8
 2.920  0.7132  104.9   0.725   13.8  0.3698   54.4  0.4550 -127.8
 2.940  0.7144  104.4   0.721   13.5  0.3733   54.0  0.4560 -128.8
 2.960  0.7156  103.9   0.717   13.3  0.3769   53.7  0.4570 -129.9
 2.980  0.7169  103.5   0.713   13.0  0.3804   53.3  0.4582 -130.9
 3.000  0.7183  103.0   0.709   12.7  0.3840   53.0  0.4596 -131.9
 3.100  0.7200  100.9   0.695   11.8  0.3986   50.6  0.4576 -137.5
 3.200  0.7227   98.8   0.680   10.9  0.4138   48.4  0.4601 -143.2
 3.300  0.7263   96.8   0.666   10.0  0.4296   46.3  0.4670 -148.7
 3.400  0.7308   94.7   0.653    9.0  0.4459   44.4  0.4780 -154.0
 3.500  0.7363   92.7   0.639    8.0  0.4627   42.6  0.4929 -159.0
 3.600  0.7379   91.1   0.631    7.3  0.4727   40.2  0.4939 -164.3
 3.700  0.7402   89.4   0.622    6.6  0.4834   37.9  0.4991 -169.5
 3.800  0.7430   87.8   0.614    5.9  0.4949   35.8  0.5084 -174.6
 3.900  0.7464   86.2   0.606    5.2  0.5070   33.7  0.5214 -179.4
 4.000  0.7504   84.6   0.598    4.4  0.5198   31.7  0.5380  176.0
 4.100  0.7494   83.3   0.594    3.7  0.5251   29.5  0.5395  171.7
 4.200  0.7488   81.9   0.590    2.9  0.5312   27.4  0.5441  167.4
 4.300  0.7486   80.6   0.587    2.1  0.5380   25.4  0.5516  163.3
 4.400  0.7488   79.2   0.583    1.4  0.5454   23.4  0.5619  159.3
 4.500  0.7494   77.9   0.580    0.6  0.5535   21.4  0.5749  155.4
 4.600  0.7495   76.8   0.578   -0.1  0.5565   19.6  0.5765  151.9
 4.700  0.7499   75.7   0.577   -0.7  0.5600   17.8  0.5803  148.4
 4.800  0.7506   74.5   0.575   -1.4  0.5640   16.1  0.5862  145.0
 4.900  0.7516   73.4   0.573   -2.1  0.5686   14.4  0.5942  141.6
 5.000  0.7529   72.3   0.572   -2.8  0.5736   12.7  0.6041  138.4
 5.100  0.7510   71.2   0.569   -2.8  0.5739   11.8  0.5978  137.1
 5.200  0.7493   70.2   0.567   -2.8  0.5744   10.9  0.5919  135.7
 5.300  0.7479   69.1   0.564   -2.8  0.5750   10.1  0.5863  134.3
 5.400  0.7468   68.0   0.562   -2.8  0.5757    9.2  0.5810  132.9
 5.500  0.7459   66.9   0.559   -2.8  0.5766    8.3  0.5761  131.5
 5.600  0.7445   66.2   0.562   -3.9  0.5820    6.5  0.5901  128.7
 5.700  0.7431   65.5   0.566   -5.0  0.5880    4.8  0.6054  126.0
 5.800  0.7419   64.9   0.570   -6.1  0.5945    3.1  0.6220  123.4
 5.900  0.7407   64.2   0.574   -7.1  0.6015    1.5  0.6398  121.0
 6.000  0.7397   63.5   0.578   -8.2  0.6090   -0.1  0.6587  118.7
!
!  f       NFmin   Gammaopt  rn/50
! GHz       dB    MAG  ANG    -
!
! noise parameter not available yet for this operation point!
!
! (c) 2015  Infineon Technologies AG, Munich
