! Infineon Technologies  Discrete & RF Semiconductors
! BFR106
! VCE =  5.0 V,  IC =  10 mA
! Common Emitter S-Parameters:                            Nov 2015
# GHz  S  MA  R  50
!  f         S11            S21            S12            S22
! GHz     MAG   ANG      MAG   ANG      MAG   ANG      MAG   ANG
 0.010  0.7331  -12.6  28.300  171.6  0.0051   86.1  0.9838   -5.8
 0.015  0.7248  -18.8  27.891  168.3  0.0079   81.3  0.9726   -8.6
 0.020  0.7250  -25.0  27.578  164.9  0.0107   79.0  0.9638  -11.5
 0.025  0.7023  -29.9  26.753  162.1  0.0127   74.8  0.9408  -13.5
 0.030  0.6850  -35.0  25.996  159.1  0.0148   71.7  0.9191  -15.7
 0.035  0.6734  -40.4  25.312  156.0  0.0168   69.4  0.8987  -17.9
 0.040  0.6680  -45.9  24.707  152.7  0.0189   67.6  0.8797  -20.2
 0.045  0.6687  -51.4  24.188  149.3  0.0211   66.2  0.8622  -22.7
 0.050  0.6757  -56.9  23.760  145.7  0.0232   65.0  0.8464  -25.2
 0.055  0.6572  -60.3  23.054  144.2  0.0244   63.1  0.8249  -26.2
 0.060  0.6411  -63.9  22.365  142.5  0.0255   61.4  0.8037  -27.3
 0.065  0.6277  -67.7  21.695  140.8  0.0267   59.8  0.7828  -28.4
 0.070  0.6171  -71.6  21.046  139.0  0.0279   58.4  0.7622  -29.6
 0.075  0.6094  -75.6  20.419  137.0  0.0292   57.1  0.7420  -30.9
 0.080  0.6049  -79.8  19.818  135.0  0.0304   55.9  0.7221  -32.3
 0.085  0.6036  -83.9  19.245  132.8  0.0317   54.8  0.7027  -33.7
 0.090  0.6054  -88.1  18.701  130.5  0.0329   53.7  0.6837  -35.2
 0.095  0.6104  -92.2  18.190  128.0  0.0342   52.8  0.6653  -36.7
 0.100  0.6184  -96.2  17.714  125.4  0.0355   51.9  0.6473  -38.4
 0.105  0.6094  -98.3  17.241  124.4  0.0361   51.4  0.6336  -38.8
 0.110  0.6013 -100.5  16.774  123.4  0.0367   50.9  0.6200  -39.3
 0.115  0.5941 -102.8  16.312  122.3  0.0373   50.4  0.6065  -39.7
 0.120  0.5878 -105.1  15.857  121.1  0.0380   50.0  0.5929  -40.2
 0.125  0.5825 -107.5  15.408  119.9  0.0386   49.5  0.5794  -40.7
 0.130  0.5782 -109.9  14.967  118.6  0.0392   49.1  0.5660  -41.3
 0.135  0.5750 -112.3  14.534  117.2  0.0398   48.7  0.5526  -41.8
 0.140  0.5727 -114.8  14.110  115.8  0.0404   48.3  0.5393  -42.4
 0.145  0.5716 -117.2  13.696  114.2  0.0411   47.9  0.5260  -43.0
 0.150  0.5715 -119.7  13.292  112.6  0.0417   47.5  0.5128  -43.7
 0.155  0.5688 -121.2  13.013  112.0  0.0422   47.5  0.5049  -43.8
 0.160  0.5665 -122.7  12.736  111.3  0.0426   47.4  0.4969  -43.9
 0.165  0.5646 -124.3  12.461  110.6  0.0431   47.4  0.4890  -44.0
 0.170  0.5632 -125.8  12.187  109.9  0.0435   47.4  0.4811  -44.1
 0.175  0.5621 -127.3  11.916  109.2  0.0440   47.3  0.4732  -44.2
 0.180  0.5614 -128.9  11.646  108.4  0.0445   47.3  0.4653  -44.3
 0.185  0.5612 -130.4  11.379  107.6  0.0449   47.3  0.4573  -44.4
 0.190  0.5613 -132.0  11.115  106.7  0.0454   47.3  0.4494  -44.5
 0.195  0.5619 -133.6  10.852  105.8  0.0458   47.2  0.4415  -44.7
 0.200  0.5629 -135.1  10.593  104.9  0.0463   47.2  0.4336  -44.8
 0.220  0.5554 -139.6   9.814  102.8  0.0479   47.4  0.4111  -44.9
 0.240  0.5514 -144.2   9.051  100.3  0.0495   47.5  0.3886  -45.0
 0.260  0.5494 -147.9   8.405   98.2  0.0511   48.0  0.3709  -45.1
 0.280  0.5475 -150.6   7.868   96.6  0.0526   48.7  0.3582  -45.1
 0.300  0.5469 -153.3   7.338   94.8  0.0542   49.3  0.3454  -45.1
 0.320  0.5443 -155.5   6.989   93.7  0.0558   50.1  0.3370  -44.9
 0.340  0.5426 -157.8   6.643   92.5  0.0575   50.8  0.3287  -44.7
 0.360  0.5417 -160.1   6.299   91.2  0.0591   51.5  0.3203  -44.5
 0.380  0.5416 -162.3   5.960   89.7  0.0607   52.1  0.3120  -44.3
 0.400  0.5424 -164.6   5.625   88.1  0.0624   52.7  0.3036  -44.1
 0.420  0.5419 -166.2   5.404   87.2  0.0641   53.3  0.2991  -44.0
 0.440  0.5417 -167.8   5.184   86.1  0.0659   53.9  0.2947  -44.0
 0.450  0.5418 -168.6   5.075   85.6  0.0668   54.2  0.2924  -44.0
 0.460  0.5420 -169.4   4.966   85.0  0.0677   54.5  0.2902  -43.9
 0.480  0.5428 -171.0   4.750   83.8  0.0694   55.0  0.2858  -43.9
 0.500  0.5439 -172.6   4.537   82.5  0.0712   55.5  0.2813  -43.8
 0.520  0.5436 -174.0   4.393   81.6  0.0731   56.1  0.2789  -44.0
 0.540  0.5436 -175.3   4.249   80.7  0.0750   56.6  0.2765  -44.2
 0.560  0.5439 -176.7   4.107   79.8  0.0769   57.1  0.2741  -44.4
 0.580  0.5445 -178.0   3.966   78.7  0.0789   57.5  0.2717  -44.7
 0.600  0.5454 -179.4   3.827   77.6  0.0808   58.0  0.2693  -44.9
 0.620  0.5454  179.6   3.723   76.8  0.0828   58.4  0.2677  -45.3
 0.640  0.5456  178.5   3.619   76.0  0.0848   58.8  0.2660  -45.6
 0.660  0.5460  177.5   3.517   75.1  0.0868   59.1  0.2644  -46.0
 0.680  0.5466  176.4   3.415   74.1  0.0888   59.5  0.2628  -46.3
 0.700  0.5473  175.4   3.314   73.1  0.0908   59.8  0.2612  -46.7
 0.720  0.5475  174.5   3.232   72.4  0.0928   60.0  0.2596  -47.0
 0.740  0.5479  173.5   3.150   71.6  0.0949   60.3  0.2581  -47.4
 0.760  0.5485  172.6   3.069   70.8  0.0969   60.5  0.2566  -47.7
 0.780  0.5492  171.6   2.988   70.0  0.0990   60.7  0.2550  -48.1
 0.800  0.5500  170.7   2.908   69.1  0.1010   60.9  0.2535  -48.4
 0.820  0.5494  169.8   2.846   68.4  0.1032   61.1  0.2529  -48.8
 0.840  0.5490  168.9   2.785   67.7  0.1054   61.2  0.2523  -49.2
 0.860  0.5487  168.1   2.724   66.9  0.1076   61.4  0.2518  -49.6
 0.880  0.5485  167.2   2.663   66.1  0.1098   61.6  0.2512  -50.0
 0.900  0.5485  166.3   2.603   65.3  0.1120   61.7  0.2507  -50.4
 0.920  0.5489  165.5   2.555   64.6  0.1141   61.9  0.2503  -51.0
 0.940  0.5494  164.6   2.508   63.9  0.1163   62.0  0.2500  -51.6
 0.960  0.5501  163.8   2.461   63.2  0.1184   62.2  0.2497  -52.2
 0.980  0.5508  162.9   2.414   62.5  0.1206   62.4  0.2494  -52.8
 1.000  0.5517  162.1   2.368   61.7  0.1227   62.5  0.2491  -53.4
 1.020  0.5533  161.3   2.329   61.0  0.1250   62.6  0.2485  -54.1
 1.040  0.5550  160.5   2.290   60.3  0.1272   62.6  0.2478  -54.8
 1.060  0.5568  159.7   2.252   59.6  0.1295   62.7  0.2473  -55.4
 1.080  0.5588  158.9   2.214   58.9  0.1317   62.7  0.2467  -56.1
 1.100  0.5608  158.1   2.176   58.1  0.1340   62.8  0.2462  -56.8
 1.120  0.5616  157.3   2.143   57.5  0.1363   62.8  0.2455  -57.5
 1.140  0.5625  156.5   2.110   56.8  0.1386   62.8  0.2448  -58.1
 1.160  0.5635  155.8   2.077   56.1  0.1410   62.9  0.2442  -58.8
 1.180  0.5647  155.0   2.044   55.4  0.1433   62.9  0.2436  -59.4
 1.200  0.5659  154.2   2.012   54.7  0.1456   62.9  0.2430  -60.1
 1.220  0.5666  153.6   1.983   54.1  0.1480   62.8  0.2427  -60.8
 1.240  0.5674  153.0   1.955   53.6  0.1505   62.8  0.2423  -61.4
 1.260  0.5683  152.3   1.926   53.0  0.1529   62.7  0.2421  -62.1
 1.280  0.5692  151.7   1.898   52.3  0.1554   62.7  0.2418  -62.7
 1.300  0.5702  151.1   1.870   51.7  0.1578   62.6  0.2416  -63.4
 1.320  0.5718  150.4   1.845   51.1  0.1602   62.6  0.2416  -64.2
 1.340  0.5735  149.8   1.821   50.5  0.1625   62.6  0.2416  -65.0
 1.360  0.5752  149.1   1.796   49.9  0.1649   62.6  0.2417  -65.7
 1.380  0.5770  148.5   1.772   49.3  0.1672   62.6  0.2418  -66.5
 1.400  0.5789  147.8   1.748   48.7  0.1696   62.6  0.2420  -67.3
 1.420  0.5788  147.2   1.730   48.1  0.1721   62.5  0.2416  -68.1
 1.440  0.5788  146.6   1.712   47.5  0.1745   62.4  0.2413  -68.9
 1.460  0.5789  146.0   1.694   46.9  0.1770   62.3  0.2410  -69.8
 1.480  0.5790  145.4   1.676   46.2  0.1794   62.2  0.2407  -70.6
 1.500  0.5792  144.8   1.659   45.6  0.1819   62.1  0.2405  -71.4
 1.520  0.5803  144.1   1.638   45.0  0.1843   62.0  0.2400  -72.2
 1.540  0.5815  143.4   1.616   44.4  0.1868   61.9  0.2396  -73.0
 1.560  0.5827  142.8   1.595   43.8  0.1892   61.7  0.2392  -73.9
 1.580  0.5841  142.1   1.575   43.2  0.1917   61.6  0.2389  -74.7
 1.600  0.5855  141.4   1.554   42.5  0.1941   61.5  0.2386  -75.5
 1.620  0.5868  140.8   1.539   41.9  0.1967   61.4  0.2381  -76.4
 1.640  0.5881  140.2   1.524   41.3  0.1993   61.3  0.2377  -77.2
 1.660  0.5894  139.6   1.510   40.7  0.2019   61.1  0.2374  -78.1
 1.680  0.5909  139.0   1.495   40.0  0.2045   61.0  0.2371  -78.9
 1.700  0.5924  138.4   1.481   39.4  0.2071   60.9  0.2368  -79.8
 1.720  0.5940  137.9   1.468   38.9  0.2096   60.7  0.2369  -80.6
 1.740  0.5957  137.4   1.455   38.5  0.2121   60.5  0.2371  -81.5
 1.760  0.5974  136.9   1.442   38.0  0.2147   60.3  0.2374  -82.3
 1.780  0.5991  136.4   1.429   37.5  0.2172   60.2  0.2377  -83.2
 1.800  0.6009  135.9   1.416   37.0  0.2197   60.0  0.2380  -84.0
 1.820  0.6019  135.2   1.403   36.5  0.2224   59.9  0.2383  -85.0
 1.840  0.6029  134.6   1.390   35.9  0.2252   59.7  0.2388  -86.1
 1.860  0.6040  133.9   1.378   35.4  0.2279   59.6  0.2393  -87.1
 1.880  0.6052  133.3   1.365   34.8  0.2307   59.4  0.2398  -88.2
 1.900  0.6065  132.6   1.353   34.2  0.2334   59.3  0.2405  -89.2
 1.920  0.6077  132.1   1.340   33.7  0.2360   59.1  0.2400  -90.3
 1.940  0.6089  131.6   1.327   33.2  0.2386   58.8  0.2396  -91.3
 1.960  0.6102  131.2   1.315   32.7  0.2412   58.6  0.2393  -92.4
 1.980  0.6115  130.7   1.302   32.1  0.2439   58.4  0.2391  -93.4
 2.000  0.6129  130.2   1.290   31.6  0.2465   58.2  0.2389  -94.5
 2.020  0.6141  129.6   1.280   31.1  0.2492   58.0  0.2389  -95.5
 2.040  0.6153  129.1   1.269   30.6  0.2519   57.7  0.2390  -96.4
 2.060  0.6165  128.6   1.259   30.2  0.2547   57.5  0.2391  -97.4
 2.080  0.6179  128.0   1.249   29.7  0.2574   57.3  0.2393  -98.3
 2.100  0.6193  127.5   1.239   29.2  0.2601   57.1  0.2395  -99.3
 2.120  0.6207  126.9   1.229   28.6  0.2628   56.9  0.2398 -100.2
 2.140  0.6222  126.4   1.220   28.1  0.2656   56.7  0.2402 -101.2
 2.160  0.6237  125.9   1.210   27.6  0.2683   56.5  0.2407 -102.1
 2.180  0.6253  125.3   1.200   27.0  0.2711   56.3  0.2412 -103.1
 2.200  0.6270  124.8   1.191   26.5  0.2738   56.1  0.2418 -104.0
 2.220  0.6277  124.2   1.183   26.0  0.2765   55.8  0.2418 -105.2
 2.240  0.6286  123.6   1.175   25.6  0.2793   55.6  0.2419 -106.4
 2.260  0.6294  123.1   1.167   25.1  0.2820   55.3  0.2421 -107.7
 2.280  0.6304  122.5   1.159   24.7  0.2847   55.0  0.2424 -108.9
 2.300  0.6314  121.9   1.151   24.2  0.2875   54.8  0.2428 -110.1
 2.320  0.6324  121.4   1.143   23.7  0.2902   54.5  0.2434 -111.3
 2.340  0.6336  120.8   1.136   23.2  0.2930   54.3  0.2440 -112.5
 2.360  0.6347  120.2   1.128   22.7  0.2958   54.1  0.2448 -113.7
 2.380  0.6360  119.7   1.120   22.2  0.2985   53.8  0.2456 -114.9
 2.400  0.6373  119.1   1.113   21.7  0.3013   53.6  0.2466 -116.1
 2.420  0.6392  118.6   1.105   21.3  0.3039   53.3  0.2470 -117.2
 2.440  0.6411  118.1   1.097   20.9  0.3066   53.0  0.2476 -118.2
 2.460  0.6430  117.6   1.090   20.5  0.3092   52.7  0.2482 -119.3
 2.480  0.6450  117.1   1.082   20.1  0.3119   52.4  0.2488 -120.3
 2.500  0.6471  116.6   1.074   19.7  0.3146   52.1  0.2496 -121.4
 2.520  0.6492  116.1   1.067   19.3  0.3172   51.9  0.2505 -122.4
 2.540  0.6513  115.6   1.059   18.8  0.3199   51.6  0.2514 -123.5
 2.560  0.6535  115.1   1.052   18.4  0.3226   51.3  0.2524 -124.5
 2.580  0.6558  114.6   1.044   17.9  0.3253   51.1  0.2535 -125.5
 2.600  0.6581  114.1   1.037   17.5  0.3280   50.8  0.2547 -126.5
 2.620  0.6590  113.7   1.031   17.1  0.3306   50.5  0.2554 -127.8
 2.640  0.6599  113.2   1.025   16.8  0.3333   50.2  0.2563 -129.0
 2.660  0.6608  112.8   1.019   16.4  0.3359   49.8  0.2572 -130.2
 2.680  0.6618  112.3   1.013   16.0  0.3386   49.5  0.2583 -131.5
 2.700  0.6628  111.9   1.007   15.6  0.3413   49.2  0.2595 -132.7
 2.720  0.6639  111.4   1.001   15.2  0.3440   48.9  0.2609 -133.9
 2.740  0.6650  111.0   0.995   14.8  0.3467   48.7  0.2623 -135.1
 2.760  0.6661  110.6   0.989   14.4  0.3494   48.4  0.2639 -136.3
 2.780  0.6673  110.1   0.984   14.0  0.3521   48.1  0.2655 -137.4
 2.800  0.6685  109.7   0.978   13.6  0.3548   47.8  0.2673 -138.6
 2.820  0.6701  109.2   0.972   13.2  0.3575   47.5  0.2685 -139.7
 2.840  0.6717  108.8   0.966   12.9  0.3602   47.2  0.2699 -140.8
 2.860  0.6733  108.4   0.960   12.5  0.3629   46.9  0.2713 -141.8
 2.880  0.6750  107.9   0.954   12.1  0.3656   46.5  0.2728 -142.9
 2.900  0.6768  107.5   0.948   11.7  0.3683   46.2  0.2745 -144.0
 2.920  0.6785  107.0   0.942   11.3  0.3711   45.9  0.2762 -145.0
 2.940  0.6803  106.6   0.936   10.9  0.3738   45.7  0.2780 -146.0
 2.960  0.6822  106.2   0.930   10.5  0.3766   45.4  0.2799 -147.0
 2.980  0.6841  105.7   0.925   10.1  0.3793   45.1  0.2818 -148.0
 3.000  0.6860  105.3   0.919    9.7  0.3821   44.8  0.2839 -149.0
 3.100  0.6903  103.3   0.895    8.4  0.3938   42.9  0.2909 -154.8
 3.200  0.6956  101.2   0.871    7.0  0.4059   41.1  0.3007 -160.3
 3.300  0.7016   99.3   0.847    5.5  0.4183   39.5  0.3132 -165.5
 3.400  0.7085   97.3   0.824    3.9  0.4311   37.9  0.3279 -170.1
 3.500  0.7162   95.4   0.802    2.3  0.4442   36.4  0.3446 -174.4
 3.600  0.7206   93.7   0.784    1.3  0.4530   34.5  0.3547 -179.4
 3.700  0.7256   92.0   0.767    0.2  0.4623   32.6  0.3673  175.9
 3.800  0.7313   90.4   0.749   -1.0  0.4720   30.8  0.3822  171.5
 3.900  0.7375   88.8   0.733   -2.2  0.4822   29.1  0.3992  167.5
 4.000  0.7443   87.2   0.716   -3.4  0.4928   27.5  0.4180  163.8
 4.100  0.7451   85.8   0.704   -4.2  0.4982   25.7  0.4266  160.0
 4.200  0.7463   84.4   0.692   -5.0  0.5041   23.9  0.4370  156.3
 4.300  0.7479   83.0   0.680   -5.9  0.5104   22.2  0.4491  152.9
 4.400  0.7500   81.6   0.668   -6.8  0.5172   20.5  0.4627  149.6
 4.500  0.7526   80.2   0.657   -7.7  0.5244   18.9  0.4778  146.5
 4.600  0.7542   79.0   0.649   -8.4  0.5282   17.3  0.4852  143.4
 4.700  0.7561   77.7   0.640   -9.1  0.5324   15.7  0.4940  140.4
 4.800  0.7584   76.5   0.632   -9.8  0.5370   14.2  0.5040  137.5
 4.900  0.7610   75.3   0.624  -10.5  0.5420   12.7  0.5153  134.7
 5.000  0.7639   74.1   0.616  -11.3  0.5474   11.2  0.5278  132.1
 5.100  0.7621   73.0   0.609  -11.2  0.5496   10.4  0.5273  131.1
 5.200  0.7607   71.8   0.602  -11.0  0.5518    9.5  0.5270  130.1
 5.300  0.7595   70.7   0.595  -10.9  0.5542    8.7  0.5268  129.1
 5.400  0.7587   69.5   0.588  -10.7  0.5567    7.9  0.5268  128.1
 5.500  0.7581   68.4   0.581  -10.6  0.5593    7.1  0.5270  127.1
 5.600  0.7575   67.6   0.582  -11.5  0.5647    5.5  0.5420  124.5
 5.700  0.7570   66.8   0.582  -12.3  0.5705    3.9  0.5580  122.0
 5.800  0.7567   66.1   0.583  -13.2  0.5768    2.3  0.5751  119.7
 5.900  0.7565   65.3   0.584  -14.0  0.5835    0.8  0.5930  117.5
 6.000  0.7564   64.5   0.585  -14.9  0.5906   -0.7  0.6118  115.4
!
!  f       NFmin   Gammaopt  rn/50
! GHz       dB    MAG  ANG    -
!
! noise parameter not available yet for this operation point!
!
! (c) 2015  Infineon Technologies AG, Munich
