! Infineon Technologies  Discrete & RF Semiconductors
! BFR181W
! VCE =  5.0 V,  IC =  3.0 mA
! Common Emitter S-Parameters:                            Nov 2015
# GHz  S  MA  R  50
!  f         S11            S21            S12            S22
! GHz     MAG   ANG      MAG   ANG      MAG   ANG      MAG   ANG
 0.100  0.9032  -13.7   8.798  168.1  0.0168   82.4  0.9804   -6.5
 0.105  0.9009  -14.4   8.779  167.5  0.0176   81.8  0.9788   -6.8
 0.110  0.8988  -15.0   8.761  166.9  0.0184   81.3  0.9772   -7.1
 0.115  0.8968  -15.7   8.743  166.3  0.0192   80.8  0.9756   -7.4
 0.120  0.8949  -16.4   8.727  165.7  0.0201   80.4  0.9740   -7.7
 0.125  0.8931  -17.1   8.712  165.1  0.0209   79.9  0.9725   -8.0
 0.130  0.8915  -17.7   8.697  164.5  0.0217   79.6  0.9710   -8.3
 0.135  0.8900  -18.4   8.684  163.9  0.0225   79.2  0.9695   -8.7
 0.140  0.8886  -19.1   8.671  163.3  0.0234   78.9  0.9681   -9.0
 0.145  0.8873  -19.8   8.660  162.7  0.0242   78.6  0.9667   -9.3
 0.150  0.8862  -20.5   8.649  162.1  0.0250   78.3  0.9653   -9.6
 0.155  0.8831  -21.1   8.624  161.6  0.0257   77.9  0.9633   -9.9
 0.160  0.8801  -21.7   8.601  161.0  0.0265   77.6  0.9613  -10.2
 0.165  0.8771  -22.3   8.577  160.5  0.0272   77.3  0.9593  -10.4
 0.170  0.8743  -22.9   8.555  159.9  0.0280   77.0  0.9574  -10.7
 0.175  0.8716  -23.6   8.534  159.4  0.0287   76.7  0.9555  -11.0
 0.180  0.8690  -24.2   8.513  158.8  0.0294   76.4  0.9536  -11.3
 0.185  0.8664  -24.8   8.493  158.3  0.0302   76.1  0.9517  -11.5
 0.190  0.8640  -25.4   8.474  157.7  0.0309   75.9  0.9498  -11.8
 0.195  0.8617  -26.1   8.456  157.2  0.0317   75.6  0.9480  -12.1
 0.200  0.8595  -26.7   8.438  156.6  0.0324   75.4  0.9462  -12.4
 0.220  0.8471  -29.2   8.331  154.5  0.0352   73.8  0.9368  -13.5
 0.240  0.8363  -31.7   8.235  152.4  0.0381   72.5  0.9277  -14.5
 0.260  0.8250  -34.1   8.127  150.3  0.0407   71.3  0.9184  -15.6
 0.280  0.8131  -36.5   8.006  148.4  0.0431   70.3  0.9088  -16.5
 0.300  0.8025  -38.9   7.894  146.4  0.0456   69.3  0.8995  -17.4
 0.320  0.7867  -40.9   7.762  144.6  0.0477   68.1  0.8890  -18.1
 0.340  0.7718  -43.0   7.638  142.8  0.0498   67.0  0.8787  -18.9
 0.360  0.7580  -45.1   7.521  140.9  0.0519   66.1  0.8686  -19.7
 0.380  0.7454  -47.4   7.414  138.9  0.0541   65.1  0.8586  -20.5
 0.400  0.7339  -49.7   7.315  136.9  0.0562   64.3  0.8488  -21.3
 0.420  0.7196  -51.5   7.183  135.4  0.0579   63.5  0.8389  -21.9
 0.440  0.7060  -53.4   7.056  133.9  0.0597   62.8  0.8291  -22.5
 0.450  0.6995  -54.4   6.995  133.1  0.0606   62.4  0.8243  -22.8
 0.460  0.6932  -55.4   6.935  132.3  0.0615   62.1  0.8194  -23.1
 0.480  0.6813  -57.4   6.818  130.7  0.0632   61.4  0.8098  -23.7
 0.500  0.6702  -59.5   6.708  129.0  0.0650   60.8  0.8003  -24.3
 0.520  0.6565  -61.2   6.589  127.7  0.0665   60.2  0.7915  -24.7
 0.540  0.6434  -62.9   6.473  126.4  0.0680   59.6  0.7828  -25.2
 0.560  0.6309  -64.7   6.361  125.0  0.0695   59.1  0.7740  -25.6
 0.580  0.6190  -66.6   6.253  123.6  0.0711   58.6  0.7654  -26.1
 0.600  0.6078  -68.5   6.149  122.1  0.0726   58.1  0.7568  -26.6
 0.620  0.5963  -70.0   6.038  120.9  0.0738   57.7  0.7492  -26.9
 0.640  0.5851  -71.6   5.929  119.7  0.0750   57.4  0.7417  -27.3
 0.660  0.5745  -73.2   5.824  118.5  0.0761   57.0  0.7342  -27.6
 0.680  0.5643  -74.9   5.721  117.2  0.0773   56.7  0.7267  -27.9
 0.700  0.5546  -76.6   5.621  115.8  0.0785   56.4  0.7192  -28.3
 0.720  0.5451  -78.0   5.529  114.8  0.0796   56.1  0.7129  -28.6
 0.740  0.5358  -79.5   5.438  113.8  0.0806   55.9  0.7065  -28.8
 0.760  0.5270  -81.0   5.349  112.7  0.0817   55.6  0.7002  -29.1
 0.780  0.5186  -82.6   5.262  111.6  0.0827   55.3  0.6939  -29.3
 0.800  0.5105  -84.2   5.177  110.5  0.0838   55.1  0.6876  -29.6
 0.820  0.5011  -85.5   5.090  109.6  0.0848   54.9  0.6823  -29.8
 0.840  0.4920  -86.8   5.004  108.8  0.0858   54.7  0.6769  -30.0
 0.860  0.4832  -88.2   4.919  107.8  0.0867   54.5  0.6716  -30.1
 0.880  0.4746  -89.6   4.835  106.9  0.0877   54.4  0.6663  -30.3
 0.900  0.4664  -91.1   4.753  105.9  0.0887   54.2  0.6610  -30.5
 0.920  0.4600  -92.4   4.684  105.1  0.0896   54.2  0.6565  -30.7
 0.940  0.4538  -93.7   4.616  104.3  0.0904   54.1  0.6520  -30.9
 0.960  0.4478  -95.0   4.550  103.5  0.0913   54.1  0.6475  -31.0
 0.980  0.4421  -96.4   4.484  102.6  0.0921   54.0  0.6431  -31.2
 1.000  0.4367  -97.8   4.419  101.7  0.0930   54.0  0.6386  -31.4
 1.020  0.4302  -98.9   4.357  101.1  0.0938   54.0  0.6350  -31.5
 1.040  0.4238  -99.9   4.295  100.4  0.0947   53.9  0.6314  -31.7
 1.060  0.4175 -101.1   4.234   99.7  0.0955   53.9  0.6279  -31.8
 1.080  0.4115 -102.2   4.174   99.0  0.0964   53.8  0.6243  -32.0
 1.100  0.4056 -103.4   4.114   98.3  0.0972   53.8  0.6207  -32.1
 1.120  0.3999 -104.6   4.055   97.5  0.0981   53.8  0.6172  -32.3
 1.140  0.3944 -105.9   3.997   96.7  0.0989   53.7  0.6136  -32.4
 1.160  0.3890 -107.2   3.940   96.0  0.0998   53.7  0.6101  -32.6
 1.180  0.3839 -108.5   3.883   95.1  0.1006   53.6  0.6065  -32.7
 1.200  0.3790 -109.9   3.827   94.3  0.1015   53.6  0.6030  -32.9
 1.220  0.3744 -110.9   3.780   93.7  0.1023   53.7  0.6005  -33.0
 1.240  0.3698 -112.0   3.734   93.1  0.1030   53.7  0.5981  -33.1
 1.260  0.3655 -113.1   3.689   92.5  0.1038   53.8  0.5956  -33.2
 1.280  0.3612 -114.2   3.643   91.9  0.1046   53.8  0.5932  -33.4
 1.300  0.3571 -115.3   3.598   91.3  0.1053   53.9  0.5907  -33.5
 1.320  0.3531 -116.5   3.554   90.7  0.1061   53.9  0.5883  -33.6
 1.340  0.3493 -117.7   3.510   90.0  0.1069   54.0  0.5858  -33.7
 1.360  0.3456 -118.9   3.466   89.3  0.1077   54.0  0.5834  -33.9
 1.380  0.3421 -120.1   3.423   88.6  0.1084   54.1  0.5809  -34.0
 1.400  0.3388 -121.4   3.381   87.9  0.1092   54.1  0.5785  -34.1
 1.420  0.3360 -122.4   3.343   87.3  0.1099   54.2  0.5765  -34.2
 1.440  0.3332 -123.5   3.306   86.8  0.1107   54.3  0.5745  -34.3
 1.460  0.3306 -124.5   3.269   86.2  0.1114   54.3  0.5726  -34.5
 1.480  0.3281 -125.6   3.232   85.6  0.1122   54.4  0.5706  -34.6
 1.500  0.3257 -126.7   3.196   85.0  0.1129   54.5  0.5686  -34.7
 1.520  0.3226 -127.8   3.163   84.5  0.1137   54.6  0.5671  -34.8
 1.540  0.3195 -128.9   3.130   84.0  0.1146   54.7  0.5656  -34.9
 1.560  0.3166 -130.1   3.097   83.4  0.1154   54.8  0.5640  -35.1
 1.580  0.3138 -131.2   3.065   82.9  0.1163   54.9  0.5625  -35.2
 1.600  0.3112 -132.4   3.033   82.3  0.1171   55.0  0.5610  -35.3
 1.620  0.3088 -133.3   3.004   81.8  0.1180   55.1  0.5597  -35.4
 1.640  0.3064 -134.2   2.975   81.4  0.1188   55.2  0.5583  -35.6
 1.660  0.3041 -135.1   2.946   80.9  0.1197   55.3  0.5570  -35.7
 1.680  0.3019 -136.0   2.918   80.4  0.1205   55.4  0.5557  -35.8
 1.700  0.2998 -137.0   2.889   79.9  0.1214   55.5  0.5544  -35.9
 1.720  0.2977 -137.9   2.861   79.4  0.1223   55.6  0.5530  -36.1
 1.740  0.2958 -138.9   2.833   78.9  0.1231   55.7  0.5517  -36.2
 1.760  0.2939 -139.9   2.806   78.4  0.1240   55.8  0.5504  -36.3
 1.780  0.2921 -140.9   2.778   77.8  0.1248   55.9  0.5491  -36.5
 1.800  0.2904 -141.9   2.751   77.3  0.1257   56.0  0.5478  -36.6
 1.820  0.2885 -142.8   2.727   76.9  0.1265   56.1  0.5469  -36.7
 1.840  0.2867 -143.8   2.702   76.4  0.1273   56.2  0.5461  -36.9
 1.860  0.2849 -144.7   2.678   76.0  0.1281   56.3  0.5452  -37.0
 1.880  0.2833 -145.7   2.654   75.5  0.1289   56.5  0.5444  -37.2
 1.900  0.2817 -146.7   2.631   75.1  0.1297   56.6  0.5435  -37.3
 1.920  0.2802 -147.7   2.607   74.6  0.1306   56.7  0.5427  -37.5
 1.940  0.2787 -148.7   2.584   74.1  0.1314   56.8  0.5418  -37.6
 1.960  0.2774 -149.7   2.561   73.6  0.1322   56.9  0.5410  -37.8
 1.980  0.2762 -150.7   2.538   73.1  0.1330   57.0  0.5401  -37.9
 2.000  0.2750 -151.7   2.515   72.6  0.1338   57.1  0.5393  -38.1
 2.020  0.2739 -152.6   2.495   72.2  0.1347   57.2  0.5388  -38.2
 2.040  0.2728 -153.4   2.475   71.8  0.1357   57.3  0.5383  -38.4
 2.060  0.2719 -154.3   2.455   71.4  0.1366   57.4  0.5379  -38.5
 2.080  0.2709 -155.2   2.435   71.0  0.1375   57.5  0.5374  -38.7
 2.100  0.2701 -156.1   2.415   70.6  0.1384   57.6  0.5369  -38.8
 2.120  0.2693 -157.0   2.396   70.2  0.1394   57.7  0.5364  -39.0
 2.140  0.2686 -157.9   2.376   69.7  0.1403   57.7  0.5360  -39.1
 2.160  0.2679 -158.8   2.357   69.3  0.1412   57.8  0.5355  -39.3
 2.180  0.2673 -159.7   2.338   68.9  0.1422   57.9  0.5351  -39.4
 2.200  0.2668 -160.6   2.319   68.4  0.1431   58.0  0.5346  -39.6
 2.220  0.2662 -161.4   2.303   68.0  0.1441   58.1  0.5342  -39.8
 2.240  0.2656 -162.2   2.288   67.7  0.1451   58.2  0.5339  -40.0
 2.260  0.2650 -163.0   2.272   67.3  0.1461   58.3  0.5335  -40.2
 2.280  0.2646 -163.8   2.257   66.9  0.1471   58.4  0.5331  -40.4
 2.300  0.2641 -164.6   2.242   66.6  0.1480   58.5  0.5328  -40.5
 2.320  0.2638 -165.4   2.227   66.2  0.1490   58.6  0.5324  -40.7
 2.340  0.2634 -166.2   2.212   65.8  0.1500   58.7  0.5321  -40.9
 2.360  0.2632 -167.1   2.197   65.4  0.1510   58.8  0.5318  -41.1
 2.380  0.2630 -167.9   2.182   65.0  0.1520   58.9  0.5314  -41.3
 2.400  0.2628 -168.7   2.167   64.6  0.1530   59.0  0.5311  -41.5
 2.420  0.2613 -169.5   2.151   64.2  0.1539   59.1  0.5309  -41.6
 2.440  0.2599 -170.3   2.134   63.8  0.1549   59.1  0.5307  -41.8
 2.460  0.2586 -171.1   2.118   63.4  0.1558   59.2  0.5304  -41.9
 2.480  0.2573 -171.9   2.102   62.9  0.1568   59.2  0.5302  -42.1
 2.500  0.2560 -172.7   2.086   62.5  0.1577   59.3  0.5300  -42.2
 2.520  0.2559 -173.5   2.074   62.2  0.1588   59.4  0.5298  -42.4
 2.540  0.2559 -174.2   2.062   61.9  0.1598   59.4  0.5296  -42.6
 2.560  0.2559 -175.0   2.050   61.6  0.1609   59.5  0.5295  -42.8
 2.580  0.2559 -175.7   2.038   61.2  0.1620   59.6  0.5293  -43.0
 2.600  0.2560 -176.5   2.027   60.9  0.1631   59.7  0.5291  -43.3
 2.620  0.2562 -177.2   2.015   60.6  0.1641   59.7  0.5290  -43.5
 2.640  0.2564 -178.0   2.003   60.3  0.1652   59.8  0.5288  -43.7
 2.660  0.2566 -178.7   1.992   59.9  0.1663   59.9  0.5287  -43.9
 2.680  0.2569 -179.5   1.980   59.6  0.1674   59.9  0.5286  -44.1
 2.700  0.2572  179.8   1.969   59.2  0.1684   60.0  0.5285  -44.3
 2.720  0.2576  179.0   1.958   58.9  0.1695   60.1  0.5283  -44.5
 2.740  0.2580  178.3   1.946   58.5  0.1706   60.1  0.5282  -44.7
 2.760  0.2584  177.5   1.935   58.2  0.1717   60.2  0.5281  -44.9
 2.780  0.2589  176.8   1.924   57.8  0.1727   60.3  0.5280  -45.2
 2.800  0.2594  176.1   1.913   57.5  0.1738   60.3  0.5280  -45.4
 2.820  0.2600  175.3   1.902   57.1  0.1749   60.4  0.5279  -45.6
 2.840  0.2606  174.6   1.891   56.7  0.1760   60.4  0.5278  -45.8
 2.860  0.2613  173.9   1.880   56.4  0.1771   60.5  0.5277  -46.0
 2.880  0.2620  173.1   1.870   56.0  0.1781   60.6  0.5277  -46.2
 2.900  0.2628  172.4   1.859   55.6  0.1792   60.6  0.5276  -46.4
 2.920  0.2635  171.7   1.848   55.2  0.1803   60.7  0.5276  -46.6
 2.940  0.2644  171.0   1.838   54.8  0.1814   60.7  0.5276  -46.9
 2.960  0.2652  170.3   1.827   54.4  0.1824   60.8  0.5275  -47.1
 2.980  0.2662  169.6   1.817   54.0  0.1835   60.8  0.5275  -47.3
 3.000  0.2671  168.9   1.807   53.6  0.1846   60.9  0.5275  -47.5
 3.100  0.2670  166.0   1.765   52.1  0.1910   61.0  0.5267  -48.8
 3.200  0.2676  163.1   1.724   50.6  0.1974   61.1  0.5262  -50.0
 3.300  0.2689  160.3   1.684   49.0  0.2038   61.2  0.5260  -51.3
 3.400  0.2708  157.5   1.646   47.3  0.2102   61.2  0.5260  -52.5
 3.500  0.2734  154.7   1.609   45.5  0.2166   61.3  0.5262  -53.8
 3.600  0.2779  151.7   1.577   44.1  0.2233   61.1  0.5250  -55.1
 3.700  0.2832  148.8   1.545   42.6  0.2299   61.0  0.5241  -56.4
 3.800  0.2892  146.0   1.515   41.1  0.2366   60.9  0.5234  -57.7
 3.900  0.2958  143.3   1.486   39.5  0.2432   60.7  0.5230  -59.0
 4.000  0.3030  140.8   1.458   37.9  0.2499   60.6  0.5229  -60.3
 4.100  0.3056  138.4   1.432   36.7  0.2569   60.3  0.5209  -61.8
 4.200  0.3088  136.1   1.406   35.4  0.2638   60.0  0.5192  -63.3
 4.300  0.3124  133.9   1.381   34.1  0.2708   59.8  0.5179  -64.8
 4.400  0.3165  131.6   1.357   32.7  0.2778   59.5  0.5170  -66.4
 4.500  0.3211  129.5   1.334   31.3  0.2848   59.3  0.5164  -67.9
 4.600  0.3278  127.7   1.315   30.1  0.2923   59.0  0.5145  -69.3
 4.700  0.3348  125.9   1.297   28.8  0.2999   58.7  0.5130  -70.8
 4.800  0.3422  124.2   1.279   27.6  0.3074   58.4  0.5118  -72.2
 4.900  0.3498  122.6   1.262   26.3  0.3149   58.1  0.5109  -73.6
 5.000  0.3577  121.0   1.246   24.9  0.3225   57.8  0.5103  -75.1
 5.100  0.3602  119.0   1.228   23.8  0.3307   57.4  0.5096  -76.6
 5.200  0.3632  117.1   1.210   22.6  0.3389   57.0  0.5091  -78.0
 5.300  0.3666  115.1   1.193   21.5  0.3471   56.7  0.5091  -79.5
 5.400  0.3704  113.2   1.176   20.2  0.3554   56.3  0.5093  -80.9
 5.500  0.3746  111.4   1.160   19.0  0.3636   56.0  0.5099  -82.4
 5.600  0.3775  110.0   1.145   18.1  0.3727   55.4  0.5107  -83.9
 5.700  0.3806  108.6   1.130   17.2  0.3818   54.9  0.5119  -85.4
 5.800  0.3839  107.2   1.116   16.2  0.3910   54.4  0.5134  -86.9
 5.900  0.3875  105.9   1.102   15.2  0.4002   53.9  0.5152  -88.3
 6.000  0.3912  104.6   1.088   14.2  0.4094   53.4  0.5174  -89.8
!
!  f       NFmin   Gammaopt  rn/50
! GHz       dB    MAG  ANG    -
 0.450      1.40  0.56   17   0.36
 0.900      1.50  0.45   35   0.34
 1.800      1.85  0.25   82   0.36
!
! (c) 2015  Infineon Technologies AG, Munich
