! Infineon Technologies  Discrete & RF Semiconductors
! BFR106
! VCE =  1.7 V,  IC =  2.0 mA
! Common Emitter S-Parameters:                            Nov 2015
# GHz  S  MA  R  50
!  f         S11            S21            S12            S22
! GHz     MAG   ANG      MAG   ANG      MAG   ANG      MAG   ANG
 0.010  0.9303   -6.9   7.062  175.1  0.0087   88.9  0.9977   -2.6
 0.015  0.9271  -10.2   7.067  173.3  0.0132   84.8  0.9941   -3.9
 0.020  0.9270  -13.5   7.078  171.5  0.0177   82.8  0.9910   -5.3
 0.025  0.9159  -16.6   6.993  169.5  0.0218   79.1  0.9838   -6.5
 0.030  0.9076  -19.8   6.916  167.4  0.0259   76.5  0.9770   -7.7
 0.035  0.9022  -23.1   6.849  165.3  0.0301   74.7  0.9706   -9.0
 0.040  0.8997  -26.3   6.791  163.2  0.0343   73.3  0.9647  -10.2
 0.045  0.9001  -29.6   6.742  161.0  0.0385   72.2  0.9593  -11.5
 0.050  0.9035  -32.9   6.704  158.8  0.0427   71.3  0.9544  -12.8
 0.055  0.8893  -35.6   6.604  157.3  0.0458   69.1  0.9446  -13.7
 0.060  0.8770  -38.3   6.508  155.8  0.0490   67.1  0.9351  -14.6
 0.065  0.8668  -41.1   6.417  154.2  0.0522   65.4  0.9258  -15.5
 0.070  0.8588  -44.0   6.331  152.5  0.0555   63.9  0.9168  -16.5
 0.075  0.8530  -46.9   6.250  150.9  0.0588   62.5  0.9080  -17.5
 0.080  0.8494  -49.9   6.175  149.2  0.0621   61.3  0.8995  -18.5
 0.085  0.8480  -52.8   6.106  147.4  0.0655   60.3  0.8913  -19.5
 0.090  0.8490  -55.8   6.042  145.6  0.0689   59.3  0.8833  -20.5
 0.095  0.8522  -58.8   5.984  143.8  0.0723   58.4  0.8757  -21.5
 0.100  0.8577  -61.7   5.933  141.9  0.0757   57.6  0.8683  -22.6
 0.105  0.8461  -63.8   5.832  140.6  0.0776   56.1  0.8586  -23.2
 0.110  0.8356  -66.0   5.735  139.3  0.0796   54.7  0.8489  -23.9
 0.115  0.8264  -68.2   5.640  138.0  0.0816   53.4  0.8394  -24.5
 0.120  0.8185  -70.5   5.549  136.6  0.0837   52.1  0.8300  -25.2
 0.125  0.8119  -72.8   5.462  135.1  0.0858   50.9  0.8207  -25.9
 0.130  0.8066  -75.1   5.377  133.6  0.0879   49.7  0.8115  -26.6
 0.135  0.8027  -77.5   5.297  132.1  0.0901   48.6  0.8024  -27.3
 0.140  0.8002  -79.9   5.220  130.5  0.0923   47.6  0.7935  -28.1
 0.145  0.7990  -82.3   5.148  128.9  0.0945   46.6  0.7847  -28.8
 0.150  0.7993  -84.7   5.080  127.2  0.0968   45.6  0.7761  -29.6
 0.155  0.7929  -86.4   5.001  126.3  0.0979   44.8  0.7687  -30.0
 0.160  0.7872  -88.1   4.923  125.4  0.0990   44.0  0.7613  -30.3
 0.165  0.7822  -89.9   4.847  124.5  0.1002   43.3  0.7539  -30.7
 0.170  0.7779  -91.7   4.772  123.5  0.1014   42.5  0.7465  -31.1
 0.175  0.7745  -93.5   4.698  122.5  0.1025   41.8  0.7392  -31.5
 0.180  0.7717  -95.3   4.625  121.5  0.1037   41.1  0.7319  -31.8
 0.185  0.7698  -97.1   4.555  120.5  0.1050   40.4  0.7247  -32.2
 0.190  0.7687  -98.9   4.485  119.4  0.1062   39.7  0.7175  -32.7
 0.195  0.7683 -100.8   4.418  118.3  0.1074   39.0  0.7103  -33.1
 0.200  0.7687 -102.6   4.352  117.1  0.1087   38.4  0.7032  -33.5
 0.220  0.7534 -108.1   4.093  113.9  0.1116   35.9  0.6789  -34.6
 0.240  0.7452 -113.7   3.848  110.2  0.1148   33.5  0.6549  -35.8
 0.260  0.7379 -118.7   3.635  107.1  0.1171   31.7  0.6349  -36.8
 0.280  0.7288 -122.9   3.444  104.6  0.1186   30.3  0.6189  -37.6
 0.300  0.7238 -127.2   3.261  101.9  0.1201   29.0  0.6030  -38.4
 0.320  0.7151 -130.5   3.120  100.2  0.1205   28.0  0.5917  -39.0
 0.340  0.7089 -133.9   2.982   98.3  0.1209   27.0  0.5804  -39.5
 0.360  0.7052 -137.3   2.847   96.2  0.1214   26.0  0.5691  -40.1
 0.380  0.7040 -140.8   2.717   93.9  0.1219   25.1  0.5580  -40.8
 0.400  0.7054 -144.2   2.591   91.4  0.1224   24.1  0.5469  -41.4
 0.420  0.7017 -146.4   2.493   89.9  0.1223   23.6  0.5410  -42.0
 0.440  0.6990 -148.7   2.396   88.4  0.1222   23.1  0.5352  -42.6
 0.450  0.6981 -149.8   2.348   87.5  0.1222   22.9  0.5323  -42.9
 0.460  0.6974 -151.0   2.301   86.7  0.1221   22.7  0.5294  -43.2
 0.480  0.6970 -153.2   2.209   84.8  0.1221   22.2  0.5237  -43.8
 0.500  0.6976 -155.5   2.119   82.8  0.1220   21.7  0.5181  -44.4
 0.520  0.6950 -157.4   2.055   81.5  0.1217   21.6  0.5149  -45.1
 0.540  0.6931 -159.4   1.993   80.1  0.1213   21.4  0.5118  -45.8
 0.560  0.6920 -161.3   1.931   78.6  0.1210   21.3  0.5087  -46.5
 0.580  0.6918 -163.3   1.871   77.1  0.1206   21.1  0.5057  -47.2
 0.600  0.6923 -165.2   1.813   75.4  0.1203   21.0  0.5028  -47.9
 0.620  0.6918 -166.7   1.767   74.3  0.1197   21.3  0.5007  -48.7
 0.640  0.6918 -168.2   1.721   73.1  0.1191   21.5  0.4986  -49.5
 0.660  0.6923 -169.7   1.676   71.8  0.1184   21.8  0.4967  -50.3
 0.680  0.6932 -171.2   1.632   70.5  0.1178   22.0  0.4948  -51.1
 0.700  0.6946 -172.7   1.589   69.1  0.1172   22.3  0.4931  -51.9
 0.720  0.6936 -174.0   1.552   68.1  0.1167   22.8  0.4913  -52.7
 0.740  0.6930 -175.2   1.515   67.1  0.1162   23.2  0.4896  -53.5
 0.760  0.6928 -176.5   1.478   66.0  0.1157   23.7  0.4880  -54.3
 0.780  0.6928 -177.7   1.442   64.8  0.1152   24.1  0.4864  -55.1
 0.800  0.6932 -179.0   1.407   63.6  0.1147   24.6  0.4850  -55.9
 0.820  0.6928  179.8   1.377   62.7  0.1143   25.3  0.4840  -56.7
 0.840  0.6927  178.6   1.348   61.7  0.1140   26.0  0.4830  -57.6
 0.860  0.6929  177.5   1.319   60.7  0.1136   26.7  0.4822  -58.4
 0.880  0.6933  176.3   1.291   59.7  0.1133   27.4  0.4815  -59.3
 0.900  0.6941  175.1   1.263   58.6  0.1130   28.1  0.4809  -60.1
 0.920  0.6943  174.0   1.240   57.7  0.1128   29.0  0.4810  -61.0
 0.940  0.6948  172.9   1.217   56.9  0.1127   29.8  0.4812  -62.0
 0.960  0.6955  171.9   1.195   55.9  0.1126   30.7  0.4815  -62.9
 0.980  0.6965  170.8   1.173   55.0  0.1125   31.5  0.4820  -63.9
 1.000  0.6977  169.7   1.151   54.0  0.1124   32.4  0.4826  -64.8
 1.020  0.6984  168.7   1.133   53.1  0.1126   33.4  0.4824  -65.8
 1.040  0.6994  167.7   1.115   52.2  0.1129   34.4  0.4823  -66.8
 1.060  0.7005  166.8   1.097   51.3  0.1131   35.4  0.4823  -67.8
 1.080  0.7019  165.8   1.079   50.4  0.1135   36.3  0.4825  -68.8
 1.100  0.7034  164.8   1.062   49.4  0.1138   37.3  0.4829  -69.8
 1.120  0.7036  163.9   1.046   48.6  0.1147   38.4  0.4828  -70.8
 1.140  0.7041  163.0   1.031   47.9  0.1156   39.5  0.4828  -71.8
 1.160  0.7047  162.0   1.015   47.1  0.1166   40.6  0.4830  -72.9
 1.180  0.7054  161.1   1.000   46.2  0.1176   41.7  0.4834  -73.9
 1.200  0.7064  160.2   0.985   45.4  0.1187   42.7  0.4839  -74.9
 1.220  0.7065  159.3   0.971   44.8  0.1201   43.7  0.4838  -75.9
 1.240  0.7068  158.4   0.958   44.1  0.1215   44.7  0.4839  -76.9
 1.260  0.7073  157.5   0.944   43.5  0.1230   45.7  0.4841  -77.9
 1.280  0.7079  156.6   0.931   42.8  0.1245   46.7  0.4844  -78.9
 1.300  0.7087  155.7   0.918   42.1  0.1260   47.6  0.4849  -79.9
 1.320  0.7104  154.9   0.906   41.5  0.1279   48.5  0.4856  -80.9
 1.340  0.7121  154.1   0.894   40.9  0.1298   49.4  0.4865  -82.0
 1.360  0.7141  153.3   0.883   40.3  0.1317   50.3  0.4875  -83.0
 1.380  0.7161  152.6   0.871   39.7  0.1337   51.2  0.4887  -84.1
 1.400  0.7183  151.8   0.860   39.0  0.1357   52.0  0.4900  -85.1
 1.420  0.7184  151.0   0.852   38.4  0.1383   52.8  0.4898  -86.1
 1.440  0.7187  150.2   0.845   37.9  0.1409   53.6  0.4897  -87.2
 1.460  0.7191  149.4   0.838   37.3  0.1435   54.3  0.4898  -88.2
 1.480  0.7197  148.6   0.830   36.7  0.1462   55.0  0.4900  -89.3
 1.500  0.7204  147.8   0.823   36.1  0.1489   55.7  0.4904  -90.3
 1.520  0.7211  147.0   0.812   35.5  0.1519   56.2  0.4905  -91.4
 1.540  0.7219  146.2   0.801   34.9  0.1549   56.6  0.4907  -92.5
 1.560  0.7229  145.4   0.790   34.2  0.1579   57.1  0.4911  -93.5
 1.580  0.7240  144.6   0.779   33.6  0.1609   57.5  0.4917  -94.6
 1.600  0.7252  143.8   0.768   32.9  0.1639   57.9  0.4924  -95.7
 1.620  0.7261  143.0   0.761   32.5  0.1672   58.3  0.4920  -96.8
 1.640  0.7271  142.3   0.754   32.0  0.1706   58.7  0.4917  -98.0
 1.660  0.7282  141.5   0.747   31.5  0.1739   59.0  0.4916  -99.1
 1.680  0.7295  140.8   0.740   31.1  0.1772   59.4  0.4918 -100.3
 1.700  0.7309  140.0   0.733   30.6  0.1806   59.7  0.4921 -101.4
 1.720  0.7321  139.3   0.727   30.3  0.1843   59.8  0.4928 -102.4
 1.740  0.7334  138.6   0.720   30.0  0.1880   60.0  0.4937 -103.5
 1.760  0.7348  137.9   0.714   29.7  0.1916   60.1  0.4947 -104.5
 1.780  0.7364  137.2   0.707   29.3  0.1953   60.2  0.4959 -105.5
 1.800  0.7380  136.5   0.701   29.0  0.1990   60.3  0.4972 -106.5
 1.820  0.7379  135.8   0.695   28.6  0.2029   60.4  0.4984 -107.7
 1.840  0.7379  135.1   0.689   28.1  0.2068   60.4  0.4998 -108.9
 1.860  0.7380  134.4   0.683   27.6  0.2107   60.5  0.5014 -110.1
 1.880  0.7382  133.7   0.677   27.2  0.2146   60.5  0.5033 -111.2
 1.900  0.7385  133.0   0.671   26.7  0.2185   60.6  0.5053 -112.4
 1.920  0.7388  132.3   0.665   26.4  0.2225   60.5  0.5057 -113.5
 1.940  0.7393  131.7   0.659   26.1  0.2264   60.4  0.5063 -114.7
 1.960  0.7398  131.0   0.652   25.8  0.2304   60.3  0.5070 -115.8
 1.980  0.7405  130.4   0.646   25.4  0.2343   60.2  0.5080 -117.0
 2.000  0.7412  129.7   0.640   25.1  0.2383   60.1  0.5092 -118.1
 2.020  0.7414  129.0   0.636   24.9  0.2425   59.9  0.5093 -119.2
 2.040  0.7417  128.4   0.632   24.6  0.2467   59.7  0.5096 -120.3
 2.060  0.7421  127.7   0.628   24.4  0.2509   59.5  0.5101 -121.5
 2.080  0.7426  127.1   0.624   24.1  0.2551   59.3  0.5108 -122.6
 2.100  0.7432  126.4   0.620   23.8  0.2593   59.1  0.5116 -123.7
 2.120  0.7438  125.8   0.616   23.6  0.2635   58.9  0.5127 -124.8
 2.140  0.7446  125.1   0.612   23.3  0.2677   58.7  0.5140 -125.9
 2.160  0.7455  124.5   0.608   23.0  0.2720   58.5  0.5154 -127.0
 2.180  0.7464  123.8   0.604   22.8  0.2762   58.4  0.5171 -128.1
 2.200  0.7475  123.2   0.600   22.5  0.2804   58.2  0.5189 -129.2
 2.220  0.7474  122.6   0.597   22.3  0.2845   57.8  0.5194 -130.4
 2.240  0.7475  121.9   0.595   22.1  0.2886   57.5  0.5202 -131.6
 2.260  0.7476  121.3   0.592   21.9  0.2927   57.1  0.5212 -132.8
 2.280  0.7478  120.7   0.590   21.7  0.2968   56.8  0.5224 -134.0
 2.300  0.7481  120.0   0.587   21.5  0.3010   56.5  0.5238 -135.2
 2.320  0.7485  119.4   0.584   21.3  0.3051   56.2  0.5255 -136.4
 2.340  0.7490  118.8   0.582   21.0  0.3093   55.9  0.5274 -137.6
 2.360  0.7496  118.2   0.579   20.8  0.3134   55.6  0.5295 -138.8
 2.380  0.7502  117.5   0.577   20.6  0.3176   55.3  0.5318 -139.9
 2.400  0.7510  116.9   0.574   20.4  0.3218   55.0  0.5344 -141.1
 2.420  0.7516  116.3   0.572   20.3  0.3256   54.6  0.5344 -142.2
 2.440  0.7523  115.7   0.569   20.1  0.3294   54.1  0.5345 -143.2
 2.460  0.7531  115.1   0.567   20.0  0.3332   53.7  0.5349 -144.3
 2.480  0.7540  114.5   0.564   19.8  0.3370   53.3  0.5354 -145.4
 2.500  0.7549  113.9   0.562   19.7  0.3409   52.9  0.5361 -146.4
 2.520  0.7559  113.3   0.560   19.5  0.3448   52.5  0.5371 -147.5
 2.540  0.7571  112.7   0.557   19.4  0.3486   52.1  0.5381 -148.6
 2.560  0.7583  112.1   0.555   19.2  0.3526   51.7  0.5394 -149.6
 2.580  0.7595  111.5   0.552   19.1  0.3565   51.4  0.5409 -150.7
 2.600  0.7609  110.9   0.550   18.9  0.3604   51.0  0.5425 -151.7
 2.620  0.7603  110.4   0.549   18.8  0.3639   50.5  0.5434 -152.8
 2.640  0.7597  109.9   0.548   18.7  0.3675   50.1  0.5445 -154.0
 2.660  0.7592  109.3   0.547   18.6  0.3711   49.6  0.5458 -155.1
 2.680  0.7587  108.8   0.546   18.5  0.3747   49.1  0.5473 -156.2
 2.700  0.7583  108.3   0.545   18.5  0.3784   48.7  0.5490 -157.3
 2.720  0.7580  107.8   0.544   18.4  0.3820   48.3  0.5509 -158.4
 2.740  0.7577  107.3   0.543   18.3  0.3857   47.8  0.5531 -159.5
 2.760  0.7575  106.7   0.542   18.2  0.3894   47.4  0.5554 -160.6
 2.780  0.7574  106.2   0.541   18.1  0.3932   47.0  0.5579 -161.6
 2.800  0.7573  105.7   0.540   18.0  0.3969   46.6  0.5606 -162.7
 2.820  0.7576  105.2   0.540   17.9  0.4002   46.1  0.5612 -163.7
 2.840  0.7579  104.7   0.539   17.7  0.4035   45.6  0.5620 -164.7
 2.860  0.7583  104.3   0.539   17.6  0.4068   45.1  0.5629 -165.7
 2.880  0.7588  103.8   0.539   17.4  0.4102   44.7  0.5640 -166.7
 2.900  0.7593  103.3   0.538   17.3  0.4136   44.2  0.5653 -167.7
 2.920  0.7598  102.8   0.538   17.1  0.4170   43.7  0.5667 -168.7
 2.940  0.7605  102.3   0.538   17.0  0.4205   43.3  0.5684 -169.7
 2.960  0.7611  101.9   0.538   16.8  0.4240   42.9  0.5701 -170.7
 2.980  0.7618  101.4   0.537   16.7  0.4275   42.4  0.5721 -171.6
 3.000  0.7626  100.9   0.537   16.5  0.4310   42.0  0.5742 -172.6
 3.100  0.7614   98.9   0.536   15.7  0.4423   39.5  0.5753 -177.4
 3.200  0.7611   96.9   0.535   14.9  0.4545   37.1  0.5804  177.9
 3.300  0.7617   94.9   0.534   14.1  0.4674   34.8  0.5894  173.3
 3.400  0.7633   92.9   0.534   13.3  0.4810   32.7  0.6020  168.8
 3.500  0.7658   90.9   0.533   12.5  0.4952   30.7  0.6181  164.6
 3.600  0.7650   89.4   0.534   11.6  0.5011   28.5  0.6206  160.6
 3.700  0.7648   87.8   0.535   10.8  0.5078   26.3  0.6261  156.6
 3.800  0.7652   86.3   0.537    9.9  0.5152   24.2  0.6346  152.8
 3.900  0.7661   84.7   0.538    9.1  0.5232   22.2  0.6459  149.0
 4.000  0.7675   83.2   0.540    8.2  0.5319   20.2  0.6598  145.4
 4.100  0.7657   82.0   0.540    7.2  0.5339   18.3  0.6593  142.3
 4.200  0.7642   80.7   0.541    6.1  0.5364   16.5  0.6608  139.2
 4.300  0.7631   79.5   0.542    5.1  0.5395   14.7  0.6642  136.1
 4.400  0.7623   78.2   0.543    4.0  0.5431   12.9  0.6696  133.0
 4.500  0.7619   77.0   0.544    3.0  0.5472   11.1  0.6768  130.0
 4.600  0.7621   76.0   0.545    2.0  0.5481    9.6  0.6761  127.5
 4.700  0.7626   75.0   0.546    0.9  0.5493    8.2  0.6767  125.0
 4.800  0.7633   73.9   0.547   -0.1  0.5509    6.8  0.6786  122.5
 4.900  0.7642   72.9   0.548   -1.2  0.5528    5.3  0.6818  120.0
 5.000  0.7654   71.9   0.550   -2.2  0.5551    3.9  0.6862  117.6
 5.100  0.7631   70.9   0.550   -2.5  0.5561    3.2  0.6798  116.8
 5.200  0.7611   69.8   0.550   -2.8  0.5572    2.5  0.6735  116.0
 5.300  0.7594   68.8   0.549   -3.0  0.5583    1.9  0.6673  115.2
 5.400  0.7579   67.7   0.549   -3.3  0.5596    1.2  0.6613  114.4
 5.500  0.7566   66.7   0.549   -3.6  0.5609    0.5  0.6554  113.5
 5.600  0.7557   66.0   0.552   -4.8  0.5644   -1.0  0.6657  111.4
 5.700  0.7549   65.3   0.555   -6.0  0.5683   -2.5  0.6768  109.4
 5.800  0.7542   64.7   0.559   -7.1  0.5725   -4.0  0.6887  107.4
 5.900  0.7537   64.0   0.562   -8.3  0.5772   -5.5  0.7014  105.5
 6.000  0.7532   63.3   0.566   -9.4  0.5822   -6.9  0.7149  103.7
!
!  f       NFmin   Gammaopt  rn/50
! GHz       dB    MAG  ANG    -
!
! noise parameter not available yet for this operation point!
!
! (c) 2015  Infineon Technologies AG, Munich
