! Infineon Technologies  Discrete & RF Semiconductors
! BFR182
! VCE =  3.5 V,  IC =  6.0 mA
! Common Emitter S-Parameters:                            Nov 2015
# GHz  S  MA  R  50
!  f         S11            S21            S12            S22
! GHz     MAG   ANG      MAG   ANG      MAG   ANG      MAG   ANG
 0.010  0.7966   -3.0  16.762  177.5  0.0020   88.9  0.9883   -1.3
 0.015  0.7944   -4.2  16.592  176.2  0.0028   88.9  0.9828   -1.9
 0.020  0.7926   -5.4  16.431  174.8  0.0036   88.9  0.9774   -2.6
 0.025  0.7904   -6.8  16.406  173.7  0.0047   86.6  0.9767   -3.2
 0.030  0.7887   -8.2  16.388  172.5  0.0057   85.2  0.9761   -3.9
 0.035  0.7874   -9.5  16.376  171.4  0.0068   84.2  0.9756   -4.5
 0.040  0.7866  -10.9  16.371  170.2  0.0079   83.5  0.9753   -5.1
 0.045  0.7863  -12.3  16.373  169.1  0.0089   82.9  0.9750   -5.8
 0.050  0.7864  -13.7  16.381  167.9  0.0100   82.5  0.9749   -6.4
 0.055  0.7802  -14.9  16.289  166.8  0.0109   81.8  0.9705   -7.0
 0.060  0.7743  -16.2  16.204  165.7  0.0117   81.3  0.9662   -7.5
 0.065  0.7689  -17.5  16.124  164.6  0.0126   80.8  0.9621   -8.1
 0.070  0.7638  -18.8  16.050  163.5  0.0134   80.3  0.9580   -8.7
 0.075  0.7591  -20.1  15.983  162.4  0.0143   80.0  0.9540   -9.2
 0.080  0.7548  -21.4  15.921  161.2  0.0152   79.6  0.9501   -9.8
 0.085  0.7509  -22.7  15.866  160.1  0.0160   79.3  0.9463  -10.4
 0.090  0.7475  -24.1  15.818  158.9  0.0169   79.1  0.9426  -11.0
 0.095  0.7444  -25.4  15.776  157.8  0.0177   78.8  0.9390  -11.6
 0.100  0.7418  -26.8  15.740  156.6  0.0186   78.6  0.9355  -12.2
 0.105  0.7347  -27.9  15.584  155.6  0.0194   77.6  0.9301  -12.6
 0.110  0.7279  -29.0  15.432  154.6  0.0202   76.6  0.9248  -13.1
 0.115  0.7214  -30.1  15.285  153.6  0.0210   75.7  0.9196  -13.6
 0.120  0.7151  -31.2  15.143  152.5  0.0218   74.9  0.9144  -14.0
 0.125  0.7091  -32.4  15.006  151.5  0.0226   74.1  0.9093  -14.5
 0.130  0.7035  -33.6  14.874  150.4  0.0234   73.4  0.9042  -15.0
 0.135  0.6981  -34.8  14.748  149.3  0.0242   72.8  0.8992  -15.4
 0.140  0.6931  -36.0  14.627  148.2  0.0250   72.1  0.8943  -15.9
 0.145  0.6883  -37.2  14.512  147.1  0.0258   71.5  0.8894  -16.4
 0.150  0.6839  -38.5  14.403  145.9  0.0266   71.0  0.8846  -16.9
 0.155  0.6766  -39.4  14.281  145.1  0.0272   70.6  0.8791  -17.2
 0.160  0.6695  -40.4  14.163  144.3  0.0279   70.3  0.8736  -17.6
 0.165  0.6625  -41.4  14.047  143.4  0.0285   69.9  0.8681  -17.9
 0.170  0.6558  -42.4  13.934  142.6  0.0291   69.6  0.8627  -18.2
 0.175  0.6493  -43.4  13.825  141.7  0.0298   69.3  0.8573  -18.6
 0.180  0.6430  -44.5  13.718  140.8  0.0304   69.0  0.8519  -18.9
 0.185  0.6369  -45.6  13.615  140.0  0.0311   68.7  0.8466  -19.3
 0.190  0.6310  -46.7  13.515  139.0  0.0317   68.4  0.8413  -19.7
 0.195  0.6254  -47.8  13.419  138.1  0.0324   68.2  0.8360  -20.0
 0.200  0.6200  -48.9  13.326  137.2  0.0330   67.9  0.8308  -20.4
 0.220  0.5938  -52.5  12.815  134.4  0.0351   66.6  0.8093  -21.4
 0.240  0.5701  -56.4  12.339  131.3  0.0372   65.4  0.7880  -22.4
 0.260  0.5478  -60.0  11.867  128.6  0.0392   64.7  0.7685  -23.2
 0.280  0.5260  -63.1  11.388  126.2  0.0410   64.2  0.7507  -23.8
 0.300  0.5059  -66.5  10.929  123.7  0.0428   63.8  0.7331  -24.5
 0.320  0.4869  -68.8  10.548  122.1  0.0445   63.4  0.7198  -24.8
 0.340  0.4687  -71.3  10.177  120.3  0.0462   63.0  0.7066  -25.2
 0.360  0.4515  -74.1   9.815  118.5  0.0478   62.6  0.6934  -25.5
 0.380  0.4354  -77.0   9.465  116.5  0.0495   62.3  0.6802  -25.9
 0.400  0.4205  -80.1   9.127  114.3  0.0512   62.0  0.6671  -26.3
 0.420  0.4051  -82.2   8.828  112.9  0.0527   62.0  0.6568  -26.4
 0.440  0.3903  -84.4   8.534  111.4  0.0541   62.0  0.6466  -26.5
 0.450  0.3831  -85.6   8.390  110.5  0.0548   61.9  0.6414  -26.6
 0.460  0.3761  -86.8   8.248  109.7  0.0556   61.9  0.6363  -26.6
 0.480  0.3627  -89.4   7.968  108.0  0.0570   61.9  0.6261  -26.8
 0.500  0.3500  -92.2   7.696  106.1  0.0585   61.9  0.6158  -26.9
 0.520  0.3394  -94.2   7.485  105.1  0.0599   61.9  0.6088  -27.0
 0.540  0.3293  -96.4   7.277  103.9  0.0613   61.9  0.6019  -27.1
 0.560  0.3197  -98.7   7.071  102.8  0.0627   62.0  0.5949  -27.1
 0.580  0.3107 -101.1   6.869  101.5  0.0641   62.0  0.5880  -27.2
 0.600  0.3022 -103.7   6.670  100.2  0.0655   62.0  0.5810  -27.3
 0.620  0.2940 -105.3   6.504   99.3  0.0669   62.1  0.5763  -27.3
 0.640  0.2860 -107.0   6.341   98.3  0.0684   62.2  0.5716  -27.4
 0.660  0.2782 -108.9   6.179   97.3  0.0698   62.2  0.5670  -27.4
 0.680  0.2708 -110.8   6.019   96.2  0.0713   62.3  0.5623  -27.5
 0.700  0.2637 -112.8   5.861   95.1  0.0727   62.4  0.5576  -27.5
 0.720  0.2574 -114.6   5.724   94.3  0.0741   62.4  0.5540  -27.5
 0.740  0.2513 -116.4   5.589   93.4  0.0755   62.5  0.5505  -27.6
 0.760  0.2455 -118.3   5.455   92.5  0.0769   62.5  0.5469  -27.6
 0.780  0.2400 -120.4   5.322   91.6  0.0783   62.6  0.5434  -27.7
 0.800  0.2348 -122.5   5.191   90.6  0.0797   62.6  0.5398  -27.7
 0.820  0.2295 -124.0   5.088   89.8  0.0812   62.7  0.5372  -27.8
 0.840  0.2243 -125.5   4.985   89.1  0.0828   62.7  0.5345  -27.8
 0.860  0.2193 -127.1   4.884   88.2  0.0843   62.8  0.5319  -27.9
 0.880  0.2145 -128.8   4.783   87.4  0.0859   62.8  0.5292  -27.9
 0.900  0.2099 -130.6   4.684   86.5  0.0874   62.9  0.5266  -28.0
 0.920  0.2064 -132.7   4.603   85.8  0.0888   63.0  0.5243  -28.1
 0.940  0.2031 -134.8   4.522   85.1  0.0902   63.2  0.5220  -28.2
 0.960  0.2001 -137.0   4.442   84.4  0.0915   63.3  0.5196  -28.3
 0.980  0.1975 -139.3   4.363   83.7  0.0929   63.5  0.5173  -28.4
 1.000  0.1951 -141.6   4.284   82.9  0.0943   63.6  0.5150  -28.5
 1.020  0.1929 -143.8   4.215   82.3  0.0958   63.7  0.5133  -28.6
 1.040  0.1910 -146.0   4.147   81.7  0.0973   63.7  0.5116  -28.8
 1.060  0.1894 -148.2   4.079   81.0  0.0987   63.8  0.5100  -28.9
 1.080  0.1881 -150.5   4.012   80.4  0.1002   63.8  0.5083  -29.1
 1.100  0.1871 -152.8   3.945   79.7  0.1017   63.9  0.5066  -29.2
 1.120  0.1846 -154.5   3.885   79.1  0.1032   63.9  0.5050  -29.3
 1.140  0.1822 -156.2   3.825   78.4  0.1048   63.9  0.5035  -29.4
 1.160  0.1800 -158.0   3.765   77.8  0.1063   63.9  0.5019  -29.6
 1.180  0.1780 -159.8   3.706   77.1  0.1079   63.9  0.5004  -29.7
 1.200  0.1762 -161.6   3.648   76.4  0.1094   63.9  0.4988  -29.8
 1.220  0.1752 -163.2   3.594   75.9  0.1110   63.9  0.4975  -30.0
 1.240  0.1743 -164.8   3.540   75.4  0.1126   63.9  0.4963  -30.1
 1.260  0.1735 -166.5   3.486   74.8  0.1141   64.0  0.4950  -30.3
 1.280  0.1729 -168.1   3.433   74.3  0.1157   64.0  0.4938  -30.4
 1.300  0.1724 -169.8   3.380   73.7  0.1173   64.0  0.4925  -30.6
 1.320  0.1723 -171.5   3.334   73.2  0.1188   64.0  0.4914  -30.8
 1.340  0.1724 -173.3   3.289   72.6  0.1203   64.0  0.4903  -31.0
 1.360  0.1726 -175.0   3.244   72.1  0.1218   64.0  0.4892  -31.2
 1.380  0.1730 -176.8   3.199   71.5  0.1233   64.0  0.4882  -31.4
 1.400  0.1735 -178.5   3.155   70.9  0.1248   64.0  0.4871  -31.6
 1.420  0.1731 -179.8   3.121   70.4  0.1264   64.0  0.4861  -31.8
 1.440  0.1728  179.0   3.087   69.9  0.1281   63.9  0.4852  -32.0
 1.460  0.1726  177.7   3.053   69.4  0.1297   63.9  0.4843  -32.2
 1.480  0.1724  176.4   3.019   68.9  0.1314   63.8  0.4833  -32.4
 1.500  0.1724  175.1   2.986   68.4  0.1330   63.8  0.4824  -32.6
 1.520  0.1728  173.2   2.948   67.8  0.1347   63.7  0.4815  -32.8
 1.540  0.1734  171.3   2.911   67.2  0.1363   63.7  0.4806  -33.0
 1.560  0.1742  169.4   2.874   66.6  0.1380   63.6  0.4797  -33.2
 1.580  0.1752  167.5   2.837   66.0  0.1396   63.6  0.4789  -33.4
 1.600  0.1764  165.7   2.801   65.3  0.1413   63.5  0.4780  -33.6
 1.620  0.1772  164.5   2.773   64.8  0.1429   63.4  0.4769  -33.8
 1.640  0.1782  163.3   2.746   64.4  0.1445   63.4  0.4758  -34.1
 1.660  0.1792  162.1   2.718   63.9  0.1460   63.3  0.4747  -34.3
 1.680  0.1802  161.0   2.691   63.4  0.1476   63.3  0.4737  -34.6
 1.700  0.1814  159.8   2.664   62.9  0.1492   63.2  0.4726  -34.8
 1.720  0.1820  158.4   2.639   62.4  0.1509   63.1  0.4716  -35.0
 1.740  0.1827  156.9   2.615   62.0  0.1526   63.1  0.4706  -35.3
 1.760  0.1836  155.5   2.591   61.5  0.1542   63.0  0.4696  -35.5
 1.780  0.1845  154.1   2.567   61.0  0.1559   63.0  0.4687  -35.8
 1.800  0.1856  152.7   2.543   60.5  0.1576   62.9  0.4677  -36.0
 1.820  0.1882  151.9   2.521   60.0  0.1593   62.8  0.4666  -36.3
 1.840  0.1907  151.1   2.500   59.6  0.1610   62.8  0.4655  -36.6
 1.860  0.1934  150.4   2.478   59.1  0.1627   62.7  0.4644  -36.8
 1.880  0.1960  149.6   2.457   58.6  0.1644   62.7  0.4634  -37.1
 1.900  0.1987  148.9   2.436   58.1  0.1661   62.6  0.4623  -37.4
 1.920  0.1998  147.7   2.413   57.6  0.1678   62.5  0.4615  -37.7
 1.940  0.2009  146.5   2.390   57.2  0.1695   62.4  0.4607  -37.9
 1.960  0.2022  145.3   2.367   56.7  0.1713   62.2  0.4599  -38.2
 1.980  0.2035  144.1   2.344   56.2  0.1730   62.1  0.4591  -38.4
 2.000  0.2049  142.9   2.322   55.7  0.1747   62.0  0.4583  -38.7
 2.020  0.2062  142.0   2.303   55.3  0.1764   61.9  0.4571  -39.0
 2.040  0.2075  141.1   2.283   54.8  0.1781   61.8  0.4560  -39.3
 2.060  0.2089  140.2   2.264   54.4  0.1799   61.6  0.4549  -39.6
 2.080  0.2104  139.3   2.245   54.0  0.1816   61.5  0.4538  -39.9
 2.100  0.2119  138.4   2.227   53.5  0.1833   61.4  0.4526  -40.2
 2.120  0.2134  137.6   2.208   53.0  0.1850   61.3  0.4516  -40.5
 2.140  0.2150  136.8   2.190   52.6  0.1867   61.2  0.4505  -40.8
 2.160  0.2166  135.9   2.171   52.1  0.1885   61.1  0.4494  -41.1
 2.180  0.2183  135.1   2.153   51.6  0.1902   61.0  0.4483  -41.4
 2.200  0.2200  134.3   2.135   51.1  0.1919   60.9  0.4473  -41.7
 2.220  0.2218  133.5   2.121   50.7  0.1937   60.8  0.4460  -42.0
 2.240  0.2236  132.7   2.107   50.2  0.1956   60.7  0.4447  -42.3
 2.260  0.2255  131.9   2.093   49.8  0.1974   60.5  0.4434  -42.6
 2.280  0.2274  131.1   2.080   49.4  0.1992   60.4  0.4421  -42.9
 2.300  0.2293  130.4   2.066   48.9  0.2010   60.3  0.4408  -43.2
 2.320  0.2313  129.6   2.053   48.5  0.2029   60.2  0.4396  -43.5
 2.340  0.2333  128.9   2.040   48.0  0.2047   60.1  0.4383  -43.9
 2.360  0.2354  128.2   2.027   47.5  0.2065   60.0  0.4371  -44.2
 2.380  0.2375  127.5   2.014   47.1  0.2084   59.9  0.4359  -44.5
 2.400  0.2396  126.8   2.001   46.6  0.2102   59.8  0.4347  -44.8
 2.420  0.2420  126.1   1.987   46.2  0.2119   59.6  0.4333  -45.1
 2.440  0.2445  125.3   1.974   45.8  0.2137   59.5  0.4318  -45.5
 2.460  0.2471  124.6   1.961   45.4  0.2154   59.3  0.4304  -45.9
 2.480  0.2496  124.0   1.947   45.0  0.2172   59.2  0.4291  -46.2
 2.500  0.2522  123.3   1.934   44.6  0.2189   59.0  0.4277  -46.6
 2.520  0.2549  122.6   1.921   44.2  0.2207   58.9  0.4263  -46.9
 2.540  0.2575  122.0   1.908   43.8  0.2224   58.7  0.4250  -47.3
 2.560  0.2602  121.3   1.895   43.4  0.2242   58.6  0.4237  -47.7
 2.580  0.2629  120.7   1.883   42.9  0.2259   58.4  0.4224  -48.0
 2.600  0.2657  120.1   1.870   42.5  0.2277   58.3  0.4211  -48.4
 2.620  0.2673  119.6   1.860   42.1  0.2296   58.1  0.4197  -48.8
 2.640  0.2689  119.1   1.849   41.8  0.2315   58.0  0.4183  -49.1
 2.660  0.2705  118.5   1.839   41.4  0.2334   57.8  0.4169  -49.5
 2.680  0.2721  118.0   1.829   41.0  0.2353   57.7  0.4155  -49.9
 2.700  0.2737  117.5   1.819   40.6  0.2372   57.5  0.4141  -50.2
 2.720  0.2754  117.0   1.809   40.2  0.2391   57.4  0.4128  -50.6
 2.740  0.2771  116.5   1.799   39.8  0.2411   57.2  0.4115  -51.0
 2.760  0.2788  116.1   1.789   39.4  0.2430   57.1  0.4102  -51.3
 2.780  0.2805  115.6   1.780   39.0  0.2449   56.9  0.4089  -51.7
 2.800  0.2823  115.1   1.770   38.6  0.2468   56.8  0.4076  -52.1
 2.820  0.2847  114.7   1.760   38.2  0.2486   56.6  0.4060  -52.5
 2.840  0.2872  114.3   1.750   37.8  0.2504   56.4  0.4045  -52.9
 2.860  0.2896  113.9   1.740   37.4  0.2522   56.3  0.4029  -53.3
 2.880  0.2921  113.5   1.730   37.0  0.2540   56.1  0.4014  -53.7
 2.900  0.2946  113.1   1.720   36.6  0.2558   55.9  0.3999  -54.1
 2.920  0.2971  112.7   1.710   36.1  0.2576   55.8  0.3984  -54.5
 2.940  0.2996  112.3   1.700   35.7  0.2594   55.6  0.3970  -54.9
 2.960  0.3021  111.9   1.691   35.3  0.2612   55.4  0.3955  -55.3
 2.980  0.3047  111.6   1.681   34.8  0.2630   55.3  0.3941  -55.7
 3.000  0.3072  111.2   1.672   34.4  0.2648   55.1  0.3927  -56.1
 3.100  0.3189  109.1   1.631   32.7  0.2742   54.1  0.3832  -58.4
 3.200  0.3309  107.1   1.591   30.9  0.2838   53.1  0.3743  -60.8
 3.300  0.3434  105.2   1.553   29.1  0.2934   52.2  0.3661  -63.4
 3.400  0.3561  103.5   1.517   27.1  0.3031   51.3  0.3586  -66.0
 3.500  0.3692  101.9   1.482   25.1  0.3128   50.5  0.3520  -68.8
 3.600  0.3805  100.4   1.452   23.5  0.3222   49.3  0.3414  -71.8
 3.700  0.3921   98.9   1.424   21.8  0.3318   48.2  0.3318  -74.9
 3.800  0.4039   97.5   1.396   20.0  0.3414   47.1  0.3232  -78.2
 3.900  0.4159   96.2   1.370   18.2  0.3512   46.1  0.3157  -81.7
 4.000  0.4281   95.0   1.346   16.3  0.3611   45.2  0.3095  -85.3
 4.100  0.4381   93.7   1.322   14.8  0.3705   43.9  0.2996  -88.9
 4.200  0.4482   92.5   1.299   13.2  0.3801   42.7  0.2909  -92.7
 4.300  0.4586   91.3   1.276   11.6  0.3898   41.5  0.2836  -96.8
 4.400  0.4692   90.2   1.255    9.9  0.3997   40.4  0.2777 -101.0
 4.500  0.4799   89.1   1.235    8.2  0.4098   39.3  0.2735 -105.4
 4.600  0.4889   87.9   1.215    6.7  0.4187   38.0  0.2666 -109.6
 4.700  0.4982   86.8   1.195    5.2  0.4278   36.7  0.2612 -114.0
 4.800  0.5076   85.7   1.177    3.7  0.4371   35.5  0.2575 -118.6
 4.900  0.5172   84.6   1.159    2.1  0.4465   34.3  0.2554 -123.3
 5.000  0.5270   83.6   1.142    0.4  0.4562   33.2  0.2550 -128.0
 5.100  0.5347   82.4   1.121   -0.9  0.4642   31.8  0.2509 -132.8
 5.200  0.5427   81.3   1.100   -2.2  0.4725   30.4  0.2486 -137.8
 5.300  0.5509   80.2   1.081   -3.6  0.4811   29.0  0.2483 -142.8
 5.400  0.5592   79.1   1.061   -5.1  0.4899   27.7  0.2498 -147.7
 5.500  0.5678   78.1   1.043   -6.6  0.4990   26.5  0.2531 -152.6
 5.600  0.5757   77.0   1.026   -7.8  0.5048   24.9  0.2493 -157.2
 5.700  0.5839   75.9   1.010   -9.1  0.5109   23.4  0.2472 -161.9
 5.800  0.5923   74.8   0.994  -10.4  0.5174   21.9  0.2468 -166.6
 5.900  0.6008   73.8   0.979  -11.7  0.5242   20.4  0.2481 -171.4
 6.000  0.6096   72.8   0.964  -13.1  0.5314   19.0  0.2510 -176.0
!
!  f       NFmin   Gammaopt  rn/50
! GHz       dB    MAG  ANG    -
 0.450      1.20  0.27   37   0.30
 0.900      1.30  0.25   75   0.23
 1.800      1.90  0.21  145   0.20
!
! (c) 2015  Infineon Technologies AG, Munich
