! Infineon Technologies  Discrete & RF Semiconductors
! BFR181W
! VCE =  1.0 V,  IC =  2.0 mA
! Common Emitter S-Parameters:                            Nov 2015
# GHz  S  MA  R  50
!  f         S11            S21            S12            S22
! GHz     MAG   ANG      MAG   ANG      MAG   ANG      MAG   ANG
 0.100  0.9279  -12.6   6.288  169.5  0.0199   82.2  0.9842   -6.0
 0.105  0.9261  -13.2   6.278  169.0  0.0209   81.7  0.9831   -6.3
 0.110  0.9244  -13.8   6.269  168.4  0.0218   81.3  0.9819   -6.6
 0.115  0.9228  -14.4   6.260  167.9  0.0228   80.9  0.9808   -6.8
 0.120  0.9213  -15.0   6.251  167.4  0.0238   80.5  0.9798   -7.1
 0.125  0.9199  -15.6   6.244  166.8  0.0247   80.2  0.9787   -7.4
 0.130  0.9187  -16.2   6.236  166.3  0.0257   79.9  0.9777   -7.7
 0.135  0.9175  -16.9   6.230  165.7  0.0267   79.6  0.9767   -8.0
 0.140  0.9164  -17.5   6.224  165.2  0.0277   79.3  0.9757   -8.2
 0.145  0.9155  -18.1   6.218  164.6  0.0286   79.0  0.9747   -8.5
 0.150  0.9146  -18.7   6.213  164.1  0.0296   78.8  0.9738   -8.8
 0.155  0.9123  -19.3   6.201  163.6  0.0305   78.4  0.9723   -9.1
 0.160  0.9101  -19.8   6.188  163.1  0.0314   78.0  0.9708   -9.3
 0.165  0.9080  -20.4   6.177  162.6  0.0322   77.7  0.9693   -9.6
 0.170  0.9060  -21.0   6.166  162.1  0.0331   77.4  0.9678   -9.9
 0.175  0.9040  -21.6   6.155  161.6  0.0340   77.0  0.9664  -10.1
 0.180  0.9022  -22.2   6.145  161.1  0.0349   76.8  0.9650  -10.4
 0.185  0.9005  -22.7   6.135  160.6  0.0358   76.5  0.9636  -10.7
 0.190  0.8988  -23.3   6.126  160.1  0.0366   76.2  0.9622  -11.0
 0.195  0.8973  -23.9   6.117  159.6  0.0375   75.9  0.9608  -11.2
 0.200  0.8958  -24.5   6.109  159.1  0.0384   75.7  0.9595  -11.5
 0.220  0.8852  -26.8   6.051  157.2  0.0418   74.3  0.9519  -12.5
 0.240  0.8761  -29.2   6.000  155.2  0.0453   73.0  0.9446  -13.6
 0.260  0.8673  -31.5   5.941  153.3  0.0486   71.8  0.9372  -14.6
 0.280  0.8585  -33.7   5.874  151.5  0.0517   70.6  0.9297  -15.5
 0.300  0.8511  -35.9   5.813  149.6  0.0549   69.5  0.9224  -16.4
 0.320  0.8370  -37.9   5.737  147.9  0.0576   68.3  0.9134  -17.2
 0.340  0.8240  -40.0   5.666  146.1  0.0603   67.1  0.9047  -18.0
 0.360  0.8122  -42.2   5.601  144.3  0.0631   66.1  0.8961  -18.9
 0.380  0.8015  -44.4   5.541  142.4  0.0658   65.2  0.8877  -19.7
 0.400  0.7921  -46.7   5.488  140.5  0.0686   64.3  0.8795  -20.6
 0.420  0.7794  -48.5   5.407  139.0  0.0709   63.2  0.8705  -21.3
 0.440  0.7675  -50.4   5.330  137.5  0.0731   62.2  0.8615  -21.9
 0.450  0.7618  -51.4   5.292  136.7  0.0743   61.8  0.8571  -22.3
 0.460  0.7564  -52.4   5.256  135.9  0.0754   61.3  0.8527  -22.6
 0.480  0.7462  -54.4   5.187  134.3  0.0778   60.4  0.8441  -23.3
 0.500  0.7370  -56.4   5.122  132.6  0.0801   59.6  0.8355  -24.0
 0.520  0.7246  -58.1   5.045  131.2  0.0820   58.9  0.8271  -24.6
 0.540  0.7129  -59.9   4.972  129.8  0.0839   58.1  0.8188  -25.1
 0.560  0.7020  -61.8   4.901  128.4  0.0859   57.5  0.8106  -25.7
 0.580  0.6918  -63.7   4.834  126.9  0.0878   56.8  0.8025  -26.3
 0.600  0.6824  -65.7   4.770  125.4  0.0898   56.2  0.7944  -26.9
 0.620  0.6712  -67.3   4.696  124.2  0.0912   55.6  0.7868  -27.3
 0.640  0.6606  -68.9   4.623  122.9  0.0926   55.0  0.7793  -27.7
 0.660  0.6505  -70.6   4.553  121.6  0.0940   54.5  0.7718  -28.1
 0.680  0.6411  -72.4   4.486  120.3  0.0955   53.9  0.7644  -28.6
 0.700  0.6322  -74.2   4.421  118.9  0.0969   53.4  0.7570  -29.0
 0.720  0.6225  -75.7   4.357  117.8  0.0982   52.9  0.7503  -29.4
 0.740  0.6132  -77.2   4.295  116.8  0.0994   52.5  0.7437  -29.7
 0.760  0.6044  -78.8   4.234  115.6  0.1007   52.0  0.7370  -30.1
 0.780  0.5961  -80.4   4.175  114.5  0.1020   51.6  0.7305  -30.5
 0.800  0.5882  -82.1   4.118  113.3  0.1033   51.2  0.7239  -30.9
 0.820  0.5788  -83.4   4.055  112.4  0.1044   50.9  0.7182  -31.2
 0.840  0.5698  -84.8   3.993  111.4  0.1054   50.6  0.7124  -31.4
 0.860  0.5611  -86.2   3.933  110.4  0.1065   50.3  0.7067  -31.7
 0.880  0.5527  -87.7   3.873  109.4  0.1075   50.0  0.7011  -32.0
 0.900  0.5447  -89.2   3.815  108.3  0.1086   49.7  0.6954  -32.3
 0.920  0.5381  -90.6   3.764  107.4  0.1095   49.4  0.6903  -32.6
 0.940  0.5318  -91.9   3.715  106.5  0.1104   49.2  0.6852  -32.8
 0.960  0.5258  -93.4   3.666  105.6  0.1113   48.9  0.6801  -33.1
 0.980  0.5201  -94.8   3.619  104.6  0.1122   48.7  0.6751  -33.3
 1.000  0.5148  -96.3   3.572  103.6  0.1131   48.4  0.6700  -33.6
 1.020  0.5079  -97.4   3.524  102.9  0.1139   48.2  0.6659  -33.8
 1.040  0.5013  -98.6   3.477  102.1  0.1146   48.1  0.6617  -34.0
 1.060  0.4948  -99.7   3.431  101.4  0.1154   47.9  0.6576  -34.2
 1.080  0.4886 -100.9   3.385  100.6  0.1162   47.8  0.6535  -34.4
 1.100  0.4826 -102.2   3.340   99.8  0.1169   47.6  0.6494  -34.6
 1.120  0.4768 -103.4   3.295   98.9  0.1177   47.5  0.6453  -34.8
 1.140  0.4712 -104.7   3.252   98.1  0.1185   47.3  0.6412  -35.0
 1.160  0.4659 -106.1   3.209   97.2  0.1193   47.2  0.6371  -35.3
 1.180  0.4609 -107.4   3.166   96.3  0.1200   47.0  0.6331  -35.5
 1.200  0.4561 -108.8   3.125   95.4  0.1208   46.9  0.6290  -35.7
 1.220  0.4511 -109.9   3.090   94.8  0.1214   46.9  0.6261  -35.9
 1.240  0.4463 -111.0   3.054   94.1  0.1220   46.8  0.6231  -36.0
 1.260  0.4416 -112.1   3.020   93.5  0.1226   46.8  0.6202  -36.2
 1.280  0.4371 -113.3   2.985   92.8  0.1232   46.7  0.6173  -36.4
 1.300  0.4328 -114.5   2.952   92.1  0.1238   46.7  0.6143  -36.5
 1.320  0.4287 -115.7   2.918   91.4  0.1244   46.7  0.6114  -36.7
 1.340  0.4248 -116.9   2.885   90.7  0.1250   46.6  0.6085  -36.9
 1.360  0.4210 -118.1   2.853   89.9  0.1256   46.6  0.6056  -37.0
 1.380  0.4175 -119.4   2.821   89.2  0.1262   46.5  0.6027  -37.2
 1.400  0.4142 -120.7   2.789   88.4  0.1268   46.5  0.5998  -37.4
 1.420  0.4105 -121.7   2.760   87.8  0.1274   46.5  0.5973  -37.6
 1.440  0.4069 -122.8   2.730   87.2  0.1280   46.5  0.5949  -37.7
 1.460  0.4035 -123.9   2.702   86.5  0.1286   46.6  0.5924  -37.9
 1.480  0.4002 -125.0   2.673   85.9  0.1292   46.6  0.5900  -38.0
 1.500  0.3971 -126.1   2.645   85.2  0.1298   46.6  0.5875  -38.2
 1.520  0.3940 -127.2   2.618   84.6  0.1305   46.7  0.5856  -38.3
 1.540  0.3910 -128.3   2.592   84.0  0.1311   46.7  0.5838  -38.5
 1.560  0.3882 -129.5   2.566   83.4  0.1318   46.8  0.5819  -38.6
 1.580  0.3855 -130.6   2.540   82.7  0.1324   46.8  0.5801  -38.8
 1.600  0.3830 -131.8   2.515   82.1  0.1331   46.9  0.5782  -38.9
 1.620  0.3804 -132.8   2.492   81.6  0.1337   47.0  0.5765  -39.1
 1.640  0.3780 -133.8   2.469   81.1  0.1343   47.0  0.5749  -39.2
 1.660  0.3756 -134.8   2.446   80.5  0.1349   47.1  0.5732  -39.4
 1.680  0.3734 -135.8   2.423   80.0  0.1355   47.2  0.5715  -39.5
 1.700  0.3713 -136.9   2.401   79.4  0.1360   47.3  0.5699  -39.7
 1.720  0.3693 -137.9   2.378   78.9  0.1366   47.3  0.5682  -39.8
 1.740  0.3674 -139.0   2.356   78.3  0.1372   47.4  0.5666  -40.0
 1.760  0.3657 -140.0   2.335   77.7  0.1378   47.5  0.5650  -40.2
 1.780  0.3641 -141.1   2.313   77.1  0.1384   47.5  0.5633  -40.3
 1.800  0.3626 -142.2   2.292   76.5  0.1390   47.6  0.5617  -40.5
 1.820  0.3607 -143.1   2.273   76.0  0.1396   47.7  0.5606  -40.7
 1.840  0.3588 -144.0   2.254   75.5  0.1403   47.8  0.5595  -40.9
 1.860  0.3570 -144.9   2.235   75.0  0.1409   47.9  0.5585  -41.0
 1.880  0.3554 -145.8   2.216   74.5  0.1415   48.1  0.5574  -41.2
 1.900  0.3538 -146.7   2.198   74.0  0.1421   48.2  0.5563  -41.4
 1.920  0.3523 -147.7   2.179   73.5  0.1428   48.3  0.5553  -41.6
 1.940  0.3509 -148.6   2.161   73.0  0.1434   48.4  0.5542  -41.8
 1.960  0.3496 -149.6   2.143   72.4  0.1440   48.5  0.5532  -41.9
 1.980  0.3484 -150.5   2.126   71.9  0.1447   48.6  0.5521  -42.1
 2.000  0.3473 -151.5   2.108   71.3  0.1453   48.7  0.5511  -42.3
 2.020  0.3456 -152.3   2.092   70.9  0.1460   48.8  0.5504  -42.5
 2.040  0.3441 -153.2   2.075   70.4  0.1467   49.0  0.5497  -42.6
 2.060  0.3426 -154.1   2.059   70.0  0.1474   49.1  0.5490  -42.8
 2.080  0.3411 -154.9   2.043   69.5  0.1481   49.2  0.5482  -42.9
 2.100  0.3398 -155.8   2.027   69.0  0.1488   49.4  0.5475  -43.1
 2.120  0.3385 -156.7   2.011   68.6  0.1495   49.5  0.5468  -43.3
 2.140  0.3374 -157.6   1.995   68.1  0.1502   49.6  0.5462  -43.4
 2.160  0.3363 -158.5   1.980   67.6  0.1509   49.7  0.5455  -43.6
 2.180  0.3352 -159.4   1.964   67.1  0.1516   49.9  0.5448  -43.7
 2.200  0.3343 -160.3   1.949   66.6  0.1523   50.0  0.5441  -43.9
 2.220  0.3337 -161.1   1.936   66.2  0.1531   50.1  0.5436  -44.1
 2.240  0.3331 -161.9   1.924   65.8  0.1539   50.2  0.5431  -44.3
 2.260  0.3327 -162.8   1.911   65.4  0.1546   50.4  0.5426  -44.5
 2.280  0.3323 -163.6   1.899   64.9  0.1554   50.5  0.5421  -44.7
 2.300  0.3319 -164.4   1.887   64.5  0.1562   50.6  0.5417  -44.9
 2.320  0.3317 -165.3   1.875   64.1  0.1570   50.7  0.5412  -45.2
 2.340  0.3315 -166.1   1.862   63.6  0.1578   50.9  0.5407  -45.4
 2.360  0.3313 -166.9   1.851   63.2  0.1585   51.0  0.5403  -45.6
 2.380  0.3313 -167.8   1.839   62.8  0.1593   51.1  0.5398  -45.8
 2.400  0.3313 -168.6   1.827   62.3  0.1601   51.2  0.5394  -46.0
 2.420  0.3298 -169.4   1.814   61.9  0.1609   51.3  0.5391  -46.1
 2.440  0.3283 -170.2   1.800   61.4  0.1617   51.4  0.5388  -46.3
 2.460  0.3268 -171.0   1.787   60.9  0.1626   51.6  0.5386  -46.4
 2.480  0.3255 -171.8   1.774   60.5  0.1634   51.7  0.5383  -46.6
 2.500  0.3242 -172.6   1.761   60.0  0.1642   51.8  0.5380  -46.7
 2.520  0.3240 -173.3   1.751   59.7  0.1651   51.9  0.5377  -46.9
 2.540  0.3239 -174.0   1.741   59.3  0.1661   52.1  0.5374  -47.2
 2.560  0.3238 -174.8   1.731   59.0  0.1670   52.2  0.5372  -47.4
 2.580  0.3238 -175.5   1.721   58.7  0.1679   52.3  0.5369  -47.6
 2.600  0.3238 -176.2   1.712   58.3  0.1689   52.4  0.5367  -47.9
 2.620  0.3239 -176.9   1.702   58.0  0.1698   52.6  0.5365  -48.1
 2.640  0.3240 -177.6   1.692   57.6  0.1707   52.7  0.5362  -48.3
 2.660  0.3242 -178.4   1.683   57.2  0.1717   52.8  0.5360  -48.6
 2.680  0.3244 -179.1   1.673   56.9  0.1726   52.9  0.5358  -48.8
 2.700  0.3247 -179.8   1.664   56.5  0.1735   53.1  0.5356  -49.0
 2.720  0.3250  179.5   1.655   56.1  0.1745   53.2  0.5354  -49.3
 2.740  0.3254  178.8   1.645   55.8  0.1754   53.3  0.5352  -49.5
 2.760  0.3258  178.0   1.636   55.4  0.1764   53.4  0.5351  -49.8
 2.780  0.3263  177.3   1.627   55.0  0.1773   53.5  0.5349  -50.0
 2.800  0.3268  176.6   1.618   54.6  0.1782   53.6  0.5347  -50.2
 2.820  0.3274  175.9   1.609   54.2  0.1792   53.7  0.5346  -50.5
 2.840  0.3280  175.2   1.600   53.8  0.1801   53.9  0.5345  -50.7
 2.860  0.3287  174.5   1.591   53.4  0.1811   54.0  0.5343  -50.9
 2.880  0.3294  173.8   1.583   53.0  0.1820   54.1  0.5342  -51.2
 2.900  0.3302  173.1   1.574   52.6  0.1830   54.2  0.5341  -51.4
 2.920  0.3310  172.4   1.565   52.2  0.1839   54.3  0.5340  -51.7
 2.940  0.3319  171.7   1.557   51.8  0.1849   54.4  0.5339  -51.9
 2.960  0.3328  171.1   1.549   51.4  0.1858   54.5  0.5338  -52.1
 2.980  0.3338  170.4   1.540   50.9  0.1868   54.6  0.5338  -52.4
 3.000  0.3348  169.7   1.532   50.5  0.1877   54.7  0.5337  -52.6
 3.100  0.3338  166.8   1.497   49.0  0.1937   55.1  0.5326  -54.0
 3.200  0.3337  163.8   1.463   47.3  0.1998   55.5  0.5319  -55.4
 3.300  0.3345  160.9   1.430   45.6  0.2059   55.8  0.5315  -56.7
 3.400  0.3361  158.0   1.399   43.9  0.2119   56.2  0.5313  -58.1
 3.500  0.3386  155.1   1.369   42.0  0.2180   56.5  0.5315  -59.5
 3.600  0.3431  152.2   1.342   40.5  0.2246   56.6  0.5303  -60.9
 3.700  0.3484  149.3   1.316   39.0  0.2312   56.7  0.5293  -62.3
 3.800  0.3546  146.5   1.290   37.4  0.2378   56.8  0.5287  -63.8
 3.900  0.3616  143.9   1.266   35.7  0.2444   56.8  0.5284  -65.2
 4.000  0.3694  141.3   1.243   34.0  0.2510   56.9  0.5285  -66.6
 4.100  0.3714  138.9   1.221   32.8  0.2583   56.8  0.5265  -68.2
 4.200  0.3741  136.5   1.199   31.6  0.2656   56.7  0.5250  -69.9
 4.300  0.3775  134.2   1.178   30.3  0.2728   56.6  0.5239  -71.6
 4.400  0.3814  131.9   1.157   29.0  0.2801   56.5  0.5232  -73.2
 4.500  0.3860  129.6   1.137   27.6  0.2874   56.4  0.5230  -74.9
 4.600  0.3920  127.7   1.121   26.3  0.2954   56.1  0.5210  -76.5
 4.700  0.3984  125.8   1.106   25.0  0.3034   55.9  0.5195  -78.1
 4.800  0.4053  124.0   1.091   23.7  0.3114   55.6  0.5183  -79.7
 4.900  0.4125  122.2   1.077   22.3  0.3195   55.4  0.5175  -81.3
 5.000  0.4201  120.5   1.063   20.9  0.3275   55.2  0.5172  -82.9
 5.100  0.4222  118.6   1.046   19.9  0.3363   54.8  0.5161  -84.5
 5.200  0.4248  116.7   1.030   18.9  0.3451   54.4  0.5154  -86.2
 5.300  0.4278  114.8   1.014   17.9  0.3539   54.1  0.5152  -87.8
 5.400  0.4313  112.9   0.998   16.8  0.3628   53.7  0.5153  -89.5
 5.500  0.4352  111.1   0.983   15.7  0.3716   53.4  0.5159  -91.1
 5.600  0.4371  109.5   0.968   14.8  0.3813   52.8  0.5163  -92.7
 5.700  0.4393  107.9   0.954   13.9  0.3911   52.2  0.5170  -94.3
 5.800  0.4419  106.4   0.940   12.9  0.4009   51.6  0.5182  -95.9
 5.900  0.4448  104.8   0.926   11.9  0.4108   51.0  0.5198  -97.5
 6.000  0.4480  103.3   0.913   10.9  0.4207   50.5  0.5218  -99.1
!
!  f       NFmin   Gammaopt  rn/50
! GHz       dB    MAG  ANG    -
!
! noise parameter not available yet for this operation point!
!
! (c) 2015  Infineon Technologies AG, Munich
