! Infineon Technologies  Discrete & RF Semiconductors
! BFR106
! VCE =  4.0 V,  IC =  7.0 mA
! Common Emitter S-Parameters:                            Nov 2015
# GHz  S  MA  R  50
!  f         S11            S21            S12            S22
! GHz     MAG   ANG      MAG   ANG      MAG   ANG      MAG   ANG
 0.010  0.8064  -10.5  20.929  172.7  0.0059   85.4  0.9901   -4.7
 0.015  0.7991  -15.9  20.779  169.9  0.0088   81.4  0.9826   -7.1
 0.020  0.7989  -21.3  20.678  167.1  0.0117   79.4  0.9769   -9.6
 0.025  0.7790  -25.5  20.181  164.5  0.0142   75.4  0.9586  -11.4
 0.030  0.7636  -30.0  19.727  161.8  0.0167   72.6  0.9413  -13.4
 0.035  0.7530  -34.6  19.319  159.0  0.0192   70.5  0.9252  -15.3
 0.040  0.7473  -39.3  18.961  156.0  0.0218   69.0  0.9102  -17.4
 0.045  0.7466  -44.0  18.654  152.9  0.0243   67.7  0.8963  -19.5
 0.050  0.7511  -48.7  18.403  149.8  0.0269   66.7  0.8838  -21.7
 0.055  0.7323  -51.9  17.930  148.2  0.0284   64.7  0.8649  -22.7
 0.060  0.7159  -55.3  17.471  146.6  0.0299   62.9  0.8462  -23.8
 0.065  0.7021  -58.8  17.028  144.8  0.0314   61.3  0.8279  -25.0
 0.070  0.6911  -62.5  16.601  143.0  0.0330   59.9  0.8099  -26.2
 0.075  0.6829  -66.2  16.191  141.1  0.0346   58.5  0.7923  -27.4
 0.080  0.6778  -70.0  15.801  139.1  0.0362   57.3  0.7751  -28.7
 0.085  0.6757  -73.9  15.432  137.0  0.0378   56.2  0.7582  -30.1
 0.090  0.6767  -77.8  15.084  134.7  0.0394   55.2  0.7419  -31.5
 0.095  0.6807  -81.6  14.760  132.4  0.0411   54.3  0.7260  -33.0
 0.100  0.6878  -85.4  14.462  130.0  0.0427   53.4  0.7106  -34.5
 0.105  0.6768  -87.6  14.109  128.9  0.0434   52.5  0.6969  -35.0
 0.110  0.6669  -89.9  13.762  127.8  0.0442   51.6  0.6833  -35.5
 0.115  0.6580  -92.2  13.420  126.6  0.0450   50.7  0.6697  -36.1
 0.120  0.6503  -94.6  13.085  125.3  0.0457   49.8  0.6562  -36.7
 0.125  0.6437  -97.1  12.756  124.0  0.0465   49.0  0.6428  -37.3
 0.130  0.6384  -99.6  12.435  122.6  0.0473   48.2  0.6295  -37.9
 0.135  0.6343 -102.1  12.121  121.1  0.0481   47.4  0.6162  -38.6
 0.140  0.6314 -104.7  11.816  119.5  0.0489   46.7  0.6030  -39.2
 0.145  0.6299 -107.3  11.520  117.9  0.0498   46.0  0.5899  -40.0
 0.150  0.6296 -109.9  11.234  116.2  0.0506   45.3  0.5769  -40.7
 0.155  0.6258 -111.5  11.010  115.5  0.0511   45.0  0.5686  -40.9
 0.160  0.6225 -113.1  10.788  114.8  0.0517   44.7  0.5603  -41.0
 0.165  0.6196 -114.7  10.568  114.1  0.0522   44.4  0.5521  -41.2
 0.170  0.6173 -116.3  10.349  113.3  0.0527   44.2  0.5438  -41.4
 0.175  0.6154 -117.9  10.132  112.5  0.0532   43.9  0.5355  -41.6
 0.180  0.6140 -119.5   9.918  111.7  0.0538   43.6  0.5273  -41.8
 0.185  0.6132 -121.2   9.705  110.8  0.0543   43.4  0.5190  -42.0
 0.190  0.6128 -122.8   9.495  109.9  0.0548   43.1  0.5108  -42.2
 0.195  0.6130 -124.5   9.287  109.0  0.0554   42.8  0.5025  -42.4
 0.200  0.6136 -126.1   9.082  108.0  0.0559   42.6  0.4943  -42.6
 0.220  0.6035 -131.0   8.443  105.6  0.0574   42.4  0.4697  -42.9
 0.240  0.5979 -136.1   7.822  102.8  0.0589   42.1  0.4452  -43.3
 0.260  0.5934 -140.3   7.290  100.4  0.0603   42.2  0.4256  -43.6
 0.280  0.5880 -143.7   6.837   98.6  0.0615   42.6  0.4111  -43.8
 0.300  0.5848 -147.2   6.391   96.6  0.0627   42.9  0.3965  -44.0
 0.320  0.5810 -149.7   6.091   95.4  0.0640   43.3  0.3872  -43.9
 0.340  0.5784 -152.2   5.793   94.1  0.0652   43.7  0.3780  -43.9
 0.360  0.5769 -154.8   5.499   92.6  0.0665   44.1  0.3687  -43.8
 0.380  0.5765 -157.3   5.209   91.0  0.0677   44.4  0.3595  -43.8
 0.400  0.5773 -159.9   4.923   89.2  0.0690   44.8  0.3502  -43.7
 0.420  0.5765 -161.6   4.731   88.2  0.0703   45.5  0.3452  -43.8
 0.440  0.5762 -163.3   4.540   87.0  0.0716   46.1  0.3402  -43.9
 0.450  0.5762 -164.2   4.446   86.4  0.0722   46.4  0.3376  -43.9
 0.460  0.5764 -165.1   4.351   85.8  0.0729   46.7  0.3351  -43.9
 0.480  0.5771 -166.8   4.165   84.5  0.0742   47.3  0.3301  -44.0
 0.500  0.5784 -168.5   3.981   83.0  0.0755   47.9  0.3251  -44.1
 0.520  0.5777 -170.0   3.856   82.1  0.0770   48.5  0.3224  -44.4
 0.540  0.5775 -171.6   3.731   81.1  0.0786   49.1  0.3197  -44.6
 0.560  0.5777 -173.1   3.608   80.0  0.0802   49.6  0.3170  -44.9
 0.580  0.5783 -174.7   3.486   78.8  0.0817   50.2  0.3144  -45.2
 0.600  0.5793 -176.2   3.366   77.6  0.0833   50.7  0.3117  -45.5
 0.620  0.5788 -177.4   3.275   76.8  0.0848   51.3  0.3097  -45.9
 0.640  0.5786 -178.6   3.185   75.9  0.0864   51.8  0.3077  -46.3
 0.660  0.5787 -179.7   3.095   74.9  0.0880   52.4  0.3058  -46.7
 0.680  0.5790  179.1   3.007   74.0  0.0895   52.9  0.3038  -47.2
 0.700  0.5795  177.9   2.919   72.9  0.0911   53.4  0.3019  -47.6
 0.720  0.5798  177.0   2.847   72.1  0.0930   53.9  0.3004  -48.0
 0.740  0.5803  176.1   2.776   71.3  0.0949   54.3  0.2989  -48.5
 0.760  0.5809  175.1   2.706   70.5  0.0968   54.7  0.2974  -48.9
 0.780  0.5816  174.2   2.636   69.6  0.0987   55.1  0.2959  -49.4
 0.800  0.5825  173.3   2.567   68.6  0.1006   55.5  0.2945  -49.8
 0.820  0.5814  172.3   2.512   67.9  0.1025   55.8  0.2938  -50.3
 0.840  0.5806  171.3   2.458   67.1  0.1043   56.2  0.2932  -50.7
 0.860  0.5799  170.3   2.403   66.3  0.1062   56.5  0.2925  -51.2
 0.880  0.5793  169.3   2.350   65.4  0.1080   56.8  0.2919  -51.6
 0.900  0.5790  168.3   2.297   64.5  0.1099   57.1  0.2913  -52.1
 0.920  0.5800  167.4   2.255   63.8  0.1117   57.4  0.2909  -52.7
 0.940  0.5810  166.6   2.213   63.0  0.1135   57.6  0.2906  -53.4
 0.960  0.5823  165.7   2.172   62.2  0.1154   57.9  0.2904  -54.0
 0.980  0.5836  164.9   2.131   61.4  0.1172   58.2  0.2901  -54.7
 1.000  0.5851  164.0   2.090   60.6  0.1190   58.4  0.2899  -55.3
 1.020  0.5863  163.1   2.056   59.9  0.1212   58.6  0.2893  -56.1
 1.040  0.5877  162.1   2.022   59.2  0.1233   58.9  0.2887  -56.8
 1.060  0.5892  161.2   1.988   58.4  0.1255   59.1  0.2882  -57.6
 1.080  0.5909  160.3   1.955   57.6  0.1276   59.3  0.2878  -58.3
 1.100  0.5927  159.4   1.922   56.8  0.1298   59.5  0.2874  -59.1
 1.120  0.5939  158.6   1.894   56.2  0.1320   59.7  0.2868  -59.8
 1.140  0.5951  157.9   1.866   55.5  0.1342   59.8  0.2863  -60.5
 1.160  0.5965  157.1   1.838   54.8  0.1364   60.0  0.2858  -61.3
 1.180  0.5980  156.4   1.810   54.1  0.1386   60.2  0.2853  -62.0
 1.200  0.5996  155.6   1.783   53.4  0.1408   60.3  0.2849  -62.7
 1.220  0.5990  154.9   1.757   52.8  0.1431   60.4  0.2845  -63.4
 1.240  0.5985  154.2   1.731   52.2  0.1454   60.5  0.2841  -64.1
 1.260  0.5981  153.4   1.705   51.5  0.1477   60.6  0.2837  -64.8
 1.280  0.5978  152.7   1.679   50.9  0.1500   60.7  0.2834  -65.5
 1.300  0.5976  152.0   1.654   50.2  0.1523   60.8  0.2831  -66.2
 1.320  0.5998  151.4   1.633   49.6  0.1546   60.9  0.2832  -67.0
 1.340  0.6020  150.7   1.611   49.0  0.1569   61.0  0.2834  -67.9
 1.360  0.6043  150.1   1.590   48.4  0.1593   61.0  0.2837  -68.7
 1.380  0.6067  149.4   1.570   47.8  0.1616   61.1  0.2840  -69.6
 1.400  0.6092  148.8   1.549   47.1  0.1639   61.2  0.2844  -70.4
 1.420  0.6090  148.1   1.533   46.5  0.1665   61.2  0.2841  -71.3
 1.440  0.6089  147.5   1.517   45.9  0.1690   61.2  0.2839  -72.1
 1.460  0.6088  146.8   1.502   45.2  0.1716   61.2  0.2838  -73.0
 1.480  0.6089  146.2   1.486   44.6  0.1741   61.2  0.2837  -73.8
 1.500  0.6090  145.5   1.471   43.9  0.1767   61.2  0.2837  -74.7
 1.520  0.6102  144.8   1.452   43.3  0.1792   61.2  0.2834  -75.5
 1.540  0.6115  144.2   1.433   42.6  0.1818   61.1  0.2831  -76.4
 1.560  0.6129  143.5   1.414   42.0  0.1843   61.1  0.2829  -77.2
 1.580  0.6144  142.9   1.395   41.3  0.1869   61.0  0.2828  -78.1
 1.600  0.6159  142.2   1.377   40.6  0.1894   61.0  0.2827  -78.9
 1.620  0.6169  141.5   1.363   40.0  0.1920   61.0  0.2824  -79.8
 1.640  0.6179  140.9   1.349   39.5  0.1946   60.9  0.2821  -80.7
 1.660  0.6191  140.2   1.336   38.9  0.1973   60.9  0.2820  -81.6
 1.680  0.6203  139.6   1.322   38.3  0.1999   60.8  0.2818  -82.5
 1.700  0.6216  138.9   1.309   37.7  0.2025   60.8  0.2818  -83.4
 1.720  0.6238  138.3   1.298   37.2  0.2052   60.7  0.2820  -84.3
 1.740  0.6261  137.6   1.287   36.7  0.2079   60.6  0.2822  -85.1
 1.760  0.6284  137.0   1.276   36.2  0.2105   60.4  0.2826  -86.0
 1.780  0.6308  136.4   1.266   35.7  0.2132   60.3  0.2830  -86.8
 1.800  0.6333  135.8   1.255   35.2  0.2159   60.2  0.2834  -87.7
 1.820  0.6342  135.2   1.245   34.6  0.2188   60.1  0.2840  -88.8
 1.840  0.6351  134.6   1.234   34.1  0.2217   59.9  0.2848  -89.8
 1.860  0.6361  134.0   1.224   33.5  0.2245   59.8  0.2856  -90.9
 1.880  0.6372  133.4   1.214   32.9  0.2274   59.6  0.2866  -92.0
 1.900  0.6383  132.8   1.204   32.3  0.2303   59.5  0.2876  -93.0
 1.920  0.6382  132.2   1.192   31.8  0.2331   59.3  0.2872  -94.0
 1.940  0.6383  131.6   1.181   31.3  0.2359   59.2  0.2869  -95.1
 1.960  0.6383  131.1   1.170   30.8  0.2388   59.0  0.2867  -96.1
 1.980  0.6385  130.5   1.158   30.2  0.2416   58.9  0.2866  -97.2
 2.000  0.6387  129.9   1.147   29.7  0.2444   58.7  0.2866  -98.2
 2.020  0.6399  129.3   1.138   29.2  0.2473   58.5  0.2868  -99.2
 2.040  0.6412  128.8   1.128   28.8  0.2503   58.3  0.2870 -100.2
 2.060  0.6426  128.2   1.119   28.3  0.2532   58.1  0.2874 -101.2
 2.080  0.6440  127.6   1.110   27.8  0.2562   57.8  0.2878 -102.2
 2.100  0.6455  127.1   1.100   27.4  0.2591   57.6  0.2883 -103.1
 2.120  0.6471  126.5   1.091   26.9  0.2621   57.4  0.2889 -104.1
 2.140  0.6487  126.0   1.082   26.4  0.2650   57.3  0.2896 -105.1
 2.160  0.6504  125.4   1.074   25.8  0.2680   57.1  0.2903 -106.1
 2.180  0.6521  124.8   1.065   25.3  0.2709   56.9  0.2912 -107.0
 2.200  0.6539  124.3   1.056   24.8  0.2739   56.7  0.2921 -108.0
 2.220  0.6547  123.8   1.049   24.4  0.2769   56.4  0.2922 -109.2
 2.240  0.6556  123.2   1.042   23.9  0.2798   56.2  0.2925 -110.4
 2.260  0.6566  122.7   1.035   23.5  0.2828   55.9  0.2929 -111.6
 2.280  0.6576  122.1   1.028   23.0  0.2858   55.7  0.2934 -112.8
 2.300  0.6587  121.6   1.022   22.6  0.2887   55.4  0.2941 -114.0
 2.320  0.6599  121.0   1.015   22.1  0.2917   55.2  0.2949 -115.2
 2.340  0.6611  120.5   1.008   21.6  0.2947   55.0  0.2958 -116.4
 2.360  0.6623  120.0   1.002   21.2  0.2977   54.7  0.2968 -117.6
 2.380  0.6636  119.4   0.995   20.7  0.3007   54.5  0.2980 -118.7
 2.400  0.6650  118.9   0.989   20.2  0.3037   54.3  0.2993 -119.9
 2.420  0.6666  118.3   0.982   19.8  0.3066   54.0  0.2998 -121.0
 2.440  0.6683  117.8   0.975   19.5  0.3095   53.7  0.3004 -122.0
 2.460  0.6700  117.2   0.968   19.1  0.3123   53.4  0.3011 -123.1
 2.480  0.6718  116.7   0.961   18.7  0.3152   53.1  0.3020 -124.1
 2.500  0.6737  116.2   0.954   18.3  0.3181   52.8  0.3029 -125.1
 2.520  0.6756  115.6   0.948   17.9  0.3211   52.5  0.3039 -126.2
 2.540  0.6775  115.1   0.941   17.5  0.3240   52.2  0.3050 -127.2
 2.560  0.6796  114.6   0.934   17.1  0.3269   51.9  0.3062 -128.2
 2.580  0.6817  114.0   0.928   16.7  0.3299   51.7  0.3075 -129.2
 2.600  0.6838  113.5   0.921   16.3  0.3328   51.4  0.3089 -130.2
 2.620  0.6843  113.0   0.916   16.0  0.3357   51.1  0.3098 -131.4
 2.640  0.6848  112.5   0.910   15.6  0.3385   50.7  0.3109 -132.6
 2.660  0.6854  112.1   0.905   15.3  0.3414   50.4  0.3121 -133.8
 2.680  0.6860  111.6   0.899   14.9  0.3443   50.1  0.3135 -135.0
 2.700  0.6867  111.1   0.894   14.6  0.3472   49.7  0.3150 -136.2
 2.720  0.6874  110.6   0.889   14.2  0.3501   49.4  0.3166 -137.4
 2.740  0.6882  110.1   0.884   13.8  0.3531   49.1  0.3183 -138.5
 2.760  0.6890  109.7   0.878   13.5  0.3560   48.8  0.3202 -139.7
 2.780  0.6899  109.2   0.873   13.1  0.3589   48.5  0.3222 -140.8
 2.800  0.6908  108.7   0.868   12.7  0.3619   48.2  0.3243 -141.9
 2.820  0.6920  108.2   0.863   12.4  0.3648   47.8  0.3256 -143.0
 2.840  0.6933  107.8   0.858   12.1  0.3676   47.5  0.3270 -144.0
 2.860  0.6946  107.3   0.853   11.7  0.3705   47.2  0.3285 -145.1
 2.880  0.6960  106.8   0.848   11.4  0.3734   46.8  0.3301 -146.1
 2.900  0.6974  106.4   0.843   11.1  0.3763   46.5  0.3318 -147.1
 2.920  0.6988  105.9   0.838   10.7  0.3792   46.2  0.3337 -148.2
 2.940  0.7003  105.5   0.833   10.4  0.3821   45.8  0.3356 -149.2
 2.960  0.7019  105.0   0.828   10.0  0.3851   45.5  0.3376 -150.2
 2.980  0.7035  104.6   0.823    9.7  0.3880   45.2  0.3398 -151.1
 3.000  0.7051  104.1   0.818    9.3  0.3910   44.9  0.3420 -152.1
 3.100  0.7085  102.1   0.798    8.1  0.4033   42.9  0.3486 -157.7
 3.200  0.7129  100.1   0.778    6.9  0.4160   41.0  0.3585 -163.1
 3.300  0.7181   98.1   0.758    5.6  0.4292   39.2  0.3713 -168.1
 3.400  0.7241   96.1   0.739    4.2  0.4427   37.6  0.3867 -172.7
 3.500  0.7310   94.2   0.720    2.8  0.4566   36.0  0.4045 -177.0
 3.600  0.7344   92.5   0.706    1.9  0.4651   33.9  0.4134  178.1
 3.700  0.7385   90.9   0.693    1.1  0.4742   31.9  0.4252  173.5
 3.800  0.7431   89.2   0.680    0.1  0.4838   30.0  0.4396  169.1
 3.900  0.7484   87.6   0.667   -0.8  0.4940   28.2  0.4564  165.1
 4.000  0.7542   86.0   0.654   -1.8  0.5046   26.4  0.4753  161.3
 4.100  0.7538   84.6   0.645   -2.5  0.5095   24.6  0.4823  157.6
 4.200  0.7538   83.2   0.636   -3.2  0.5150   22.8  0.4913  153.9
 4.300  0.7543   81.9   0.627   -4.0  0.5209   21.0  0.5022  150.5
 4.400  0.7552   80.5   0.618   -4.7  0.5273   19.3  0.5149  147.1
 4.500  0.7565   79.1   0.609   -5.5  0.5342   17.6  0.5292  144.0
 4.600  0.7571   77.9   0.605   -6.1  0.5372   16.0  0.5347  141.0
 4.700  0.7581   76.7   0.600   -6.8  0.5407   14.4  0.5417  138.0
 4.800  0.7593   75.5   0.596   -7.4  0.5445   12.8  0.5500  135.1
 4.900  0.7609   74.4   0.592   -8.0  0.5488   11.2  0.5598  132.3
 5.000  0.7628   73.2   0.588   -8.7  0.5535    9.7  0.5708  129.6
 5.100  0.7607   72.1   0.583   -8.6  0.5550    8.9  0.5681  128.6
 5.200  0.7589   71.0   0.578   -8.5  0.5566    8.1  0.5656  127.5
 5.300  0.7574   69.9   0.574   -8.5  0.5584    7.3  0.5633  126.5
 5.400  0.7562   68.8   0.569   -8.4  0.5602    6.6  0.5611  125.5
 5.500  0.7552   67.7   0.564   -8.3  0.5621    5.8  0.5592  124.4
 5.600  0.7546   67.0   0.566   -9.2  0.5672    4.2  0.5736  121.9
 5.700  0.7541   66.3   0.568  -10.1  0.5728    2.6  0.5890  119.5
 5.800  0.7537   65.5   0.570  -11.0  0.5788    1.0  0.6054  117.3
 5.900  0.7534   64.8   0.572  -11.9  0.5853   -0.5  0.6227  115.1
 6.000  0.7533   64.1   0.574  -12.8  0.5921   -2.0  0.6408  113.1
!
!  f       NFmin   Gammaopt  rn/50
! GHz       dB    MAG  ANG    -
!
! noise parameter not available yet for this operation point!
!
! (c) 2015  Infineon Technologies AG, Munich
