! Infineon Technologies  Discrete & RF Semiconductors
! BFR106
! VCE =  3.5 V,  IC =  90 mA
! Common Emitter S-Parameters:                            Nov 2015
# GHz  S  MA  R  50
!  f         S11            S21            S12            S22
! GHz     MAG   ANG      MAG   ANG      MAG   ANG      MAG   ANG
 0.010  0.2292  -64.2  82.616  159.9  0.0041   78.1  0.8664  -19.0
 0.015  0.2568  -84.2  76.112  152.8  0.0057   73.2  0.8046  -26.7
 0.020  0.3084  -98.9  70.986  144.5  0.0073   70.5  0.7594  -35.4
 0.025  0.3166 -107.4  65.726  141.8  0.0082   68.7  0.7037  -38.3
 0.030  0.3313 -115.3  60.637  138.6  0.0091   67.2  0.6502  -41.6
 0.035  0.3517 -122.5  55.767  134.9  0.0100   66.0  0.5992  -45.6
 0.040  0.3770 -128.7  51.177  130.5  0.0109   65.0  0.5517  -50.3
 0.045  0.4062 -134.1  46.951  125.2  0.0118   64.1  0.5084  -55.8
 0.050  0.4385 -138.8  43.194  119.0  0.0127   63.4  0.4707  -62.2
 0.055  0.4407 -141.1  41.215  118.1  0.0134   63.8  0.4492  -63.3
 0.060  0.4437 -143.5  39.247  117.1  0.0142   64.2  0.4279  -64.4
 0.065  0.4473 -145.7  37.292  116.1  0.0149   64.5  0.4067  -65.7
 0.070  0.4517 -148.0  35.351  114.9  0.0157   64.8  0.3858  -67.1
 0.075  0.4567 -150.2  33.427  113.5  0.0164   65.1  0.3651  -68.7
 0.080  0.4624 -152.3  31.524  112.0  0.0172   65.3  0.3448  -70.5
 0.085  0.4687 -154.4  29.646  110.3  0.0179   65.5  0.3248  -72.5
 0.090  0.4756 -156.4  27.797  108.4  0.0187   65.7  0.3053  -74.7
 0.095  0.4831 -158.4  25.983  106.2  0.0194   65.9  0.2863  -77.3
 0.100  0.4912 -160.3  24.213  103.7  0.0202   66.1  0.2680  -80.2
 0.105  0.4916 -161.2  23.429  103.2  0.0209   66.4  0.2602  -81.0
 0.110  0.4921 -162.1  22.647  102.6  0.0216   66.7  0.2525  -81.8
 0.115  0.4928 -163.0  21.867  102.1  0.0223   66.9  0.2448  -82.7
 0.120  0.4935 -163.9  21.090  101.4  0.0230   67.1  0.2372  -83.6
 0.125  0.4944 -164.8  20.316  100.7  0.0237   67.4  0.2297  -84.6
 0.130  0.4954 -165.7  19.544  100.0  0.0244   67.6  0.2222  -85.7
 0.135  0.4966 -166.6  18.776   99.2  0.0251   67.8  0.2148  -86.8
 0.140  0.4978 -167.5  18.012   98.4  0.0258   68.0  0.2075  -88.0
 0.145  0.4992 -168.4  17.253   97.4  0.0265   68.1  0.2003  -89.3
 0.150  0.5007 -169.3  16.498   96.4  0.0272   68.3  0.1932  -90.7
 0.155  0.5016 -169.7  16.100   96.1  0.0280   68.7  0.1889  -91.1
 0.160  0.5024 -170.1  15.702   95.7  0.0287   69.1  0.1847  -91.5
 0.165  0.5034 -170.5  15.304   95.4  0.0295   69.4  0.1804  -91.9
 0.170  0.5043 -170.9  14.908   95.0  0.0302   69.8  0.1762  -92.4
 0.175  0.5052 -171.3  14.512   94.6  0.0310   70.1  0.1720  -92.9
 0.180  0.5062 -171.7  14.117   94.2  0.0317   70.4  0.1678  -93.3
 0.185  0.5072 -172.1  13.722   93.7  0.0325   70.7  0.1636  -93.9
 0.190  0.5083 -172.5  13.329   93.2  0.0333   71.0  0.1594  -94.4
 0.195  0.5093 -172.9  12.936   92.7  0.0340   71.2  0.1552  -95.0
 0.200  0.5104 -173.3  12.545   92.2  0.0348   71.5  0.1511  -95.6
 0.220  0.5108 -174.9  11.545   91.0  0.0378   72.1  0.1405  -97.9
 0.240  0.5117 -176.6  10.551   89.6  0.0408   72.6  0.1302 -100.7
 0.260  0.5123 -178.0   9.725   88.4  0.0439   73.1  0.1228 -103.1
 0.280  0.5125 -179.3   9.063   87.5  0.0470   73.6  0.1182 -104.9
 0.300  0.5129  179.5   8.403   86.4  0.0502   74.0  0.1137 -106.8
 0.320  0.5134  178.5   7.993   85.7  0.0532   74.0  0.1097 -108.3
 0.340  0.5141  177.5   7.584   85.0  0.0563   73.9  0.1058 -109.8
 0.360  0.5149  176.5   7.177   84.2  0.0593   73.9  0.1020 -111.5
 0.380  0.5159  175.5   6.772   83.2  0.0624   73.8  0.0983 -113.3
 0.400  0.5171  174.5   6.368   82.2  0.0654   73.8  0.0947 -115.3
 0.420  0.5188  173.8   6.114   81.5  0.0684   73.8  0.0927 -116.5
 0.440  0.5205  173.2   5.861   80.8  0.0713   73.7  0.0906 -117.7
 0.450  0.5214  172.8   5.735   80.4  0.0728   73.7  0.0897 -118.3
 0.460  0.5223  172.5   5.609   80.0  0.0743   73.7  0.0887 -119.0
 0.480  0.5242  171.9   5.358   79.2  0.0772   73.6  0.0868 -120.3
 0.500  0.5261  171.2   5.108   78.2  0.0802   73.6  0.0849 -121.7
 0.520  0.5260  170.4   4.941   77.5  0.0833   73.4  0.0844 -122.5
 0.540  0.5261  169.6   4.776   76.8  0.0865   73.2  0.0840 -123.4
 0.560  0.5262  168.9   4.610   76.1  0.0896   73.0  0.0836 -124.3
 0.580  0.5265  168.1   4.446   75.3  0.0928   72.8  0.0832 -125.1
 0.600  0.5268  167.3   4.283   74.4  0.0959   72.6  0.0828 -126.0
 0.620  0.5274  166.5   4.165   73.7  0.0989   72.4  0.0828 -127.1
 0.640  0.5281  165.8   4.047   73.0  0.1018   72.2  0.0828 -128.1
 0.660  0.5289  165.0   3.931   72.3  0.1048   72.0  0.0828 -129.2
 0.680  0.5297  164.3   3.814   71.5  0.1077   71.8  0.0828 -130.2
 0.700  0.5307  163.5   3.699   70.7  0.1107   71.6  0.0829 -131.3
 0.720  0.5309  163.0   3.609   70.1  0.1137   71.3  0.0827 -132.4
 0.740  0.5311  162.5   3.519   69.6  0.1167   71.0  0.0826 -133.5
 0.760  0.5313  161.9   3.430   68.9  0.1197   70.8  0.0825 -134.7
 0.780  0.5317  161.4   3.341   68.3  0.1227   70.5  0.0824 -135.8
 0.800  0.5320  160.9   3.252   67.6  0.1257   70.3  0.0824 -136.9
 0.820  0.5313  160.2   3.182   67.0  0.1288   70.0  0.0823 -137.6
 0.840  0.5307  159.5   3.113   66.4  0.1318   69.7  0.0821 -138.3
 0.860  0.5301  158.9   3.044   65.8  0.1349   69.4  0.0820 -139.1
 0.880  0.5296  158.2   2.976   65.1  0.1379   69.1  0.0819 -139.8
 0.900  0.5292  157.5   2.908   64.4  0.1410   68.8  0.0818 -140.5
 0.920  0.5306  156.8   2.853   63.8  0.1439   68.5  0.0827 -141.0
 0.940  0.5321  156.2   2.799   63.2  0.1467   68.2  0.0835 -141.6
 0.960  0.5337  155.5   2.745   62.6  0.1496   68.0  0.0844 -142.1
 0.980  0.5354  154.9   2.691   61.9  0.1524   67.7  0.0853 -142.6
 1.000  0.5371  154.2   2.638   61.2  0.1553   67.5  0.0862 -143.1
 1.020  0.5389  153.6   2.594   60.6  0.1582   67.2  0.0872 -143.9
 1.040  0.5407  153.0   2.549   60.0  0.1611   66.9  0.0882 -144.8
 1.060  0.5426  152.4   2.506   59.3  0.1640   66.6  0.0893 -145.6
 1.080  0.5445  151.8   2.462   58.7  0.1669   66.3  0.0903 -146.3
 1.100  0.5465  151.2   2.419   58.0  0.1698   66.0  0.0914 -147.1
 1.120  0.5474  150.6   2.383   57.5  0.1727   65.7  0.0919 -147.9
 1.140  0.5484  150.0   2.346   56.9  0.1756   65.4  0.0925 -148.7
 1.160  0.5494  149.4   2.310   56.3  0.1785   65.1  0.0931 -149.5
 1.180  0.5505  148.8   2.275   55.7  0.1814   64.8  0.0937 -150.2
 1.200  0.5517  148.2   2.239   55.1  0.1843   64.5  0.0943 -151.0
 1.220  0.5514  147.7   2.206   54.6  0.1871   64.2  0.0950 -151.7
 1.240  0.5511  147.2   2.174   54.0  0.1900   63.8  0.0957 -152.4
 1.260  0.5509  146.6   2.142   53.4  0.1928   63.5  0.0964 -153.1
 1.280  0.5507  146.1   2.110   52.8  0.1956   63.2  0.0972 -153.7
 1.300  0.5506  145.6   2.078   52.2  0.1985   62.9  0.0979 -154.4
 1.320  0.5521  145.0   2.051   51.7  0.2012   62.6  0.0990 -154.9
 1.340  0.5537  144.5   2.023   51.2  0.2040   62.2  0.1002 -155.5
 1.360  0.5554  143.9   1.996   50.6  0.2067   61.9  0.1013 -156.0
 1.380  0.5571  143.4   1.970   50.1  0.2094   61.6  0.1024 -156.5
 1.400  0.5588  142.8   1.943   49.5  0.2122   61.3  0.1036 -157.0
 1.420  0.5587  142.3   1.924   49.0  0.2150   61.0  0.1049 -157.7
 1.440  0.5586  141.8   1.904   48.4  0.2178   60.7  0.1061 -158.3
 1.460  0.5585  141.4   1.885   47.9  0.2206   60.4  0.1074 -158.9
 1.480  0.5585  140.9   1.867   47.3  0.2235   60.2  0.1087 -159.5
 1.500  0.5585  140.4   1.848   46.7  0.2263   59.9  0.1100 -160.1
 1.520  0.5605  139.7   1.824   46.1  0.2290   59.6  0.1111 -160.9
 1.540  0.5626  139.1   1.801   45.6  0.2316   59.2  0.1123 -161.7
 1.560  0.5648  138.4   1.777   45.0  0.2343   58.9  0.1134 -162.5
 1.580  0.5670  137.7   1.754   44.4  0.2370   58.6  0.1146 -163.3
 1.600  0.5693  137.1   1.731   43.8  0.2397   58.3  0.1158 -164.0
 1.620  0.5695  136.6   1.714   43.3  0.2423   58.0  0.1168 -164.8
 1.640  0.5697  136.1   1.697   42.8  0.2449   57.6  0.1179 -165.6
 1.660  0.5699  135.7   1.680   42.2  0.2475   57.3  0.1189 -166.4
 1.680  0.5702  135.2   1.663   41.7  0.2501   57.0  0.1200 -167.1
 1.700  0.5705  134.7   1.646   41.1  0.2527   56.7  0.1211 -167.9
 1.720  0.5731  134.2   1.633   40.6  0.2552   56.4  0.1222 -168.3
 1.740  0.5758  133.6   1.619   40.2  0.2578   56.0  0.1234 -168.8
 1.760  0.5786  133.1   1.606   39.7  0.2604   55.7  0.1246 -169.2
 1.780  0.5814  132.6   1.593   39.2  0.2629   55.4  0.1257 -169.6
 1.800  0.5842  132.1   1.580   38.7  0.2655   55.1  0.1269 -170.0
 1.820  0.5845  131.6   1.565   38.2  0.2681   54.7  0.1289 -170.6
 1.840  0.5848  131.1   1.551   37.7  0.2706   54.4  0.1309 -171.2
 1.860  0.5852  130.6   1.536   37.1  0.2732   54.1  0.1330 -171.7
 1.880  0.5856  130.1   1.522   36.6  0.2758   53.7  0.1350 -172.3
 1.900  0.5861  129.6   1.508   36.0  0.2784   53.4  0.1371 -172.8
 1.920  0.5870  129.2   1.495   35.5  0.2809   53.1  0.1388 -173.6
 1.940  0.5879  128.8   1.482   35.1  0.2835   52.7  0.1406 -174.4
 1.960  0.5888  128.4   1.469   34.6  0.2861   52.4  0.1424 -175.2
 1.980  0.5897  128.0   1.456   34.1  0.2886   52.1  0.1442 -176.0
 2.000  0.5907  127.6   1.443   33.6  0.2912   51.8  0.1461 -176.7
 2.020  0.5917  127.1   1.431   33.1  0.2936   51.5  0.1475 -177.4
 2.040  0.5928  126.6   1.420   32.7  0.2961   51.1  0.1489 -178.0
 2.060  0.5939  126.1   1.409   32.2  0.2986   50.8  0.1504 -178.7
 2.080  0.5950  125.6   1.397   31.7  0.3010   50.5  0.1518 -179.3
 2.100  0.5962  125.1   1.386   31.2  0.3035   50.1  0.1533 -179.9
 2.120  0.5974  124.6   1.375   30.7  0.3060   49.8  0.1548  179.5
 2.140  0.5987  124.1   1.364   30.2  0.3085   49.5  0.1563  178.9
 2.160  0.6000  123.6   1.353   29.7  0.3110   49.2  0.1578  178.3
 2.180  0.6014  123.1   1.343   29.1  0.3136   48.9  0.1593  177.8
 2.200  0.6028  122.6   1.332   28.6  0.3161   48.6  0.1609  177.2
 2.220  0.6042  122.1   1.324   28.2  0.3184   48.2  0.1631  176.5
 2.240  0.6056  121.6   1.315   27.7  0.3207   47.9  0.1653  175.7
 2.260  0.6070  121.0   1.307   27.3  0.3229   47.6  0.1675  175.0
 2.280  0.6085  120.5   1.299   26.8  0.3252   47.2  0.1698  174.3
 2.300  0.6101  120.0   1.290   26.3  0.3276   46.9  0.1721  173.7
 2.320  0.6117  119.5   1.282   25.9  0.3299   46.6  0.1744  173.0
 2.340  0.6134  119.0   1.274   25.4  0.3322   46.2  0.1767  172.4
 2.360  0.6151  118.5   1.266   24.9  0.3346   45.9  0.1790  171.8
 2.380  0.6168  118.0   1.259   24.4  0.3369   45.6  0.1814  171.2
 2.400  0.6186  117.5   1.251   23.9  0.3393   45.3  0.1838  170.6
 2.420  0.6201  117.0   1.242   23.5  0.3414   45.0  0.1855  170.0
 2.440  0.6217  116.6   1.233   23.1  0.3434   44.6  0.1872  169.4
 2.460  0.6233  116.2   1.225   22.7  0.3455   44.3  0.1889  168.9
 2.480  0.6250  115.7   1.216   22.3  0.3476   44.0  0.1906  168.3
 2.500  0.6267  115.3   1.207   21.9  0.3497   43.7  0.1924  167.8
 2.520  0.6284  114.8   1.199   21.5  0.3518   43.3  0.1942  167.2
 2.540  0.6302  114.4   1.190   21.0  0.3540   43.0  0.1959  166.7
 2.560  0.6320  114.0   1.182   20.6  0.3561   42.7  0.1977  166.2
 2.580  0.6338  113.5   1.173   20.1  0.3582   42.4  0.1996  165.7
 2.600  0.6357  113.1   1.165   19.7  0.3604   42.1  0.2014  165.2
 2.620  0.6368  112.7   1.159   19.3  0.3624   41.8  0.2040  164.6
 2.640  0.6380  112.2   1.152   18.9  0.3644   41.4  0.2065  163.9
 2.660  0.6393  111.8   1.146   18.5  0.3665   41.1  0.2092  163.3
 2.680  0.6405  111.3   1.140   18.2  0.3685   40.8  0.2118  162.7
 2.700  0.6418  110.9   1.134   17.8  0.3706   40.5  0.2144  162.2
 2.720  0.6432  110.4   1.128   17.4  0.3726   40.1  0.2171  161.6
 2.740  0.6445  110.0   1.122   16.9  0.3747   39.8  0.2198  161.1
 2.760  0.6460  109.6   1.116   16.5  0.3768   39.5  0.2225  160.5
 2.780  0.6474  109.1   1.110   16.1  0.3789   39.2  0.2252  160.0
 2.800  0.6489  108.7   1.104   15.7  0.3810   38.9  0.2280  159.5
 2.820  0.6502  108.3   1.098   15.3  0.3829   38.6  0.2301  159.0
 2.840  0.6516  107.9   1.091   14.9  0.3849   38.3  0.2321  158.4
 2.860  0.6530  107.5   1.085   14.5  0.3868   37.9  0.2342  157.9
 2.880  0.6545  107.0   1.078   14.0  0.3888   37.6  0.2363  157.4
 2.900  0.6559  106.6   1.072   13.6  0.3908   37.3  0.2385  156.9
 2.920  0.6574  106.2   1.066   13.2  0.3927   37.0  0.2406  156.5
 2.940  0.6590  105.8   1.060   12.7  0.3947   36.7  0.2428  156.0
 2.960  0.6606  105.4   1.054   12.3  0.3967   36.4  0.2450  155.5
 2.980  0.6622  105.0   1.048   11.9  0.3988   36.1  0.2472  155.1
 3.000  0.6638  104.6   1.042   11.4  0.4008   35.8  0.2494  154.6
 3.100  0.6694  102.7   1.016    9.9  0.4088   34.1  0.2620  151.8
 3.200  0.6757  100.9   0.990    8.4  0.4172   32.5  0.2751  149.2
 3.300  0.6827   99.1   0.965    6.7  0.4259   31.0  0.2887  146.9
 3.400  0.6903   97.4   0.941    5.0  0.4348   29.5  0.3028  144.8
 3.500  0.6986   95.7   0.918    3.2  0.4441   28.1  0.3172  142.9
 3.600  0.7038   94.1   0.898    1.9  0.4499   26.5  0.3302  140.4
 3.700  0.7095   92.5   0.878    0.6  0.4560   24.9  0.3437  138.1
 3.800  0.7158   90.9   0.859   -0.8  0.4624   23.4  0.3578  135.9
 3.900  0.7226   89.3   0.840   -2.2  0.4691   21.9  0.3723  133.9
 4.000  0.7299   87.8   0.822   -3.7  0.4762   20.5  0.3873  132.1
 4.100  0.7324   86.5   0.807   -4.8  0.4798   19.1  0.3963  130.0
 4.200  0.7352   85.2   0.792   -6.0  0.4837   17.6  0.4058  128.0
 4.300  0.7385   83.9   0.778   -7.2  0.4879   16.2  0.4158  126.1
 4.400  0.7421   82.6   0.764   -8.4  0.4923   14.9  0.4262  124.2
 4.500  0.7461   81.3   0.750   -9.7  0.4971   13.5  0.4370  122.5
 4.600  0.7494   80.1   0.738  -10.6  0.5004   12.2  0.4448  120.7
 4.700  0.7530   78.9   0.726  -11.5  0.5039   11.0  0.4531  118.9
 4.800  0.7569   77.7   0.715  -12.4  0.5077    9.8  0.4618  117.3
 4.900  0.7612   76.5   0.703  -13.3  0.5117    8.6  0.4708  115.7
 5.000  0.7658   75.3   0.692  -14.3  0.5159    7.4  0.4802  114.1
 5.100  0.7641   74.1   0.682  -14.5  0.5180    6.8  0.4785  113.7
 5.200  0.7628   73.0   0.673  -14.6  0.5201    6.1  0.4768  113.4
 5.300  0.7617   71.8   0.663  -14.8  0.5223    5.5  0.4752  113.0
 5.400  0.7610   70.7   0.654  -14.9  0.5246    4.9  0.4735  112.7
 5.500  0.7606   69.5   0.644  -15.1  0.5269    4.3  0.4719  112.3
 5.600  0.7608   68.7   0.640  -16.0  0.5326    2.9  0.4880  110.6
 5.700  0.7612   67.8   0.637  -16.9  0.5386    1.4  0.5044  109.0
 5.800  0.7617   67.0   0.634  -17.8  0.5449    0.1  0.5212  107.6
 5.900  0.7624   66.1   0.631  -18.8  0.5515   -1.3  0.5384  106.2
 6.000  0.7633   65.3   0.628  -19.7  0.5584   -2.6  0.5558  104.9
!
!  f       NFmin   Gammaopt  rn/50
! GHz       dB    MAG  ANG    -
!
! noise parameter not available yet for this operation point!
!
! (c) 2015  Infineon Technologies AG, Munich
