! Infineon Technologies  Discrete & RF Semiconductors
! BFR182
! VCE =  6.0 V,  IC =  9.0 mA
! Common Emitter S-Parameters:                            Nov 2015
# GHz  S  MA  R  50
!  f         S11            S21            S12            S22
! GHz     MAG   ANG      MAG   ANG      MAG   ANG      MAG   ANG
 0.010  0.7463   -3.3  22.361  176.6  0.0018   83.9  0.9827   -1.6
 0.015  0.7435   -4.7  22.108  175.1  0.0027   89.4  0.9778   -2.4
 0.020  0.7411   -6.2  21.871  173.5  0.0037   92.1  0.9731   -3.2
 0.025  0.7375   -7.9  21.814  172.1  0.0046   89.2  0.9707   -4.0
 0.030  0.7345   -9.5  21.770  170.7  0.0054   87.2  0.9686   -4.8
 0.035  0.7321  -11.2  21.738  169.3  0.0063   85.7  0.9666   -5.5
 0.040  0.7304  -12.9  21.720  167.9  0.0072   84.6  0.9648   -6.3
 0.045  0.7293  -14.6  21.715  166.5  0.0081   83.8  0.9631   -7.1
 0.050  0.7289  -16.3  21.723  165.1  0.0090   83.1  0.9617   -7.9
 0.055  0.7204  -17.6  21.520  163.9  0.0098   81.8  0.9555   -8.5
 0.060  0.7123  -19.0  21.327  162.6  0.0106   80.7  0.9493   -9.2
 0.065  0.7047  -20.4  21.144  161.4  0.0114   79.7  0.9433   -9.8
 0.070  0.6974  -21.8  20.971  160.1  0.0123   78.9  0.9375  -10.5
 0.075  0.6906  -23.2  20.809  158.8  0.0131   78.2  0.9317  -11.1
 0.080  0.6842  -24.7  20.659  157.5  0.0139   77.5  0.9261  -11.8
 0.085  0.6783  -26.2  20.519  156.1  0.0147   77.0  0.9206  -12.5
 0.090  0.6728  -27.7  20.391  154.8  0.0155   76.5  0.9152  -13.2
 0.095  0.6679  -29.2  20.274  153.4  0.0164   76.0  0.9100  -13.9
 0.100  0.6634  -30.8  20.169  152.0  0.0172   75.6  0.9049  -14.6
 0.105  0.6555  -31.9  19.916  150.9  0.0179   74.9  0.8980  -15.0
 0.110  0.6479  -33.1  19.671  149.9  0.0186   74.3  0.8911  -15.5
 0.115  0.6406  -34.3  19.432  148.7  0.0193   73.8  0.8842  -16.0
 0.120  0.6336  -35.6  19.201  147.6  0.0200   73.2  0.8775  -16.4
 0.125  0.6268  -36.8  18.978  146.4  0.0207   72.7  0.8707  -16.9
 0.130  0.6204  -38.1  18.763  145.2  0.0214   72.3  0.8641  -17.4
 0.135  0.6143  -39.4  18.556  144.0  0.0221   71.8  0.8575  -17.9
 0.140  0.6085  -40.8  18.357  142.8  0.0228   71.4  0.8510  -18.4
 0.145  0.6031  -42.1  18.168  141.5  0.0235   71.1  0.8445  -18.9
 0.150  0.5980  -43.5  17.988  140.2  0.0242   70.7  0.8381  -19.4
 0.155  0.5898  -44.5  17.783  139.4  0.0247   70.4  0.8314  -19.7
 0.160  0.5817  -45.6  17.581  138.5  0.0252   70.1  0.8247  -20.0
 0.165  0.5739  -46.7  17.383  137.7  0.0258   69.9  0.8180  -20.3
 0.170  0.5662  -47.8  17.189  136.8  0.0263   69.6  0.8114  -20.6
 0.175  0.5588  -48.9  16.999  135.9  0.0268   69.4  0.8048  -20.9
 0.180  0.5517  -50.1  16.814  135.0  0.0273   69.2  0.7982  -21.2
 0.185  0.5447  -51.3  16.633  134.0  0.0278   68.9  0.7916  -21.5
 0.190  0.5380  -52.5  16.457  133.1  0.0284   68.7  0.7850  -21.8
 0.195  0.5316  -53.8  16.285  132.1  0.0289   68.5  0.7785  -22.2
 0.200  0.5254  -55.1  16.118  131.1  0.0294   68.3  0.7720  -22.5
 0.220  0.4992  -58.4  15.328  128.4  0.0313   67.5  0.7497  -23.2
 0.240  0.4749  -62.1  14.576  125.4  0.0332   66.8  0.7275  -24.0
 0.260  0.4524  -65.5  13.887  122.7  0.0350   66.4  0.7079  -24.6
 0.280  0.4310  -68.4  13.246  120.4  0.0369   66.3  0.6909  -25.0
 0.300  0.4109  -71.7  12.628  117.9  0.0388   66.2  0.6739  -25.4
 0.320  0.3916  -73.8  12.143  116.4  0.0404   66.0  0.6612  -25.5
 0.340  0.3728  -76.2  11.666  114.8  0.0420   65.9  0.6486  -25.6
 0.360  0.3548  -78.8  11.199  113.1  0.0435   65.7  0.6359  -25.7
 0.380  0.3376  -81.7  10.743  111.2  0.0451   65.6  0.6233  -25.9
 0.400  0.3213  -84.9  10.300  109.2  0.0467   65.5  0.6106  -26.0
 0.420  0.3098  -86.9   9.933  108.0  0.0482   65.7  0.6017  -26.0
 0.440  0.2986  -89.0   9.571  106.6  0.0496   65.9  0.5928  -26.0
 0.450  0.2932  -90.1   9.393  105.9  0.0503   66.0  0.5884  -26.0
 0.460  0.2879  -91.3   9.215  105.2  0.0511   66.1  0.5839  -26.0
 0.480  0.2777  -93.8   8.865  103.7  0.0525   66.2  0.5750  -26.0
 0.500  0.2681  -96.4   8.522  102.0  0.0540   66.4  0.5661  -26.0
 0.520  0.2596  -98.2   8.273  101.1  0.0557   66.4  0.5607  -26.0
 0.540  0.2514 -100.1   8.027  100.1  0.0573   66.5  0.5554  -26.0
 0.560  0.2434 -102.2   7.783   99.0  0.0590   66.5  0.5500  -25.9
 0.580  0.2358 -104.4   7.542   97.9  0.0606   66.6  0.5447  -25.9
 0.600  0.2286 -106.7   7.304   96.7  0.0623   66.6  0.5393  -25.9
 0.620  0.2217 -108.4   7.116   95.9  0.0638   66.7  0.5355  -25.9
 0.640  0.2150 -110.2   6.930   95.0  0.0653   66.7  0.5317  -25.9
 0.660  0.2085 -112.2   6.746   94.1  0.0669   66.8  0.5280  -25.9
 0.680  0.2023 -114.2   6.564   93.1  0.0684   66.8  0.5242  -25.9
 0.700  0.1963 -116.4   6.383   92.1  0.0699   66.9  0.5204  -25.9
 0.720  0.1913 -118.2   6.231   91.4  0.0716   66.9  0.5178  -25.9
 0.740  0.1866 -120.2   6.080   90.6  0.0733   66.9  0.5152  -25.9
 0.760  0.1820 -122.2   5.929   89.8  0.0749   66.9  0.5126  -26.0
 0.780  0.1777 -124.4   5.781   89.0  0.0766   66.9  0.5100  -26.0
 0.800  0.1737 -126.6   5.633   88.1  0.0783   66.9  0.5074  -26.0
 0.820  0.1692 -128.1   5.519   87.4  0.0799   67.0  0.5052  -26.0
 0.840  0.1648 -129.6   5.405   86.7  0.0815   67.1  0.5031  -26.1
 0.860  0.1606 -131.2   5.292   85.9  0.0832   67.1  0.5009  -26.1
 0.880  0.1565 -132.9   5.181   85.1  0.0848   67.2  0.4988  -26.2
 0.900  0.1525 -134.7   5.070   84.3  0.0864   67.3  0.4966  -26.2
 0.920  0.1485 -136.8   4.977   83.7  0.0879   67.3  0.4948  -26.3
 0.940  0.1448 -139.0   4.886   83.1  0.0895   67.3  0.4930  -26.4
 0.960  0.1412 -141.3   4.794   82.5  0.0910   67.4  0.4913  -26.4
 0.980  0.1379 -143.8   4.703   81.9  0.0926   67.4  0.4895  -26.5
 1.000  0.1349 -146.3   4.613   81.2  0.0941   67.4  0.4877  -26.6
 1.020  0.1343 -148.6   4.538   80.7  0.0958   67.4  0.4863  -26.7
 1.040  0.1340 -151.0   4.464   80.1  0.0975   67.4  0.4850  -26.9
 1.060  0.1339 -153.4   4.390   79.5  0.0991   67.3  0.4836  -27.0
 1.080  0.1340 -155.7   4.316   78.9  0.1008   67.3  0.4823  -27.2
 1.100  0.1343 -158.1   4.243   78.3  0.1025   67.3  0.4809  -27.3
 1.120  0.1329 -160.0   4.176   77.7  0.1042   67.3  0.4797  -27.4
 1.140  0.1316 -162.0   4.109   77.2  0.1059   67.3  0.4785  -27.6
 1.160  0.1305 -164.0   4.043   76.6  0.1075   67.3  0.4772  -27.7
 1.180  0.1296 -166.0   3.977   75.9  0.1092   67.3  0.4760  -27.9
 1.200  0.1288 -168.1   3.912   75.3  0.1109   67.3  0.4748  -28.0
 1.220  0.1289 -169.7   3.852   74.8  0.1126   67.2  0.4737  -28.2
 1.240  0.1291 -171.2   3.793   74.3  0.1143   67.2  0.4727  -28.3
 1.260  0.1294 -172.7   3.734   73.8  0.1159   67.1  0.4716  -28.5
 1.280  0.1298 -174.3   3.675   73.3  0.1176   67.1  0.4706  -28.6
 1.300  0.1303 -175.8   3.617   72.8  0.1193   67.0  0.4695  -28.8
 1.320  0.1293 -177.9   3.569   72.3  0.1208   66.9  0.4687  -29.0
 1.340  0.1285  179.9   3.521   71.8  0.1224   66.9  0.4679  -29.2
 1.360  0.1278  177.8   3.473   71.3  0.1239   66.8  0.4671  -29.5
 1.380  0.1274  175.6   3.426   70.7  0.1255   66.8  0.4664  -29.7
 1.400  0.1271  173.4   3.379   70.2  0.1270   66.7  0.4656  -29.9
 1.420  0.1270  172.3   3.341   69.7  0.1288   66.6  0.4648  -30.1
 1.440  0.1270  171.3   3.304   69.3  0.1306   66.4  0.4641  -30.3
 1.460  0.1270  170.2   3.267   68.8  0.1323   66.3  0.4634  -30.5
 1.480  0.1271  169.2   3.230   68.3  0.1341   66.1  0.4626  -30.7
 1.500  0.1272  168.1   3.193   67.8  0.1359   66.0  0.4619  -30.9
 1.520  0.1292  166.1   3.153   67.2  0.1376   65.9  0.4610  -31.1
 1.540  0.1314  164.2   3.114   66.7  0.1394   65.8  0.4602  -31.3
 1.560  0.1337  162.4   3.075   66.1  0.1411   65.8  0.4593  -31.6
 1.580  0.1361  160.6   3.036   65.5  0.1429   65.7  0.4584  -31.8
 1.600  0.1387  158.9   2.998   64.9  0.1446   65.6  0.4576  -32.0
 1.620  0.1393  157.3   2.967   64.5  0.1463   65.5  0.4565  -32.2
 1.640  0.1400  155.6   2.935   64.0  0.1481   65.4  0.4553  -32.4
 1.660  0.1409  154.0   2.904   63.5  0.1498   65.4  0.4542  -32.7
 1.680  0.1418  152.5   2.874   63.1  0.1516   65.3  0.4531  -32.9
 1.700  0.1429  150.9   2.843   62.6  0.1533   65.2  0.4520  -33.1
 1.720  0.1446  149.6   2.817   62.2  0.1550   65.1  0.4510  -33.4
 1.740  0.1463  148.2   2.792   61.7  0.1567   64.9  0.4500  -33.6
 1.760  0.1481  147.0   2.766   61.3  0.1584   64.8  0.4490  -33.9
 1.780  0.1500  145.7   2.741   60.9  0.1601   64.6  0.4481  -34.1
 1.800  0.1520  144.5   2.716   60.4  0.1618   64.5  0.4471  -34.4
 1.820  0.1533  143.8   2.692   60.0  0.1636   64.4  0.4461  -34.7
 1.840  0.1546  143.1   2.667   59.5  0.1654   64.2  0.4451  -35.0
 1.860  0.1560  142.5   2.643   59.0  0.1671   64.1  0.4441  -35.2
 1.880  0.1573  141.8   2.620   58.6  0.1689   63.9  0.4431  -35.5
 1.900  0.1587  141.2   2.596   58.1  0.1707   63.8  0.4421  -35.8
 1.920  0.1606  140.4   2.572   57.7  0.1725   63.7  0.4413  -36.1
 1.940  0.1624  139.5   2.547   57.2  0.1743   63.5  0.4405  -36.4
 1.960  0.1644  138.7   2.523   56.8  0.1760   63.4  0.4397  -36.6
 1.980  0.1663  138.0   2.499   56.4  0.1778   63.2  0.4390  -36.9
 2.000  0.1683  137.2   2.475   55.9  0.1796   63.1  0.4382  -37.2
 2.020  0.1699  136.2   2.455   55.5  0.1814   62.9  0.4371  -37.5
 2.040  0.1716  135.3   2.435   55.1  0.1831   62.8  0.4359  -37.8
 2.060  0.1733  134.4   2.415   54.7  0.1849   62.7  0.4348  -38.1
 2.080  0.1751  133.5   2.395   54.3  0.1866   62.5  0.4337  -38.4
 2.100  0.1769  132.6   2.375   53.8  0.1884   62.4  0.4326  -38.7
 2.120  0.1788  131.7   2.356   53.4  0.1901   62.2  0.4315  -39.0
 2.140  0.1807  130.9   2.336   53.0  0.1919   62.1  0.4304  -39.3
 2.160  0.1826  130.0   2.317   52.5  0.1937   62.0  0.4294  -39.6
 2.180  0.1846  129.2   2.298   52.1  0.1954   61.8  0.4283  -39.9
 2.200  0.1866  128.4   2.279   51.6  0.1972   61.7  0.4273  -40.2
 2.220  0.1885  127.7   2.264   51.2  0.1990   61.5  0.4260  -40.5
 2.240  0.1905  127.1   2.248   50.8  0.2008   61.4  0.4247  -40.8
 2.260  0.1924  126.4   2.233   50.4  0.2026   61.2  0.4234  -41.1
 2.280  0.1944  125.8   2.218   49.9  0.2044   61.1  0.4221  -41.4
 2.300  0.1965  125.1   2.203   49.5  0.2062   60.9  0.4209  -41.7
 2.320  0.1985  124.5   2.189   49.1  0.2080   60.8  0.4196  -42.0
 2.340  0.2006  123.9   2.174   48.7  0.2099   60.6  0.4184  -42.3
 2.360  0.2027  123.3   2.160   48.2  0.2117   60.5  0.4171  -42.6
 2.380  0.2048  122.8   2.145   47.8  0.2135   60.3  0.4159  -42.9
 2.400  0.2069  122.2   2.131   47.3  0.2153   60.2  0.4147  -43.2
 2.420  0.2093  121.6   2.117   46.9  0.2171   60.0  0.4132  -43.5
 2.440  0.2117  121.0   2.103   46.6  0.2189   59.8  0.4117  -43.9
 2.460  0.2141  120.4   2.089   46.2  0.2207   59.6  0.4103  -44.2
 2.480  0.2165  119.8   2.075   45.8  0.2225   59.4  0.4088  -44.6
 2.500  0.2190  119.2   2.061   45.4  0.2243   59.3  0.4074  -44.9
 2.520  0.2215  118.6   2.048   45.0  0.2261   59.1  0.4059  -45.3
 2.540  0.2240  118.1   2.034   44.6  0.2279   58.9  0.4045  -45.6
 2.560  0.2265  117.5   2.021   44.2  0.2298   58.7  0.4031  -46.0
 2.580  0.2290  117.0   2.007   43.8  0.2316   58.6  0.4018  -46.3
 2.600  0.2316  116.5   1.994   43.4  0.2334   58.4  0.4004  -46.7
 2.620  0.2335  116.0   1.983   43.0  0.2353   58.2  0.3990  -47.1
 2.640  0.2354  115.6   1.972   42.7  0.2371   58.0  0.3976  -47.4
 2.660  0.2373  115.1   1.960   42.3  0.2390   57.9  0.3961  -47.8
 2.680  0.2393  114.7   1.949   41.9  0.2409   57.7  0.3948  -48.1
 2.700  0.2412  114.3   1.938   41.6  0.2428   57.5  0.3934  -48.5
 2.720  0.2432  113.8   1.928   41.2  0.2447   57.3  0.3920  -48.9
 2.740  0.2452  113.4   1.917   40.8  0.2465   57.2  0.3907  -49.3
 2.760  0.2472  113.0   1.906   40.4  0.2484   57.0  0.3894  -49.6
 2.780  0.2492  112.6   1.896   40.0  0.2503   56.9  0.3881  -50.0
 2.800  0.2512  112.2   1.885   39.6  0.2522   56.7  0.3868  -50.4
 2.820  0.2535  111.8   1.874   39.2  0.2540   56.5  0.3851  -50.8
 2.840  0.2558  111.4   1.864   38.8  0.2558   56.3  0.3835  -51.2
 2.860  0.2582  111.1   1.853   38.4  0.2576   56.1  0.3819  -51.6
 2.880  0.2605  110.7   1.843   38.1  0.2594   55.9  0.3803  -52.0
 2.900  0.2629  110.4   1.832   37.7  0.2612   55.7  0.3787  -52.4
 2.920  0.2652  110.0   1.822   37.3  0.2630   55.5  0.3771  -52.8
 2.940  0.2676  109.7   1.812   36.8  0.2648   55.3  0.3755  -53.2
 2.960  0.2700  109.4   1.802   36.4  0.2666   55.2  0.3740  -53.6
 2.980  0.2724  109.0   1.792   36.0  0.2684   55.0  0.3725  -54.0
 3.000  0.2748  108.7   1.782   35.6  0.2702   54.8  0.3710  -54.4
 3.100  0.2868  106.9   1.738   33.9  0.2793   53.7  0.3611  -56.6
 3.200  0.2991  105.2   1.696   32.1  0.2885   52.6  0.3518  -58.9
 3.300  0.3116  103.6   1.656   30.3  0.2978   51.6  0.3430  -61.4
 3.400  0.3244  102.2   1.618   28.3  0.3072   50.7  0.3350  -63.9
 3.500  0.3373  100.9   1.581   26.3  0.3166   49.8  0.3276  -66.6
 3.600  0.3485   99.5   1.549   24.7  0.3256   48.6  0.3167  -69.5
 3.700  0.3599   98.1   1.518   23.1  0.3348   47.5  0.3066  -72.5
 3.800  0.3715   96.9   1.489   21.3  0.3440   46.4  0.2975  -75.8
 3.900  0.3832   95.7   1.461   19.6  0.3534   45.4  0.2894  -79.3
 4.000  0.3951   94.6   1.434   17.7  0.3629   44.4  0.2824  -82.9
 4.100  0.4066   93.5   1.408   16.2  0.3716   43.1  0.2721  -86.4
 4.200  0.4182   92.5   1.383   14.6  0.3805   41.8  0.2629  -90.2
 4.300  0.4300   91.5   1.359   12.9  0.3896   40.6  0.2549  -94.2
 4.400  0.4419   90.6   1.336   11.2  0.3989   39.5  0.2483  -98.5
 4.500  0.4539   89.7   1.314    9.4  0.4083   38.4  0.2431 -103.0
 4.600  0.4630   88.6   1.293    8.0  0.4167   37.1  0.2357 -107.2
 4.700  0.4723   87.6   1.274    6.5  0.4252   35.9  0.2296 -111.6
 4.800  0.4817   86.6   1.255    4.9  0.4340   34.7  0.2250 -116.3
 4.900  0.4913   85.6   1.237    3.3  0.4429   33.5  0.2220 -121.1
 5.000  0.5010   84.7   1.220    1.7  0.4520   32.4  0.2205 -126.0
 5.100  0.5096   83.6   1.198    0.3  0.4596   31.0  0.2166 -131.0
 5.200  0.5183   82.5   1.177   -1.1  0.4674   29.7  0.2143 -136.1
 5.300  0.5272   81.5   1.157   -2.5  0.4755   28.4  0.2138 -141.3
 5.400  0.5363   80.5   1.137   -4.0  0.4838   27.2  0.2151 -146.5
 5.500  0.5456   79.5   1.118   -5.6  0.4923   26.0  0.2181 -151.6
 5.600  0.5539   78.4   1.099   -6.8  0.4977   24.5  0.2146 -156.3
 5.700  0.5624   77.3   1.080   -8.1  0.5035   23.0  0.2125 -161.2
 5.800  0.5711   76.2   1.062   -9.4  0.5096   21.6  0.2121 -166.2
 5.900  0.5799   75.2   1.045  -10.8  0.5160   20.2  0.2132 -171.1
 6.000  0.5890   74.2   1.028  -12.2  0.5227   18.8  0.2158 -175.9
!
!  f       NFmin   Gammaopt  rn/50
! GHz       dB    MAG  ANG    -
!
! noise parameter not available yet for this operation point!
!
! (c) 2015  Infineon Technologies AG, Munich
