! Infineon Technologies  Discrete & RF Semiconductors
! BFR106
! VCE =  5.0 V,  IC =  8.0 mA
! Common Emitter S-Parameters:                            Nov 2015
# GHz  S  MA  R  50
!  f         S11            S21            S12            S22
! GHz     MAG   ANG      MAG   ANG      MAG   ANG      MAG   ANG
 0.010  0.7761  -10.9  23.716  172.5  0.0056   86.9  0.9876   -4.9
 0.015  0.7671  -16.4  23.483  169.5  0.0081   83.4  0.9800   -7.4
 0.020  0.7651  -21.9  23.315  166.5  0.0107   81.6  0.9742   -9.9
 0.025  0.7445  -26.5  22.718  163.8  0.0129   76.7  0.9549  -11.8
 0.030  0.7289  -31.3  22.173  161.0  0.0152   73.3  0.9367  -13.7
 0.035  0.7186  -36.3  21.683  158.1  0.0175   70.8  0.9195  -15.7
 0.040  0.7138  -41.3  21.253  155.1  0.0199   68.9  0.9035  -17.7
 0.045  0.7147  -46.4  20.885  151.9  0.0222   67.3  0.8888  -19.9
 0.050  0.7213  -51.5  20.584  148.6  0.0246   66.1  0.8753  -22.1
 0.055  0.7022  -54.7  20.027  147.0  0.0259   64.2  0.8559  -23.1
 0.060  0.6855  -58.2  19.486  145.4  0.0272   62.5  0.8367  -24.1
 0.065  0.6714  -61.7  18.962  143.7  0.0286   60.9  0.8178  -25.2
 0.070  0.6599  -65.4  18.456  141.8  0.0299   59.5  0.7992  -26.4
 0.075  0.6513  -69.2  17.970  139.9  0.0313   58.2  0.7810  -27.5
 0.080  0.6457  -73.2  17.506  137.9  0.0327   57.1  0.7631  -28.8
 0.085  0.6431  -77.1  17.065  135.7  0.0341   56.0  0.7456  -30.1
 0.090  0.6436  -81.1  16.649  133.5  0.0355   55.0  0.7285  -31.5
 0.095  0.6471  -85.0  16.260  131.1  0.0370   54.1  0.7118  -32.9
 0.100  0.6537  -88.9  15.901  128.6  0.0384   53.2  0.6956  -34.4
 0.105  0.6441  -91.1  15.502  127.5  0.0391   52.4  0.6821  -34.9
 0.110  0.6355  -93.4  15.109  126.4  0.0398   51.7  0.6687  -35.3
 0.115  0.6279  -95.7  14.721  125.3  0.0406   50.9  0.6553  -35.8
 0.120  0.6214  -98.1  14.341  124.0  0.0413   50.2  0.6420  -36.4
 0.125  0.6160 -100.6  13.967  122.7  0.0420   49.6  0.6287  -36.9
 0.130  0.6118 -103.1  13.600  121.4  0.0428   48.9  0.6155  -37.5
 0.135  0.6087 -105.6  13.242  119.9  0.0435   48.3  0.6023  -38.1
 0.140  0.6067 -108.1  12.893  118.4  0.0443   47.7  0.5893  -38.7
 0.145  0.6060 -110.7  12.553  116.8  0.0450   47.1  0.5762  -39.3
 0.150  0.6065 -113.2  12.224  115.1  0.0458   46.5  0.5633  -40.0
 0.155  0.6028 -114.7  11.977  114.4  0.0462   46.3  0.5553  -40.1
 0.160  0.5995 -116.3  11.731  113.8  0.0466   46.2  0.5472  -40.2
 0.165  0.5967 -117.8  11.487  113.1  0.0471   46.0  0.5392  -40.4
 0.170  0.5943 -119.4  11.245  112.3  0.0475   45.8  0.5312  -40.5
 0.175  0.5924 -121.0  11.004  111.5  0.0479   45.7  0.5232  -40.6
 0.180  0.5909 -122.6  10.766  110.7  0.0483   45.5  0.5151  -40.8
 0.185  0.5899 -124.2  10.530  109.9  0.0487   45.4  0.5071  -40.9
 0.190  0.5893 -125.8  10.297  109.0  0.0492   45.2  0.4991  -41.1
 0.195  0.5892 -127.4  10.066  108.1  0.0496   45.0  0.4911  -41.2
 0.200  0.5896 -129.0   9.838  107.1  0.0500   44.9  0.4831  -41.4
 0.220  0.5791 -133.7   9.133  104.8  0.0516   44.8  0.4597  -41.6
 0.240  0.5727 -138.5   8.446  102.1  0.0532   44.7  0.4363  -41.8
 0.260  0.5689 -142.6   7.862   99.8  0.0547   44.8  0.4178  -41.9
 0.280  0.5660 -145.8   7.372   98.1  0.0560   45.3  0.4043  -42.0
 0.300  0.5649 -149.0   6.889   96.2  0.0574   45.7  0.3907  -42.1
 0.320  0.5617 -151.5   6.564   95.1  0.0588   46.3  0.3818  -42.0
 0.340  0.5596 -154.0   6.241   93.8  0.0602   46.9  0.3730  -41.8
 0.360  0.5585 -156.6   5.922   92.4  0.0616   47.4  0.3641  -41.7
 0.380  0.5586 -159.2   5.607   90.8  0.0630   47.9  0.3553  -41.6
 0.400  0.5598 -161.7   5.296   89.1  0.0644   48.4  0.3464  -41.4
 0.420  0.5593 -163.4   5.087   88.1  0.0658   49.1  0.3418  -41.4
 0.440  0.5594 -165.1   4.880   87.0  0.0673   49.7  0.3372  -41.4
 0.450  0.5595 -165.9   4.778   86.4  0.0680   50.0  0.3349  -41.4
 0.460  0.5599 -166.8   4.675   85.8  0.0687   50.3  0.3326  -41.5
 0.480  0.5608 -168.4   4.472   84.5  0.0701   50.9  0.3280  -41.5
 0.500  0.5623 -170.1   4.272   83.1  0.0716   51.5  0.3234  -41.5
 0.520  0.5617 -171.5   4.137   82.2  0.0732   52.1  0.3209  -41.7
 0.540  0.5615 -172.9   4.003   81.2  0.0748   52.7  0.3185  -41.9
 0.560  0.5616 -174.3   3.871   80.2  0.0764   53.2  0.3160  -42.1
 0.580  0.5620 -175.7   3.740   79.1  0.0781   53.7  0.3136  -42.4
 0.600  0.5628 -177.1   3.610   77.9  0.0797   54.2  0.3111  -42.6
 0.620  0.5631 -178.3   3.512   77.1  0.0815   54.7  0.3093  -43.0
 0.640  0.5637 -179.5   3.415   76.2  0.0832   55.2  0.3075  -43.3
 0.660  0.5645  179.3   3.318   75.3  0.0850   55.7  0.3057  -43.7
 0.680  0.5655  178.1   3.223   74.3  0.0868   56.2  0.3039  -44.1
 0.700  0.5668  176.9   3.128   73.3  0.0886   56.6  0.3021  -44.5
 0.720  0.5663  176.1   3.051   72.6  0.0905   56.9  0.3005  -44.9
 0.740  0.5660  175.2   2.975   71.8  0.0925   57.2  0.2988  -45.3
 0.760  0.5658  174.4   2.899   71.0  0.0944   57.5  0.2972  -45.7
 0.780  0.5657  173.5   2.824   70.1  0.0964   57.8  0.2956  -46.1
 0.800  0.5657  172.7   2.750   69.2  0.0983   58.1  0.2940  -46.5
 0.820  0.5650  171.7   2.691   68.5  0.1003   58.4  0.2935  -46.9
 0.840  0.5645  170.7   2.632   67.7  0.1022   58.8  0.2929  -47.3
 0.860  0.5641  169.7   2.573   66.9  0.1042   59.1  0.2924  -47.7
 0.880  0.5639  168.7   2.515   66.1  0.1061   59.4  0.2919  -48.1
 0.900  0.5639  167.7   2.458   65.2  0.1081   59.7  0.2914  -48.5
 0.920  0.5645  166.8   2.413   64.5  0.1100   59.9  0.2911  -49.1
 0.940  0.5652  165.9   2.368   63.8  0.1119   60.1  0.2908  -49.7
 0.960  0.5661  165.1   2.324   63.0  0.1138   60.3  0.2906  -50.2
 0.980  0.5671  164.2   2.280   62.2  0.1157   60.5  0.2904  -50.8
 1.000  0.5682  163.3   2.236   61.4  0.1176   60.7  0.2902  -51.4
 1.020  0.5692  162.5   2.199   60.7  0.1197   60.9  0.2895  -52.1
 1.040  0.5704  161.6   2.163   60.0  0.1219   61.1  0.2888  -52.8
 1.060  0.5716  160.8   2.127   59.3  0.1240   61.3  0.2882  -53.5
 1.080  0.5730  159.9   2.091   58.5  0.1262   61.4  0.2876  -54.2
 1.100  0.5745  159.1   2.056   57.7  0.1283   61.6  0.2870  -54.9
 1.120  0.5751  158.3   2.025   57.1  0.1306   61.7  0.2864  -55.6
 1.140  0.5758  157.6   1.994   56.4  0.1328   61.9  0.2858  -56.2
 1.160  0.5766  156.8   1.963   55.8  0.1351   62.0  0.2853  -56.9
 1.180  0.5775  156.1   1.932   55.1  0.1373   62.1  0.2848  -57.5
 1.200  0.5785  155.3   1.902   54.4  0.1396   62.2  0.2843  -58.2
 1.220  0.5789  154.6   1.875   53.8  0.1419   62.2  0.2838  -58.9
 1.240  0.5794  153.9   1.847   53.2  0.1442   62.2  0.2833  -59.5
 1.260  0.5800  153.1   1.820   52.5  0.1464   62.3  0.2829  -60.2
 1.280  0.5806  152.4   1.794   51.9  0.1487   62.3  0.2825  -60.8
 1.300  0.5814  151.7   1.767   51.2  0.1510   62.3  0.2821  -61.5
 1.320  0.5826  151.1   1.744   50.6  0.1533   62.3  0.2821  -62.3
 1.340  0.5838  150.5   1.720   50.0  0.1555   62.4  0.2822  -63.0
 1.360  0.5851  150.0   1.697   49.3  0.1578   62.4  0.2823  -63.8
 1.380  0.5864  149.4   1.675   48.7  0.1600   62.5  0.2824  -64.5
 1.400  0.5878  148.8   1.652   48.0  0.1623   62.5  0.2826  -65.3
 1.420  0.5886  148.2   1.636   47.4  0.1648   62.5  0.2823  -66.1
 1.440  0.5894  147.5   1.619   46.8  0.1673   62.5  0.2820  -66.9
 1.460  0.5903  146.9   1.603   46.2  0.1699   62.5  0.2818  -67.8
 1.480  0.5913  146.2   1.588   45.6  0.1724   62.5  0.2816  -68.6
 1.500  0.5923  145.6   1.572   45.0  0.1749   62.5  0.2815  -69.4
 1.520  0.5931  144.9   1.551   44.4  0.1774   62.4  0.2810  -70.2
 1.540  0.5939  144.2   1.531   43.8  0.1799   62.3  0.2805  -71.0
 1.560  0.5949  143.5   1.510   43.1  0.1823   62.3  0.2800  -71.8
 1.580  0.5959  142.8   1.490   42.5  0.1848   62.2  0.2796  -72.6
 1.600  0.5970  142.1   1.470   41.8  0.1873   62.1  0.2793  -73.4
 1.620  0.5985  141.4   1.456   41.3  0.1899   62.0  0.2788  -74.2
 1.640  0.6002  140.8   1.442   40.7  0.1924   62.0  0.2784  -75.1
 1.660  0.6019  140.1   1.428   40.2  0.1950   61.9  0.2780  -75.9
 1.680  0.6036  139.5   1.415   39.6  0.1975   61.9  0.2777  -76.8
 1.700  0.6055  138.8   1.401   39.0  0.2001   61.8  0.2774  -77.6
 1.720  0.6076  138.2   1.388   38.5  0.2027   61.6  0.2775  -78.4
 1.740  0.6097  137.7   1.375   38.0  0.2053   61.5  0.2777  -79.2
 1.760  0.6119  137.1   1.362   37.5  0.2078   61.3  0.2779  -80.1
 1.780  0.6142  136.6   1.350   36.9  0.2104   61.2  0.2782  -80.9
 1.800  0.6165  136.0   1.337   36.4  0.2130   61.0  0.2785  -81.7
 1.820  0.6170  135.4   1.325   35.8  0.2158   60.9  0.2788  -82.7
 1.840  0.6175  134.8   1.313   35.3  0.2186   60.8  0.2792  -83.7
 1.860  0.6181  134.3   1.302   34.7  0.2215   60.6  0.2796  -84.8
 1.880  0.6188  133.7   1.290   34.1  0.2243   60.5  0.2802  -85.8
 1.900  0.6195  133.1   1.279   33.5  0.2271   60.4  0.2808  -86.8
 1.920  0.6203  132.5   1.267   33.0  0.2298   60.2  0.2803  -87.8
 1.940  0.6212  132.0   1.255   32.5  0.2324   60.0  0.2799  -88.8
 1.960  0.6221  131.4   1.244   32.0  0.2351   59.8  0.2795  -89.8
 1.980  0.6231  130.9   1.232   31.4  0.2377   59.6  0.2793  -90.8
 2.000  0.6242  130.3   1.221   30.9  0.2404   59.4  0.2791  -91.8
 2.020  0.6254  129.7   1.211   30.4  0.2433   59.2  0.2790  -92.8
 2.040  0.6267  129.1   1.201   30.0  0.2462   59.0  0.2791  -93.7
 2.060  0.6281  128.6   1.191   29.5  0.2491   58.8  0.2792  -94.7
 2.080  0.6295  128.0   1.181   29.0  0.2520   58.6  0.2793  -95.6
 2.100  0.6310  127.4   1.171   28.6  0.2549   58.4  0.2796  -96.6
 2.120  0.6325  126.8   1.162   28.1  0.2578   58.2  0.2799  -97.5
 2.140  0.6341  126.3   1.152   27.6  0.2607   58.0  0.2803  -98.5
 2.160  0.6358  125.7   1.143   27.0  0.2636   57.8  0.2808  -99.4
 2.180  0.6375  125.2   1.133   26.5  0.2665   57.7  0.2814 -100.4
 2.200  0.6393  124.6   1.124   26.0  0.2694   57.5  0.2820 -101.3
 2.220  0.6401  124.0   1.116   25.5  0.2722   57.2  0.2819 -102.5
 2.240  0.6410  123.5   1.109   25.1  0.2751   57.0  0.2818 -103.6
 2.260  0.6420  122.9   1.102   24.6  0.2779   56.7  0.2819 -104.8
 2.280  0.6430  122.3   1.094   24.1  0.2808   56.5  0.2821 -106.0
 2.300  0.6441  121.8   1.087   23.6  0.2836   56.2  0.2824 -107.1
 2.320  0.6452  121.2   1.080   23.1  0.2865   56.0  0.2829 -108.3
 2.340  0.6464  120.7   1.073   22.6  0.2894   55.8  0.2834 -109.5
 2.360  0.6477  120.1   1.066   22.1  0.2922   55.5  0.2841 -110.6
 2.380  0.6490  119.6   1.059   21.5  0.2951   55.3  0.2849 -111.8
 2.400  0.6504  119.0   1.052   21.0  0.2980   55.1  0.2858 -112.9
 2.420  0.6521  118.5   1.044   20.6  0.3008   54.8  0.2860 -113.9
 2.440  0.6538  117.9   1.037   20.3  0.3036   54.5  0.2864 -115.0
 2.460  0.6555  117.4   1.029   19.9  0.3064   54.2  0.2868 -116.0
 2.480  0.6573  116.9   1.021   19.5  0.3092   53.9  0.2873 -117.1
 2.500  0.6592  116.4   1.014   19.1  0.3120   53.6  0.2879 -118.1
 2.520  0.6611  115.8   1.006   18.7  0.3148   53.4  0.2886 -119.1
 2.540  0.6631  115.3   0.999   18.3  0.3177   53.1  0.2894 -120.2
 2.560  0.6652  114.8   0.992   17.9  0.3205   52.8  0.2903 -121.2
 2.580  0.6673  114.3   0.984   17.5  0.3233   52.6  0.2913 -122.2
 2.600  0.6694  113.8   0.977   17.1  0.3262   52.3  0.2924 -123.2
 2.620  0.6699  113.3   0.971   16.7  0.3290   52.0  0.2930 -124.4
 2.640  0.6705  112.9   0.966   16.4  0.3319   51.7  0.2938 -125.6
 2.660  0.6711  112.4   0.960   16.0  0.3347   51.3  0.2947 -126.8
 2.680  0.6717  112.0   0.954   15.6  0.3376   51.0  0.2957 -128.0
 2.700  0.6724  111.5   0.949   15.2  0.3404   50.7  0.2968 -129.2
 2.720  0.6732  111.1   0.943   14.8  0.3433   50.4  0.2981 -130.4
 2.740  0.6739  110.6   0.938   14.4  0.3462   50.1  0.2995 -131.6
 2.760  0.6747  110.2   0.933   14.0  0.3491   49.9  0.3010 -132.7
 2.780  0.6756  109.7   0.927   13.6  0.3520   49.6  0.3026 -133.9
 2.800  0.6765  109.3   0.922   13.2  0.3549   49.3  0.3044 -135.0
 2.820  0.6782  108.8   0.916   12.9  0.3577   48.9  0.3054 -136.1
 2.840  0.6800  108.4   0.911   12.6  0.3605   48.6  0.3065 -137.2
 2.860  0.6818  107.9   0.905   12.2  0.3633   48.3  0.3077 -138.3
 2.880  0.6837  107.4   0.900   11.9  0.3661   47.9  0.3091 -139.3
 2.900  0.6856  107.0   0.895   11.6  0.3689   47.6  0.3105 -140.4
 2.920  0.6876  106.5   0.889   11.2  0.3717   47.3  0.3120 -141.4
 2.940  0.6895  106.1   0.884   10.9  0.3746   46.9  0.3137 -142.5
 2.960  0.6916  105.6   0.879   10.5  0.3774   46.6  0.3154 -143.5
 2.980  0.6937  105.1   0.873   10.2  0.3803   46.3  0.3173 -144.5
 3.000  0.6958  104.7   0.868    9.8  0.3832   46.0  0.3192 -145.5
 3.100  0.6996  102.7   0.846    8.5  0.3956   44.1  0.3247 -151.3
 3.200  0.7043  100.7   0.824    7.2  0.4083   42.2  0.3334 -156.9
 3.300  0.7099   98.7   0.802    5.8  0.4215   40.5  0.3452 -162.2
 3.400  0.7162   96.8   0.781    4.3  0.4350   38.9  0.3596 -167.0
 3.500  0.7234   94.9   0.761    2.7  0.4489   37.4  0.3764 -171.5
 3.600  0.7268   93.2   0.745    1.8  0.4579   35.4  0.3850 -176.6
 3.700  0.7308   91.5   0.730    0.8  0.4674   33.4  0.3966  178.5
 3.800  0.7354   89.8   0.714   -0.2  0.4774   31.5  0.4108  174.0
 3.900  0.7407   88.1   0.699   -1.3  0.4879   29.7  0.4274  169.8
 4.000  0.7466   86.5   0.684   -2.4  0.4989   28.0  0.4461  165.9
 4.100  0.7477   85.1   0.673   -3.1  0.5044   26.1  0.4536  162.0
 4.200  0.7493   83.7   0.662   -3.9  0.5104   24.3  0.4631  158.2
 4.300  0.7513   82.3   0.651   -4.7  0.5169   22.5  0.4745  154.6
 4.400  0.7537   80.9   0.641   -5.5  0.5238   20.8  0.4878  151.1
 4.500  0.7566   79.5   0.630   -6.4  0.5313   19.1  0.5027  147.9
 4.600  0.7569   78.3   0.624   -7.0  0.5348   17.5  0.5090  144.7
 4.700  0.7576   77.1   0.617   -7.7  0.5387   15.9  0.5168  141.6
 4.800  0.7585   76.0   0.611   -8.3  0.5431   14.3  0.5260  138.6
 4.900  0.7598   74.8   0.605   -9.0  0.5478   12.7  0.5367  135.7
 5.000  0.7614   73.6   0.599   -9.7  0.5530   11.2  0.5487  132.9
 5.100  0.7595   72.5   0.594   -9.5  0.5549   10.3  0.5473  131.8
 5.200  0.7579   71.3   0.589   -9.4  0.5569    9.5  0.5461  130.8
 5.300  0.7567   70.2   0.584   -9.2  0.5590    8.7  0.5451  129.7
 5.400  0.7557   69.0   0.579   -9.1  0.5612    7.8  0.5442  128.6
 5.500  0.7550   67.9   0.574   -8.9  0.5636    7.0  0.5436  127.5
 5.600  0.7545   67.1   0.575   -9.8  0.5689    5.3  0.5581  124.8
 5.700  0.7541   66.4   0.576  -10.7  0.5746    3.7  0.5738  122.3
 5.800  0.7539   65.6   0.577  -11.6  0.5809    2.1  0.5905  119.9
 5.900  0.7538   64.9   0.579  -12.5  0.5875    0.5  0.6082  117.6
 6.000  0.7538   64.1   0.580  -13.4  0.5946   -1.0  0.6268  115.5
!
!  f       NFmin   Gammaopt  rn/50
! GHz       dB    MAG  ANG    -
!
! noise parameter not available yet for this operation point!
!
! (c) 2015  Infineon Technologies AG, Munich
