! Infineon Technologies  Discrete & RF Semiconductors
! BFR182
! VCE =  3.0 V,  IC =  4.5 mA
! Common Emitter S-Parameters:                            Nov 2015
# GHz  S  MA  R  50
!  f         S11            S21            S12            S22
! GHz     MAG   ANG      MAG   ANG      MAG   ANG      MAG   ANG
 0.010  0.8398   -2.4  13.223  177.9  0.0020   90.1  0.9902   -1.1
 0.015  0.8355   -3.5  13.240  176.7  0.0030   84.2  0.9872   -1.6
 0.020  0.8315   -4.6  13.262  175.6  0.0041   81.4  0.9842   -2.2
 0.025  0.8301   -5.8  13.250  174.6  0.0051   82.4  0.9835   -2.7
 0.030  0.8291   -7.0  13.242  173.6  0.0061   83.0  0.9828   -3.3
 0.035  0.8284   -8.2  13.237  172.6  0.0070   83.5  0.9822   -3.8
 0.040  0.8281   -9.4  13.237  171.6  0.0080   83.9  0.9818   -4.4
 0.045  0.8282  -10.6  13.241  170.6  0.0090   84.2  0.9814   -4.9
 0.050  0.8286  -11.8  13.249  169.6  0.0100   84.4  0.9811   -5.5
 0.055  0.8239  -12.9  13.175  168.7  0.0110   83.3  0.9782   -6.0
 0.060  0.8194  -14.0  13.104  167.8  0.0119   82.4  0.9753   -6.5
 0.065  0.8153  -15.1  13.036  166.8  0.0129   81.6  0.9725   -7.0
 0.070  0.8115  -16.2  12.972  165.9  0.0139   80.9  0.9698   -7.5
 0.075  0.8080  -17.3  12.912  165.0  0.0148   80.4  0.9672   -8.0
 0.080  0.8048  -18.5  12.855  164.0  0.0158   79.8  0.9646   -8.5
 0.085  0.8020  -19.6  12.802  163.0  0.0168   79.4  0.9621   -9.0
 0.090  0.7994  -20.8  12.752  162.1  0.0177   79.0  0.9597   -9.5
 0.095  0.7972  -21.9  12.706  161.1  0.0187   78.6  0.9574  -10.0
 0.100  0.7953  -23.1  12.664  160.1  0.0197   78.3  0.9551  -10.5
 0.105  0.7893  -24.1  12.593  159.1  0.0205   77.5  0.9506  -10.9
 0.110  0.7835  -25.2  12.526  158.1  0.0214   76.8  0.9462  -11.4
 0.115  0.7780  -26.2  12.462  157.1  0.0222   76.1  0.9418  -11.8
 0.120  0.7727  -27.3  12.403  156.1  0.0230   75.5  0.9375  -12.3
 0.125  0.7678  -28.4  12.347  155.1  0.0239   74.9  0.9332  -12.7
 0.130  0.7631  -29.5  12.295  154.1  0.0247   74.4  0.9290  -13.2
 0.135  0.7587  -30.6  12.247  153.0  0.0256   73.9  0.9249  -13.6
 0.140  0.7546  -31.7  12.203  152.0  0.0264   73.4  0.9208  -14.1
 0.145  0.7507  -32.9  12.164  151.0  0.0273   73.0  0.9168  -14.5
 0.150  0.7472  -34.0  12.128  149.9  0.0281   72.6  0.9128  -15.0
 0.155  0.7415  -34.9  12.035  149.2  0.0288   72.2  0.9082  -15.3
 0.160  0.7360  -35.8  11.943  148.5  0.0295   71.8  0.9037  -15.7
 0.165  0.7307  -36.7  11.853  147.7  0.0302   71.4  0.8992  -16.0
 0.170  0.7256  -37.6  11.766  147.0  0.0310   71.1  0.8947  -16.3
 0.175  0.7206  -38.5  11.680  146.2  0.0317   70.8  0.8903  -16.7
 0.180  0.7159  -39.5  11.596  145.5  0.0324   70.4  0.8858  -17.0
 0.185  0.7113  -40.4  11.515  144.7  0.0331   70.1  0.8815  -17.3
 0.190  0.7070  -41.4  11.435  143.9  0.0339   69.8  0.8771  -17.7
 0.195  0.7028  -42.4  11.358  143.1  0.0346   69.6  0.8728  -18.0
 0.200  0.6989  -43.4  11.283  142.3  0.0353   69.3  0.8685  -18.4
 0.220  0.6752  -46.9  10.913  139.5  0.0378   67.5  0.8514  -19.4
 0.240  0.6542  -50.6  10.570  136.6  0.0404   65.9  0.8347  -20.5
 0.260  0.6321  -54.1  10.254  133.8  0.0427   64.8  0.8179  -21.5
 0.280  0.6082  -57.3   9.957  131.2  0.0446   64.1  0.8009  -22.3
 0.300  0.5862  -60.7   9.682  128.4  0.0466   63.5  0.7842  -23.2
 0.320  0.5658  -63.0   9.380  126.7  0.0484   62.8  0.7698  -23.7
 0.340  0.5465  -65.6   9.087  124.9  0.0502   62.1  0.7554  -24.2
 0.360  0.5283  -68.3   8.803  123.0  0.0520   61.5  0.7411  -24.7
 0.380  0.5113  -71.1   8.530  120.9  0.0539   60.9  0.7269  -25.2
 0.400  0.4957  -74.2   8.269  118.7  0.0557   60.4  0.7127  -25.8
 0.420  0.4801  -76.2   8.008  117.2  0.0571   60.1  0.7024  -26.0
 0.440  0.4652  -78.3   7.753  115.7  0.0586   59.8  0.6921  -26.3
 0.450  0.4579  -79.4   7.627  114.8  0.0593   59.6  0.6870  -26.4
 0.460  0.4509  -80.6   7.503  114.0  0.0600   59.5  0.6818  -26.6
 0.480  0.4373  -83.0   7.261  112.2  0.0615   59.2  0.6716  -26.8
 0.500  0.4246  -85.5   7.026  110.3  0.0629   58.9  0.6613  -27.1
 0.520  0.4130  -87.4   6.851  109.1  0.0644   58.8  0.6538  -27.3
 0.540  0.4019  -89.5   6.679  107.9  0.0658   58.7  0.6462  -27.4
 0.560  0.3913  -91.6   6.511  106.6  0.0673   58.6  0.6387  -27.6
 0.580  0.3813  -93.9   6.345  105.2  0.0687   58.6  0.6312  -27.8
 0.600  0.3719  -96.3   6.184  103.8  0.0702   58.5  0.6237  -28.0
 0.620  0.3617  -98.1   6.041  102.7  0.0713   58.5  0.6177  -28.1
 0.640  0.3519 -100.1   5.901  101.6  0.0725   58.6  0.6116  -28.2
 0.660  0.3426 -102.1   5.763  100.5  0.0736   58.6  0.6056  -28.3
 0.680  0.3337 -104.3   5.627   99.3  0.0748   58.7  0.5995  -28.4
 0.700  0.3253 -106.6   5.494   98.0  0.0759   58.7  0.5935  -28.5
 0.720  0.3173 -108.4   5.372   97.1  0.0772   58.7  0.5890  -28.6
 0.740  0.3097 -110.2   5.252   96.2  0.0785   58.7  0.5846  -28.7
 0.760  0.3023 -112.1   5.134   95.2  0.0799   58.7  0.5801  -28.7
 0.780  0.2954 -114.2   5.016   94.2  0.0812   58.7  0.5757  -28.8
 0.800  0.2888 -116.3   4.901   93.1  0.0825   58.7  0.5712  -28.9
 0.820  0.2830 -117.8   4.803   92.3  0.0838   58.8  0.5679  -29.0
 0.840  0.2775 -119.3   4.706   91.5  0.0851   58.9  0.5646  -29.0
 0.860  0.2721 -120.9   4.610   90.7  0.0865   59.0  0.5612  -29.1
 0.880  0.2670 -122.6   4.515   89.8  0.0878   59.1  0.5579  -29.1
 0.900  0.2621 -124.3   4.421   88.9  0.0891   59.2  0.5546  -29.2
 0.920  0.2575 -126.2   4.345   88.2  0.0904   59.3  0.5521  -29.3
 0.940  0.2532 -128.1   4.270   87.5  0.0917   59.4  0.5497  -29.4
 0.960  0.2491 -130.1   4.196   86.7  0.0929   59.4  0.5472  -29.6
 0.980  0.2454 -132.1   4.122   85.9  0.0942   59.5  0.5448  -29.7
 1.000  0.2420 -134.2   4.049   85.1  0.0955   59.6  0.5423  -29.8
 1.020  0.2389 -136.1   3.985   84.4  0.0969   59.7  0.5402  -29.9
 1.040  0.2360 -138.0   3.921   83.8  0.0982   59.8  0.5381  -30.1
 1.060  0.2334 -139.9   3.858   83.1  0.0996   60.0  0.5361  -30.2
 1.080  0.2311 -141.9   3.795   82.3  0.1009   60.1  0.5340  -30.4
 1.100  0.2291 -143.9   3.733   81.6  0.1023   60.2  0.5319  -30.5
 1.120  0.2255 -145.8   3.677   80.9  0.1037   60.3  0.5302  -30.6
 1.140  0.2222 -147.7   3.621   80.3  0.1050   60.3  0.5284  -30.8
 1.160  0.2191 -149.7   3.565   79.6  0.1064   60.4  0.5267  -30.9
 1.180  0.2163 -151.7   3.510   78.8  0.1077   60.4  0.5249  -31.1
 1.200  0.2138 -153.8   3.456   78.1  0.1091   60.5  0.5232  -31.2
 1.220  0.2123 -155.2   3.407   77.5  0.1106   60.5  0.5217  -31.4
 1.240  0.2109 -156.6   3.358   77.0  0.1121   60.6  0.5202  -31.5
 1.260  0.2097 -158.0   3.309   76.4  0.1135   60.6  0.5187  -31.7
 1.280  0.2086 -159.4   3.261   75.7  0.1150   60.7  0.5173  -31.8
 1.300  0.2076 -160.9   3.213   75.1  0.1165   60.7  0.5158  -32.0
 1.320  0.2059 -162.7   3.171   74.5  0.1178   60.8  0.5144  -32.2
 1.340  0.2043 -164.5   3.130   73.9  0.1191   60.8  0.5130  -32.4
 1.360  0.2030 -166.3   3.089   73.3  0.1205   60.9  0.5116  -32.6
 1.380  0.2019 -168.1   3.048   72.7  0.1218   60.9  0.5102  -32.8
 1.400  0.2010 -170.0   3.008   72.1  0.1231   61.0  0.5088  -33.0
 1.420  0.2000 -171.3   2.977   71.6  0.1246   61.0  0.5075  -33.2
 1.440  0.1990 -172.7   2.946   71.0  0.1261   61.0  0.5061  -33.4
 1.460  0.1982 -174.0   2.915   70.5  0.1275   61.1  0.5048  -33.5
 1.480  0.1975 -175.4   2.884   69.9  0.1290   61.1  0.5035  -33.7
 1.500  0.1969 -176.8   2.854   69.3  0.1305   61.1  0.5022  -33.9
 1.520  0.1972 -178.8   2.818   68.7  0.1320   61.1  0.5011  -34.1
 1.540  0.1978  179.3   2.783   68.1  0.1336   61.1  0.4999  -34.3
 1.560  0.1986  177.3   2.748   67.4  0.1351   61.1  0.4988  -34.4
 1.580  0.1996  175.4   2.713   66.8  0.1367   61.1  0.4976  -34.6
 1.600  0.2009  173.5   2.679   66.1  0.1382   61.1  0.4965  -34.8
 1.620  0.2013  172.1   2.652   65.6  0.1398   61.1  0.4951  -35.0
 1.640  0.2018  170.7   2.625   65.1  0.1414   61.1  0.4937  -35.2
 1.660  0.2025  169.3   2.598   64.6  0.1429   61.2  0.4923  -35.5
 1.680  0.2032  168.0   2.571   64.0  0.1445   61.2  0.4910  -35.7
 1.700  0.2041  166.6   2.545   63.5  0.1461   61.2  0.4896  -35.9
 1.720  0.2052  165.2   2.521   63.0  0.1477   61.2  0.4888  -36.2
 1.740  0.2064  163.8   2.498   62.6  0.1493   61.1  0.4880  -36.4
 1.760  0.2078  162.5   2.474   62.1  0.1509   61.1  0.4872  -36.7
 1.780  0.2092  161.1   2.451   61.6  0.1525   61.0  0.4864  -36.9
 1.800  0.2108  159.8   2.428   61.1  0.1541   61.0  0.4856  -37.2
 1.820  0.2118  158.9   2.406   60.6  0.1557   61.0  0.4847  -37.5
 1.840  0.2128  158.0   2.385   60.1  0.1573   61.0  0.4838  -37.7
 1.860  0.2139  157.1   2.363   59.6  0.1589   60.9  0.4829  -38.0
 1.880  0.2150  156.2   2.342   59.0  0.1605   60.9  0.4821  -38.2
 1.900  0.2162  155.3   2.321   58.5  0.1621   60.9  0.4812  -38.5
 1.920  0.2178  154.1   2.300   58.0  0.1637   60.8  0.4803  -38.8
 1.940  0.2196  153.0   2.280   57.5  0.1652   60.7  0.4793  -39.0
 1.960  0.2214  151.9   2.260   57.0  0.1668   60.6  0.4784  -39.3
 1.980  0.2233  150.8   2.240   56.5  0.1683   60.5  0.4775  -39.5
 2.000  0.2253  149.7   2.220   56.0  0.1699   60.4  0.4766  -39.8
 2.020  0.2263  148.6   2.202   55.6  0.1716   60.4  0.4753  -40.1
 2.040  0.2273  147.6   2.184   55.1  0.1734   60.3  0.4740  -40.4
 2.060  0.2285  146.6   2.167   54.6  0.1751   60.3  0.4727  -40.7
 2.080  0.2297  145.5   2.149   54.2  0.1768   60.2  0.4714  -41.0
 2.100  0.2310  144.5   2.132   53.7  0.1785   60.2  0.4702  -41.3
 2.120  0.2323  143.5   2.115   53.2  0.1803   60.2  0.4689  -41.6
 2.140  0.2337  142.5   2.098   52.7  0.1820   60.1  0.4677  -41.9
 2.160  0.2352  141.5   2.081   52.2  0.1837   60.1  0.4665  -42.2
 2.180  0.2368  140.6   2.065   51.7  0.1855   60.0  0.4653  -42.5
 2.200  0.2384  139.6   2.048   51.2  0.1872   60.0  0.4641  -42.8
 2.220  0.2401  138.7   2.034   50.8  0.1889   59.9  0.4630  -43.1
 2.240  0.2419  137.8   2.020   50.3  0.1906   59.8  0.4619  -43.4
 2.260  0.2437  136.9   2.006   49.9  0.1923   59.7  0.4608  -43.7
 2.280  0.2456  136.1   1.992   49.4  0.1940   59.7  0.4597  -44.0
 2.300  0.2476  135.2   1.979   49.0  0.1956   59.6  0.4586  -44.3
 2.320  0.2496  134.4   1.965   48.5  0.1973   59.5  0.4576  -44.6
 2.340  0.2516  133.6   1.952   48.0  0.1990   59.4  0.4565  -45.0
 2.360  0.2537  132.8   1.939   47.6  0.2007   59.3  0.4555  -45.3
 2.380  0.2559  132.0   1.926   47.1  0.2024   59.3  0.4545  -45.6
 2.400  0.2581  131.2   1.913   46.6  0.2041   59.2  0.4535  -45.9
 2.420  0.2601  130.4   1.901   46.2  0.2059   59.1  0.4519  -46.2
 2.440  0.2621  129.6   1.889   45.8  0.2078   58.9  0.4503  -46.6
 2.460  0.2642  128.8   1.877   45.4  0.2096   58.8  0.4487  -46.9
 2.480  0.2664  128.0   1.866   44.9  0.2115   58.7  0.4471  -47.2
 2.500  0.2686  127.2   1.854   44.5  0.2133   58.5  0.4455  -47.6
 2.520  0.2708  126.5   1.843   44.1  0.2152   58.4  0.4440  -47.9
 2.540  0.2731  125.7   1.831   43.6  0.2170   58.3  0.4424  -48.3
 2.560  0.2754  125.0   1.820   43.2  0.2189   58.1  0.4409  -48.6
 2.580  0.2778  124.3   1.809   42.8  0.2207   58.0  0.4394  -48.9
 2.600  0.2802  123.6   1.798   42.3  0.2226   57.9  0.4379  -49.3
 2.620  0.2821  123.0   1.787   41.9  0.2244   57.8  0.4368  -49.7
 2.640  0.2839  122.4   1.777   41.6  0.2262   57.6  0.4356  -50.1
 2.660  0.2858  121.8   1.766   41.2  0.2279   57.5  0.4345  -50.4
 2.680  0.2878  121.3   1.755   40.8  0.2297   57.4  0.4335  -50.8
 2.700  0.2898  120.7   1.745   40.4  0.2315   57.3  0.4324  -51.2
 2.720  0.2918  120.1   1.735   40.0  0.2333   57.2  0.4314  -51.6
 2.740  0.2938  119.6   1.724   39.6  0.2350   57.0  0.4303  -52.0
 2.760  0.2958  119.1   1.714   39.2  0.2368   56.9  0.4293  -52.4
 2.780  0.2979  118.5   1.704   38.8  0.2386   56.8  0.4284  -52.8
 2.800  0.3000  118.0   1.694   38.4  0.2404   56.7  0.4274  -53.2
 2.820  0.3024  117.5   1.685   38.0  0.2423   56.5  0.4256  -53.6
 2.840  0.3048  117.0   1.676   37.6  0.2442   56.4  0.4239  -54.0
 2.860  0.3073  116.4   1.667   37.2  0.2461   56.2  0.4222  -54.4
 2.880  0.3097  115.9   1.658   36.7  0.2480   56.1  0.4205  -54.8
 2.900  0.3122  115.5   1.650   36.3  0.2499   55.9  0.4188  -55.2
 2.920  0.3147  115.0   1.641   35.9  0.2518   55.8  0.4172  -55.6
 2.940  0.3173  114.5   1.633   35.4  0.2538   55.6  0.4156  -56.0
 2.960  0.3198  114.0   1.624   35.0  0.2557   55.5  0.4140  -56.4
 2.980  0.3224  113.6   1.616   34.6  0.2576   55.3  0.4124  -56.8
 3.000  0.3250  113.1   1.608   34.1  0.2595   55.2  0.4108  -57.2
 3.100  0.3365  110.8   1.568   32.4  0.2691   54.2  0.4015  -59.5
 3.200  0.3484  108.6   1.529   30.6  0.2787   53.3  0.3928  -61.9
 3.300  0.3608  106.6   1.493   28.7  0.2884   52.5  0.3849  -64.5
 3.400  0.3737  104.7   1.457   26.7  0.2982   51.7  0.3777  -67.1
 3.500  0.3869  103.0   1.424   24.6  0.3080   51.0  0.3714  -69.8
 3.600  0.3974  101.3   1.395   23.0  0.3178   49.9  0.3615  -72.8
 3.700  0.4082   99.7   1.367   21.2  0.3278   48.8  0.3526  -76.0
 3.800  0.4193   98.2   1.340   19.5  0.3378   47.8  0.3449  -79.4
 3.900  0.4307   96.8   1.315   17.6  0.3480   46.8  0.3384  -82.9
 4.000  0.4423   95.4   1.291   15.7  0.3582   45.9  0.3332  -86.5
 4.100  0.4527   94.0   1.267   14.2  0.3679   44.6  0.3237  -90.1
 4.200  0.4634   92.7   1.244   12.6  0.3778   43.4  0.3157  -94.0
 4.300  0.4743   91.4   1.221   11.0  0.3879   42.2  0.3091  -98.0
 4.400  0.4854   90.2   1.200    9.3  0.3981   41.1  0.3041 -102.2
 4.500  0.4967   89.1   1.180    7.6  0.4085   40.1  0.3008 -106.5
 4.600  0.5051   87.8   1.161    6.2  0.4179   38.7  0.2934 -110.6
 4.700  0.5138   86.6   1.142    4.7  0.4275   37.4  0.2877 -114.9
 4.800  0.5227   85.4   1.125    3.2  0.4374   36.1  0.2836 -119.4
 4.900  0.5318   84.2   1.108    1.6  0.4475   34.9  0.2812 -123.9
 5.000  0.5411   83.1   1.092    0.0  0.4577   33.8  0.2807 -128.5
 5.100  0.5479   82.0   1.073   -1.3  0.4661   32.3  0.2765 -133.2
 5.200  0.5549   80.9   1.055   -2.5  0.4748   30.9  0.2743 -138.0
 5.300  0.5621   79.8   1.037   -3.9  0.4837   29.6  0.2740 -142.9
 5.400  0.5695   78.8   1.020   -5.3  0.4929   28.3  0.2758 -147.8
 5.500  0.5771   77.8   1.004   -6.7  0.5024   27.0  0.2794 -152.5
 5.600  0.5845   76.6   0.986   -7.9  0.5085   25.4  0.2756 -157.0
 5.700  0.5922   75.4   0.969   -9.2  0.5149   23.8  0.2736 -161.6
 5.800  0.6002   74.3   0.953  -10.5  0.5217   22.3  0.2733 -166.2
 5.900  0.6083   73.2   0.937  -11.8  0.5289   20.8  0.2748 -170.8
 6.000  0.6167   72.1   0.921  -13.2  0.5364   19.4  0.2781 -175.3
!
!  f       NFmin   Gammaopt  rn/50
! GHz       dB    MAG  ANG    -
!
! noise parameter not available yet for this operation point!
!
! (c) 2015  Infineon Technologies AG, Munich
