! Infineon Technologies  Discrete & RF Semiconductors
! BFR106
! VCE = 0.75 V,  IC =  30 mA
! Common Emitter S-Parameters:                            Nov 2015
# GHz  S  MA  R  50
!  f         S11            S21            S12            S22
! GHz     MAG   ANG      MAG   ANG      MAG   ANG      MAG   ANG
 0.010  0.3965  -51.2  53.381  160.1  0.0089   75.5  0.8903  -24.9
 0.015  0.4062  -69.8  49.360  152.9  0.0122   68.2  0.8272  -35.2
 0.020  0.4547  -86.0  46.244  144.6  0.0157   64.0  0.7947  -46.8
 0.025  0.4497  -94.8  42.810  141.9  0.0172   60.5  0.7329  -51.5
 0.030  0.4555 -103.6  39.492  138.6  0.0189   57.5  0.6768  -56.9
 0.035  0.4716 -112.0  36.320  134.8  0.0205   55.1  0.6279  -63.3
 0.040  0.4970 -119.7  33.337  130.4  0.0222   53.0  0.5881  -70.7
 0.045  0.5305 -126.6  30.599  125.0  0.0239   51.2  0.5592  -78.9
 0.050  0.5706 -132.5  28.176  118.7  0.0256   49.6  0.5431  -87.9
 0.055  0.5709 -135.1  26.884  117.8  0.0264   49.5  0.5219  -90.3
 0.060  0.5723 -137.7  25.599  116.8  0.0272   49.4  0.5018  -93.0
 0.065  0.5750 -140.3  24.322  115.7  0.0281   49.3  0.4828  -95.8
 0.070  0.5788 -142.9  23.057  114.4  0.0289   49.3  0.4651  -98.9
 0.075  0.5838 -145.4  21.803  113.0  0.0297   49.2  0.4488 -102.2
 0.080  0.5898 -147.9  20.563  111.5  0.0305   49.1  0.4341 -105.8
 0.085  0.5970 -150.3  19.341  109.7  0.0313   49.1  0.4213 -109.5
 0.090  0.6052 -152.7  18.139  107.8  0.0322   49.0  0.4103 -113.5
 0.095  0.6144 -155.0  16.961  105.5  0.0330   49.0  0.4015 -117.7
 0.100  0.6245 -157.2  15.814  102.9  0.0338   48.9  0.3949 -122.1
 0.105  0.6246 -158.2  15.300  102.4  0.0345   49.5  0.3896 -123.6
 0.110  0.6249 -159.2  14.788  101.8  0.0353   50.0  0.3845 -125.2
 0.115  0.6255 -160.3  14.277  101.2  0.0360   50.6  0.3797 -126.9
 0.120  0.6262 -161.3  13.768  100.6  0.0367   51.1  0.3753 -128.5
 0.125  0.6271 -162.3  13.260   99.9  0.0375   51.6  0.3712 -130.2
 0.130  0.6282 -163.3  12.755   99.2  0.0382   52.1  0.3674 -132.0
 0.135  0.6295 -164.3  12.252   98.4  0.0390   52.5  0.3640 -133.8
 0.140  0.6310 -165.3  11.752   97.5  0.0397   53.0  0.3609 -135.6
 0.145  0.6327 -166.3  11.254   96.5  0.0404   53.4  0.3582 -137.4
 0.150  0.6346 -167.3  10.760   95.5  0.0412   53.8  0.3559 -139.3
 0.155  0.6351 -167.9  10.501   95.1  0.0420   54.2  0.3531 -140.2
 0.160  0.6356 -168.5  10.242   94.8  0.0427   54.6  0.3504 -141.1
 0.165  0.6363 -169.1   9.983   94.4  0.0435   55.0  0.3477 -142.1
 0.170  0.6369 -169.6   9.725   94.0  0.0443   55.4  0.3452 -143.1
 0.175  0.6377 -170.2   9.468   93.5  0.0451   55.8  0.3427 -144.0
 0.180  0.6385 -170.8   9.211   93.0  0.0459   56.2  0.3404 -145.0
 0.185  0.6394 -171.4   8.955   92.6  0.0466   56.5  0.3382 -146.0
 0.190  0.6403 -172.0   8.700   92.0  0.0474   56.9  0.3360 -147.0
 0.195  0.6413 -172.5   8.445   91.5  0.0482   57.2  0.3340 -148.1
 0.200  0.6424 -173.1   8.191   90.9  0.0490   57.5  0.3321 -149.1
 0.220  0.6419 -174.8   7.532   89.6  0.0523   58.5  0.3287 -152.1
 0.240  0.6419 -176.5   6.877   88.2  0.0557   59.4  0.3263 -155.2
 0.260  0.6424 -177.9   6.337   86.8  0.0591   60.3  0.3246 -157.7
 0.280  0.6431 -179.0   5.912   85.9  0.0626   61.3  0.3231 -159.5
 0.300  0.6441  179.8   5.488   84.7  0.0661   62.2  0.3219 -161.3
 0.320  0.6438  178.7   5.221   83.9  0.0696   62.6  0.3206 -162.7
 0.340  0.6437  177.6   4.955   83.1  0.0731   63.0  0.3195 -164.2
 0.360  0.6438  176.5   4.690   82.1  0.0765   63.3  0.3186 -165.7
 0.380  0.6442  175.4   4.427   81.1  0.0800   63.6  0.3179 -167.1
 0.400  0.6448  174.3   4.165   79.9  0.0835   63.9  0.3174 -168.6
 0.420  0.6461  173.4   4.001   79.2  0.0870   64.1  0.3167 -169.6
 0.440  0.6475  172.6   3.838   78.4  0.0905   64.3  0.3161 -170.6
 0.450  0.6483  172.1   3.756   78.0  0.0922   64.4  0.3158 -171.1
 0.460  0.6491  171.7   3.675   77.5  0.0939   64.5  0.3156 -171.6
 0.480  0.6508  170.9   3.514   76.6  0.0974   64.6  0.3152 -172.6
 0.500  0.6527  170.0   3.353   75.6  0.1009   64.8  0.3149 -173.6
 0.520  0.6518  169.3   3.245   74.9  0.1046   64.8  0.3148 -174.3
 0.540  0.6510  168.6   3.137   74.1  0.1083   64.7  0.3148 -174.9
 0.560  0.6502  167.8   3.030   73.2  0.1120   64.7  0.3148 -175.6
 0.580  0.6496  167.1   2.924   72.3  0.1157   64.6  0.3148 -176.2
 0.600  0.6491  166.4   2.818   71.3  0.1194   64.6  0.3149 -176.9
 0.620  0.6500  165.6   2.742   70.6  0.1229   64.5  0.3155 -177.5
 0.640  0.6511  164.8   2.667   69.8  0.1264   64.3  0.3162 -178.1
 0.660  0.6523  164.0   2.593   69.0  0.1300   64.2  0.3169 -178.8
 0.680  0.6536  163.2   2.519   68.2  0.1335   64.1  0.3177 -179.4
 0.700  0.6550  162.4   2.445   67.3  0.1370   64.0  0.3185  180.0
 0.720  0.6550  161.8   2.388   66.6  0.1405   63.7  0.3189  179.4
 0.740  0.6551  161.1   2.332   66.0  0.1441   63.5  0.3193  178.8
 0.760  0.6553  160.5   2.275   65.2  0.1476   63.2  0.3198  178.2
 0.780  0.6556  159.8   2.219   64.5  0.1512   63.0  0.3203  177.6
 0.800  0.6559  159.2   2.164   63.7  0.1547   62.8  0.3208  177.0
 0.820  0.6545  158.5   2.120   63.1  0.1583   62.5  0.3208  176.4
 0.840  0.6532  157.8   2.076   62.4  0.1619   62.3  0.3209  175.9
 0.860  0.6520  157.2   2.032   61.7  0.1655   62.0  0.3210  175.3
 0.880  0.6508  156.5   1.989   61.0  0.1691   61.8  0.3211  174.8
 0.900  0.6498  155.8   1.946   60.2  0.1727   61.6  0.3213  174.2
 0.920  0.6509  155.1   1.911   59.6  0.1762   61.3  0.3220  173.8
 0.940  0.6520  154.3   1.877   58.9  0.1797   61.0  0.3227  173.4
 0.960  0.6533  153.6   1.843   58.2  0.1832   60.8  0.3235  173.1
 0.980  0.6547  152.8   1.809   57.5  0.1868   60.5  0.3242  172.7
 1.000  0.6562  152.1   1.776   56.8  0.1903   60.3  0.3250  172.3
 1.020  0.6570  151.5   1.748   56.1  0.1936   60.0  0.3261  171.9
 1.040  0.6579  150.9   1.720   55.5  0.1968   59.7  0.3272  171.5
 1.060  0.6589  150.2   1.692   54.8  0.2001   59.4  0.3284  171.0
 1.080  0.6600  149.6   1.665   54.0  0.2034   59.1  0.3295  170.6
 1.100  0.6611  149.0   1.638   53.3  0.2067   58.8  0.3307  170.2
 1.120  0.6613  148.4   1.615   52.7  0.2100   58.5  0.3313  169.7
 1.140  0.6617  147.7   1.592   52.1  0.2133   58.1  0.3319  169.3
 1.160  0.6621  147.1   1.569   51.5  0.2166   57.8  0.3325  168.8
 1.180  0.6625  146.4   1.546   50.9  0.2199   57.5  0.3331  168.4
 1.200  0.6631  145.8   1.524   50.2  0.2232   57.2  0.3338  167.9
 1.220  0.6630  145.2   1.504   49.6  0.2265   56.8  0.3344  167.4
 1.240  0.6631  144.6   1.484   49.0  0.2299   56.4  0.3349  167.0
 1.260  0.6631  144.1   1.465   48.3  0.2333   56.1  0.3355  166.5
 1.280  0.6633  143.5   1.445   47.7  0.2366   55.7  0.3362  166.1
 1.300  0.6635  142.9   1.426   47.0  0.2400   55.4  0.3368  165.6
 1.320  0.6645  142.3   1.410   46.5  0.2431   55.0  0.3378  165.2
 1.340  0.6657  141.7   1.394   46.0  0.2462   54.7  0.3389  164.9
 1.360  0.6669  141.0   1.378   45.5  0.2493   54.4  0.3399  164.5
 1.380  0.6681  140.4   1.362   44.9  0.2525   54.0  0.3410  164.2
 1.400  0.6695  139.8   1.346   44.4  0.2556   53.7  0.3421  163.8
 1.420  0.6696  139.3   1.335   43.8  0.2587   53.3  0.3432  163.5
 1.440  0.6697  138.8   1.324   43.2  0.2618   53.0  0.3442  163.1
 1.460  0.6698  138.4   1.313   42.6  0.2649   52.7  0.3453  162.8
 1.480  0.6700  137.9   1.303   42.0  0.2681   52.3  0.3464  162.4
 1.500  0.6703  137.4   1.292   41.4  0.2712   52.0  0.3475  162.1
 1.520  0.6707  136.8   1.277   40.8  0.2741   51.6  0.3486  161.7
 1.540  0.6712  136.3   1.261   40.3  0.2770   51.3  0.3497  161.3
 1.560  0.6717  135.7   1.246   39.7  0.2800   50.9  0.3509  160.8
 1.580  0.6723  135.2   1.231   39.1  0.2829   50.5  0.3520  160.4
 1.600  0.6730  134.6   1.216   38.5  0.2859   50.2  0.3532  160.0
 1.620  0.6737  134.1   1.205   38.0  0.2887   49.8  0.3543  159.5
 1.640  0.6745  133.5   1.194   37.4  0.2915   49.5  0.3555  159.1
 1.660  0.6754  133.0   1.184   36.9  0.2944   49.2  0.3566  158.6
 1.680  0.6763  132.4   1.173   36.3  0.2972   48.8  0.3578  158.2
 1.700  0.6773  131.9   1.163   35.7  0.3001   48.5  0.3590  157.7
 1.720  0.6781  131.4   1.154   35.3  0.3029   48.1  0.3598  157.3
 1.740  0.6789  130.8   1.146   34.8  0.3057   47.8  0.3606  157.0
 1.760  0.6798  130.3   1.137   34.4  0.3085   47.5  0.3614  156.6
 1.780  0.6808  129.7   1.128   34.0  0.3114   47.1  0.3622  156.3
 1.800  0.6818  129.2   1.120   33.5  0.3142   46.8  0.3630  155.9
 1.820  0.6817  128.7   1.112   33.0  0.3169   46.4  0.3647  155.6
 1.840  0.6818  128.2   1.103   32.4  0.3196   46.0  0.3664  155.3
 1.860  0.6818  127.6   1.095   31.9  0.3223   45.6  0.3682  154.9
 1.880  0.6819  127.1   1.087   31.4  0.3250   45.3  0.3699  154.6
 1.900  0.6821  126.6   1.079   30.8  0.3277   44.9  0.3717  154.3
 1.920  0.6820  126.1   1.071   30.3  0.3303   44.5  0.3735  153.8
 1.940  0.6821  125.6   1.062   29.8  0.3329   44.2  0.3753  153.4
 1.960  0.6821  125.0   1.054   29.3  0.3355   43.8  0.3771  152.9
 1.980  0.6822  124.5   1.046   28.7  0.3381   43.4  0.3790  152.5
 2.000  0.6824  124.0   1.038   28.2  0.3407   43.1  0.3809  152.0
 2.020  0.6832  123.5   1.031   27.8  0.3431   42.7  0.3820  151.6
 2.040  0.6840  123.0   1.024   27.3  0.3456   42.4  0.3832  151.2
 2.060  0.6849  122.5   1.017   26.9  0.3480   42.0  0.3843  150.8
 2.080  0.6859  122.0   1.010   26.4  0.3505   41.6  0.3855  150.4
 2.100  0.6868  121.5   1.003   26.0  0.3530   41.3  0.3867  150.0
 2.120  0.6879  121.0   0.996   25.5  0.3555   40.9  0.3879  149.6
 2.140  0.6890  120.5   0.990   25.0  0.3580   40.6  0.3892  149.2
 2.160  0.6901  120.0   0.983   24.6  0.3605   40.3  0.3904  148.8
 2.180  0.6913  119.5   0.977   24.1  0.3631   39.9  0.3917  148.4
 2.200  0.6926  119.0   0.970   23.6  0.3656   39.6  0.3930  148.0
 2.220  0.6931  118.5   0.965   23.2  0.3678   39.2  0.3951  147.6
 2.240  0.6936  118.0   0.960   22.7  0.3701   38.8  0.3972  147.1
 2.260  0.6942  117.5   0.955   22.3  0.3724   38.5  0.3993  146.7
 2.280  0.6948  117.0   0.950   21.8  0.3747   38.1  0.4014  146.3
 2.300  0.6955  116.5   0.945   21.4  0.3770   37.7  0.4035  145.9
 2.320  0.6962  116.0   0.940   20.9  0.3793   37.4  0.4057  145.5
 2.340  0.6970  115.5   0.936   20.4  0.3816   37.0  0.4079  145.1
 2.360  0.6979  115.0   0.931   20.0  0.3840   36.7  0.4101  144.7
 2.380  0.6988  114.5   0.927   19.5  0.3863   36.3  0.4123  144.3
 2.400  0.6997  114.0   0.922   19.0  0.3887   36.0  0.4146  143.9
 2.420  0.7008  113.5   0.917   18.6  0.3906   35.6  0.4158  143.5
 2.440  0.7019  113.0   0.912   18.3  0.3926   35.3  0.4170  143.1
 2.460  0.7030  112.5   0.907   17.9  0.3945   34.9  0.4183  142.7
 2.480  0.7043  112.1   0.902   17.5  0.3965   34.6  0.4195  142.4
 2.500  0.7055  111.6   0.897   17.2  0.3985   34.3  0.4208  142.0
 2.520  0.7068  111.1   0.892   16.8  0.4005   33.9  0.4221  141.6
 2.540  0.7082  110.6   0.887   16.4  0.4025   33.6  0.4234  141.2
 2.560  0.7096  110.1   0.882   16.0  0.4045   33.3  0.4248  140.8
 2.580  0.7111  109.7   0.878   15.6  0.4065   32.9  0.4261  140.5
 2.600  0.7126  109.2   0.873   15.2  0.4086   32.6  0.4275  140.1
 2.620  0.7129  108.8   0.869   14.8  0.4103   32.2  0.4297  139.7
 2.640  0.7132  108.4   0.865   14.5  0.4121   31.9  0.4319  139.3
 2.660  0.7136  108.0   0.860   14.1  0.4138   31.5  0.4341  138.9
 2.680  0.7140  107.6   0.856   13.8  0.4156   31.2  0.4363  138.5
 2.700  0.7144  107.1   0.852   13.4  0.4174   30.9  0.4386  138.0
 2.720  0.7149  106.7   0.848   13.0  0.4192   30.5  0.4409  137.7
 2.740  0.7154  106.3   0.844   12.6  0.4210   30.2  0.4432  137.3
 2.760  0.7160  105.9   0.840   12.3  0.4228   29.9  0.4455  136.9
 2.780  0.7166  105.5   0.836   11.9  0.4246   29.5  0.4478  136.5
 2.800  0.7172  105.1   0.832   11.5  0.4265   29.2  0.4502  136.1
 2.820  0.7180  104.7   0.828   11.2  0.4281   28.8  0.4517  135.7
 2.840  0.7188  104.3   0.825   10.8  0.4297   28.5  0.4533  135.3
 2.860  0.7197  103.9   0.821   10.5  0.4314   28.1  0.4548  135.0
 2.880  0.7206  103.4   0.817   10.1  0.4330   27.8  0.4564  134.6
 2.900  0.7215  103.0   0.814    9.8  0.4347   27.4  0.4580  134.2
 2.920  0.7225  102.6   0.810    9.4  0.4364   27.1  0.4596  133.8
 2.940  0.7235  102.2   0.806    9.1  0.4381   26.7  0.4613  133.5
 2.960  0.7245  101.8   0.803    8.7  0.4398   26.4  0.4629  133.1
 2.980  0.7256  101.4   0.799    8.4  0.4415   26.0  0.4646  132.8
 3.000  0.7267  101.0   0.796    8.0  0.4433   25.7  0.4663  132.4
 3.100  0.7296   99.2   0.780    6.7  0.4492   24.1  0.4757  130.5
 3.200  0.7333   97.4   0.765    5.3  0.4555   22.5  0.4856  128.7
 3.300  0.7376   95.7   0.750    3.9  0.4621   21.0  0.4960  127.0
 3.400  0.7427   93.9   0.736    2.4  0.4691   19.5  0.5068  125.3
 3.500  0.7484   92.2   0.722    0.9  0.4763   18.1  0.5180  123.7
 3.600  0.7510   90.7   0.710   -0.2  0.4798   16.6  0.5269  121.9
 3.700  0.7542   89.2   0.698   -1.3  0.4837   15.1  0.5364  120.1
 3.800  0.7578   87.7   0.687   -2.4  0.4878   13.6  0.5464  118.4
 3.900  0.7620   86.2   0.676   -3.6  0.4923   12.2  0.5568  116.7
 4.000  0.7666   84.8   0.665   -4.8  0.4971   10.8  0.5677  115.1
 4.100  0.7666   83.5   0.657   -5.7  0.4987    9.5  0.5723  113.5
 4.200  0.7669   82.3   0.649   -6.6  0.5005    8.2  0.5774  111.9
 4.300  0.7676   81.0   0.640   -7.5  0.5026    6.9  0.5829  110.3
 4.400  0.7687   79.8   0.633   -8.4  0.5049    5.7  0.5888  108.8
 4.500  0.7701   78.5   0.625   -9.4  0.5075    4.4  0.5951  107.3
 4.600  0.7715   77.4   0.619  -10.2  0.5087    3.3  0.5982  105.8
 4.700  0.7733   76.2   0.613  -11.1  0.5102    2.2  0.6016  104.4
 4.800  0.7753   75.1   0.607  -11.9  0.5118    1.1  0.6054  103.0
 4.900  0.7776   74.0   0.601  -12.8  0.5135    0.1  0.6096  101.6
 5.000  0.7802   72.9   0.595  -13.7  0.5155   -1.0  0.6141  100.2
 5.100  0.7780   71.9   0.592  -13.8  0.5189   -1.6  0.6140  100.1
 5.200  0.7761   70.9   0.589  -13.9  0.5223   -2.1  0.6139   99.9
 5.300  0.7744   69.9   0.587  -14.0  0.5257   -2.7  0.6138   99.8
 5.400  0.7730   68.8   0.584  -14.1  0.5292   -3.3  0.6138   99.6
 5.500  0.7718   67.8   0.581  -14.2  0.5328   -3.8  0.6137   99.5
 5.600  0.7717   67.0   0.579  -15.1  0.5355   -5.1  0.6225   98.1
 5.700  0.7718   66.3   0.578  -16.0  0.5385   -6.3  0.6317   96.7
 5.800  0.7721   65.5   0.576  -16.9  0.5418   -7.6  0.6413   95.3
 5.900  0.7724   64.8   0.575  -17.8  0.5453   -8.8  0.6512   94.0
 6.000  0.7729   64.0   0.574  -18.7  0.5490  -10.0  0.6614   92.7
!
!  f       NFmin   Gammaopt  rn/50
! GHz       dB    MAG  ANG    -
!
! noise parameter not available yet for this operation point!
!
! (c) 2015  Infineon Technologies AG, Munich
