! Infineon Technologies  Discrete & RF Semiconductors
! BFR182
! VCE =  1.7 V,  IC =  1.0 mA
! Common Emitter S-Parameters:                            Nov 2015
# GHz  S  MA  R  50
!  f         S11            S21            S12            S22
! GHz     MAG   ANG      MAG   ANG      MAG   ANG      MAG   ANG
 0.010  0.9513   -1.2   3.500  179.4  0.0021   86.6  0.9987   -0.5
 0.015  0.9497   -1.6   3.472  178.8  0.0032   85.3  0.9967   -0.7
 0.020  0.9481   -2.1   3.445  178.1  0.0044   84.7  0.9948   -1.0
 0.025  0.9482   -2.7   3.461  177.6  0.0056   85.3  0.9951   -1.2
 0.030  0.9484   -3.3   3.478  177.1  0.0067   85.7  0.9955   -1.4
 0.035  0.9487   -4.0   3.494  176.7  0.0079   86.0  0.9958   -1.7
 0.040  0.9491   -4.6   3.511  176.2  0.0091   86.2  0.9962   -1.9
 0.045  0.9496   -5.2   3.529  175.8  0.0102   86.4  0.9966   -2.1
 0.050  0.9502   -5.8   3.546  175.3  0.0114   86.5  0.9970   -2.3
 0.055  0.9496   -6.4   3.544  174.8  0.0125   85.8  0.9965   -2.5
 0.060  0.9491   -6.9   3.542  174.4  0.0137   85.2  0.9961   -2.8
 0.065  0.9488   -7.5   3.540  173.9  0.0148   84.7  0.9957   -3.0
 0.070  0.9485   -8.1   3.538  173.4  0.0159   84.3  0.9953   -3.3
 0.075  0.9483   -8.6   3.537  173.0  0.0170   83.9  0.9949   -3.5
 0.080  0.9482   -9.2   3.536  172.5  0.0182   83.6  0.9945   -3.7
 0.085  0.9482   -9.8   3.535  172.0  0.0193   83.3  0.9942   -4.0
 0.090  0.9482  -10.4   3.534  171.5  0.0204   83.0  0.9938   -4.2
 0.095  0.9484  -10.9   3.534  171.1  0.0216   82.8  0.9935   -4.5
 0.100  0.9487  -11.5   3.534  170.6  0.0227   82.6  0.9932   -4.7
 0.105  0.9468  -12.1   3.527  170.0  0.0238   82.1  0.9923   -4.9
 0.110  0.9450  -12.6   3.520  169.5  0.0249   81.7  0.9914   -5.2
 0.115  0.9433  -13.2   3.514  168.9  0.0259   81.4  0.9906   -5.4
 0.120  0.9417  -13.8   3.508  168.3  0.0270   81.0  0.9897   -5.6
 0.125  0.9401  -14.3   3.503  167.8  0.0281   80.7  0.9889   -5.8
 0.130  0.9387  -14.9   3.497  167.2  0.0292   80.4  0.9881   -6.1
 0.135  0.9374  -15.5   3.493  166.6  0.0303   80.1  0.9873   -6.3
 0.140  0.9361  -16.0   3.488  166.1  0.0313   79.9  0.9865   -6.5
 0.145  0.9350  -16.6   3.484  165.5  0.0324   79.6  0.9857   -6.8
 0.150  0.9339  -17.2   3.480  164.9  0.0335   79.4  0.9850   -7.0
 0.155  0.9327  -17.7   3.479  164.4  0.0346   79.0  0.9841   -7.2
 0.160  0.9315  -18.3   3.479  164.0  0.0357   78.6  0.9831   -7.4
 0.165  0.9305  -18.8   3.478  163.5  0.0368   78.2  0.9822   -7.7
 0.170  0.9295  -19.4   3.478  163.1  0.0379   77.9  0.9813   -7.9
 0.175  0.9286  -19.9   3.478  162.6  0.0390   77.6  0.9804   -8.1
 0.180  0.9278  -20.5   3.479  162.1  0.0401   77.3  0.9795   -8.3
 0.185  0.9270  -21.0   3.479  161.7  0.0412   77.0  0.9787   -8.5
 0.190  0.9264  -21.6   3.480  161.2  0.0423   76.7  0.9778   -8.8
 0.195  0.9259  -22.1   3.481  160.8  0.0434   76.4  0.9770   -9.0
 0.200  0.9254  -22.7   3.482  160.3  0.0445   76.2  0.9762   -9.2
 0.220  0.9170  -25.0   3.444  158.4  0.0486   74.6  0.9719  -10.1
 0.240  0.9100  -27.3   3.410  156.5  0.0526   73.2  0.9679  -11.0
 0.260  0.9026  -29.5   3.376  154.6  0.0566   72.0  0.9635  -11.8
 0.280  0.8944  -31.6   3.341  152.7  0.0605   70.9  0.9586  -12.6
 0.300  0.8874  -33.7   3.310  150.8  0.0644   69.9  0.9539  -13.4
 0.320  0.8767  -35.7   3.287  149.2  0.0677   68.4  0.9481  -14.1
 0.340  0.8671  -37.8   3.267  147.5  0.0710   67.1  0.9424  -14.9
 0.360  0.8587  -39.9   3.250  145.9  0.0744   65.8  0.9369  -15.7
 0.380  0.8514  -42.0   3.236  144.2  0.0778   64.7  0.9316  -16.4
 0.400  0.8454  -44.2   3.224  142.5  0.0812   63.7  0.9264  -17.2
 0.420  0.8325  -46.2   3.182  140.8  0.0839   62.5  0.9197  -17.9
 0.440  0.8206  -48.2   3.143  139.0  0.0867   61.4  0.9131  -18.5
 0.450  0.8150  -49.2   3.124  138.1  0.0881   60.8  0.9098  -18.9
 0.460  0.8097  -50.3   3.107  137.2  0.0895   60.3  0.9066  -19.2
 0.480  0.7999  -52.4   3.074  135.4  0.0923   59.3  0.9003  -19.9
 0.500  0.7913  -54.6   3.044  133.5  0.0952   58.4  0.8941  -20.6
 0.520  0.7821  -56.4   3.005  132.2  0.0976   57.4  0.8878  -21.2
 0.540  0.7738  -58.3   2.967  130.8  0.1001   56.4  0.8816  -21.7
 0.560  0.7662  -60.2   2.931  129.4  0.1026   55.5  0.8755  -22.3
 0.580  0.7596  -62.1   2.896  128.0  0.1051   54.6  0.8694  -22.9
 0.600  0.7538  -64.1   2.864  126.5  0.1077   53.8  0.8635  -23.5
 0.620  0.7428  -65.7   2.831  125.2  0.1095   52.9  0.8573  -24.0
 0.640  0.7325  -67.4   2.800  123.8  0.1113   52.1  0.8512  -24.5
 0.660  0.7229  -69.2   2.770  122.4  0.1132   51.3  0.8452  -25.0
 0.680  0.7139  -71.0   2.742  121.0  0.1150   50.5  0.8392  -25.5
 0.700  0.7056  -72.8   2.716  119.5  0.1169   49.8  0.8333  -26.0
 0.720  0.6953  -74.5   2.682  118.2  0.1183   49.0  0.8278  -26.4
 0.740  0.6857  -76.3   2.649  117.0  0.1198   48.3  0.8223  -26.8
 0.760  0.6767  -78.1   2.618  115.6  0.1213   47.5  0.8168  -27.2
 0.780  0.6684  -80.0   2.588  114.3  0.1228   46.8  0.8115  -27.7
 0.800  0.6609  -81.9   2.559  112.9  0.1243   46.1  0.8061  -28.1
 0.820  0.6502  -83.5   2.533  111.6  0.1253   45.5  0.8004  -28.5
 0.840  0.6400  -85.2   2.508  110.4  0.1263   45.0  0.7948  -28.9
 0.860  0.6304  -86.9   2.485  109.1  0.1274   44.5  0.7892  -29.3
 0.880  0.6214  -88.7   2.463  107.7  0.1284   43.9  0.7837  -29.7
 0.900  0.6130  -90.5   2.442  106.4  0.1295   43.4  0.7782  -30.1
 0.920  0.6046  -92.1   2.415  105.4  0.1302   42.9  0.7732  -30.5
 0.940  0.5967  -93.8   2.389  104.3  0.1308   42.5  0.7683  -30.8
 0.960  0.5893  -95.5   2.363  103.2  0.1315   42.0  0.7633  -31.2
 0.980  0.5825  -97.3   2.339  102.1  0.1322   41.6  0.7585  -31.5
 1.000  0.5762  -99.1   2.315  101.0  0.1329   41.1  0.7536  -31.9
 1.020  0.5686 -100.7   2.290  100.0  0.1335   40.8  0.7495  -32.2
 1.040  0.5615 -102.4   2.265   99.1  0.1341   40.4  0.7454  -32.5
 1.060  0.5549 -104.1   2.242   98.1  0.1347   40.1  0.7413  -32.8
 1.080  0.5488 -105.8   2.218   97.0  0.1354   39.7  0.7372  -33.1
 1.100  0.5432 -107.6   2.196   96.0  0.1360   39.4  0.7332  -33.4
 1.120  0.5364 -109.1   2.171   95.0  0.1364   39.1  0.7298  -33.7
 1.140  0.5299 -110.6   2.146   94.1  0.1368   38.9  0.7263  -34.0
 1.160  0.5238 -112.1   2.121   93.1  0.1373   38.6  0.7229  -34.4
 1.180  0.5181 -113.7   2.098   92.0  0.1377   38.4  0.7196  -34.7
 1.200  0.5128 -115.3   2.075   91.0  0.1381   38.1  0.7162  -35.0
 1.220  0.5077 -116.8   2.053   90.2  0.1384   37.9  0.7130  -35.3
 1.240  0.5030 -118.3   2.030   89.3  0.1388   37.6  0.7098  -35.5
 1.260  0.4987 -119.8   2.009   88.5  0.1391   37.4  0.7066  -35.8
 1.280  0.4947 -121.4   1.988   87.6  0.1395   37.1  0.7034  -36.0
 1.300  0.4911 -123.0   1.967   86.7  0.1398   36.9  0.7002  -36.3
 1.320  0.4857 -124.4   1.946   85.9  0.1399   36.8  0.6977  -36.6
 1.340  0.4807 -125.8   1.926   85.0  0.1400   36.7  0.6951  -36.9
 1.360  0.4759 -127.3   1.906   84.1  0.1400   36.5  0.6926  -37.2
 1.380  0.4714 -128.8   1.886   83.2  0.1401   36.4  0.6902  -37.5
 1.400  0.4673 -130.3   1.867   82.3  0.1402   36.3  0.6877  -37.8
 1.420  0.4634 -131.8   1.852   81.5  0.1404   36.3  0.6850  -38.0
 1.440  0.4598 -133.4   1.838   80.7  0.1406   36.4  0.6822  -38.2
 1.460  0.4566 -134.9   1.824   79.9  0.1408   36.4  0.6795  -38.5
 1.480  0.4537 -136.5   1.810   79.1  0.1410   36.5  0.6768  -38.7
 1.500  0.4511 -138.1   1.797   78.3  0.1412   36.5  0.6741  -38.9
 1.520  0.4470 -139.8   1.779   77.5  0.1413   36.5  0.6722  -39.1
 1.540  0.4433 -141.6   1.761   76.6  0.1415   36.4  0.6704  -39.4
 1.560  0.4401 -143.4   1.743   75.7  0.1416   36.4  0.6685  -39.6
 1.580  0.4373 -145.3   1.726   74.8  0.1418   36.3  0.6667  -39.9
 1.600  0.4349 -147.1   1.709   73.9  0.1419   36.3  0.6649  -40.1
 1.620  0.4309 -148.6   1.699   73.2  0.1419   36.5  0.6618  -40.4
 1.640  0.4272 -150.2   1.690   72.5  0.1419   36.8  0.6587  -40.6
 1.660  0.4238 -151.8   1.681   71.8  0.1418   37.0  0.6556  -40.9
 1.680  0.4208 -153.4   1.672   71.1  0.1418   37.3  0.6526  -41.1
 1.700  0.4181 -155.0   1.663   70.4  0.1418   37.5  0.6495  -41.4
 1.720  0.4149 -156.5   1.650   69.7  0.1422   37.7  0.6476  -41.6
 1.740  0.4120 -158.1   1.638   69.0  0.1426   37.9  0.6457  -41.9
 1.760  0.4095 -159.7   1.626   68.3  0.1429   38.2  0.6438  -42.1
 1.780  0.4072 -161.3   1.614   67.5  0.1433   38.4  0.6420  -42.4
 1.800  0.4053 -162.9   1.603   66.8  0.1437   38.6  0.6401  -42.6
 1.820  0.4044 -164.2   1.591   66.1  0.1438   38.8  0.6385  -42.9
 1.840  0.4037 -165.5   1.579   65.4  0.1439   39.1  0.6368  -43.3
 1.860  0.4032 -166.8   1.567   64.7  0.1440   39.3  0.6352  -43.6
 1.880  0.4029 -168.1   1.555   63.9  0.1441   39.6  0.6337  -44.0
 1.900  0.4028 -169.4   1.544   63.2  0.1442   39.8  0.6321  -44.3
 1.920  0.4025 -170.8   1.530   62.5  0.1447   40.0  0.6310  -44.5
 1.940  0.4024 -172.1   1.517   61.9  0.1452   40.2  0.6298  -44.8
 1.960  0.4025 -173.5   1.503   61.2  0.1458   40.5  0.6287  -45.0
 1.980  0.4028 -174.8   1.490   60.5  0.1463   40.7  0.6276  -45.3
 2.000  0.4034 -176.2   1.477   59.8  0.1468   40.9  0.6265  -45.5
 2.020  0.4019 -177.5   1.466   59.2  0.1473   41.2  0.6252  -45.8
 2.040  0.4006 -178.8   1.456   58.6  0.1477   41.5  0.6239  -46.1
 2.060  0.3995  179.9   1.445   58.0  0.1482   41.8  0.6226  -46.5
 2.080  0.3987  178.6   1.435   57.4  0.1486   42.1  0.6214  -46.8
 2.100  0.3980  177.2   1.425   56.8  0.1491   42.4  0.6201  -47.1
 2.120  0.3975  175.9   1.415   56.2  0.1496   42.7  0.6189  -47.5
 2.140  0.3973  174.6   1.405   55.6  0.1500   43.0  0.6177  -47.8
 2.160  0.3973  173.3   1.396   54.9  0.1505   43.3  0.6166  -48.1
 2.180  0.3975  171.9   1.386   54.3  0.1510   43.6  0.6154  -48.5
 2.200  0.3979  170.6   1.377   53.6  0.1515   43.9  0.6143  -48.8
 2.220  0.3982  169.3   1.368   53.0  0.1523   44.3  0.6127  -49.1
 2.240  0.3987  168.1   1.360   52.5  0.1532   44.6  0.6112  -49.4
 2.260  0.3994  166.8   1.351   51.9  0.1540   45.0  0.6096  -49.8
 2.280  0.4003  165.6   1.343   51.3  0.1549   45.3  0.6081  -50.1
 2.300  0.4014  164.3   1.335   50.7  0.1558   45.7  0.6066  -50.4
 2.320  0.4027  163.1   1.327   50.1  0.1567   46.0  0.6052  -50.8
 2.340  0.4041  161.8   1.319   49.5  0.1575   46.4  0.6037  -51.1
 2.360  0.4058  160.6   1.311   48.9  0.1584   46.7  0.6023  -51.4
 2.380  0.4076  159.4   1.303   48.3  0.1593   47.1  0.6009  -51.8
 2.400  0.4096  158.2   1.296   47.7  0.1602   47.4  0.5995  -52.1
 2.420  0.4101  157.0   1.288   47.2  0.1614   47.7  0.5983  -52.5
 2.440  0.4108  155.8   1.281   46.7  0.1626   48.0  0.5971  -52.8
 2.460  0.4117  154.6   1.273   46.2  0.1637   48.2  0.5960  -53.2
 2.480  0.4127  153.5   1.266   45.7  0.1649   48.5  0.5948  -53.5
 2.500  0.4140  152.3   1.259   45.2  0.1661   48.7  0.5937  -53.9
 2.520  0.4154  151.1   1.252   44.7  0.1673   49.0  0.5926  -54.2
 2.540  0.4169  150.0   1.244   44.1  0.1685   49.3  0.5916  -54.6
 2.560  0.4187  148.9   1.238   43.6  0.1697   49.5  0.5905  -55.0
 2.580  0.4205  147.7   1.231   43.0  0.1709   49.8  0.5895  -55.3
 2.600  0.4226  146.6   1.224   42.5  0.1721   50.0  0.5885  -55.7
 2.620  0.4236  145.6   1.217   42.0  0.1736   50.3  0.5874  -56.1
 2.640  0.4247  144.6   1.211   41.6  0.1751   50.6  0.5863  -56.5
 2.660  0.4259  143.7   1.204   41.1  0.1766   50.8  0.5852  -56.9
 2.680  0.4273  142.7   1.197   40.6  0.1781   51.1  0.5842  -57.3
 2.700  0.4288  141.7   1.191   40.2  0.1797   51.4  0.5832  -57.7
 2.720  0.4304  140.8   1.185   39.7  0.1812   51.6  0.5822  -58.1
 2.740  0.4321  139.8   1.178   39.2  0.1827   51.9  0.5813  -58.6
 2.760  0.4340  138.9   1.172   38.7  0.1842   52.1  0.5803  -59.0
 2.780  0.4359  137.9   1.166   38.2  0.1858   52.4  0.5795  -59.4
 2.800  0.4380  137.0   1.160   37.7  0.1873   52.6  0.5786  -59.8
 2.820  0.4397  136.1   1.154   37.2  0.1889   52.8  0.5774  -60.2
 2.840  0.4415  135.3   1.148   36.8  0.1906   53.0  0.5762  -60.7
 2.860  0.4434  134.5   1.142   36.3  0.1922   53.1  0.5751  -61.1
 2.880  0.4455  133.6   1.136   35.8  0.1938   53.3  0.5739  -61.6
 2.900  0.4476  132.8   1.130   35.3  0.1955   53.5  0.5729  -62.0
 2.920  0.4497  132.0   1.125   34.8  0.1971   53.7  0.5718  -62.5
 2.940  0.4520  131.2   1.119   34.3  0.1988   53.8  0.5708  -62.9
 2.960  0.4544  130.4   1.114   33.8  0.2004   54.0  0.5698  -63.4
 2.980  0.4569  129.6   1.108   33.3  0.2021   54.1  0.5689  -63.8
 3.000  0.4594  128.8   1.103   32.8  0.2037   54.3  0.5680  -64.3
 3.100  0.4661  124.9   1.075   31.0  0.2150   54.6  0.5606  -67.0
 3.200  0.4748  121.2   1.048   29.1  0.2263   54.8  0.5545  -69.7
 3.300  0.4854  117.6   1.022   27.1  0.2376   55.0  0.5497  -72.4
 3.400  0.4979  114.2   0.997   25.0  0.2489   55.2  0.5461  -75.3
 3.500  0.5120  111.0   0.974   22.8  0.2602   55.4  0.5439  -78.1
 3.600  0.5195  108.4   0.953   21.3  0.2739   54.7  0.5348  -81.5
 3.700  0.5281  105.8   0.933   19.7  0.2875   54.0  0.5277  -85.0
 3.800  0.5377  103.4   0.914   18.0  0.3013   53.4  0.5226  -88.5
 3.900  0.5482  101.0   0.896   16.3  0.3150   52.9  0.5195  -92.1
 4.000  0.5597   98.7   0.878   14.5  0.3288   52.4  0.5185  -95.8
 4.100  0.5659   96.6   0.863   13.3  0.3431   50.9  0.5086  -99.7
 4.200  0.5729   94.5   0.849   12.0  0.3576   49.6  0.5012 -103.7
 4.300  0.5806   92.5   0.835   10.7  0.3722   48.4  0.4962 -107.8
 4.400  0.5890   90.6   0.822    9.4  0.3870   47.3  0.4939 -111.9
 4.500  0.5981   88.7   0.809    8.0  0.4020   46.2  0.4941 -116.1
 4.600  0.6023   87.0   0.799    7.0  0.4151   44.5  0.4858 -120.2
 4.700  0.6069   85.4   0.789    5.9  0.4285   42.9  0.4801 -124.5
 4.800  0.6121   83.8   0.779    4.8  0.4423   41.4  0.4772 -128.9
 4.900  0.6177   82.2   0.770    3.7  0.4563   39.9  0.4770 -133.2
 5.000  0.6238   80.6   0.761    2.5  0.4706   38.6  0.4796 -137.6
 5.100  0.6273   79.2   0.751    1.7  0.4814   36.7  0.4730 -141.9
 5.200  0.6311   77.9   0.741    0.8  0.4927   34.9  0.4691 -146.3
 5.300  0.6353   76.6   0.732   -0.1  0.5044   33.2  0.4680 -150.8
 5.400  0.6398   75.3   0.722   -1.0  0.5166   31.6  0.4698 -155.2
 5.500  0.6446   74.0   0.713   -1.9  0.5292   30.0  0.4743 -159.6
 5.600  0.6475   72.8   0.705   -2.8  0.5359   28.0  0.4654 -163.7
 5.700  0.6506   71.5   0.698   -3.7  0.5432   26.1  0.4589 -167.9
 5.800  0.6541   70.3   0.690   -4.6  0.5511   24.2  0.4551 -172.3
 5.900  0.6579   69.1   0.683   -5.5  0.5596   22.4  0.4538 -176.6
 6.000  0.6619   67.9   0.676   -6.5  0.5687   20.6  0.4552  179.0
!
!  f       NFmin   Gammaopt  rn/50
! GHz       dB    MAG  ANG    -
!
! noise parameter not available yet for this operation point!
!
! (c) 2015  Infineon Technologies AG, Munich
