! Infineon Technologies  Discrete & RF Semiconductors
! BFR106
! VCE = 0.75 V,  IC =  1.5 mA
! Common Emitter S-Parameters:                            Nov 2015
# GHz  S  MA  R  50
!  f         S11            S21            S12            S22
! GHz     MAG   ANG      MAG   ANG      MAG   ANG      MAG   ANG
 0.010  0.9474   -6.8   5.414  174.9  0.0127   87.5  0.9961   -3.2
 0.015  0.9437  -10.3   5.394  173.1  0.0189   84.3  0.9925   -4.6
 0.020  0.9435  -13.8   5.380  171.2  0.0251   82.7  0.9895   -6.0
 0.025  0.9321  -17.0   5.315  169.1  0.0309   78.7  0.9818   -7.4
 0.030  0.9236  -20.2   5.258  166.9  0.0369   76.1  0.9746   -8.8
 0.035  0.9181  -23.5   5.209  164.7  0.0429   74.1  0.9681  -10.3
 0.040  0.9156  -26.8   5.168  162.4  0.0489   72.7  0.9622  -11.7
 0.045  0.9162  -30.1   5.135  160.1  0.0550   71.5  0.9569  -13.2
 0.050  0.9199  -33.4   5.110  157.8  0.0611   70.6  0.9523  -14.7
 0.055  0.9048  -36.1   5.031  156.2  0.0655   68.1  0.9414  -15.8
 0.060  0.8917  -38.9   4.956  154.6  0.0699   65.8  0.9308  -16.8
 0.065  0.8809  -41.8   4.885  153.0  0.0745   63.9  0.9206  -18.0
 0.070  0.8724  -44.8   4.818  151.3  0.0791   62.2  0.9107  -19.1
 0.075  0.8663  -47.8   4.756  149.5  0.0838   60.6  0.9012  -20.2
 0.080  0.8626  -50.8   4.698  147.7  0.0886   59.3  0.8921  -21.4
 0.085  0.8613  -53.9   4.645  145.9  0.0934   58.0  0.8834  -22.6
 0.090  0.8625  -57.0   4.597  144.0  0.0982   56.9  0.8750  -23.9
 0.095  0.8661  -60.0   4.554  142.1  0.1031   55.9  0.8671  -25.1
 0.100  0.8721  -63.0   4.516  140.1  0.1080   55.0  0.8596  -26.4
 0.105  0.8601  -65.1   4.434  138.8  0.1105   53.5  0.8493  -27.1
 0.110  0.8494  -67.3   4.355  137.4  0.1132   52.1  0.8391  -27.9
 0.115  0.8399  -69.6   4.278  136.0  0.1158   50.7  0.8290  -28.7
 0.120  0.8318  -71.9   4.204  134.6  0.1186   49.4  0.8191  -29.4
 0.125  0.8250  -74.2   4.133  133.0  0.1214   48.1  0.8094  -30.3
 0.130  0.8196  -76.6   4.064  131.5  0.1243   46.9  0.7998  -31.1
 0.135  0.8157  -79.0   3.999  129.9  0.1272   45.8  0.7904  -31.9
 0.140  0.8132  -81.4   3.937  128.2  0.1301   44.7  0.7812  -32.8
 0.145  0.8122  -83.9   3.879  126.5  0.1332   43.7  0.7721  -33.7
 0.150  0.8126  -86.3   3.824  124.7  0.1362   42.7  0.7633  -34.6
 0.155  0.8062  -88.0   3.766  123.8  0.1377   41.8  0.7553  -35.1
 0.160  0.8005  -89.7   3.709  122.8  0.1392   40.9  0.7474  -35.5
 0.165  0.7956  -91.5   3.652  121.8  0.1408   40.0  0.7395  -36.0
 0.170  0.7914  -93.2   3.597  120.8  0.1424   39.2  0.7316  -36.5
 0.175  0.7880  -95.0   3.543  119.8  0.1440   38.4  0.7238  -37.0
 0.180  0.7854  -96.8   3.491  118.7  0.1457   37.6  0.7161  -37.5
 0.185  0.7835  -98.6   3.439  117.6  0.1474   36.8  0.7084  -38.0
 0.190  0.7824 -100.5   3.389  116.5  0.1491   36.0  0.7008  -38.5
 0.195  0.7821 -102.3   3.340  115.3  0.1508   35.2  0.6932  -39.1
 0.200  0.7826 -104.1   3.293  114.1  0.1526   34.5  0.6857  -39.6
 0.220  0.7679 -109.5   3.094  110.7  0.1561   31.8  0.6599  -41.1
 0.240  0.7603 -115.1   2.908  106.8  0.1599   29.2  0.6346  -42.7
 0.260  0.7531 -120.0   2.743  103.5  0.1628   27.1  0.6143  -44.1
 0.280  0.7441 -124.3   2.592  100.9  0.1646   25.3  0.5987  -45.1
 0.300  0.7393 -128.6   2.447   97.9  0.1666   23.6  0.5833  -46.2
 0.320  0.7316 -131.8   2.341   96.0  0.1669   22.3  0.5717  -47.1
 0.340  0.7262 -135.0   2.238   94.0  0.1674   21.1  0.5603  -48.0
 0.360  0.7231 -138.3   2.138   91.7  0.1679   19.9  0.5490  -48.9
 0.380  0.7225 -141.6   2.042   89.3  0.1684   18.6  0.5379  -49.9
 0.400  0.7242 -144.9   1.950   86.6  0.1691   17.4  0.5269  -50.9
 0.420  0.7205 -147.1   1.877   85.0  0.1684   16.6  0.5206  -51.8
 0.440  0.7180 -149.3   1.806   83.3  0.1678   15.8  0.5145  -52.7
 0.450  0.7171 -150.5   1.771   82.4  0.1675   15.4  0.5114  -53.1
 0.460  0.7165 -151.6   1.736   81.5  0.1672   15.0  0.5084  -53.6
 0.480  0.7162 -153.8   1.668   79.5  0.1666   14.2  0.5026  -54.5
 0.500  0.7169 -156.1   1.603   77.3  0.1661   13.4  0.4968  -55.5
 0.520  0.7149 -158.0   1.554   75.9  0.1651   13.0  0.4941  -56.5
 0.540  0.7136 -159.8   1.507   74.4  0.1641   12.7  0.4915  -57.5
 0.560  0.7130 -161.7   1.460   72.7  0.1631   12.3  0.4891  -58.5
 0.580  0.7132 -163.5   1.415   71.0  0.1622   11.9  0.4868  -59.5
 0.600  0.7142 -165.4   1.371   69.2  0.1612   11.5  0.4847  -60.5
 0.620  0.7138 -166.9   1.336   68.0  0.1598   11.4  0.4835  -61.6
 0.640  0.7139 -168.4   1.302   66.7  0.1585   11.3  0.4824  -62.6
 0.660  0.7145 -169.9   1.269   65.3  0.1571   11.2  0.4815  -63.7
 0.680  0.7156 -171.4   1.236   63.8  0.1558   11.1  0.4808  -64.8
 0.700  0.7172 -172.9   1.204   62.3  0.1544   11.0  0.4802  -65.9
 0.720  0.7166 -174.1   1.176   61.2  0.1530   11.2  0.4789  -67.0
 0.740  0.7163 -175.3   1.148   60.0  0.1516   11.3  0.4778  -68.0
 0.760  0.7163 -176.5   1.121   58.8  0.1501   11.5  0.4768  -69.1
 0.780  0.7166 -177.7   1.094   57.5  0.1487   11.7  0.4760  -70.2
 0.800  0.7172 -178.9   1.068   56.2  0.1473   11.9  0.4754  -71.3
 0.820  0.7159  180.0   1.047   55.2  0.1458   12.3  0.4749  -72.4
 0.840  0.7149  178.8   1.026   54.2  0.1442   12.8  0.4745  -73.5
 0.860  0.7142  177.7   1.006   53.1  0.1427   13.3  0.4744  -74.7
 0.880  0.7138  176.5   0.986   52.0  0.1412   13.7  0.4744  -75.8
 0.900  0.7136  175.4   0.966   50.8  0.1397   14.2  0.4746  -76.9
 0.920  0.7147  174.3   0.948   49.9  0.1385   14.9  0.4754  -78.1
 0.940  0.7160  173.1   0.931   49.0  0.1372   15.6  0.4764  -79.2
 0.960  0.7176  172.0   0.914   48.0  0.1360   16.4  0.4776  -80.4
 0.980  0.7195  170.9   0.897   47.0  0.1349   17.1  0.4789  -81.6
 1.000  0.7217  169.8   0.881   46.0  0.1337   17.9  0.4805  -82.7
 1.020  0.7227  168.8   0.868   45.1  0.1328   18.9  0.4812  -84.0
 1.040  0.7239  167.7   0.855   44.2  0.1320   19.8  0.4822  -85.2
 1.060  0.7253  166.7   0.842   43.3  0.1312   20.8  0.4833  -86.5
 1.080  0.7270  165.6   0.829   42.4  0.1305   21.8  0.4848  -87.8
 1.100  0.7289  164.6   0.817   41.4  0.1298   22.8  0.4864  -89.0
 1.120  0.7296  163.7   0.805   40.7  0.1296   24.0  0.4871  -90.2
 1.140  0.7306  162.7   0.792   39.9  0.1295   25.2  0.4880  -91.4
 1.160  0.7317  161.8   0.780   39.1  0.1294   26.4  0.4892  -92.6
 1.180  0.7331  160.8   0.768   38.3  0.1294   27.6  0.4905  -93.8
 1.200  0.7346  159.9   0.756   37.5  0.1295   28.8  0.4921  -95.0
 1.220  0.7352  159.1   0.746   37.0  0.1303   30.1  0.4929  -96.2
 1.240  0.7360  158.2   0.736   36.4  0.1311   31.4  0.4939  -97.4
 1.260  0.7370  157.4   0.726   35.9  0.1319   32.6  0.4952  -98.6
 1.280  0.7381  156.5   0.717   35.3  0.1329   33.9  0.4966  -99.7
 1.300  0.7394  155.7   0.707   34.7  0.1339   35.1  0.4983 -100.9
 1.320  0.7411  154.9   0.697   34.2  0.1353   36.3  0.5002 -102.1
 1.340  0.7430  154.0   0.688   33.7  0.1368   37.5  0.5023 -103.3
 1.360  0.7451  153.2   0.679   33.1  0.1384   38.7  0.5047 -104.5
 1.380  0.7473  152.4   0.669   32.6  0.1400   39.8  0.5072 -105.6
 1.400  0.7496  151.6   0.660   32.0  0.1417   40.9  0.5100 -106.8
 1.420  0.7490  150.8   0.654   31.5  0.1442   42.0  0.5107 -108.0
 1.440  0.7485  150.0   0.649   31.0  0.1468   43.0  0.5116 -109.2
 1.460  0.7482  149.1   0.644   30.5  0.1494   44.1  0.5127 -110.4
 1.480  0.7481  148.3   0.638   29.9  0.1520   45.1  0.5140 -111.6
 1.500  0.7481  147.5   0.633   29.4  0.1547   46.0  0.5156 -112.8
 1.520  0.7491  146.8   0.624   28.9  0.1577   46.7  0.5167 -114.0
 1.540  0.7502  146.1   0.616   28.5  0.1606   47.4  0.5180 -115.2
 1.560  0.7515  145.3   0.607   28.0  0.1636   48.1  0.5196 -116.4
 1.580  0.7528  144.6   0.599   27.5  0.1667   48.8  0.5214 -117.6
 1.600  0.7543  143.9   0.590   27.0  0.1697   49.4  0.5234 -118.8
 1.620  0.7546  143.1   0.585   26.7  0.1734   49.9  0.5238 -120.1
 1.640  0.7551  142.3   0.581   26.4  0.1771   50.4  0.5244 -121.3
 1.660  0.7557  141.5   0.576   26.1  0.1808   50.9  0.5252 -122.6
 1.680  0.7564  140.7   0.572   25.7  0.1845   51.4  0.5263 -123.8
 1.700  0.7573  139.9   0.567   25.4  0.1882   51.8  0.5277 -125.1
 1.720  0.7589  139.2   0.563   25.2  0.1921   52.0  0.5289 -126.2
 1.740  0.7605  138.4   0.559   25.0  0.1961   52.3  0.5303 -127.3
 1.760  0.7623  137.7   0.554   24.8  0.2000   52.5  0.5319 -128.4
 1.780  0.7643  137.0   0.550   24.6  0.2040   52.7  0.5337 -129.5
 1.800  0.7663  136.3   0.546   24.4  0.2079   52.9  0.5357 -130.6
 1.820  0.7659  135.6   0.542   24.1  0.2122   53.0  0.5377 -131.8
 1.840  0.7655  134.9   0.538   23.8  0.2165   53.1  0.5399 -133.0
 1.860  0.7653  134.1   0.533   23.5  0.2207   53.2  0.5424 -134.2
 1.880  0.7653  133.4   0.529   23.2  0.2250   53.3  0.5451 -135.4
 1.900  0.7653  132.7   0.525   22.9  0.2293   53.4  0.5481 -136.6
 1.920  0.7657  132.0   0.521   22.7  0.2337   53.3  0.5493 -137.8
 1.940  0.7663  131.3   0.517   22.6  0.2380   53.2  0.5508 -138.9
 1.960  0.7669  130.7   0.514   22.4  0.2424   53.2  0.5525 -140.1
 1.980  0.7676  130.0   0.510   22.3  0.2467   53.1  0.5544 -141.3
 2.000  0.7685  129.3   0.506   22.1  0.2511   53.0  0.5565 -142.4
 2.020  0.7685  128.6   0.504   22.0  0.2555   52.8  0.5574 -143.5
 2.040  0.7687  128.0   0.502   22.0  0.2599   52.5  0.5585 -144.7
 2.060  0.7689  127.3   0.500   21.9  0.2642   52.3  0.5598 -145.8
 2.080  0.7693  126.6   0.498   21.8  0.2686   52.1  0.5613 -146.9
 2.100  0.7697  125.9   0.495   21.8  0.2730   51.9  0.5631 -148.0
 2.120  0.7703  125.3   0.493   21.7  0.2774   51.7  0.5651 -149.2
 2.140  0.7710  124.6   0.491   21.6  0.2818   51.5  0.5672 -150.3
 2.160  0.7717  123.9   0.489   21.5  0.2862   51.4  0.5696 -151.3
 2.180  0.7726  123.3   0.487   21.5  0.2906   51.2  0.5722 -152.4
 2.200  0.7736  122.6   0.485   21.4  0.2950   51.0  0.5750 -153.5
 2.220  0.7731  122.0   0.484   21.3  0.2992   50.6  0.5760 -154.7
 2.240  0.7727  121.3   0.484   21.2  0.3034   50.2  0.5772 -155.8
 2.260  0.7723  120.7   0.483   21.1  0.3076   49.9  0.5786 -157.0
 2.280  0.7721  120.1   0.482   21.0  0.3119   49.5  0.5803 -158.1
 2.300  0.7719  119.5   0.481   20.9  0.3161   49.2  0.5822 -159.2
 2.320  0.7719  118.8   0.481   20.8  0.3204   48.9  0.5843 -160.4
 2.340  0.7719  118.2   0.480   20.7  0.3246   48.5  0.5866 -161.5
 2.360  0.7721  117.6   0.479   20.6  0.3289   48.2  0.5892 -162.6
 2.380  0.7723  116.9   0.479   20.5  0.3332   47.9  0.5920 -163.7
 2.400  0.7726  116.3   0.478   20.4  0.3375   47.6  0.5950 -164.8
 2.420  0.7727  115.7   0.478   20.4  0.3412   47.2  0.5954 -165.8
 2.440  0.7728  115.1   0.477   20.3  0.3449   46.7  0.5960 -166.8
 2.460  0.7730  114.5   0.477   20.3  0.3486   46.3  0.5968 -167.8
 2.480  0.7733  113.9   0.476   20.2  0.3523   45.9  0.5977 -168.8
 2.500  0.7737  113.3   0.476   20.2  0.3561   45.5  0.5989 -169.7
 2.520  0.7742  112.7   0.476   20.2  0.3599   45.1  0.6002 -170.7
 2.540  0.7748  112.1   0.475   20.1  0.3636   44.7  0.6016 -171.7
 2.560  0.7754  111.5   0.475   20.1  0.3674   44.3  0.6033 -172.7
 2.580  0.7762  110.9   0.474   20.0  0.3713   44.0  0.6051 -173.6
 2.600  0.7770  110.3   0.474   20.0  0.3751   43.6  0.6071 -174.6
 2.620  0.7767  109.8   0.475   19.9  0.3783   43.1  0.6081 -175.6
 2.640  0.7764  109.3   0.475   19.8  0.3816   42.6  0.6092 -176.6
 2.660  0.7762  108.8   0.476   19.7  0.3849   42.2  0.6106 -177.6
 2.680  0.7760  108.3   0.476   19.6  0.3882   41.7  0.6121 -178.6
 2.700  0.7759  107.8   0.477   19.4  0.3916   41.3  0.6138 -179.6
 2.720  0.7759  107.3   0.478   19.3  0.3950   40.8  0.6157  179.4
 2.740  0.7759  106.8   0.478   19.2  0.3984   40.4  0.6178  178.5
 2.760  0.7760  106.3   0.479   19.1  0.4018   39.9  0.6200  177.5
 2.780  0.7761  105.8   0.479   19.0  0.4052   39.5  0.6224  176.6
 2.800  0.7763  105.3   0.480   18.9  0.4087   39.1  0.6250  175.6
 2.820  0.7761  104.8   0.480   18.7  0.4116   38.6  0.6258  174.7
 2.840  0.7759  104.3   0.481   18.6  0.4146   38.1  0.6267  173.8
 2.860  0.7758  103.8   0.481   18.4  0.4176   37.7  0.6277  173.0
 2.880  0.7758  103.3   0.482   18.3  0.4207   37.2  0.6289  172.1
 2.900  0.7758  102.8   0.482   18.1  0.4237   36.8  0.6303  171.2
 2.920  0.7758  102.3   0.483   18.0  0.4268   36.3  0.6318  170.3
 2.940  0.7760  101.8   0.483   17.8  0.4299   35.9  0.6334  169.5
 2.960  0.7761  101.3   0.484   17.7  0.4331   35.4  0.6352  168.6
 2.980  0.7764  100.8   0.484   17.5  0.4362   35.0  0.6371  167.8
 3.000  0.7767  100.3   0.485   17.4  0.4394   34.6  0.6392  166.9
 3.100  0.7750   98.4   0.489   16.4  0.4489   32.3  0.6406  162.9
 3.200  0.7742   96.5   0.492   15.5  0.4592   30.1  0.6450  158.9
 3.300  0.7742   94.6   0.496   14.5  0.4701   27.9  0.6525  155.0
 3.400  0.7751   92.7   0.500   13.6  0.4816   25.9  0.6630  151.3
 3.500  0.7768   90.8   0.504   12.7  0.4937   24.0  0.6762  147.6
 3.600  0.7765   89.3   0.507   11.7  0.4982   22.0  0.6783  144.3
 3.700  0.7768   87.8   0.510   10.6  0.5032   20.0  0.6825  141.1
 3.800  0.7777   86.2   0.513    9.6  0.5089   18.0  0.6889  137.9
 3.900  0.7791   84.7   0.516    8.6  0.5151   16.2  0.6975  134.7
 4.000  0.7810   83.2   0.520    7.6  0.5219   14.3  0.7080  131.7
 4.100  0.7788   82.0   0.522    6.4  0.5230   12.7  0.7063  129.1
 4.200  0.7770   80.7   0.524    5.1  0.5245   11.1  0.7060  126.6
 4.300  0.7756   79.4   0.526    3.9  0.5264    9.5  0.7072  124.0
 4.400  0.7745   78.2   0.528    2.7  0.5287    7.9  0.7097  121.4
 4.500  0.7738   76.9   0.531    1.5  0.5314    6.3  0.7137  118.9
 4.600  0.7741   75.9   0.531    0.4  0.5318    5.0  0.7117  116.8
 4.700  0.7746   74.9   0.531   -0.6  0.5326    3.7  0.7107  114.7
 4.800  0.7754   73.8   0.531   -1.7  0.5336    2.4  0.7107  112.6
 4.900  0.7764   72.8   0.531   -2.7  0.5349    1.1  0.7116  110.5
 5.000  0.7777   71.8   0.532   -3.8  0.5364   -0.2  0.7135  108.4
 5.100  0.7741   70.9   0.534   -4.1  0.5391   -0.8  0.7106  107.9
 5.200  0.7706   69.9   0.536   -4.3  0.5419   -1.5  0.7077  107.3
 5.300  0.7674   68.9   0.538   -4.6  0.5448   -2.1  0.7049  106.8
 5.400  0.7644   68.0   0.540   -4.8  0.5477   -2.7  0.7022  106.2
 5.500  0.7616   67.0   0.542   -5.1  0.5507   -3.3  0.6995  105.7
 5.600  0.7615   66.3   0.544   -6.3  0.5529   -4.6  0.7055  103.9
 5.700  0.7615   65.5   0.546   -7.6  0.5554   -6.0  0.7123  102.1
 5.800  0.7617   64.8   0.548   -8.8  0.5582   -7.3  0.7197  100.4
 5.900  0.7620   64.0   0.550  -10.0  0.5612   -8.6  0.7277   98.7
 6.000  0.7624   63.3   0.553  -11.2  0.5646   -9.9  0.7364   97.0
!
!  f       NFmin   Gammaopt  rn/50
! GHz       dB    MAG  ANG    -
!
! noise parameter not available yet for this operation point!
!
! (c) 2015  Infineon Technologies AG, Munich
