! Infineon Technologies  Discrete & RF Semiconductors
! BFR182
! VCE = 0.75 V,  IC =  8.0 mA
! Common Emitter S-Parameters:                            Nov 2015
# GHz  S  MA  R  50
!  f         S11            S21            S12            S22
! GHz     MAG   ANG      MAG   ANG      MAG   ANG      MAG   ANG
 0.010  0.7214   -4.6  20.312  176.7  0.0024   90.7  0.9709   -2.1
 0.015  0.7176   -6.7  20.152  174.8  0.0037   84.6  0.9676   -3.2
 0.020  0.7148   -8.8  20.015  172.9  0.0051   81.7  0.9647   -4.3
 0.025  0.7097  -11.0  19.918  171.3  0.0063   81.0  0.9599   -5.3
 0.030  0.7058  -13.2  19.838  169.7  0.0076   80.6  0.9554   -6.3
 0.035  0.7028  -15.5  19.773  168.0  0.0088   80.3  0.9512   -7.4
 0.040  0.7010  -17.7  19.724  166.4  0.0100   80.0  0.9473   -8.4
 0.045  0.7003  -20.0  19.692  164.8  0.0113   79.9  0.9438   -9.4
 0.050  0.7007  -22.3  19.676  163.1  0.0125   79.7  0.9405  -10.5
 0.055  0.6904  -24.0  19.440  161.8  0.0136   78.1  0.9321  -11.3
 0.060  0.6808  -25.8  19.216  160.4  0.0147   76.8  0.9238  -12.1
 0.065  0.6719  -27.7  19.002  159.0  0.0158   75.6  0.9158  -12.9
 0.070  0.6637  -29.6  18.801  157.5  0.0169   74.6  0.9079  -13.8
 0.075  0.6562  -31.5  18.612  156.1  0.0180   73.7  0.9002  -14.6
 0.080  0.6495  -33.5  18.435  154.6  0.0191   73.0  0.8927  -15.5
 0.085  0.6436  -35.5  18.271  153.0  0.0202   72.3  0.8855  -16.4
 0.090  0.6384  -37.5  18.120  151.5  0.0214   71.7  0.8784  -17.3
 0.095  0.6341  -39.6  17.982  149.9  0.0225   71.1  0.8716  -18.2
 0.100  0.6307  -41.7  17.859  148.3  0.0236   70.6  0.8650  -19.1
 0.105  0.6216  -43.2  17.599  147.2  0.0244   70.0  0.8561  -19.6
 0.110  0.6128  -44.7  17.347  146.1  0.0252   69.5  0.8472  -20.2
 0.115  0.6045  -46.3  17.101  144.9  0.0261   68.9  0.8384  -20.7
 0.120  0.5967  -47.9  16.863  143.7  0.0269   68.5  0.8297  -21.3
 0.125  0.5894  -49.5  16.632  142.4  0.0277   68.0  0.8211  -21.9
 0.130  0.5825  -51.2  16.409  141.1  0.0286   67.6  0.8126  -22.5
 0.135  0.5762  -52.9  16.195  139.8  0.0294   67.2  0.8041  -23.1
 0.140  0.5704  -54.7  15.990  138.5  0.0302   66.8  0.7958  -23.7
 0.145  0.5652  -56.5  15.793  137.1  0.0311   66.4  0.7876  -24.4
 0.150  0.5605  -58.3  15.606  135.7  0.0319   66.1  0.7794  -25.0
 0.155  0.5526  -59.6  15.395  134.9  0.0325   65.7  0.7715  -25.3
 0.160  0.5451  -61.0  15.188  134.0  0.0331   65.3  0.7636  -25.7
 0.165  0.5379  -62.4  14.983  133.2  0.0337   65.0  0.7557  -26.0
 0.170  0.5310  -63.9  14.783  132.3  0.0344   64.6  0.7479  -26.4
 0.175  0.5244  -65.4  14.586  131.4  0.0350   64.3  0.7401  -26.8
 0.180  0.5183  -66.9  14.392  130.4  0.0356   64.0  0.7323  -27.1
 0.185  0.5125  -68.4  14.203  129.5  0.0362   63.7  0.7246  -27.5
 0.190  0.5070  -70.0  14.018  128.5  0.0369   63.4  0.7169  -27.9
 0.195  0.5020  -71.6  13.837  127.4  0.0375   63.1  0.7092  -28.3
 0.200  0.4974  -73.3  13.661  126.4  0.0381   62.8  0.7016  -28.7
 0.220  0.4735  -77.9  12.925  123.6  0.0405   62.0  0.6751  -29.5
 0.240  0.4529  -82.9  12.222  120.5  0.0428   61.3  0.6488  -30.3
 0.260  0.4341  -87.5  11.592  117.8  0.0450   60.8  0.6264  -31.0
 0.280  0.4158  -91.5  11.015  115.6  0.0469   60.6  0.6078  -31.4
 0.300  0.3997  -95.9  10.456  113.2  0.0489   60.3  0.5893  -31.8
 0.320  0.3856  -99.0  10.024  111.8  0.0506   60.3  0.5758  -31.9
 0.340  0.3726 -102.3   9.598  110.2  0.0523   60.2  0.5623  -32.0
 0.360  0.3610 -105.9   9.180  108.5  0.0539   60.2  0.5488  -32.1
 0.380  0.3509 -109.6   8.771  106.6  0.0556   60.1  0.5353  -32.3
 0.400  0.3424 -113.6   8.372  104.6  0.0573   60.1  0.5218  -32.4
 0.420  0.3339 -116.3   8.065  103.4  0.0589   60.3  0.5125  -32.4
 0.440  0.3262 -119.2   7.761  102.1  0.0605   60.5  0.5032  -32.3
 0.450  0.3227 -120.7   7.611  101.4  0.0612   60.6  0.4986  -32.3
 0.460  0.3194 -122.2   7.462  100.7  0.0620   60.7  0.4940  -32.3
 0.480  0.3135 -125.4   7.168   99.2  0.0636   60.9  0.4847  -32.2
 0.500  0.3086 -128.6   6.879   97.5  0.0652   61.1  0.4754  -32.2
 0.520  0.3038 -130.7   6.675   96.5  0.0670   61.3  0.4695  -32.2
 0.540  0.2995 -132.8   6.473   95.5  0.0689   61.4  0.4637  -32.1
 0.560  0.2956 -135.0   6.273   94.5  0.0707   61.5  0.4578  -32.1
 0.580  0.2921 -137.3   6.075   93.3  0.0726   61.7  0.4520  -32.0
 0.600  0.2891 -139.6   5.880   92.1  0.0744   61.8  0.4461  -32.0
 0.620  0.2850 -141.6   5.726   91.3  0.0761   62.0  0.4424  -32.0
 0.640  0.2812 -143.7   5.573   90.4  0.0778   62.1  0.4387  -32.0
 0.660  0.2779 -145.8   5.422   89.4  0.0795   62.2  0.4351  -32.0
 0.680  0.2749 -148.0   5.272   88.4  0.0812   62.4  0.4314  -32.0
 0.700  0.2723 -150.2   5.124   87.4  0.0829   62.5  0.4277  -32.0
 0.720  0.2704 -152.2   5.001   86.6  0.0847   62.5  0.4250  -32.0
 0.740  0.2688 -154.2   4.879   85.8  0.0865   62.5  0.4222  -32.0
 0.760  0.2676 -156.3   4.758   85.0  0.0883   62.5  0.4195  -32.1
 0.780  0.2667 -158.3   4.638   84.1  0.0901   62.5  0.4167  -32.1
 0.800  0.2662 -160.4   4.519   83.2  0.0919   62.5  0.4140  -32.1
 0.820  0.2646 -162.0   4.423   82.5  0.0937   62.6  0.4118  -32.2
 0.840  0.2631 -163.6   4.328   81.8  0.0955   62.7  0.4096  -32.2
 0.860  0.2619 -165.2   4.234   81.0  0.0973   62.8  0.4073  -32.3
 0.880  0.2608 -166.8   4.141   80.2  0.0991   62.9  0.4051  -32.3
 0.900  0.2600 -168.4   4.048   79.4  0.1009   63.0  0.4029  -32.4
 0.920  0.2597 -170.2   3.973   78.8  0.1028   63.0  0.4010  -32.5
 0.940  0.2596 -171.9   3.899   78.1  0.1047   63.1  0.3990  -32.6
 0.960  0.2598 -173.7   3.826   77.4  0.1065   63.1  0.3971  -32.7
 0.980  0.2602 -175.4   3.752   76.7  0.1084   63.2  0.3951  -32.8
 1.000  0.2609 -177.2   3.680   76.0  0.1103   63.2  0.3932  -32.9
 1.020  0.2612 -178.5   3.620   75.4  0.1122   63.2  0.3917  -33.1
 1.040  0.2617 -179.8   3.561   74.8  0.1141   63.2  0.3902  -33.2
 1.060  0.2624  178.9   3.502   74.2  0.1159   63.2  0.3886  -33.4
 1.080  0.2631  177.6   3.444   73.6  0.1178   63.2  0.3871  -33.5
 1.100  0.2640  176.3   3.386   72.9  0.1197   63.2  0.3856  -33.7
 1.120  0.2642  175.0   3.333   72.3  0.1216   63.2  0.3841  -33.9
 1.140  0.2646  173.7   3.281   71.7  0.1234   63.2  0.3826  -34.1
 1.160  0.2650  172.4   3.229   71.0  0.1253   63.1  0.3811  -34.2
 1.180  0.2657  171.2   3.178   70.4  0.1271   63.1  0.3797  -34.4
 1.200  0.2664  169.9   3.127   69.7  0.1290   63.1  0.3782  -34.6
 1.220  0.2660  168.8   3.081   69.2  0.1309   63.0  0.3770  -34.8
 1.240  0.2657  167.7   3.035   68.6  0.1328   62.9  0.3759  -35.0
 1.260  0.2654  166.6   2.990   68.1  0.1348   62.9  0.3747  -35.2
 1.280  0.2653  165.5   2.945   67.5  0.1367   62.8  0.3736  -35.4
 1.300  0.2653  164.4   2.900   66.9  0.1386   62.7  0.3724  -35.6
 1.320  0.2670  163.4   2.862   66.4  0.1404   62.6  0.3714  -35.9
 1.340  0.2688  162.4   2.824   65.9  0.1422   62.6  0.3705  -36.1
 1.360  0.2706  161.5   2.786   65.3  0.1441   62.5  0.3695  -36.4
 1.380  0.2725  160.5   2.748   64.8  0.1459   62.5  0.3685  -36.6
 1.400  0.2745  159.6   2.711   64.2  0.1477   62.4  0.3676  -36.9
 1.420  0.2743  158.9   2.682   63.7  0.1497   62.3  0.3668  -37.1
 1.440  0.2742  158.2   2.653   63.2  0.1517   62.2  0.3661  -37.4
 1.460  0.2741  157.4   2.624   62.7  0.1538   62.0  0.3653  -37.6
 1.480  0.2740  156.7   2.595   62.1  0.1558   61.9  0.3645  -37.9
 1.500  0.2740  156.0   2.567   61.6  0.1578   61.8  0.3638  -38.1
 1.520  0.2759  154.8   2.535   61.0  0.1597   61.7  0.3628  -38.4
 1.540  0.2780  153.7   2.503   60.4  0.1616   61.6  0.3618  -38.6
 1.560  0.2801  152.5   2.471   59.8  0.1634   61.4  0.3608  -38.9
 1.580  0.2824  151.4   2.439   59.2  0.1653   61.3  0.3598  -39.1
 1.600  0.2848  150.3   2.408   58.6  0.1672   61.2  0.3588  -39.4
 1.620  0.2863  149.2   2.383   58.1  0.1691   61.1  0.3576  -39.7
 1.640  0.2878  148.2   2.358   57.6  0.1709   61.0  0.3565  -39.9
 1.660  0.2895  147.1   2.333   57.0  0.1728   60.9  0.3554  -40.2
 1.680  0.2913  146.1   2.308   56.5  0.1746   60.8  0.3542  -40.4
 1.700  0.2931  145.1   2.284   55.9  0.1765   60.7  0.3531  -40.7
 1.720  0.2952  144.3   2.263   55.5  0.1785   60.6  0.3520  -41.1
 1.740  0.2973  143.4   2.242   55.0  0.1806   60.4  0.3509  -41.4
 1.760  0.2995  142.6   2.222   54.5  0.1826   60.3  0.3498  -41.8
 1.780  0.3017  141.8   2.201   54.1  0.1847   60.1  0.3488  -42.1
 1.800  0.3040  141.0   2.181   53.6  0.1867   60.0  0.3477  -42.5
 1.820  0.3047  140.4   2.161   53.1  0.1888   59.9  0.3464  -42.8
 1.840  0.3054  139.8   2.142   52.6  0.1908   59.8  0.3450  -43.2
 1.860  0.3061  139.1   2.123   52.1  0.1929   59.6  0.3437  -43.5
 1.880  0.3069  138.5   2.104   51.5  0.1949   59.5  0.3424  -43.9
 1.900  0.3077  137.9   2.085   51.0  0.1970   59.4  0.3411  -44.2
 1.920  0.3094  137.2   2.065   50.5  0.1989   59.2  0.3402  -44.6
 1.940  0.3111  136.5   2.046   50.1  0.2008   59.1  0.3393  -44.9
 1.960  0.3129  135.8   2.026   49.6  0.2028   58.9  0.3385  -45.3
 1.980  0.3147  135.2   2.007   49.1  0.2047   58.8  0.3376  -45.6
 2.000  0.3166  134.5   1.988   48.6  0.2066   58.6  0.3368  -46.0
 2.020  0.3179  133.8   1.972   48.2  0.2085   58.4  0.3355  -46.4
 2.040  0.3193  133.2   1.957   47.7  0.2105   58.2  0.3341  -46.8
 2.060  0.3207  132.5   1.941   47.3  0.2124   58.1  0.3328  -47.1
 2.080  0.3222  131.9   1.926   46.8  0.2144   57.9  0.3315  -47.5
 2.100  0.3237  131.3   1.911   46.4  0.2163   57.7  0.3302  -47.9
 2.120  0.3253  130.6   1.896   45.9  0.2183   57.5  0.3289  -48.3
 2.140  0.3268  130.0   1.881   45.5  0.2202   57.4  0.3277  -48.7
 2.160  0.3285  129.4   1.866   45.0  0.2222   57.2  0.3264  -49.1
 2.180  0.3301  128.8   1.852   44.5  0.2241   57.1  0.3252  -49.5
 2.200  0.3318  128.2   1.837   44.0  0.2261   56.9  0.3240  -49.9
 2.220  0.3338  127.6   1.824   43.6  0.2281   56.7  0.3223  -50.3
 2.240  0.3359  127.1   1.812   43.1  0.2302   56.5  0.3207  -50.7
 2.260  0.3379  126.5   1.799   42.7  0.2322   56.3  0.3191  -51.1
 2.280  0.3400  126.0   1.787   42.2  0.2343   56.1  0.3174  -51.5
 2.300  0.3422  125.4   1.775   41.7  0.2363   56.0  0.3158  -51.9
 2.320  0.3443  124.9   1.763   41.3  0.2384   55.8  0.3143  -52.3
 2.340  0.3465  124.3   1.751   40.8  0.2404   55.6  0.3127  -52.7
 2.360  0.3488  123.8   1.739   40.3  0.2425   55.4  0.3111  -53.1
 2.380  0.3510  123.3   1.728   39.8  0.2445   55.3  0.3096  -53.6
 2.400  0.3533  122.8   1.716   39.3  0.2466   55.1  0.3081  -54.0
 2.420  0.3553  122.1   1.705   38.9  0.2486   54.9  0.3066  -54.4
 2.440  0.3574  121.5   1.694   38.5  0.2505   54.7  0.3051  -54.9
 2.460  0.3595  120.9   1.683   38.1  0.2525   54.5  0.3037  -55.3
 2.480  0.3617  120.2   1.672   37.6  0.2544   54.3  0.3022  -55.7
 2.500  0.3639  119.6   1.661   37.2  0.2564   54.1  0.3008  -56.2
 2.520  0.3662  119.0   1.650   36.8  0.2584   53.9  0.2994  -56.6
 2.540  0.3685  118.4   1.639   36.3  0.2604   53.7  0.2980  -57.1
 2.560  0.3708  117.8   1.629   35.9  0.2623   53.6  0.2967  -57.6
 2.580  0.3732  117.2   1.618   35.5  0.2643   53.4  0.2953  -58.0
 2.600  0.3756  116.6   1.608   35.0  0.2663   53.2  0.2940  -58.5
 2.620  0.3774  116.1   1.599   34.6  0.2684   53.0  0.2923  -59.0
 2.640  0.3791  115.6   1.589   34.3  0.2704   52.8  0.2906  -59.6
 2.660  0.3809  115.2   1.580   33.9  0.2725   52.6  0.2889  -60.1
 2.680  0.3828  114.7   1.571   33.5  0.2745   52.4  0.2872  -60.7
 2.700  0.3846  114.2   1.562   33.1  0.2766   52.2  0.2856  -61.2
 2.720  0.3865  113.8   1.553   32.7  0.2787   52.0  0.2840  -61.8
 2.740  0.3884  113.3   1.544   32.3  0.2808   51.8  0.2824  -62.4
 2.760  0.3904  112.9   1.535   31.9  0.2828   51.6  0.2809  -62.9
 2.780  0.3923  112.4   1.526   31.5  0.2849   51.4  0.2794  -63.5
 2.800  0.3943  112.0   1.517   31.1  0.2870   51.2  0.2779  -64.1
 2.820  0.3965  111.6   1.508   30.7  0.2889   51.0  0.2761  -64.6
 2.840  0.3988  111.2   1.500   30.3  0.2908   50.7  0.2743  -65.2
 2.860  0.4010  110.8   1.492   29.9  0.2927   50.5  0.2725  -65.7
 2.880  0.4033  110.4   1.483   29.5  0.2946   50.3  0.2707  -66.3
 2.900  0.4056  110.0   1.475   29.1  0.2965   50.1  0.2690  -66.9
 2.920  0.4079  109.7   1.467   28.6  0.2984   49.8  0.2673  -67.4
 2.940  0.4103  109.3   1.459   28.2  0.3003   49.6  0.2656  -68.0
 2.960  0.4126  108.9   1.451   27.8  0.3022   49.4  0.2639  -68.6
 2.980  0.4150  108.6   1.443   27.3  0.3042   49.2  0.2623  -69.2
 3.000  0.4174  108.2   1.435   26.9  0.3061   49.0  0.2607  -69.8
 3.100  0.4285  106.1   1.399   25.2  0.3157   47.7  0.2504  -73.2
 3.200  0.4402  104.2   1.364   23.5  0.3255   46.6  0.2410  -76.8
 3.300  0.4523  102.3   1.330   21.6  0.3354   45.4  0.2327  -80.8
 3.400  0.4649  100.6   1.298   19.6  0.3455   44.4  0.2256  -85.0
 3.500  0.4779   98.9   1.267   17.6  0.3556   43.4  0.2197  -89.4
 3.600  0.4869   97.3   1.240   16.0  0.3645   42.0  0.2101  -94.1
 3.700  0.4963   95.7   1.215   14.4  0.3736   40.7  0.2021  -99.3
 3.800  0.5060   94.2   1.190   12.7  0.3829   39.5  0.1958 -104.8
 3.900  0.5160   92.8   1.166   10.9  0.3923   38.3  0.1915 -110.7
 4.000  0.5264   91.4   1.144    9.1  0.4019   37.2  0.1892 -116.7
 4.100  0.5351   90.1   1.122    7.7  0.4101   35.8  0.1842 -122.6
 4.200  0.5441   88.8   1.100    6.2  0.4186   34.5  0.1813 -128.8
 4.300  0.5533   87.5   1.080    4.7  0.4273   33.2  0.1805 -135.2
 4.400  0.5628   86.3   1.060    3.1  0.4362   32.0  0.1820 -141.5
 4.500  0.5726   85.1   1.041    1.4  0.4453   30.8  0.1856 -147.6
 4.600  0.5792   83.8   1.024    0.1  0.4527   29.5  0.1867 -153.3
 4.700  0.5861   82.6   1.007   -1.2  0.4604   28.2  0.1897 -158.9
 4.800  0.5933   81.4   0.991   -2.6  0.4682   27.0  0.1944 -164.3
 4.900  0.6007   80.2   0.976   -4.0  0.4763   25.8  0.2008 -169.4
 5.000  0.6084   79.1   0.961   -5.5  0.4846   24.6  0.2086 -174.1
 5.100  0.6138   78.0   0.944   -6.6  0.4909   23.2  0.2137 -179.1
 5.200  0.6194   76.9   0.928   -7.7  0.4975   21.8  0.2204  176.1
 5.300  0.6252   75.8   0.912   -8.9  0.5043   20.5  0.2285  171.7
 5.400  0.6312   74.7   0.897  -10.1  0.5114   19.2  0.2378  167.6
 5.500  0.6375   73.7   0.882  -11.4  0.5188   17.9  0.2483  163.8
 5.600  0.6420   72.6   0.868  -12.4  0.5229   16.4  0.2520  159.6
 5.700  0.6467   71.4   0.854  -13.5  0.5273   15.0  0.2569  155.6
 5.800  0.6517   70.3   0.840  -14.5  0.5320   13.6  0.2631  151.8
 5.900  0.6569   69.3   0.827  -15.6  0.5371   12.2  0.2704  148.1
 6.000  0.6623   68.2   0.814  -16.8  0.5425   10.8  0.2787  144.7
!
!  f       NFmin   Gammaopt  rn/50
! GHz       dB    MAG  ANG    -
!
! noise parameter not available yet for this operation point!
!
! (c) 2015  Infineon Technologies AG, Munich
