! Infineon Technologies  Discrete & RF Semiconductors
! BFR182
! VCE =  2.0 V,  IC =  12 mA
! Common Emitter S-Parameters:                            Nov 2015
# GHz  S  MA  R  50
!  f         S11            S21            S12            S22
! GHz     MAG   ANG      MAG   ANG      MAG   ANG      MAG   ANG
 0.010  0.6343   -4.8  26.821  176.1  0.0019   88.4  0.9755   -2.0
 0.015  0.6342   -6.9  26.612  174.1  0.0030   86.1  0.9714   -3.1
 0.020  0.6350   -9.0  26.436  172.1  0.0041   85.0  0.9676   -4.2
 0.025  0.6291  -11.1  26.244  170.4  0.0049   83.8  0.9625   -5.1
 0.030  0.6240  -13.3  26.076  168.6  0.0058   83.0  0.9576   -6.1
 0.035  0.6199  -15.4  25.932  166.9  0.0066   82.4  0.9530   -7.1
 0.040  0.6166  -17.6  25.813  165.1  0.0075   81.9  0.9487   -8.0
 0.045  0.6143  -19.9  25.719  163.3  0.0083   81.5  0.9447   -9.0
 0.050  0.6129  -22.1  25.651  161.5  0.0092   81.2  0.9409  -10.0
 0.055  0.6025  -23.8  25.297  160.1  0.0100   80.1  0.9321  -10.7
 0.060  0.5926  -25.6  24.958  158.7  0.0107   79.1  0.9234  -11.4
 0.065  0.5834  -27.5  24.636  157.2  0.0115   78.3  0.9148  -12.1
 0.070  0.5748  -29.4  24.330  155.7  0.0122   77.6  0.9064  -12.9
 0.075  0.5668  -31.4  24.042  154.1  0.0130   76.9  0.8982  -13.6
 0.080  0.5596  -33.4  23.772  152.5  0.0137   76.4  0.8901  -14.4
 0.085  0.5530  -35.5  23.521  150.9  0.0145   75.9  0.8822  -15.2
 0.090  0.5473  -37.6  23.290  149.2  0.0153   75.4  0.8744  -16.0
 0.095  0.5422  -39.8  23.078  147.5  0.0160   75.0  0.8668  -16.8
 0.100  0.5380  -42.0  22.887  145.8  0.0168   74.6  0.8594  -17.6
 0.105  0.5289  -43.4  22.515  144.7  0.0174   73.8  0.8504  -18.0
 0.110  0.5201  -44.8  22.151  143.6  0.0181   73.1  0.8415  -18.5
 0.115  0.5117  -46.3  21.797  142.4  0.0188   72.4  0.8327  -18.9
 0.120  0.5036  -47.8  21.452  141.2  0.0194   71.8  0.8238  -19.4
 0.125  0.4958  -49.4  21.117  139.9  0.0201   71.2  0.8151  -19.9
 0.130  0.4885  -51.0  20.792  138.6  0.0207   70.7  0.8064  -20.4
 0.135  0.4815  -52.6  20.479  137.3  0.0214   70.2  0.7977  -20.9
 0.140  0.4750  -54.3  20.177  135.9  0.0221   69.7  0.7892  -21.4
 0.145  0.4689  -56.1  19.887  134.5  0.0227   69.2  0.7807  -21.9
 0.150  0.4632  -57.9  19.610  133.0  0.0234   68.8  0.7722  -22.4
 0.155  0.4557  -59.1  19.318  132.2  0.0239   68.6  0.7650  -22.6
 0.160  0.4483  -60.3  19.029  131.4  0.0244   68.4  0.7578  -22.8
 0.165  0.4412  -61.5  18.745  130.6  0.0249   68.3  0.7506  -23.1
 0.170  0.4342  -62.8  18.464  129.7  0.0254   68.1  0.7435  -23.3
 0.175  0.4275  -64.1  18.188  128.8  0.0259   68.0  0.7363  -23.5
 0.180  0.4211  -65.5  17.917  127.9  0.0265   67.8  0.7292  -23.8
 0.185  0.4149  -66.9  17.650  126.9  0.0270   67.7  0.7221  -24.0
 0.190  0.4089  -68.4  17.389  125.9  0.0275   67.6  0.7150  -24.3
 0.195  0.4032  -69.9  17.132  124.9  0.0280   67.4  0.7079  -24.5
 0.200  0.3978  -71.4  16.881  123.9  0.0285   67.3  0.7008  -24.8
 0.220  0.3761  -75.6  15.911  121.3  0.0303   67.0  0.6779  -25.1
 0.240  0.3566  -80.3  14.978  118.3  0.0320   66.6  0.6551  -25.5
 0.260  0.3394  -84.4  14.146  115.8  0.0338   66.6  0.6355  -25.8
 0.280  0.3235  -87.8  13.394  113.7  0.0356   66.8  0.6192  -25.9
 0.300  0.3089  -91.6  12.661  111.4  0.0374   67.0  0.6028  -26.1
 0.320  0.2957  -94.5  12.125  110.1  0.0390   67.1  0.5922  -26.0
 0.340  0.2834  -97.6  11.596  108.7  0.0406   67.2  0.5816  -25.9
 0.360  0.2719 -101.0  11.075  107.2  0.0422   67.3  0.5710  -25.8
 0.380  0.2615 -104.7  10.562  105.5  0.0438   67.3  0.5604  -25.7
 0.400  0.2523 -108.7  10.060  103.6  0.0454   67.4  0.5498  -25.6
 0.420  0.2440 -111.1   9.684  102.5  0.0469   67.7  0.5429  -25.5
 0.440  0.2363 -113.7   9.312  101.2  0.0484   68.0  0.5361  -25.4
 0.450  0.2326 -115.1   9.128  100.6  0.0491   68.1  0.5326  -25.4
 0.460  0.2290 -116.5   8.945   99.9  0.0499   68.2  0.5292  -25.4
 0.480  0.2223 -119.4   8.583   98.5  0.0514   68.5  0.5224  -25.3
 0.500  0.2162 -122.5   8.227   96.9  0.0529   68.7  0.5155  -25.2
 0.520  0.2119 -124.8   7.978   96.1  0.0547   68.8  0.5112  -25.1
 0.540  0.2079 -127.2   7.730   95.2  0.0564   68.9  0.5069  -25.0
 0.560  0.2043 -129.7   7.485   94.3  0.0582   69.0  0.5026  -25.0
 0.580  0.2012 -132.3   7.241   93.3  0.0599   69.0  0.4983  -24.9
 0.600  0.1984 -135.0   7.000   92.2  0.0617   69.1  0.4940  -24.8
 0.620  0.1942 -137.2   6.815   91.5  0.0634   69.2  0.4912  -24.8
 0.640  0.1904 -139.4   6.630   90.7  0.0652   69.3  0.4885  -24.8
 0.660  0.1868 -141.8   6.447   89.8  0.0669   69.4  0.4857  -24.8
 0.680  0.1836 -144.2   6.266   88.9  0.0687   69.5  0.4830  -24.8
 0.700  0.1807 -146.7   6.086   88.0  0.0704   69.6  0.4802  -24.8
 0.720  0.1794 -148.8   5.938   87.3  0.0721   69.5  0.4781  -24.8
 0.740  0.1783 -150.8   5.792   86.6  0.0739   69.5  0.4760  -24.8
 0.760  0.1774 -152.9   5.646   85.8  0.0756   69.4  0.4740  -24.9
 0.780  0.1768 -155.1   5.502   85.0  0.0774   69.4  0.4719  -24.9
 0.800  0.1764 -157.2   5.358   84.2  0.0791   69.3  0.4698  -24.9
 0.820  0.1742 -158.9   5.244   83.6  0.0809   69.4  0.4685  -25.0
 0.840  0.1721 -160.7   5.131   82.9  0.0827   69.4  0.4672  -25.1
 0.860  0.1702 -162.5   5.018   82.3  0.0845   69.5  0.4659  -25.1
 0.880  0.1684 -164.4   4.906   81.5  0.0863   69.5  0.4646  -25.2
 0.900  0.1669 -166.3   4.795   80.8  0.0881   69.6  0.4633  -25.3
 0.920  0.1672 -168.5   4.708   80.2  0.0897   69.6  0.4619  -25.4
 0.940  0.1678 -170.6   4.621   79.6  0.0914   69.6  0.4606  -25.5
 0.960  0.1686 -172.7   4.534   79.0  0.0930   69.6  0.4592  -25.6
 0.980  0.1696 -174.8   4.448   78.4  0.0947   69.6  0.4579  -25.7
 1.000  0.1709 -176.9   4.363   77.7  0.0963   69.6  0.4565  -25.8
 1.020  0.1706 -178.6   4.290   77.2  0.0982   69.5  0.4554  -26.0
 1.040  0.1704  179.8   4.217   76.6  0.1000   69.5  0.4543  -26.2
 1.060  0.1704  178.1   4.145   76.0  0.1019   69.4  0.4532  -26.3
 1.080  0.1705  176.5   4.073   75.4  0.1037   69.4  0.4522  -26.5
 1.100  0.1707  174.8   4.002   74.8  0.1056   69.3  0.4511  -26.7
 1.120  0.1715  173.4   3.939   74.3  0.1073   69.3  0.4501  -26.9
 1.140  0.1725  172.0   3.877   73.7  0.1090   69.2  0.4492  -27.1
 1.160  0.1735  170.6   3.815   73.1  0.1108   69.2  0.4482  -27.2
 1.180  0.1747  169.2   3.753   72.5  0.1125   69.1  0.4473  -27.4
 1.200  0.1759  167.9   3.692   71.9  0.1142   69.1  0.4463  -27.6
 1.220  0.1759  166.7   3.636   71.4  0.1160   69.0  0.4454  -27.8
 1.240  0.1759  165.6   3.580   71.0  0.1178   68.8  0.4446  -28.0
 1.260  0.1760  164.4   3.524   70.5  0.1197   68.7  0.4438  -28.2
 1.280  0.1762  163.3   3.468   70.0  0.1215   68.5  0.4429  -28.4
 1.300  0.1765  162.1   3.413   69.5  0.1233   68.4  0.4421  -28.6
 1.320  0.1776  160.8   3.367   69.0  0.1250   68.3  0.4413  -28.8
 1.340  0.1789  159.6   3.322   68.5  0.1267   68.2  0.4406  -29.1
 1.360  0.1802  158.4   3.277   68.0  0.1285   68.2  0.4398  -29.3
 1.380  0.1815  157.2   3.232   67.5  0.1302   68.1  0.4390  -29.6
 1.400  0.1830  156.0   3.187   67.0  0.1319   68.0  0.4383  -29.8
 1.420  0.1830  155.0   3.151   66.5  0.1338   67.9  0.4376  -30.0
 1.440  0.1830  154.1   3.116   66.1  0.1357   67.8  0.4369  -30.3
 1.460  0.1831  153.1   3.080   65.6  0.1375   67.6  0.4362  -30.5
 1.480  0.1832  152.2   3.045   65.1  0.1394   67.5  0.4356  -30.8
 1.500  0.1834  151.2   3.010   64.6  0.1413   67.4  0.4349  -31.0
 1.520  0.1861  150.1   2.973   64.1  0.1431   67.3  0.4340  -31.2
 1.540  0.1888  149.1   2.936   63.6  0.1449   67.1  0.4332  -31.5
 1.560  0.1916  148.1   2.899   63.0  0.1466   67.0  0.4324  -31.7
 1.580  0.1944  147.1   2.863   62.5  0.1484   66.8  0.4315  -32.0
 1.600  0.1973  146.1   2.827   61.9  0.1502   66.7  0.4307  -32.2
 1.620  0.1983  145.1   2.796   61.4  0.1520   66.6  0.4298  -32.5
 1.640  0.1993  144.0   2.766   61.0  0.1538   66.5  0.4289  -32.7
 1.660  0.2004  143.0   2.736   60.5  0.1555   66.3  0.4280  -33.0
 1.680  0.2015  142.0   2.706   60.0  0.1573   66.2  0.4272  -33.2
 1.700  0.2027  141.0   2.676   59.5  0.1591   66.1  0.4263  -33.5
 1.720  0.2046  140.3   2.652   59.1  0.1610   65.9  0.4254  -33.8
 1.740  0.2065  139.6   2.627   58.7  0.1628   65.8  0.4245  -34.1
 1.760  0.2085  138.9   2.603   58.3  0.1647   65.6  0.4237  -34.4
 1.780  0.2105  138.2   2.579   57.8  0.1665   65.5  0.4228  -34.7
 1.800  0.2125  137.5   2.555   57.4  0.1684   65.3  0.4220  -35.0
 1.820  0.2143  136.8   2.532   57.0  0.1703   65.2  0.4210  -35.3
 1.840  0.2161  136.0   2.510   56.5  0.1722   65.0  0.4199  -35.6
 1.860  0.2180  135.3   2.487   56.0  0.1742   64.9  0.4189  -35.9
 1.880  0.2199  134.6   2.465   55.6  0.1761   64.7  0.4179  -36.2
 1.900  0.2218  133.9   2.443   55.1  0.1780   64.6  0.4169  -36.5
 1.920  0.2233  133.2   2.420   54.7  0.1798   64.4  0.4160  -36.8
 1.940  0.2249  132.6   2.397   54.2  0.1817   64.3  0.4151  -37.1
 1.960  0.2265  132.0   2.375   53.7  0.1835   64.1  0.4142  -37.4
 1.980  0.2281  131.3   2.352   53.3  0.1854   64.0  0.4134  -37.7
 2.000  0.2298  130.7   2.330   52.8  0.1872   63.8  0.4125  -38.0
 2.020  0.2310  130.1   2.311   52.4  0.1891   63.6  0.4114  -38.3
 2.040  0.2322  129.4   2.292   52.0  0.1909   63.5  0.4102  -38.7
 2.060  0.2335  128.8   2.273   51.6  0.1928   63.3  0.4091  -39.0
 2.080  0.2348  128.2   2.254   51.1  0.1947   63.1  0.4080  -39.3
 2.100  0.2361  127.6   2.235   50.7  0.1966   63.0  0.4069  -39.7
 2.120  0.2375  127.0   2.217   50.2  0.1985   62.8  0.4058  -40.0
 2.140  0.2388  126.4   2.198   49.8  0.2003   62.6  0.4048  -40.4
 2.160  0.2402  125.8   2.180   49.3  0.2022   62.5  0.4037  -40.7
 2.180  0.2417  125.3   2.162   48.9  0.2041   62.3  0.4027  -41.1
 2.200  0.2431  124.7   2.144   48.4  0.2060   62.2  0.4017  -41.4
 2.220  0.2452  124.1   2.129   48.0  0.2079   62.0  0.4003  -41.7
 2.240  0.2473  123.4   2.115   47.6  0.2097   61.8  0.3990  -42.0
 2.260  0.2494  122.8   2.101   47.1  0.2116   61.7  0.3976  -42.4
 2.280  0.2516  122.2   2.087   46.7  0.2135   61.5  0.3963  -42.7
 2.300  0.2538  121.6   2.072   46.3  0.2154   61.3  0.3950  -43.0
 2.320  0.2560  121.0   2.059   45.8  0.2173   61.1  0.3937  -43.4
 2.340  0.2582  120.5   2.045   45.4  0.2191   61.0  0.3924  -43.7
 2.360  0.2605  119.9   2.031   44.9  0.2210   60.8  0.3911  -44.0
 2.380  0.2628  119.3   2.017   44.5  0.2229   60.7  0.3899  -44.4
 2.400  0.2651  118.8   2.004   44.0  0.2248   60.5  0.3886  -44.7
 2.420  0.2675  118.3   1.991   43.6  0.2267   60.3  0.3871  -45.1
 2.440  0.2699  117.8   1.977   43.3  0.2286   60.1  0.3855  -45.5
 2.460  0.2723  117.4   1.964   42.9  0.2304   59.8  0.3840  -45.8
 2.480  0.2748  116.9   1.951   42.5  0.2323   59.6  0.3825  -46.2
 2.500  0.2772  116.4   1.938   42.2  0.2342   59.4  0.3811  -46.6
 2.520  0.2797  116.0   1.925   41.8  0.2361   59.2  0.3796  -47.0
 2.540  0.2822  115.6   1.912   41.4  0.2380   59.0  0.3782  -47.4
 2.560  0.2847  115.1   1.899   41.0  0.2399   58.8  0.3768  -47.8
 2.580  0.2873  114.7   1.887   40.6  0.2418   58.6  0.3754  -48.2
 2.600  0.2898  114.3   1.874   40.2  0.2437   58.4  0.3740  -48.6
 2.620  0.2914  113.9   1.863   39.8  0.2456   58.2  0.3725  -49.0
 2.640  0.2931  113.4   1.853   39.5  0.2476   58.0  0.3711  -49.4
 2.660  0.2948  113.0   1.843   39.1  0.2495   57.8  0.3697  -49.8
 2.680  0.2965  112.6   1.832   38.7  0.2514   57.6  0.3683  -50.2
 2.700  0.2982  112.2   1.822   38.4  0.2534   57.4  0.3669  -50.6
 2.720  0.2999  111.8   1.812   38.0  0.2553   57.2  0.3655  -51.0
 2.740  0.3017  111.4   1.802   37.6  0.2573   57.0  0.3641  -51.4
 2.760  0.3034  111.0   1.792   37.2  0.2592   56.9  0.3628  -51.9
 2.780  0.3052  110.6   1.782   36.8  0.2611   56.7  0.3615  -52.3
 2.800  0.3070  110.2   1.772   36.4  0.2631   56.5  0.3602  -52.7
 2.820  0.3093  109.8   1.762   36.0  0.2650   56.3  0.3584  -53.1
 2.840  0.3116  109.4   1.752   35.6  0.2668   56.1  0.3567  -53.5
 2.860  0.3139  109.0   1.742   35.2  0.2687   55.8  0.3550  -54.0
 2.880  0.3162  108.6   1.732   34.9  0.2705   55.6  0.3533  -54.4
 2.900  0.3185  108.2   1.722   34.5  0.2724   55.4  0.3516  -54.8
 2.920  0.3209  107.8   1.712   34.1  0.2743   55.2  0.3499  -55.3
 2.940  0.3232  107.4   1.703   33.6  0.2762   55.0  0.3483  -55.7
 2.960  0.3256  107.0   1.693   33.2  0.2780   54.8  0.3467  -56.2
 2.980  0.3280  106.7   1.683   32.8  0.2799   54.6  0.3451  -56.6
 3.000  0.3304  106.3   1.674   32.4  0.2818   54.4  0.3435  -57.1
 3.100  0.3421  104.6   1.633   30.7  0.2912   53.2  0.3332  -59.5
 3.200  0.3540  103.0   1.593   29.0  0.3007   52.1  0.3235  -62.1
 3.300  0.3662  101.6   1.554   27.1  0.3103   51.0  0.3145  -64.9
 3.400  0.3786  100.2   1.518   25.2  0.3200   50.0  0.3062  -67.8
 3.500  0.3912   98.9   1.483   23.2  0.3298   49.1  0.2988  -70.8
 3.600  0.4020   97.6   1.452   21.6  0.3390   47.8  0.2878  -74.1
 3.700  0.4130   96.3   1.423   20.0  0.3483   46.6  0.2777  -77.6
 3.800  0.4242   95.1   1.395   18.2  0.3578   45.4  0.2688  -81.3
 3.900  0.4356   94.0   1.368   16.5  0.3674   44.3  0.2611  -85.3
 4.000  0.4471   92.9   1.342   14.6  0.3772   43.3  0.2547  -89.5
 4.100  0.4574   91.8   1.317   13.1  0.3860   41.9  0.2450  -93.6
 4.200  0.4678   90.7   1.293   11.6  0.3949   40.6  0.2367  -98.0
 4.300  0.4784   89.7   1.271   10.0  0.4041   39.3  0.2298 -102.6
 4.400  0.4891   88.7   1.249    8.3  0.4135   38.1  0.2246 -107.6
 4.500  0.5000   87.8   1.228    6.6  0.4230   37.0  0.2211 -112.7
 4.600  0.5083   86.6   1.208    5.2  0.4312   35.7  0.2153 -117.5
 4.700  0.5169   85.4   1.189    3.7  0.4397   34.4  0.2111 -122.5
 4.800  0.5257   84.3   1.170    2.2  0.4483   33.1  0.2086 -127.7
 4.900  0.5346   83.2   1.153    0.6  0.4572   31.9  0.2078 -132.9
 5.000  0.5438   82.1   1.136   -1.0  0.4662   30.8  0.2088 -138.2
 5.100  0.5513   81.0   1.115   -2.2  0.4735   29.4  0.2070 -143.6
 5.200  0.5590   80.0   1.095   -3.5  0.4810   28.0  0.2071 -149.0
 5.300  0.5668   79.0   1.076   -4.9  0.4889   26.7  0.2091 -154.4
 5.400  0.5749   78.0   1.057   -6.3  0.4970   25.4  0.2128 -159.7
 5.500  0.5831   77.0   1.039   -7.7  0.5053   24.1  0.2183 -164.7
 5.600  0.5907   75.8   1.022   -8.9  0.5105   22.6  0.2172 -169.6
 5.700  0.5985   74.7   1.005  -10.2  0.5160   21.1  0.2177 -174.4
 5.800  0.6066   73.6   0.989  -11.5  0.5218   19.7  0.2198 -179.3
 5.900  0.6148   72.5   0.973  -12.9  0.5280   18.3  0.2234  176.0
 6.000  0.6233   71.5   0.958  -14.3  0.5345   16.9  0.2284  171.5
!
!  f       NFmin   Gammaopt  rn/50
! GHz       dB    MAG  ANG    -
!
! noise parameter not available yet for this operation point!
!
! (c) 2015  Infineon Technologies AG, Munich
