! Infineon Technologies  Discrete & RF Semiconductors
! BFR106
! VCE =  6.0 V,  IC =  2.0 mA
! Common Emitter S-Parameters:                            Nov 2015
# GHz  S  MA  R  50
!  f         S11            S21            S12            S22
! GHz     MAG   ANG      MAG   ANG      MAG   ANG      MAG   ANG
 0.010  0.9361   -6.0   7.083  175.6  0.0056   88.3  0.9991   -1.7
 0.015  0.9330   -8.8   7.049  174.2  0.0085   84.7  0.9986   -2.6
 0.020  0.9321  -11.6   7.020  172.8  0.0114   82.9  0.9984   -3.6
 0.025  0.9242  -14.4   6.952  171.0  0.0141   80.2  0.9932   -4.4
 0.030  0.9185  -17.2   6.892  169.1  0.0169   78.4  0.9882   -5.2
 0.035  0.9150  -20.0   6.839  167.2  0.0197   77.1  0.9834   -6.0
 0.040  0.9137  -22.8   6.793  165.3  0.0224   76.2  0.9788   -6.8
 0.045  0.9147  -25.7   6.755  163.4  0.0252   75.4  0.9743   -7.6
 0.050  0.9179  -28.5   6.725  161.4  0.0280   74.8  0.9701   -8.4
 0.055  0.9058  -30.9   6.649  160.0  0.0302   72.6  0.9638   -9.0
 0.060  0.8952  -33.3   6.578  158.6  0.0324   70.7  0.9576   -9.7
 0.065  0.8864  -35.8   6.510  157.2  0.0347   69.1  0.9515  -10.3
 0.070  0.8793  -38.4   6.446  155.7  0.0370   67.6  0.9455  -11.0
 0.075  0.8739  -41.0   6.387  154.2  0.0393   66.3  0.9397  -11.6
 0.080  0.8704  -43.6   6.332  152.7  0.0416   65.2  0.9340  -12.3
 0.085  0.8687  -46.2   6.282  151.2  0.0439   64.2  0.9284  -13.0
 0.090  0.8688  -48.9   6.236  149.6  0.0463   63.3  0.9230  -13.7
 0.095  0.8707  -51.5   6.195  148.0  0.0486   62.4  0.9177  -14.4
 0.100  0.8745  -54.1   6.159  146.4  0.0510   61.7  0.9125  -15.1
 0.105  0.8636  -56.1   6.066  145.2  0.0525   60.3  0.9058  -15.5
 0.110  0.8538  -58.1   5.976  143.9  0.0540   59.0  0.8991  -16.0
 0.115  0.8451  -60.2   5.889  142.6  0.0555   57.7  0.8925  -16.5
 0.120  0.8376  -62.4   5.805  141.2  0.0571   56.6  0.8860  -16.9
 0.125  0.8312  -64.5   5.725  139.8  0.0586   55.5  0.8795  -17.4
 0.130  0.8261  -66.7   5.648  138.4  0.0602   54.4  0.8731  -17.9
 0.135  0.8221  -69.0   5.575  136.9  0.0618   53.4  0.8668  -18.4
 0.140  0.8195  -71.2   5.505  135.4  0.0635   52.5  0.8605  -18.9
 0.145  0.8181  -73.4   5.440  133.9  0.0651   51.6  0.8543  -19.4
 0.150  0.8179  -75.7   5.378  132.3  0.0668   50.7  0.8481  -19.9
 0.155  0.8112  -77.4   5.307  131.4  0.0678   49.9  0.8424  -20.2
 0.160  0.8052  -79.1   5.238  130.6  0.0688   49.2  0.8368  -20.4
 0.165  0.8000  -80.9   5.170  129.6  0.0698   48.4  0.8312  -20.7
 0.170  0.7956  -82.7   5.103  128.7  0.0708   47.7  0.8256  -21.0
 0.175  0.7919  -84.5   5.038  127.8  0.0719   47.1  0.8200  -21.3
 0.180  0.7890  -86.3   4.974  126.8  0.0729   46.4  0.8144  -21.5
 0.185  0.7869  -88.1   4.912  125.8  0.0740   45.7  0.8089  -21.8
 0.190  0.7856  -89.9   4.851  124.7  0.0750   45.1  0.8034  -22.1
 0.195  0.7851  -91.8   4.792  123.7  0.0761   44.5  0.7979  -22.4
 0.200  0.7854  -93.6   4.734  122.6  0.0772   43.9  0.7924  -22.7
 0.220  0.7661  -99.2   4.481  119.3  0.0795   41.3  0.7730  -23.5
 0.240  0.7543 -105.0   4.245  115.6  0.0819   38.9  0.7538  -24.3
 0.260  0.7442 -110.0   4.027  112.5  0.0838   37.0  0.7376  -25.0
 0.280  0.7330 -114.4   3.819  110.0  0.0851   35.6  0.7244  -25.6
 0.300  0.7262 -118.8   3.619  107.3  0.0864   34.2  0.7112  -26.2
 0.320  0.7159 -122.3   3.468  105.6  0.0870   33.2  0.7023  -26.6
 0.340  0.7084 -125.9   3.321  103.7  0.0877   32.2  0.6935  -27.0
 0.360  0.7037 -129.5   3.178  101.6  0.0884   31.2  0.6847  -27.4
 0.380  0.7018 -133.2   3.040   99.4  0.0891   30.2  0.6759  -27.8
 0.400  0.7029 -136.9   2.906   96.9  0.0898   29.2  0.6672  -28.2
 0.420  0.6977 -139.4   2.800   95.4  0.0898   28.8  0.6619  -28.6
 0.440  0.6939 -142.0   2.695   93.8  0.0898   28.4  0.6566  -29.0
 0.450  0.6925 -143.2   2.644   93.0  0.0898   28.2  0.6539  -29.2
 0.460  0.6914 -144.5   2.593   92.1  0.0898   28.1  0.6513  -29.4
 0.480  0.6903 -147.1   2.494   90.2  0.0899   27.7  0.6461  -29.9
 0.500  0.6907 -149.7   2.397   88.2  0.0899   27.3  0.6409  -30.3
 0.520  0.6874 -151.8   2.327   87.0  0.0896   27.3  0.6378  -30.8
 0.540  0.6850 -153.9   2.258   85.7  0.0892   27.4  0.6347  -31.3
 0.560  0.6835 -156.0   2.190   84.3  0.0889   27.4  0.6316  -31.8
 0.580  0.6829 -158.1   2.124   82.8  0.0885   27.5  0.6286  -32.4
 0.600  0.6833 -160.2   2.059   81.2  0.0882   27.5  0.6257  -32.9
 0.620  0.6810 -161.9   2.004   80.1  0.0879   27.8  0.6238  -33.5
 0.640  0.6793 -163.5   1.951   78.9  0.0877   28.1  0.6219  -34.0
 0.660  0.6782 -165.2   1.898   77.7  0.0874   28.3  0.6201  -34.6
 0.680  0.6776 -166.9   1.846   76.4  0.0872   28.6  0.6183  -35.1
 0.700  0.6777 -168.6   1.795   75.0  0.0869   28.9  0.6166  -35.7
 0.720  0.6770 -169.9   1.752   74.1  0.0867   29.5  0.6148  -36.3
 0.740  0.6767 -171.2   1.710   73.1  0.0864   30.1  0.6131  -36.9
 0.760  0.6767 -172.6   1.668   72.0  0.0862   30.6  0.6115  -37.4
 0.780  0.6771 -173.9   1.627   70.9  0.0860   31.2  0.6099  -38.0
 0.800  0.6779 -175.2   1.586   69.8  0.0858   31.8  0.6084  -38.6
 0.820  0.6759 -176.5   1.552   68.9  0.0856   32.7  0.6076  -39.2
 0.840  0.6743 -177.8   1.519   67.9  0.0853   33.5  0.6068  -39.8
 0.860  0.6730 -179.1   1.487   66.9  0.0851   34.4  0.6061  -40.4
 0.880  0.6721  179.5   1.455   65.8  0.0850   35.2  0.6055  -41.0
 0.900  0.6716  178.2   1.423   64.7  0.0848   36.1  0.6049  -41.6
 0.920  0.6723  177.0   1.398   63.8  0.0848   37.1  0.6042  -42.3
 0.940  0.6733  175.7   1.374   62.9  0.0848   38.2  0.6036  -43.0
 0.960  0.6746  174.5   1.349   62.0  0.0848   39.2  0.6031  -43.6
 0.980  0.6762  173.3   1.325   61.0  0.0849   40.3  0.6027  -44.3
 1.000  0.6781  172.1   1.302   60.0  0.0850   41.3  0.6024  -45.0
 1.020  0.6784  171.1   1.281   59.2  0.0854   42.5  0.6016  -45.7
 1.040  0.6789  170.0   1.261   58.4  0.0859   43.7  0.6009  -46.5
 1.060  0.6796  169.0   1.241   57.6  0.0865   44.8  0.6002  -47.2
 1.080  0.6805  167.9   1.221   56.8  0.0870   46.0  0.5997  -48.0
 1.100  0.6817  166.9   1.201   55.9  0.0876   47.1  0.5993  -48.7
 1.120  0.6823  165.9   1.183   55.2  0.0884   48.4  0.5986  -49.4
 1.140  0.6832  164.9   1.166   54.4  0.0892   49.6  0.5979  -50.2
 1.160  0.6842  163.9   1.149   53.6  0.0901   50.8  0.5974  -50.9
 1.180  0.6854  162.9   1.132   52.8  0.0910   52.0  0.5969  -51.7
 1.200  0.6869  161.9   1.115   52.0  0.0919   53.2  0.5966  -52.4
 1.220  0.6866  161.0   1.099   51.3  0.0934   54.4  0.5960  -53.1
 1.240  0.6864  160.1   1.083   50.6  0.0949   55.5  0.5954  -53.9
 1.260  0.6864  159.3   1.067   49.9  0.0964   56.5  0.5950  -54.6
 1.280  0.6865  158.4   1.051   49.2  0.0980   57.6  0.5946  -55.4
 1.300  0.6868  157.5   1.036   48.4  0.0996   58.6  0.5944  -56.1
 1.320  0.6884  156.7   1.022   47.8  0.1013   59.6  0.5944  -56.9
 1.340  0.6901  155.8   1.008   47.2  0.1029   60.7  0.5945  -57.7
 1.360  0.6920  155.0   0.994   46.5  0.1047   61.6  0.5947  -58.4
 1.380  0.6940  154.2   0.981   45.9  0.1064   62.6  0.5951  -59.2
 1.400  0.6962  153.4   0.967   45.2  0.1082   63.5  0.5955  -60.0
 1.420  0.6960  152.6   0.957   44.7  0.1106   64.3  0.5946  -60.8
 1.440  0.6960  151.7   0.947   44.2  0.1131   65.0  0.5939  -61.6
 1.460  0.6962  150.9   0.937   43.6  0.1156   65.8  0.5933  -62.4
 1.480  0.6965  150.0   0.927   43.1  0.1181   66.4  0.5928  -63.2
 1.500  0.6969  149.2   0.917   42.5  0.1206   67.1  0.5924  -64.0
 1.520  0.6975  148.4   0.905   41.9  0.1232   67.6  0.5917  -64.8
 1.540  0.6982  147.6   0.892   41.2  0.1259   68.2  0.5912  -65.7
 1.560  0.6991  146.7   0.880   40.6  0.1285   68.7  0.5908  -66.5
 1.580  0.7001  145.9   0.868   39.9  0.1311   69.1  0.5905  -67.4
 1.600  0.7013  145.1   0.856   39.2  0.1338   69.6  0.5904  -68.2
 1.620  0.7023  144.3   0.847   38.7  0.1369   70.0  0.5895  -69.1
 1.640  0.7034  143.5   0.839   38.2  0.1400   70.4  0.5888  -69.9
 1.660  0.7047  142.7   0.831   37.7  0.1431   70.7  0.5881  -70.8
 1.680  0.7061  141.9   0.822   37.1  0.1463   71.1  0.5877  -71.6
 1.700  0.7077  141.1   0.814   36.6  0.1494   71.4  0.5873  -72.5
 1.720  0.7087  140.4   0.807   36.2  0.1527   71.6  0.5870  -73.3
 1.740  0.7098  139.7   0.800   35.8  0.1561   71.8  0.5868  -74.2
 1.760  0.7110  138.9   0.793   35.4  0.1594   72.0  0.5867  -75.0
 1.780  0.7124  138.2   0.787   35.0  0.1628   72.1  0.5868  -75.9
 1.800  0.7138  137.5   0.780   34.6  0.1661   72.3  0.5870  -76.7
 1.820  0.7139  136.8   0.773   34.2  0.1698   72.4  0.5870  -77.7
 1.840  0.7141  136.0   0.767   33.7  0.1735   72.5  0.5872  -78.6
 1.860  0.7144  135.3   0.760   33.2  0.1772   72.6  0.5875  -79.6
 1.880  0.7148  134.5   0.754   32.8  0.1809   72.6  0.5880  -80.5
 1.900  0.7154  133.8   0.747   32.3  0.1846   72.7  0.5887  -81.5
 1.920  0.7158  133.2   0.740   31.9  0.1883   72.6  0.5879  -82.4
 1.940  0.7163  132.5   0.733   31.5  0.1921   72.6  0.5872  -83.4
 1.960  0.7168  131.9   0.726   31.1  0.1958   72.5  0.5867  -84.3
 1.980  0.7175  131.2   0.720   30.6  0.1996   72.5  0.5863  -85.3
 2.000  0.7182  130.6   0.713   30.2  0.2033   72.4  0.5861  -86.2
 2.020  0.7188  129.9   0.707   29.9  0.2073   72.2  0.5853  -87.1
 2.040  0.7195  129.2   0.701   29.6  0.2114   72.1  0.5846  -88.1
 2.060  0.7202  128.6   0.695   29.3  0.2154   71.9  0.5841  -89.0
 2.080  0.7211  127.9   0.690   29.0  0.2194   71.7  0.5837  -90.0
 2.100  0.7221  127.2   0.684   28.7  0.2235   71.6  0.5835  -90.9
 2.120  0.7232  126.6   0.678   28.3  0.2275   71.4  0.5835  -91.8
 2.140  0.7244  125.9   0.672   28.0  0.2316   71.3  0.5836  -92.8
 2.160  0.7257  125.2   0.666   27.7  0.2356   71.2  0.5839  -93.7
 2.180  0.7270  124.6   0.661   27.3  0.2397   71.0  0.5843  -94.7
 2.200  0.7285  123.9   0.655   27.0  0.2437   70.9  0.5849  -95.6
 2.220  0.7285  123.2   0.652   26.7  0.2478   70.5  0.5837  -96.7
 2.240  0.7285  122.6   0.649   26.5  0.2519   70.2  0.5827  -97.7
 2.260  0.7287  121.9   0.646   26.2  0.2561   69.8  0.5819  -98.8
 2.280  0.7290  121.3   0.642   26.0  0.2602   69.5  0.5813  -99.9
 2.300  0.7293  120.6   0.639   25.7  0.2643   69.2  0.5809 -101.0
 2.320  0.7298  119.9   0.636   25.4  0.2685   68.9  0.5807 -102.1
 2.340  0.7304  119.3   0.633   25.1  0.2727   68.6  0.5807 -103.2
 2.360  0.7310  118.6   0.630   24.9  0.2768   68.3  0.5809 -104.2
 2.380  0.7318  118.0   0.627   24.6  0.2810   68.0  0.5814 -105.3
 2.400  0.7326  117.3   0.624   24.3  0.2852   67.7  0.5820 -106.4
 2.420  0.7331  116.7   0.620   24.2  0.2892   67.3  0.5810 -107.4
 2.440  0.7336  116.1   0.617   24.0  0.2932   66.8  0.5801 -108.4
 2.460  0.7342  115.5   0.613   23.9  0.2973   66.4  0.5795 -109.4
 2.480  0.7349  114.9   0.610   23.7  0.3013   66.0  0.5790 -110.4
 2.500  0.7357  114.3   0.606   23.6  0.3054   65.6  0.5787 -111.4
 2.520  0.7366  113.7   0.602   23.4  0.3095   65.2  0.5786 -112.4
 2.540  0.7375  113.1   0.599   23.3  0.3136   64.9  0.5786 -113.4
 2.560  0.7385  112.5   0.595   23.1  0.3177   64.5  0.5788 -114.4
 2.580  0.7396  111.9   0.592   23.0  0.3219   64.1  0.5792 -115.4
 2.600  0.7408  111.3   0.588   22.8  0.3260   63.8  0.5798 -116.4
 2.620  0.7407  110.8   0.586   22.7  0.3299   63.3  0.5789 -117.5
 2.640  0.7406  110.2   0.584   22.5  0.3339   62.9  0.5781 -118.6
 2.660  0.7406  109.7   0.582   22.4  0.3379   62.4  0.5776 -119.8
 2.680  0.7407  109.1   0.580   22.3  0.3419   62.0  0.5773 -120.9
 2.700  0.7408  108.6   0.578   22.1  0.3460   61.5  0.5773 -122.0
 2.720  0.7410  108.1   0.576   22.0  0.3500   61.1  0.5774 -123.1
 2.740  0.7413  107.5   0.574   21.8  0.3541   60.7  0.5778 -124.2
 2.760  0.7416  107.0   0.572   21.7  0.3582   60.3  0.5784 -125.4
 2.780  0.7420  106.4   0.570   21.5  0.3623   59.9  0.5793 -126.5
 2.800  0.7425  105.9   0.568   21.4  0.3664   59.5  0.5803 -127.6
 2.820  0.7430  105.4   0.566   21.3  0.3702   59.0  0.5798 -128.7
 2.840  0.7435  104.8   0.565   21.2  0.3741   58.5  0.5795 -129.7
 2.860  0.7441  104.3   0.563   21.0  0.3780   58.0  0.5794 -130.8
 2.880  0.7448  103.8   0.562   20.9  0.3819   57.5  0.5795 -131.8
 2.900  0.7456  103.2   0.560   20.8  0.3859   57.1  0.5798 -132.9
 2.920  0.7464  102.7   0.559   20.7  0.3899   56.6  0.5802 -133.9
 2.940  0.7472  102.2   0.557   20.6  0.3939   56.2  0.5809 -135.0
 2.960  0.7482  101.7   0.556   20.4  0.3979   55.7  0.5818 -136.0
 2.980  0.7491  101.1   0.554   20.3  0.4019   55.3  0.5828 -137.1
 3.000  0.7502  100.6   0.553   20.2  0.4060   54.9  0.5841 -138.1
 3.100  0.7480   98.6   0.551   19.6  0.4208   52.1  0.5777 -143.4
 3.200  0.7468   96.6   0.549   19.0  0.4365   49.4  0.5765 -148.9
 3.300  0.7465   94.5   0.547   18.4  0.4532   47.0  0.5804 -154.3
 3.400  0.7471   92.5   0.545   17.8  0.4705   44.7  0.5893 -159.5
 3.500  0.7487   90.5   0.543   17.2  0.4886   42.6  0.6031 -164.6
 3.600  0.7488   88.9   0.544   16.4  0.4974   40.0  0.5996 -169.6
 3.700  0.7494   87.3   0.545   15.5  0.5072   37.5  0.6006 -174.5
 3.800  0.7506   85.7   0.547   14.7  0.5179   35.0  0.6061 -179.5
 3.900  0.7524   84.2   0.548   13.9  0.5295   32.7  0.6160  175.7
 4.000  0.7548   82.6   0.550   13.1  0.5420   30.5  0.6301  171.1
 4.100  0.7524   81.4   0.552   12.0  0.5457   28.3  0.6271  167.1
 4.200  0.7504   80.3   0.553   11.0  0.5502   26.1  0.6272  163.0
 4.300  0.7487   79.1   0.555    9.9  0.5555   24.0  0.6305  159.0
 4.400  0.7473   77.9   0.558    8.8  0.5616   21.9  0.6368  155.0
 4.500  0.7462   76.7   0.560    7.8  0.5684   19.8  0.6462  151.1
 4.600  0.7464   75.7   0.561    6.8  0.5699   18.0  0.6441  147.8
 4.700  0.7468   74.7   0.562    5.7  0.5719   16.3  0.6442  144.5
 4.800  0.7475   73.6   0.563    4.7  0.5745   14.5  0.6464  141.2
 4.900  0.7484   72.6   0.564    3.7  0.5776   12.8  0.6507  137.9
 5.000  0.7496   71.6   0.566    2.7  0.5812   11.1  0.6571  134.7
 5.100  0.7469   70.6   0.565    2.3  0.5814   10.2  0.6494  133.5
 5.200  0.7445   69.6   0.564    2.0  0.5817    9.4  0.6419  132.3
 5.300  0.7423   68.6   0.564    1.6  0.5822    8.5  0.6348  131.0
 5.400  0.7403   67.5   0.563    1.3  0.5828    7.7  0.6280  129.7
 5.500  0.7386   66.5   0.562    0.9  0.5835    6.8  0.6215  128.4
 5.600  0.7376   65.8   0.566   -0.4  0.5879    5.1  0.6328  125.7
 5.700  0.7367   65.1   0.570   -1.6  0.5928    3.4  0.6453  123.1
 5.800  0.7359   64.3   0.575   -2.8  0.5982    1.8  0.6592  120.6
 5.900  0.7352   63.6   0.580   -4.0  0.6041    0.2  0.6742  118.3
 6.000  0.7347   62.9   0.585   -5.2  0.6105   -1.4  0.6904  116.0
!
!  f       NFmin   Gammaopt  rn/50
! GHz       dB    MAG  ANG    -
!
! noise parameter not available yet for this operation point!
!
! (c) 2015  Infineon Technologies AG, Munich
