! Infineon Technologies  Discrete & RF Semiconductors
! BFR106
! VCE =  2.0 V,  IC =  15 mA
! Common Emitter S-Parameters:                            Nov 2015
# GHz  S  MA  R  50
!  f         S11            S21            S12            S22
! GHz     MAG   ANG      MAG   ANG      MAG   ANG      MAG   ANG
 0.010  0.6077  -20.5  37.737  168.4  0.0068   82.5  0.9667  -10.7
 0.015  0.5946  -29.9  36.682  163.7  0.0100   76.6  0.9415  -15.7
 0.020  0.5980  -39.5  35.886  158.8  0.0132   73.5  0.9239  -21.0
 0.025  0.5711  -46.2  34.214  155.7  0.0153   69.1  0.8825  -24.1
 0.030  0.5528  -53.5  32.651  152.3  0.0174   65.8  0.8439  -27.4
 0.035  0.5439  -61.2  31.212  148.6  0.0196   63.2  0.8085  -31.1
 0.040  0.5449  -68.9  29.916  144.6  0.0219   61.1  0.7767  -35.1
 0.045  0.5558  -76.5  28.782  140.2  0.0241   59.4  0.7489  -39.4
 0.050  0.5760  -83.7  27.830  135.5  0.0264   58.0  0.7257  -44.0
 0.055  0.5635  -87.5  26.775  134.2  0.0275   56.8  0.6983  -45.4
 0.060  0.5537  -91.4  25.736  132.7  0.0285   55.7  0.6714  -46.9
 0.065  0.5465  -95.5  24.716  131.1  0.0296   54.7  0.6450  -48.6
 0.070  0.5421  -99.6  23.715  129.4  0.0307   53.7  0.6191  -50.3
 0.075  0.5407 -103.8  22.738  127.5  0.0318   52.8  0.5939  -52.3
 0.080  0.5421 -108.0  21.787  125.5  0.0329   52.0  0.5695  -54.4
 0.085  0.5464 -112.2  20.866  123.3  0.0340   51.2  0.5459  -56.7
 0.090  0.5535 -116.3  19.978  120.9  0.0351   50.5  0.5232  -59.1
 0.095  0.5634 -120.2  19.129  118.3  0.0363   49.8  0.5016  -61.9
 0.100  0.5758 -124.0  18.324  115.4  0.0374   49.2  0.4812  -64.8
 0.105  0.5721 -125.9  17.773  114.6  0.0380   49.0  0.4676  -65.7
 0.110  0.5691 -127.8  17.226  113.8  0.0386   48.9  0.4540  -66.6
 0.115  0.5667 -129.7  16.683  112.9  0.0392   48.7  0.4406  -67.5
 0.120  0.5649 -131.6  16.144  111.9  0.0398   48.5  0.4273  -68.5
 0.125  0.5638 -133.6  15.611  110.9  0.0403   48.4  0.4142  -69.6
 0.130  0.5633 -135.5  15.082  109.8  0.0409   48.2  0.4012  -70.8
 0.135  0.5635 -137.5  14.560  108.6  0.0415   48.1  0.3884  -72.0
 0.140  0.5644 -139.4  14.044  107.3  0.0421   48.0  0.3758  -73.3
 0.145  0.5659 -141.4  13.535  106.0  0.0427   47.8  0.3634  -74.7
 0.150  0.5680 -143.3  13.035  104.5  0.0433   47.7  0.3512  -76.2
 0.155  0.5675 -144.4  12.739  104.0  0.0438   47.9  0.3438  -76.7
 0.160  0.5671 -145.4  12.444  103.5  0.0443   48.1  0.3363  -77.1
 0.165  0.5670 -146.5  12.150  103.0  0.0449   48.3  0.3289  -77.6
 0.170  0.5671 -147.6  11.857  102.4  0.0454   48.5  0.3216  -78.2
 0.175  0.5673 -148.7  11.565  101.8  0.0459   48.7  0.3142  -78.7
 0.180  0.5678 -149.7  11.274  101.2  0.0464   48.9  0.3069  -79.3
 0.185  0.5684 -150.8  10.985  100.5  0.0469   49.1  0.2996  -79.9
 0.190  0.5693 -151.9  10.698   99.8  0.0475   49.3  0.2924  -80.5
 0.195  0.5703 -152.9  10.412   99.1  0.0480   49.4  0.2852  -81.2
 0.200  0.5716 -154.0  10.128   98.3  0.0485   49.6  0.2780  -81.9
 0.220  0.5692 -157.3   9.338   96.6  0.0507   50.3  0.2581  -84.0
 0.240  0.5688 -160.6   8.559   94.5  0.0528   51.0  0.2385  -86.4
 0.260  0.5686 -163.3   7.912   92.7  0.0551   51.9  0.2234  -88.5
 0.280  0.5678 -165.3   7.390   91.4  0.0575   53.1  0.2126  -90.1
 0.300  0.5676 -167.3   6.872   89.9  0.0599   54.2  0.2020  -91.9
 0.320  0.5676 -169.0   6.539   89.0  0.0622   54.9  0.1941  -93.0
 0.340  0.5682 -170.7   6.209   88.0  0.0646   55.5  0.1863  -94.2
 0.360  0.5692 -172.4   5.880   86.9  0.0670   56.1  0.1786  -95.5
 0.380  0.5707 -174.0   5.554   85.6  0.0693   56.7  0.1710  -96.9
 0.400  0.5727 -175.7   5.231   84.2  0.0717   57.2  0.1635  -98.4
 0.420  0.5737 -176.9   5.024   83.4  0.0742   57.7  0.1593  -99.3
 0.440  0.5750 -178.0   4.818   82.5  0.0768   58.3  0.1551 -100.3
 0.450  0.5757 -178.6   4.716   82.0  0.0781   58.5  0.1530 -100.8
 0.460  0.5765 -179.2   4.614   81.5  0.0794   58.7  0.1510 -101.4
 0.480  0.5782  179.6   4.411   80.4  0.0819   59.2  0.1469 -102.4
 0.500  0.5802  178.5   4.210   79.2  0.0845   59.6  0.1429 -103.6
 0.520  0.5801  177.5   4.074   78.4  0.0873   59.9  0.1411 -104.5
 0.540  0.5802  176.5   3.939   77.5  0.0901   60.2  0.1392 -105.4
 0.560  0.5805  175.4   3.805   76.6  0.0930   60.5  0.1375 -106.3
 0.580  0.5810  174.4   3.672   75.7  0.0958   60.8  0.1357 -107.2
 0.600  0.5817  173.4   3.540   74.6  0.0986   61.0  0.1340 -108.2
 0.620  0.5812  172.5   3.443   73.9  0.1012   61.2  0.1332 -109.2
 0.640  0.5809  171.6   3.348   73.1  0.1039   61.3  0.1324 -110.2
 0.660  0.5808  170.6   3.252   72.2  0.1065   61.4  0.1316 -111.2
 0.680  0.5808  169.7   3.158   71.3  0.1092   61.6  0.1309 -112.3
 0.700  0.5809  168.8   3.064   70.4  0.1118   61.7  0.1302 -113.3
 0.720  0.5820  168.1   2.990   69.7  0.1147   61.7  0.1294 -114.2
 0.740  0.5832  167.4   2.916   69.0  0.1175   61.6  0.1286 -115.2
 0.760  0.5845  166.6   2.843   68.2  0.1204   61.6  0.1278 -116.1
 0.780  0.5859  165.9   2.770   67.4  0.1232   61.5  0.1271 -117.1
 0.800  0.5874  165.2   2.698   66.6  0.1261   61.5  0.1264 -118.1
 0.820  0.5867  164.5   2.642   65.9  0.1288   61.5  0.1260 -118.8
 0.840  0.5860  163.7   2.586   65.2  0.1316   61.5  0.1256 -119.4
 0.860  0.5855  163.0   2.531   64.5  0.1343   61.6  0.1252 -120.1
 0.880  0.5850  162.2   2.476   63.7  0.1371   61.6  0.1248 -120.8
 0.900  0.5847  161.5   2.421   62.9  0.1398   61.6  0.1245 -121.5
 0.920  0.5851  160.6   2.375   62.3  0.1425   61.5  0.1252 -122.2
 0.940  0.5856  159.7   2.330   61.6  0.1452   61.4  0.1260 -123.0
 0.960  0.5863  158.9   2.284   60.9  0.1480   61.4  0.1268 -123.7
 0.980  0.5871  158.0   2.239   60.2  0.1507   61.3  0.1276 -124.4
 1.000  0.5881  157.1   2.195   59.4  0.1534   61.2  0.1284 -125.1
 1.020  0.5896  156.5   2.160   58.7  0.1562   61.0  0.1293 -126.1
 1.040  0.5912  155.8   2.124   58.0  0.1591   60.9  0.1302 -127.1
 1.060  0.5929  155.2   2.090   57.3  0.1619   60.8  0.1311 -128.0
 1.080  0.5946  154.5   2.055   56.6  0.1648   60.6  0.1321 -129.0
 1.100  0.5964  153.9   2.021   55.8  0.1676   60.5  0.1331 -129.9
 1.120  0.5970  153.2   1.990   55.2  0.1704   60.4  0.1336 -130.7
 1.140  0.5977  152.6   1.960   54.6  0.1732   60.2  0.1341 -131.6
 1.160  0.5985  151.9   1.930   54.0  0.1761   60.1  0.1347 -132.4
 1.180  0.5994  151.3   1.900   53.4  0.1789   59.9  0.1353 -133.2
 1.200  0.6003  150.6   1.870   52.7  0.1817   59.8  0.1359 -134.0
 1.220  0.6002  150.0   1.844   52.1  0.1846   59.6  0.1366 -134.8
 1.240  0.6002  149.3   1.817   51.4  0.1875   59.3  0.1373 -135.5
 1.260  0.6003  148.7   1.791   50.8  0.1903   59.1  0.1380 -136.2
 1.280  0.6004  148.0   1.766   50.1  0.1932   58.9  0.1387 -137.0
 1.300  0.6006  147.4   1.740   49.4  0.1961   58.7  0.1395 -137.7
 1.320  0.6022  146.9   1.718   48.9  0.1988   58.5  0.1409 -138.4
 1.340  0.6038  146.3   1.696   48.4  0.2015   58.4  0.1423 -139.1
 1.360  0.6055  145.8   1.675   47.8  0.2043   58.2  0.1437 -139.7
 1.380  0.6072  145.2   1.653   47.3  0.2070   58.1  0.1451 -140.4
 1.400  0.6090  144.7   1.632   46.7  0.2097   57.9  0.1466 -141.0
 1.420  0.6085  144.1   1.617   46.1  0.2125   57.6  0.1479 -141.8
 1.440  0.6081  143.5   1.601   45.5  0.2154   57.4  0.1493 -142.6
 1.460  0.6077  142.9   1.586   44.9  0.2182   57.2  0.1507 -143.3
 1.480  0.6074  142.3   1.572   44.2  0.2211   56.9  0.1521 -144.1
 1.500  0.6072  141.7   1.557   43.6  0.2239   56.7  0.1535 -144.8
 1.520  0.6089  141.1   1.537   43.0  0.2265   56.4  0.1547 -145.6
 1.540  0.6106  140.4   1.518   42.4  0.2292   56.2  0.1559 -146.5
 1.560  0.6124  139.8   1.498   41.7  0.2318   56.0  0.1572 -147.3
 1.580  0.6143  139.2   1.479   41.1  0.2345   55.7  0.1585 -148.1
 1.600  0.6163  138.6   1.460   40.4  0.2371   55.5  0.1598 -148.9
 1.620  0.6171  138.0   1.446   39.8  0.2398   55.2  0.1610 -149.8
 1.640  0.6179  137.5   1.431   39.3  0.2426   55.0  0.1622 -150.7
 1.660  0.6188  136.9   1.417   38.7  0.2453   54.8  0.1635 -151.5
 1.680  0.6198  136.4   1.403   38.1  0.2481   54.5  0.1648 -152.4
 1.700  0.6208  135.8   1.389   37.5  0.2508   54.3  0.1661 -153.2
 1.720  0.6224  135.2   1.378   37.1  0.2535   54.0  0.1676 -153.8
 1.740  0.6240  134.6   1.367   36.6  0.2563   53.7  0.1691 -154.3
 1.760  0.6258  134.1   1.356   36.1  0.2591   53.4  0.1706 -154.9
 1.780  0.6276  133.5   1.346   35.7  0.2618   53.2  0.1721 -155.5
 1.800  0.6294  132.9   1.335   35.2  0.2646   52.9  0.1736 -156.0
 1.820  0.6302  132.4   1.323   34.6  0.2673   52.6  0.1759 -156.8
 1.840  0.6310  131.8   1.312   34.1  0.2700   52.4  0.1782 -157.5
 1.860  0.6319  131.3   1.300   33.5  0.2727   52.1  0.1805 -158.3
 1.880  0.6328  130.7   1.289   32.9  0.2755   51.8  0.1829 -159.0
 1.900  0.6338  130.2   1.278   32.3  0.2782   51.6  0.1853 -159.7
 1.920  0.6344  129.7   1.267   31.9  0.2809   51.3  0.1871 -160.6
 1.940  0.6351  129.2   1.257   31.4  0.2836   51.0  0.1890 -161.4
 1.960  0.6358  128.8   1.246   30.9  0.2863   50.7  0.1909 -162.3
 1.980  0.6366  128.3   1.235   30.5  0.2891   50.4  0.1929 -163.1
 2.000  0.6374  127.8   1.225   30.0  0.2918   50.1  0.1949 -163.9
 2.020  0.6383  127.3   1.215   29.5  0.2944   49.8  0.1966 -164.6
 2.040  0.6393  126.7   1.206   29.0  0.2970   49.5  0.1982 -165.3
 2.060  0.6403  126.2   1.196   28.6  0.2996   49.2  0.1999 -166.0
 2.080  0.6414  125.7   1.187   28.1  0.3022   48.9  0.2017 -166.7
 2.100  0.6426  125.1   1.177   27.6  0.3048   48.6  0.2035 -167.4
 2.120  0.6438  124.6   1.168   27.0  0.3074   48.4  0.2052 -168.1
 2.140  0.6450  124.1   1.159   26.5  0.3101   48.1  0.2071 -168.7
 2.160  0.6463  123.5   1.150   26.0  0.3127   47.8  0.2089 -169.4
 2.180  0.6477  123.0   1.141   25.4  0.3153   47.6  0.2108 -170.0
 2.200  0.6491  122.5   1.132   24.9  0.3180   47.3  0.2127 -170.6
 2.220  0.6497  122.0   1.125   24.4  0.3205   47.0  0.2151 -171.5
 2.240  0.6503  121.5   1.118   24.0  0.3231   46.6  0.2175 -172.3
 2.260  0.6510  121.0   1.111   23.5  0.3256   46.3  0.2200 -173.2
 2.280  0.6517  120.4   1.104   23.0  0.3282   46.0  0.2225 -174.0
 2.300  0.6525  119.9   1.097   22.5  0.3307   45.7  0.2251 -174.8
 2.320  0.6533  119.4   1.091   22.0  0.3333   45.4  0.2277 -175.6
 2.340  0.6542  118.9   1.084   21.5  0.3359   45.1  0.2304 -176.3
 2.360  0.6551  118.4   1.078   21.0  0.3385   44.8  0.2331 -177.1
 2.380  0.6561  117.9   1.071   20.5  0.3411   44.5  0.2358 -177.8
 2.400  0.6571  117.4   1.065   20.0  0.3437   44.2  0.2386 -178.5
 2.420  0.6586  116.9   1.058   19.6  0.3460   43.9  0.2405 -179.2
 2.440  0.6601  116.4   1.051   19.2  0.3483   43.5  0.2425 -179.8
 2.460  0.6616  115.9   1.044   18.8  0.3507   43.2  0.2445  179.5
 2.480  0.6633  115.4   1.037   18.4  0.3530   42.9  0.2465  178.9
 2.500  0.6649  114.9   1.030   18.0  0.3554   42.6  0.2485  178.3
 2.520  0.6666  114.4   1.023   17.6  0.3577   42.3  0.2506  177.7
 2.540  0.6684  113.9   1.016   17.2  0.3601   42.0  0.2527  177.1
 2.560  0.6702  113.4   1.009   16.8  0.3625   41.7  0.2549  176.5
 2.580  0.6721  112.9   1.003   16.3  0.3649   41.4  0.2570  175.9
 2.600  0.6740  112.4   0.996   15.9  0.3673   41.1  0.2592  175.3
 2.620  0.6750  112.0   0.990   15.5  0.3695   40.8  0.2619  174.5
 2.640  0.6761  111.5   0.985   15.2  0.3717   40.4  0.2647  173.8
 2.660  0.6772  111.1   0.979   14.8  0.3740   40.1  0.2676  173.1
 2.680  0.6784  110.6   0.973   14.4  0.3762   39.8  0.2704  172.4
 2.700  0.6796  110.2   0.968   14.0  0.3785   39.5  0.2734  171.7
 2.720  0.6808  109.7   0.962   13.6  0.3807   39.1  0.2763  171.0
 2.740  0.6821  109.3   0.957   13.2  0.3830   38.8  0.2793  170.3
 2.760  0.6834  108.9   0.952   12.8  0.3853   38.5  0.2823  169.7
 2.780  0.6848  108.4   0.946   12.4  0.3876   38.2  0.2854  169.0
 2.800  0.6862  108.0   0.941   12.0  0.3899   37.9  0.2885  168.4
 2.820  0.6874  107.6   0.936   11.6  0.3921   37.6  0.2908  167.8
 2.840  0.6887  107.2   0.931   11.3  0.3942   37.2  0.2932  167.2
 2.860  0.6900  106.8   0.926   10.9  0.3964   36.9  0.2956  166.6
 2.880  0.6914  106.3   0.921   10.6  0.3986   36.6  0.2980  166.0
 2.900  0.6928  105.9   0.916   10.2  0.4008   36.3  0.3005  165.4
 2.920  0.6942  105.5   0.911    9.8  0.4030   35.9  0.3030  164.8
 2.940  0.6956  105.1   0.906    9.5  0.4052   35.6  0.3055  164.2
 2.960  0.6971  104.7   0.901    9.1  0.4075   35.3  0.3081  163.7
 2.980  0.6986  104.3   0.896    8.7  0.4097   35.0  0.3107  163.1
 3.000  0.7002  103.9   0.891    8.3  0.4120   34.7  0.3133  162.6
 3.100  0.7044  101.9   0.869    7.0  0.4208   33.0  0.3267  159.3
 3.200  0.7094  100.0   0.847    5.6  0.4299   31.3  0.3412  156.3
 3.300  0.7153   98.1   0.826    4.1  0.4394   29.8  0.3564  153.5
 3.400  0.7218   96.2   0.806    2.5  0.4492   28.2  0.3725  151.0
 3.500  0.7292   94.4   0.786    0.9  0.4593   26.8  0.3892  148.7
 3.600  0.7332   92.8   0.770   -0.1  0.4653   25.1  0.4023  145.7
 3.700  0.7378   91.2   0.755   -1.2  0.4717   23.4  0.4165  142.9
 3.800  0.7429   89.6   0.740   -2.4  0.4784   21.8  0.4315  140.3
 3.900  0.7486   88.0   0.725   -3.6  0.4856   20.2  0.4474  137.9
 4.000  0.7549   86.5   0.710   -4.8  0.4931   18.7  0.4641  135.6
 4.100  0.7559   85.2   0.698   -5.7  0.4967   17.2  0.4729  133.2
 4.200  0.7574   83.8   0.687   -6.7  0.5006   15.7  0.4826  130.9
 4.300  0.7592   82.5   0.675   -7.7  0.5048   14.2  0.4929  128.7
 4.400  0.7615   81.2   0.664   -8.7  0.5094   12.8  0.5040  126.5
 4.500  0.7641   79.9   0.653   -9.8  0.5143   11.4  0.5158  124.5
 4.600  0.7657   78.7   0.646  -10.5  0.5168   10.1  0.5227  122.4
 4.700  0.7677   77.5   0.638  -11.2  0.5197    8.8  0.5302  120.4
 4.800  0.7700   76.3   0.631  -11.9  0.5227    7.5  0.5383  118.5
 4.900  0.7727   75.2   0.624  -12.6  0.5261    6.2  0.5471  116.6
 5.000  0.7756   74.0   0.617  -13.3  0.5297    4.9  0.5564  114.8
 5.100  0.7726   72.9   0.611  -13.3  0.5320    4.3  0.5553  114.3
 5.200  0.7699   71.8   0.604  -13.3  0.5343    3.6  0.5542  113.8
 5.300  0.7675   70.7   0.598  -13.2  0.5367    3.0  0.5532  113.3
 5.400  0.7654   69.5   0.591  -13.2  0.5392    2.4  0.5522  112.8
 5.500  0.7636   68.4   0.585  -13.2  0.5417    1.8  0.5513  112.3
 5.600  0.7638   67.6   0.585  -14.0  0.5462    0.3  0.5652  110.4
 5.700  0.7642   66.8   0.584  -14.8  0.5511   -1.1  0.5797  108.6
 5.800  0.7647   66.0   0.584  -15.7  0.5563   -2.5  0.5948  106.8
 5.900  0.7654   65.2   0.584  -16.5  0.5618   -3.9  0.6104  105.2
 6.000  0.7662   64.4   0.584  -17.3  0.5677   -5.3  0.6265  103.6
!
!  f       NFmin   Gammaopt  rn/50
! GHz       dB    MAG  ANG    -
!
! noise parameter not available yet for this operation point!
!
! (c) 2015  Infineon Technologies AG, Munich
