! Infineon Technologies  Discrete & RF Semiconductors
! BFR182
! VCE =  2.5 V,  IC =  8.0 mA
! Common Emitter S-Parameters:                            Nov 2015
# GHz  S  MA  R  50
!  f         S11            S21            S12            S22
! GHz     MAG   ANG      MAG   ANG      MAG   ANG      MAG   ANG
 0.010  0.7384   -3.4  20.537  177.0  0.0019   83.7  0.9854   -1.5
 0.015  0.7367   -5.1  20.540  175.3  0.0029   82.3  0.9824   -2.3
 0.020  0.7356   -6.9  20.560  173.7  0.0039   81.6  0.9797   -3.2
 0.025  0.7317   -8.5  20.445  172.4  0.0048   81.8  0.9766   -4.0
 0.030  0.7283  -10.1  20.341  171.0  0.0057   81.9  0.9737   -4.7
 0.035  0.7255  -11.7  20.249  169.7  0.0066   82.0  0.9709   -5.5
 0.040  0.7233  -13.3  20.168  168.3  0.0076   82.0  0.9683   -6.3
 0.045  0.7217  -14.9  20.099  166.9  0.0085   82.1  0.9659   -7.0
 0.050  0.7206  -16.5  20.042  165.5  0.0094   82.1  0.9637   -7.8
 0.055  0.7127  -18.0  19.861  164.3  0.0103   81.1  0.9580   -8.4
 0.060  0.7053  -19.4  19.688  163.1  0.0112   80.3  0.9523   -9.1
 0.065  0.6983  -21.0  19.525  161.8  0.0121   79.6  0.9468   -9.7
 0.070  0.6919  -22.5  19.371  160.5  0.0130   79.0  0.9415  -10.4
 0.075  0.6859  -24.1  19.227  159.2  0.0139   78.5  0.9362  -11.1
 0.080  0.6805  -25.7  19.093  157.9  0.0148   78.0  0.9311  -11.7
 0.085  0.6757  -27.3  18.969  156.6  0.0157   77.6  0.9261  -12.4
 0.090  0.6713  -28.9  18.856  155.2  0.0166   77.2  0.9212  -13.1
 0.095  0.6676  -30.6  18.753  153.9  0.0175   76.9  0.9165  -13.8
 0.100  0.6644  -32.3  18.661  152.5  0.0184   76.6  0.9119  -14.5
 0.105  0.6558  -33.5  18.448  151.4  0.0191   75.8  0.9044  -15.0
 0.110  0.6476  -34.8  18.241  150.3  0.0198   75.0  0.8970  -15.4
 0.115  0.6396  -36.1  18.042  149.2  0.0204   74.3  0.8896  -15.9
 0.120  0.6320  -37.4  17.850  148.0  0.0211   73.6  0.8823  -16.4
 0.125  0.6248  -38.8  17.665  146.8  0.0218   73.0  0.8750  -16.9
 0.130  0.6179  -40.2  17.489  145.6  0.0225   72.4  0.8678  -17.4
 0.135  0.6113  -41.6  17.320  144.4  0.0232   71.8  0.8607  -17.9
 0.140  0.6052  -43.0  17.159  143.1  0.0239   71.3  0.8537  -18.4
 0.145  0.5994  -44.5  17.007  141.8  0.0246   70.8  0.8467  -19.0
 0.150  0.5941  -46.0  16.864  140.5  0.0253   70.3  0.8398  -19.5
 0.155  0.5869  -47.0  16.661  139.7  0.0259   69.9  0.8335  -19.8
 0.160  0.5798  -48.0  16.461  138.9  0.0265   69.5  0.8273  -20.1
 0.165  0.5729  -49.1  16.265  138.1  0.0271   69.2  0.8211  -20.4
 0.170  0.5663  -50.2  16.072  137.2  0.0277   68.9  0.8149  -20.7
 0.175  0.5598  -51.3  15.883  136.4  0.0283   68.5  0.8087  -21.0
 0.180  0.5536  -52.4  15.698  135.5  0.0289   68.2  0.8026  -21.3
 0.185  0.5476  -53.6  15.516  134.6  0.0295   67.9  0.7964  -21.6
 0.190  0.5418  -54.8  15.339  133.6  0.0301   67.6  0.7903  -21.9
 0.195  0.5362  -56.0  15.165  132.7  0.0307   67.4  0.7843  -22.3
 0.200  0.5309  -57.2  14.996  131.7  0.0313   67.1  0.7782  -22.6
 0.220  0.5046  -61.0  14.306  128.8  0.0332   66.3  0.7559  -23.4
 0.240  0.4807  -65.2  13.656  125.6  0.0351   65.5  0.7336  -24.2
 0.260  0.4580  -69.0  13.049  122.8  0.0370   65.1  0.7132  -24.8
 0.280  0.4355  -72.4  12.467  120.5  0.0387   64.8  0.6945  -25.2
 0.300  0.4148  -76.2  11.907  118.0  0.0405   64.6  0.6758  -25.7
 0.320  0.3977  -78.6  11.440  116.6  0.0420   64.5  0.6630  -25.8
 0.340  0.3813  -81.2  10.980  115.0  0.0435   64.3  0.6502  -26.0
 0.360  0.3658  -84.1  10.530  113.3  0.0449   64.2  0.6374  -26.2
 0.380  0.3512  -87.2  10.090  111.4  0.0464   64.1  0.6246  -26.3
 0.400  0.3378  -90.5   9.661  109.4  0.0479   64.0  0.6118  -26.5
 0.420  0.3263  -92.7   9.321  108.1  0.0494   64.0  0.6032  -26.5
 0.440  0.3153  -95.1   8.985  106.8  0.0510   64.1  0.5946  -26.5
 0.450  0.3100  -96.4   8.820  106.0  0.0517   64.1  0.5903  -26.5
 0.460  0.3049  -97.7   8.656  105.3  0.0525   64.1  0.5861  -26.6
 0.480  0.2952 -100.5   8.332  103.7  0.0541   64.2  0.5775  -26.6
 0.500  0.2862 -103.4   8.015  102.0  0.0556   64.2  0.5689  -26.6
 0.520  0.2769 -105.5   7.785  101.0  0.0572   64.3  0.5630  -26.6
 0.540  0.2679 -107.8   7.557  100.0  0.0588   64.4  0.5572  -26.6
 0.560  0.2594 -110.2   7.333   98.8  0.0605   64.5  0.5513  -26.5
 0.580  0.2514 -112.8   7.111   97.7  0.0621   64.6  0.5455  -26.5
 0.600  0.2440 -115.6   6.892   96.4  0.0637   64.7  0.5396  -26.5
 0.620  0.2379 -117.5   6.716   95.5  0.0651   64.9  0.5355  -26.5
 0.640  0.2321 -119.5   6.541   94.6  0.0666   65.0  0.5315  -26.5
 0.660  0.2267 -121.7   6.369   93.7  0.0680   65.1  0.5274  -26.6
 0.680  0.2215 -123.9   6.198   92.7  0.0695   65.3  0.5234  -26.6
 0.700  0.2167 -126.2   6.029   91.6  0.0709   65.4  0.5193  -26.6
 0.720  0.2125 -128.1   5.887   90.9  0.0724   65.5  0.5165  -26.6
 0.740  0.2086 -130.0   5.746   90.1  0.0739   65.6  0.5137  -26.6
 0.760  0.2050 -132.0   5.606   89.3  0.0755   65.7  0.5109  -26.6
 0.780  0.2015 -134.1   5.467   88.4  0.0770   65.8  0.5081  -26.6
 0.800  0.1984 -136.2   5.330   87.5  0.0785   65.9  0.5053  -26.6
 0.820  0.1949 -137.9   5.218   86.8  0.0803   65.9  0.5033  -26.7
 0.840  0.1916 -139.7   5.106   86.1  0.0820   66.0  0.5014  -26.7
 0.860  0.1885 -141.5   4.996   85.4  0.0838   66.0  0.4994  -26.8
 0.880  0.1856 -143.4   4.886   84.6  0.0855   66.1  0.4975  -26.8
 0.900  0.1829 -145.3   4.777   83.8  0.0873   66.1  0.4955  -26.9
 0.920  0.1810 -147.7   4.691   83.2  0.0888   66.2  0.4938  -27.0
 0.940  0.1794 -150.1   4.605   82.6  0.0903   66.2  0.4921  -27.1
 0.960  0.1781 -152.5   4.520   81.9  0.0919   66.3  0.4903  -27.3
 0.980  0.1771 -155.0   4.435   81.2  0.0934   66.3  0.4886  -27.4
 1.000  0.1765 -157.5   4.351   80.5  0.0949   66.4  0.4869  -27.5
 1.020  0.1753 -159.3   4.280   79.9  0.0966   66.4  0.4856  -27.6
 1.040  0.1743 -161.2   4.209   79.4  0.0983   66.4  0.4842  -27.7
 1.060  0.1734 -163.0   4.139   78.8  0.0999   66.4  0.4829  -27.9
 1.080  0.1728 -164.9   4.069   78.1  0.1016   66.4  0.4815  -28.0
 1.100  0.1723 -166.8   4.000   77.5  0.1033   66.4  0.4802  -28.1
 1.120  0.1716 -168.7   3.938   76.9  0.1049   66.4  0.4789  -28.3
 1.140  0.1710 -170.7   3.877   76.3  0.1065   66.4  0.4776  -28.4
 1.160  0.1707 -172.7   3.816   75.6  0.1081   66.3  0.4763  -28.6
 1.180  0.1705 -174.6   3.755   75.0  0.1097   66.3  0.4751  -28.7
 1.200  0.1706 -176.6   3.695   74.3  0.1113   66.3  0.4738  -28.9
 1.220  0.1697 -177.7   3.640   73.8  0.1130   66.3  0.4728  -29.1
 1.240  0.1688 -178.8   3.585   73.3  0.1147   66.2  0.4717  -29.2
 1.260  0.1680 -179.9   3.530   72.8  0.1165   66.2  0.4707  -29.4
 1.280  0.1673  179.0   3.476   72.3  0.1182   66.1  0.4696  -29.5
 1.300  0.1666  177.9   3.422   71.7  0.1199   66.1  0.4686  -29.7
 1.320  0.1672  176.0   3.377   71.2  0.1215   66.1  0.4676  -29.9
 1.340  0.1679  174.0   3.332   70.7  0.1231   66.0  0.4667  -30.2
 1.360  0.1689  172.1   3.288   70.2  0.1248   66.0  0.4657  -30.4
 1.380  0.1700  170.3   3.244   69.6  0.1264   65.9  0.4647  -30.7
 1.400  0.1713  168.4   3.200   69.1  0.1280   65.9  0.4638  -30.9
 1.420  0.1709  167.5   3.164   68.6  0.1297   65.8  0.4629  -31.1
 1.440  0.1705  166.7   3.128   68.1  0.1314   65.8  0.4620  -31.3
 1.460  0.1701  165.8   3.092   67.6  0.1332   65.7  0.4611  -31.5
 1.480  0.1698  165.0   3.056   67.1  0.1349   65.7  0.4603  -31.7
 1.500  0.1695  164.1   3.021   66.6  0.1366   65.6  0.4594  -31.9
 1.520  0.1709  162.3   2.983   66.1  0.1384   65.5  0.4584  -32.1
 1.540  0.1726  160.6   2.946   65.5  0.1402   65.4  0.4575  -32.3
 1.560  0.1743  158.9   2.909   65.0  0.1420   65.3  0.4565  -32.5
 1.580  0.1762  157.2   2.872   64.4  0.1438   65.2  0.4555  -32.7
 1.600  0.1783  155.6   2.835   63.8  0.1456   65.1  0.4546  -32.9
 1.620  0.1797  154.5   2.805   63.3  0.1472   65.0  0.4537  -33.2
 1.640  0.1812  153.5   2.776   62.9  0.1488   64.9  0.4527  -33.4
 1.660  0.1827  152.4   2.747   62.4  0.1505   64.8  0.4518  -33.7
 1.680  0.1843  151.4   2.718   61.9  0.1521   64.7  0.4509  -33.9
 1.700  0.1859  150.4   2.689   61.4  0.1537   64.6  0.4500  -34.2
 1.720  0.1875  149.2   2.664   61.0  0.1555   64.5  0.4492  -34.5
 1.740  0.1892  148.1   2.639   60.5  0.1573   64.4  0.4484  -34.8
 1.760  0.1910  146.9   2.614   60.1  0.1592   64.2  0.4476  -35.0
 1.780  0.1929  145.8   2.589   59.7  0.1610   64.1  0.4468  -35.3
 1.800  0.1948  144.7   2.564   59.2  0.1628   64.0  0.4460  -35.6
 1.820  0.1960  144.0   2.541   58.7  0.1646   63.9  0.4449  -35.9
 1.840  0.1972  143.3   2.519   58.3  0.1664   63.8  0.4438  -36.2
 1.860  0.1985  142.6   2.496   57.8  0.1681   63.7  0.4428  -36.4
 1.880  0.1998  141.9   2.474   57.3  0.1699   63.6  0.4417  -36.7
 1.900  0.2011  141.2   2.452   56.8  0.1717   63.5  0.4407  -37.0
 1.920  0.2030  140.4   2.430   56.4  0.1734   63.4  0.4399  -37.3
 1.940  0.2049  139.6   2.408   55.9  0.1751   63.3  0.4391  -37.6
 1.960  0.2069  138.8   2.386   55.4  0.1769   63.1  0.4383  -37.8
 1.980  0.2089  138.1   2.364   55.0  0.1786   63.0  0.4375  -38.1
 2.000  0.2109  137.3   2.343   54.5  0.1803   62.9  0.4367  -38.4
 2.020  0.2123  136.5   2.324   54.1  0.1821   62.7  0.4355  -38.7
 2.040  0.2138  135.7   2.304   53.7  0.1840   62.6  0.4343  -39.0
 2.060  0.2153  134.9   2.285   53.2  0.1858   62.5  0.4331  -39.3
 2.080  0.2169  134.1   2.266   52.8  0.1877   62.3  0.4319  -39.6
 2.100  0.2185  133.4   2.247   52.3  0.1895   62.2  0.4308  -39.9
 2.120  0.2201  132.6   2.229   51.9  0.1914   62.0  0.4296  -40.2
 2.140  0.2218  131.9   2.210   51.4  0.1932   61.9  0.4285  -40.6
 2.160  0.2235  131.1   2.191   51.0  0.1951   61.8  0.4274  -40.9
 2.180  0.2252  130.4   2.173   50.5  0.1969   61.6  0.4263  -41.2
 2.200  0.2270  129.7   2.155   50.0  0.1988   61.5  0.4252  -41.5
 2.220  0.2292  129.0   2.141   49.6  0.2006   61.3  0.4239  -41.8
 2.240  0.2314  128.2   2.126   49.2  0.2024   61.2  0.4227  -42.1
 2.260  0.2336  127.5   2.112   48.7  0.2042   61.1  0.4214  -42.4
 2.280  0.2359  126.8   2.098   48.3  0.2060   60.9  0.4202  -42.8
 2.300  0.2382  126.1   2.084   47.9  0.2078   60.8  0.4190  -43.1
 2.320  0.2406  125.5   2.071   47.4  0.2096   60.6  0.4178  -43.4
 2.340  0.2430  124.8   2.057   47.0  0.2115   60.5  0.4166  -43.7
 2.360  0.2454  124.2   2.044   46.5  0.2133   60.4  0.4154  -44.0
 2.380  0.2478  123.5   2.030   46.1  0.2151   60.2  0.4143  -44.4
 2.400  0.2503  122.9   2.017   45.6  0.2169   60.1  0.4131  -44.7
 2.420  0.2525  122.3   2.003   45.2  0.2188   59.9  0.4115  -45.0
 2.440  0.2547  121.7   1.990   44.8  0.2207   59.7  0.4100  -45.4
 2.460  0.2569  121.1   1.976   44.5  0.2225   59.6  0.4084  -45.8
 2.480  0.2591  120.5   1.963   44.1  0.2244   59.4  0.4069  -46.1
 2.500  0.2614  119.9   1.949   43.7  0.2263   59.2  0.4054  -46.5
 2.520  0.2637  119.4   1.936   43.3  0.2282   59.0  0.4039  -46.8
 2.540  0.2661  118.8   1.923   42.9  0.2301   58.9  0.4024  -47.2
 2.560  0.2684  118.3   1.910   42.4  0.2320   58.7  0.4010  -47.6
 2.580  0.2708  117.7   1.897   42.0  0.2339   58.6  0.3995  -47.9
 2.600  0.2732  117.2   1.884   41.6  0.2358   58.4  0.3981  -48.3
 2.620  0.2749  116.7   1.874   41.2  0.2376   58.2  0.3968  -48.7
 2.640  0.2766  116.3   1.864   40.9  0.2395   58.0  0.3954  -49.1
 2.660  0.2784  115.8   1.854   40.5  0.2413   57.9  0.3942  -49.5
 2.680  0.2802  115.3   1.844   40.1  0.2431   57.7  0.3929  -49.9
 2.700  0.2819  114.9   1.834   39.8  0.2450   57.5  0.3916  -50.3
 2.720  0.2837  114.4   1.824   39.4  0.2468   57.3  0.3904  -50.7
 2.740  0.2855  114.0   1.815   39.0  0.2487   57.2  0.3891  -51.1
 2.760  0.2874  113.6   1.805   38.6  0.2505   57.0  0.3879  -51.5
 2.780  0.2892  113.1   1.795   38.2  0.2524   56.9  0.3868  -51.9
 2.800  0.2911  112.7   1.786   37.8  0.2542   56.7  0.3856  -52.3
 2.820  0.2935  112.3   1.775   37.4  0.2561   56.5  0.3838  -52.7
 2.840  0.2960  111.9   1.765   37.0  0.2580   56.3  0.3820  -53.1
 2.860  0.2984  111.5   1.754   36.6  0.2598   56.1  0.3803  -53.5
 2.880  0.3009  111.1   1.744   36.2  0.2617   55.9  0.3785  -53.9
 2.900  0.3033  110.7   1.734   35.8  0.2636   55.7  0.3768  -54.3
 2.920  0.3058  110.3   1.724   35.3  0.2655   55.5  0.3751  -54.7
 2.940  0.3083  110.0   1.714   34.9  0.2674   55.3  0.3734  -55.1
 2.960  0.3108  109.6   1.704   34.5  0.2693   55.2  0.3718  -55.6
 2.980  0.3134  109.3   1.694   34.0  0.2712   55.0  0.3701  -56.0
 3.000  0.3159  108.9   1.684   33.6  0.2731   54.8  0.3685  -56.4
 3.100  0.3276  107.0   1.642   31.9  0.2824   53.7  0.3585  -58.8
 3.200  0.3396  105.3   1.602   30.2  0.2919   52.6  0.3492  -61.3
 3.300  0.3519  103.6   1.564   28.3  0.3014   51.6  0.3407  -63.9
 3.400  0.3644  102.1   1.527   26.4  0.3110   50.7  0.3328  -66.7
 3.500  0.3772  100.7   1.492   24.4  0.3207   49.8  0.3258  -69.6
 3.600  0.3881   99.2   1.462   22.8  0.3301   48.5  0.3150  -72.7
 3.700  0.3992   97.8   1.433   21.1  0.3397   47.4  0.3053  -76.0
 3.800  0.4106   96.5   1.405   19.4  0.3494   46.3  0.2965  -79.4
 3.900  0.4221   95.2   1.378   17.6  0.3592   45.2  0.2890  -83.1
 4.000  0.4339   94.0   1.353   15.7  0.3691   44.2  0.2827  -87.0
 4.100  0.4441   92.8   1.328   14.2  0.3781   42.9  0.2731  -90.8
 4.200  0.4544   91.6   1.305   12.6  0.3873   41.6  0.2647  -94.8
 4.300  0.4650   90.5   1.282   11.0  0.3966   40.4  0.2577  -99.1
 4.400  0.4757   89.4   1.260    9.3  0.4061   39.3  0.2522 -103.5
 4.500  0.4866   88.4   1.240    7.5  0.4158   38.2  0.2483 -108.2
 4.600  0.4951   87.2   1.220    6.1  0.4243   36.9  0.2416 -112.6
 4.700  0.5039   86.1   1.200    4.6  0.4331   35.6  0.2364 -117.3
 4.800  0.5128   85.0   1.182    3.1  0.4420   34.3  0.2328 -122.1
 4.900  0.5219   84.0   1.164    1.6  0.4512   33.1  0.2310 -127.1
 5.000  0.5312   83.0   1.147    0.0  0.4605   32.0  0.2309 -132.1
 5.100  0.5391   81.9   1.127   -1.3  0.4682   30.6  0.2277 -137.2
 5.200  0.5472   80.8   1.107   -2.7  0.4761   29.2  0.2263 -142.4
 5.300  0.5554   79.8   1.088   -4.1  0.4843   27.9  0.2268 -147.6
 5.400  0.5639   78.8   1.070   -5.5  0.4928   26.6  0.2291 -152.7
 5.500  0.5725   77.8   1.052   -7.0  0.5015   25.4  0.2332 -157.7
 5.600  0.5797   76.6   1.034   -8.2  0.5069   23.9  0.2309 -162.4
 5.700  0.5872   75.5   1.017   -9.5  0.5127   22.4  0.2303 -167.2
 5.800  0.5949   74.4   1.000  -10.8  0.5188   20.9  0.2312 -172.0
 5.900  0.6028   73.3   0.984  -12.2  0.5252   19.5  0.2337 -176.7
 6.000  0.6109   72.2   0.968  -13.6  0.5320   18.1  0.2378  178.7
!
!  f       NFmin   Gammaopt  rn/50
! GHz       dB    MAG  ANG    -
 0.450      1.40  0.26   41   0.29
 0.900      1.50  0.25   83   0.23
 1.800      2.00  0.21  162   0.20
!
! (c) 2015  Infineon Technologies AG, Munich
