! Infineon Technologies  Discrete & RF Semiconductors
! BFR106
! VCE =  6.0 V,  IC =  50 mA
! Common Emitter S-Parameters:                            Nov 2015
# GHz  S  MA  R  50
!  f         S11            S21            S12            S22
! GHz     MAG   ANG      MAG   ANG      MAG   ANG      MAG   ANG
 0.010  0.4166  -30.5  71.579  163.9  0.0038   79.2  0.9294  -13.4
 0.015  0.4045  -43.9  67.866  158.0  0.0056   76.4  0.8876  -19.2
 0.020  0.4151  -57.3  64.963  151.4  0.0075   75.0  0.8556  -25.4
 0.025  0.3965  -65.3  60.894  148.4  0.0086   71.5  0.8060  -28.0
 0.030  0.3862  -73.9  57.011  145.0  0.0098   68.8  0.7583  -31.0
 0.035  0.3849  -82.7  53.356  141.2  0.0109   66.7  0.7128  -34.3
 0.040  0.3927  -91.4  49.979  136.8  0.0121   65.0  0.6702  -38.1
 0.045  0.4092  -99.6  46.939  131.8  0.0133   63.6  0.6308  -42.4
 0.050  0.4332 -107.0  44.306  126.1  0.0145   62.4  0.5954  -47.2
 0.055  0.4286 -110.4  42.402  125.0  0.0151   62.2  0.5712  -48.0
 0.060  0.4255 -113.9  40.514  123.9  0.0158   62.1  0.5471  -48.9
 0.065  0.4240 -117.4  38.644  122.6  0.0164   62.0  0.5232  -49.9
 0.070  0.4240 -120.9  36.796  121.1  0.0171   61.9  0.4994  -50.9
 0.075  0.4257 -124.4  34.973  119.6  0.0177   61.7  0.4758  -52.1
 0.080  0.4289 -127.8  33.180  117.8  0.0184   61.6  0.4524  -53.4
 0.085  0.4337 -131.2  31.420  115.9  0.0190   61.6  0.4293  -54.8
 0.090  0.4399 -134.5  29.700  113.7  0.0197   61.5  0.4065  -56.3
 0.095  0.4476 -137.7  28.027  111.3  0.0203   61.4  0.3840  -58.1
 0.100  0.4566 -140.8  26.411  108.6  0.0210   61.3  0.3619  -60.1
 0.105  0.4551 -142.3  25.579  108.0  0.0216   61.6  0.3518  -60.4
 0.110  0.4539 -143.9  24.749  107.3  0.0223   61.9  0.3417  -60.8
 0.115  0.4530 -145.4  23.924  106.6  0.0229   62.2  0.3316  -61.2
 0.120  0.4525 -146.9  23.102  105.9  0.0235   62.4  0.3216  -61.6
 0.125  0.4522 -148.5  22.284  105.0  0.0241   62.7  0.3115  -62.0
 0.130  0.4524 -150.0  21.472  104.2  0.0248   62.9  0.3015  -62.4
 0.135  0.4528 -151.6  20.664  103.2  0.0254   63.1  0.2915  -62.9
 0.140  0.4536 -153.1  19.863  102.2  0.0260   63.3  0.2815  -63.4
 0.145  0.4547 -154.7  19.069  101.1  0.0267   63.5  0.2715  -64.0
 0.150  0.4561 -156.2  18.282   99.9  0.0273   63.7  0.2616  -64.6
 0.155  0.4562 -157.0  17.849   99.5  0.0279   64.1  0.2563  -64.6
 0.160  0.4564 -157.8  17.416   99.1  0.0286   64.5  0.2511  -64.6
 0.165  0.4566 -158.6  16.985   98.7  0.0292   64.9  0.2458  -64.5
 0.170  0.4570 -159.3  16.554   98.2  0.0299   65.3  0.2405  -64.5
 0.175  0.4574 -160.1  16.125   97.8  0.0305   65.6  0.2352  -64.5
 0.180  0.4580 -160.9  15.696   97.3  0.0312   66.0  0.2300  -64.5
 0.185  0.4586 -161.7  15.269   96.8  0.0318   66.3  0.2247  -64.5
 0.190  0.4593 -162.5  14.843   96.2  0.0325   66.6  0.2194  -64.4
 0.195  0.4600 -163.2  14.419   95.6  0.0331   66.9  0.2142  -64.4
 0.200  0.4609 -164.0  13.996   95.0  0.0338   67.2  0.2089  -64.4
 0.220  0.4622 -166.4  12.880   93.7  0.0364   67.8  0.1944  -64.5
 0.240  0.4643 -168.8  11.771   92.1  0.0389   68.3  0.1799  -64.6
 0.260  0.4652 -170.7  10.859   90.7  0.0416   68.9  0.1690  -64.6
 0.280  0.4647 -172.2  10.138   89.7  0.0444   69.7  0.1615  -64.7
 0.300  0.4645 -173.6   9.421   88.5  0.0472   70.4  0.1541  -64.8
 0.320  0.4649 -174.9   8.961   87.8  0.0499   70.7  0.1485  -64.7
 0.340  0.4655 -176.2   8.502   87.0  0.0526   70.9  0.1429  -64.5
 0.360  0.4663 -177.5   8.045   86.1  0.0553   71.1  0.1374  -64.4
 0.380  0.4674 -178.8   7.590   85.1  0.0580   71.3  0.1318  -64.2
 0.400  0.4687  179.9   7.138   84.0  0.0607   71.5  0.1262  -64.0
 0.420  0.4698  178.9   6.854   83.3  0.0634   71.6  0.1233  -63.9
 0.440  0.4711  177.9   6.570   82.5  0.0661   71.7  0.1204  -63.8
 0.450  0.4718  177.4   6.429   82.1  0.0674   71.8  0.1189  -63.7
 0.460  0.4725  176.9   6.288   81.7  0.0687   71.8  0.1174  -63.7
 0.480  0.4740  176.0   6.008   80.7  0.0714   71.9  0.1145  -63.5
 0.500  0.4757  175.0   5.729   79.7  0.0741   72.0  0.1116  -63.4
 0.520  0.4756  174.2   5.541   79.0  0.0769   71.8  0.1103  -63.6
 0.540  0.4757  173.4   5.354   78.3  0.0797   71.7  0.1091  -63.9
 0.560  0.4758  172.7   5.168   77.6  0.0824   71.6  0.1078  -64.1
 0.580  0.4760  171.9   4.983   76.8  0.0852   71.4  0.1066  -64.3
 0.600  0.4763  171.1   4.799   75.9  0.0880   71.3  0.1053  -64.6
 0.620  0.4770  170.2   4.666   75.2  0.0907   71.2  0.1041  -65.1
 0.640  0.4779  169.4   4.534   74.5  0.0934   71.0  0.1030  -65.6
 0.660  0.4788  168.5   4.403   73.8  0.0961   70.9  0.1019  -66.2
 0.680  0.4798  167.7   4.272   73.0  0.0988   70.8  0.1007  -66.7
 0.700  0.4810  166.8   4.142   72.2  0.1015   70.7  0.0996  -67.3
 0.720  0.4814  166.2   4.040   71.6  0.1043   70.5  0.0985  -67.7
 0.740  0.4819  165.6   3.938   71.1  0.1071   70.3  0.0974  -68.2
 0.760  0.4824  165.1   3.836   70.4  0.1098   70.1  0.0963  -68.6
 0.780  0.4829  164.5   3.735   69.8  0.1126   70.0  0.0952  -69.1
 0.800  0.4835  163.9   3.635   69.1  0.1154   69.8  0.0941  -69.6
 0.820  0.4832  163.2   3.557   68.5  0.1182   69.6  0.0935  -69.9
 0.840  0.4830  162.4   3.480   67.9  0.1210   69.4  0.0929  -70.2
 0.860  0.4828  161.7   3.403   67.2  0.1237   69.2  0.0922  -70.5
 0.880  0.4828  160.9   3.327   66.5  0.1265   69.0  0.0916  -70.8
 0.900  0.4828  160.2   3.251   65.8  0.1293   68.8  0.0910  -71.1
 0.920  0.4833  159.5   3.189   65.2  0.1319   68.6  0.0910  -71.9
 0.940  0.4838  158.7   3.128   64.6  0.1345   68.3  0.0909  -72.8
 0.960  0.4844  158.0   3.067   64.0  0.1371   68.1  0.0909  -73.6
 0.980  0.4851  157.2   3.007   63.3  0.1397   67.9  0.0910  -74.5
 1.000  0.4859  156.5   2.947   62.6  0.1423   67.7  0.0910  -75.3
 1.020  0.4876  155.9   2.898   62.0  0.1451   67.4  0.0907  -76.4
 1.040  0.4893  155.2   2.849   61.4  0.1479   67.2  0.0905  -77.4
 1.060  0.4911  154.6   2.801   60.8  0.1506   67.0  0.0903  -78.5
 1.080  0.4929  154.0   2.753   60.2  0.1534   66.7  0.0901  -79.6
 1.100  0.4948  153.4   2.705   59.5  0.1562   66.5  0.0900  -80.7
 1.120  0.4961  152.8   2.664   59.0  0.1588   66.2  0.0895  -81.5
 1.140  0.4975  152.2   2.624   58.4  0.1614   66.0  0.0891  -82.3
 1.160  0.4990  151.6   2.584   57.8  0.1641   65.8  0.0887  -83.1
 1.180  0.5005  151.0   2.544   57.2  0.1667   65.5  0.0883  -84.0
 1.200  0.5020  150.4   2.504   56.6  0.1693   65.3  0.0879  -84.8
 1.220  0.5018  149.9   2.466   56.1  0.1720   65.0  0.0878  -85.6
 1.240  0.5017  149.4   2.428   55.5  0.1746   64.7  0.0877  -86.4
 1.260  0.5016  148.9   2.391   55.0  0.1773   64.4  0.0876  -87.2
 1.280  0.5015  148.4   2.353   54.4  0.1799   64.2  0.0875  -88.0
 1.300  0.5015  147.9   2.316   53.8  0.1826   63.9  0.0875  -88.8
 1.320  0.5030  147.4   2.286   53.3  0.1851   63.6  0.0877  -89.9
 1.340  0.5045  146.9   2.256   52.8  0.1877   63.4  0.0879  -91.0
 1.360  0.5061  146.3   2.226   52.2  0.1902   63.1  0.0882  -92.1
 1.380  0.5077  145.8   2.196   51.7  0.1928   62.8  0.0885  -93.1
 1.400  0.5094  145.3   2.167   51.1  0.1953   62.6  0.0888  -94.2
 1.420  0.5103  144.7   2.144   50.6  0.1978   62.3  0.0889  -95.3
 1.440  0.5112  144.1   2.121   50.0  0.2003   62.1  0.0891  -96.5
 1.460  0.5122  143.6   2.099   49.5  0.2028   61.8  0.0893  -97.6
 1.480  0.5133  143.0   2.076   48.9  0.2054   61.5  0.0895  -98.7
 1.500  0.5144  142.4   2.054   48.3  0.2079   61.3  0.0898  -99.8
 1.520  0.5158  141.9   2.029   47.7  0.2105   61.0  0.0898 -101.0
 1.540  0.5172  141.3   2.004   47.2  0.2132   60.7  0.0898 -102.2
 1.560  0.5187  140.8   1.979   46.6  0.2159   60.4  0.0898 -103.5
 1.580  0.5202  140.2   1.954   46.0  0.2185   60.2  0.0899 -104.7
 1.600  0.5218  139.7   1.930   45.4  0.2212   59.9  0.0900 -105.9
 1.620  0.5228  139.2   1.910   44.9  0.2236   59.6  0.0898 -107.1
 1.640  0.5239  138.7   1.890   44.3  0.2261   59.3  0.0897 -108.4
 1.660  0.5250  138.2   1.870   43.8  0.2286   59.0  0.0896 -109.6
 1.680  0.5261  137.7   1.850   43.2  0.2310   58.8  0.0896 -110.9
 1.700  0.5273  137.2   1.831   42.6  0.2335   58.5  0.0896 -112.1
 1.720  0.5292  136.7   1.814   42.2  0.2359   58.2  0.0903 -113.2
 1.740  0.5312  136.1   1.797   41.7  0.2383   57.8  0.0910 -114.2
 1.760  0.5332  135.6   1.781   41.2  0.2407   57.5  0.0917 -115.2
 1.780  0.5352  135.0   1.764   40.8  0.2432   57.2  0.0925 -116.2
 1.800  0.5373  134.5   1.748   40.3  0.2456   56.9  0.0933 -117.2
 1.820  0.5385  134.0   1.733   39.8  0.2481   56.6  0.0943 -118.6
 1.840  0.5398  133.5   1.718   39.2  0.2507   56.4  0.0953 -120.0
 1.860  0.5411  133.0   1.703   38.6  0.2533   56.1  0.0963 -121.4
 1.880  0.5425  132.5   1.688   38.1  0.2558   55.8  0.0974 -122.7
 1.900  0.5439  132.0   1.674   37.5  0.2584   55.6  0.0986 -124.0
 1.920  0.5444  131.5   1.659   37.0  0.2608   55.3  0.0991 -125.5
 1.940  0.5450  131.0   1.644   36.5  0.2632   55.0  0.0996 -127.0
 1.960  0.5457  130.4   1.629   36.0  0.2656   54.7  0.1002 -128.5
 1.980  0.5464  129.9   1.614   35.5  0.2681   54.4  0.1009 -130.0
 2.000  0.5471  129.4   1.599   35.0  0.2705   54.1  0.1016 -131.4
 2.020  0.5485  128.9   1.586   34.5  0.2729   53.8  0.1022 -132.5
 2.040  0.5500  128.4   1.573   34.1  0.2752   53.5  0.1028 -133.7
 2.060  0.5515  128.0   1.559   33.6  0.2776   53.2  0.1035 -134.8
 2.080  0.5531  127.5   1.546   33.1  0.2800   52.9  0.1042 -135.9
 2.100  0.5546  127.0   1.534   32.7  0.2824   52.6  0.1050 -136.9
 2.120  0.5563  126.5   1.521   32.2  0.2848   52.3  0.1058 -138.0
 2.140  0.5579  126.1   1.508   31.7  0.2872   52.0  0.1066 -139.1
 2.160  0.5596  125.6   1.496   31.1  0.2896   51.7  0.1075 -140.1
 2.180  0.5613  125.2   1.483   30.6  0.2920   51.5  0.1084 -141.1
 2.200  0.5631  124.7   1.471   30.1  0.2944   51.2  0.1093 -142.1
 2.220  0.5644  124.2   1.461   29.6  0.2967   50.9  0.1105 -143.6
 2.240  0.5658  123.7   1.452   29.1  0.2990   50.6  0.1117 -145.1
 2.260  0.5672  123.2   1.442   28.6  0.3013   50.3  0.1131 -146.5
 2.280  0.5687  122.7   1.433   28.1  0.3036   50.0  0.1144 -147.9
 2.300  0.5702  122.2   1.424   27.6  0.3060   49.7  0.1159 -149.2
 2.320  0.5717  121.7   1.414   27.1  0.3083   49.4  0.1174 -150.6
 2.340  0.5733  121.2   1.405   26.6  0.3106   49.1  0.1190 -151.8
 2.360  0.5749  120.8   1.396   26.1  0.3130   48.8  0.1207 -153.1
 2.380  0.5766  120.3   1.388   25.5  0.3153   48.6  0.1223 -154.3
 2.400  0.5783  119.8   1.379   25.0  0.3177   48.3  0.1241 -155.5
 2.420  0.5802  119.3   1.369   24.6  0.3198   48.0  0.1253 -156.5
 2.440  0.5822  118.8   1.360   24.2  0.3219   47.7  0.1266 -157.5
 2.460  0.5842  118.3   1.350   23.8  0.3241   47.4  0.1280 -158.5
 2.480  0.5862  117.8   1.341   23.4  0.3262   47.1  0.1293 -159.5
 2.500  0.5883  117.4   1.332   22.9  0.3284   46.8  0.1307 -160.5
 2.520  0.5904  116.9   1.322   22.5  0.3306   46.5  0.1321 -161.4
 2.540  0.5926  116.4   1.313   22.1  0.3327   46.2  0.1336 -162.3
 2.560  0.5948  115.9   1.304   21.6  0.3349   45.9  0.1351 -163.2
 2.580  0.5970  115.5   1.295   21.2  0.3371   45.6  0.1366 -164.1
 2.600  0.5993  115.0   1.286   20.7  0.3393   45.3  0.1382 -164.9
 2.620  0.6006  114.6   1.278   20.3  0.3414   45.0  0.1402 -166.1
 2.640  0.6019  114.2   1.270   19.9  0.3435   44.6  0.1422 -167.3
 2.660  0.6032  113.8   1.263   19.5  0.3456   44.3  0.1443 -168.4
 2.680  0.6046  113.3   1.255   19.1  0.3477   44.0  0.1464 -169.5
 2.700  0.6060  112.9   1.248   18.7  0.3498   43.7  0.1486 -170.5
 2.720  0.6074  112.5   1.240   18.2  0.3520   43.4  0.1509 -171.6
 2.740  0.6088  112.1   1.233   17.8  0.3541   43.1  0.1532 -172.6
 2.760  0.6103  111.7   1.225   17.4  0.3563   42.8  0.1555 -173.5
 2.780  0.6119  111.3   1.218   16.9  0.3584   42.5  0.1579 -174.5
 2.800  0.6134  110.9   1.211   16.5  0.3606   42.2  0.1603 -175.4
 2.820  0.6152  110.5   1.204   16.1  0.3626   41.9  0.1621 -176.2
 2.840  0.6169  110.1   1.197   15.7  0.3647   41.6  0.1639 -177.0
 2.860  0.6188  109.6   1.190   15.3  0.3667   41.3  0.1658 -177.8
 2.880  0.6206  109.2   1.183   15.0  0.3688   41.0  0.1677 -178.6
 2.900  0.6225  108.8   1.176   14.6  0.3708   40.7  0.1696 -179.4
 2.920  0.6244  108.4   1.170   14.2  0.3729   40.4  0.1716  179.9
 2.940  0.6264  108.0   1.163   13.7  0.3750   40.1  0.1736  179.2
 2.960  0.6283  107.6   1.156   13.3  0.3771   39.9  0.1756  178.5
 2.980  0.6304  107.2   1.150   12.9  0.3792   39.6  0.1776  177.8
 3.000  0.6324  106.8   1.143   12.5  0.3813   39.3  0.1797  177.1
 3.100  0.6399  104.9   1.112   10.9  0.3902   37.7  0.1916  172.7
 3.200  0.6480  103.1   1.082    9.2  0.3994   36.1  0.2046  168.8
 3.300  0.6568  101.3   1.053    7.4  0.4089   34.7  0.2183  165.4
 3.400  0.6663   99.5   1.025    5.5  0.4186   33.2  0.2328  162.3
 3.500  0.6763   97.8   0.998    3.5  0.4286   31.9  0.2478  159.7
 3.600  0.6833   96.1   0.975    2.2  0.4354   30.3  0.2611  156.2
 3.700  0.6908   94.5   0.952    0.8  0.4425   28.8  0.2754  153.0
 3.800  0.6989   92.9   0.930   -0.7  0.4499   27.3  0.2903  150.1
 3.900  0.7076   91.3   0.908   -2.2  0.4576   25.8  0.3060  147.5
 4.000  0.7167   89.8   0.887   -3.8  0.4656   24.4  0.3222  145.2
 4.100  0.7201   88.3   0.868   -5.0  0.4705   22.9  0.3329  142.6
 4.200  0.7239   86.9   0.849   -6.2  0.4758   21.4  0.3443  140.1
 4.300  0.7282   85.5   0.830   -7.5  0.4813   20.0  0.3563  137.8
 4.400  0.7329   84.1   0.812   -8.9  0.4872   18.6  0.3689  135.6
 4.500  0.7381   82.7   0.794  -10.3  0.4933   17.2  0.3819  133.6
 4.600  0.7414   81.4   0.780  -11.2  0.4974   15.9  0.3915  131.4
 4.700  0.7451   80.2   0.767  -12.1  0.5017   14.6  0.4016  129.3
 4.800  0.7492   78.9   0.754  -13.1  0.5063   13.3  0.4122  127.3
 4.900  0.7536   77.7   0.741  -14.1  0.5112   12.0  0.4233  125.4
 5.000  0.7583   76.5   0.728  -15.1  0.5163   10.8  0.4348  123.6
 5.100  0.7565   75.3   0.715  -15.2  0.5184   10.1  0.4339  123.1
 5.200  0.7549   74.2   0.703  -15.4  0.5205    9.4  0.4330  122.5
 5.300  0.7537   73.0   0.690  -15.5  0.5227    8.7  0.4322  122.0
 5.400  0.7528   71.9   0.678  -15.6  0.5250    8.1  0.4314  121.4
 5.500  0.7522   70.7   0.665  -15.8  0.5274    7.4  0.4306  120.9
 5.600  0.7532   69.8   0.661  -16.6  0.5343    5.9  0.4490  118.9
 5.700  0.7544   69.0   0.657  -17.5  0.5415    4.4  0.4679  117.0
 5.800  0.7557   68.1   0.653  -18.4  0.5491    3.0  0.4872  115.3
 5.900  0.7572   67.3   0.650  -19.2  0.5570    1.6  0.5070  113.8
 6.000  0.7589   66.4   0.646  -20.1  0.5652    0.2  0.5271  112.3
!
!  f       NFmin   Gammaopt  rn/50
! GHz       dB    MAG  ANG    -
!
! noise parameter not available yet for this operation point!
!
! (c) 2015  Infineon Technologies AG, Munich
