! Infineon Technologies  Discrete & RF Semiconductors
! BFR182
! VCE = 0.75 V,  IC =  9.0 mA
! Common Emitter S-Parameters:                            Nov 2015
# GHz  S  MA  R  50
!  f         S11            S21            S12            S22
! GHz     MAG   ANG      MAG   ANG      MAG   ANG      MAG   ANG
 0.010  0.6920   -5.3  21.877  176.3  0.0023   84.6  0.9630   -2.3
 0.015  0.6866   -7.6  21.781  174.3  0.0037   81.8  0.9578   -3.5
 0.020  0.6824  -10.0  21.713  172.2  0.0052   80.6  0.9530   -4.8
 0.025  0.6772  -12.3  21.548  170.5  0.0065   79.9  0.9475   -5.9
 0.030  0.6732  -14.7  21.402  168.7  0.0078   79.4  0.9424   -7.0
 0.035  0.6703  -17.1  21.277  167.0  0.0090   79.0  0.9377   -8.2
 0.040  0.6687  -19.5  21.171  165.2  0.0103   78.8  0.9333   -9.3
 0.045  0.6681  -21.9  21.087  163.4  0.0116   78.6  0.9293  -10.4
 0.050  0.6688  -24.3  21.023  161.6  0.0129   78.4  0.9257  -11.6
 0.055  0.6576  -26.2  20.734  160.2  0.0139   77.0  0.9164  -12.4
 0.060  0.6472  -28.2  20.458  158.8  0.0150   75.9  0.9072  -13.2
 0.065  0.6377  -30.3  20.195  157.3  0.0160   74.8  0.8982  -14.1
 0.070  0.6290  -32.4  19.945  155.8  0.0171   74.0  0.8895  -15.0
 0.075  0.6211  -34.6  19.711  154.2  0.0182   73.2  0.8809  -15.8
 0.080  0.6142  -36.9  19.491  152.6  0.0192   72.5  0.8726  -16.7
 0.085  0.6083  -39.1  19.286  151.0  0.0203   71.8  0.8645  -17.7
 0.090  0.6033  -41.5  19.098  149.3  0.0214   71.3  0.8566  -18.6
 0.095  0.5993  -43.8  18.925  147.6  0.0224   70.8  0.8489  -19.5
 0.100  0.5964  -46.2  18.770  145.9  0.0235   70.3  0.8415  -20.5
 0.105  0.5859  -47.8  18.469  144.8  0.0243   69.5  0.8313  -21.0
 0.110  0.5758  -49.5  18.175  143.6  0.0251   68.8  0.8211  -21.6
 0.115  0.5663  -51.3  17.890  142.4  0.0258   68.1  0.8110  -22.1
 0.120  0.5573  -53.1  17.612  141.1  0.0266   67.5  0.8010  -22.7
 0.125  0.5489  -54.9  17.344  139.8  0.0274   66.9  0.7911  -23.3
 0.130  0.5411  -56.8  17.085  138.5  0.0282   66.3  0.7813  -23.9
 0.135  0.5339  -58.8  16.835  137.1  0.0290   65.8  0.7715  -24.5
 0.140  0.5274  -60.8  16.595  135.7  0.0298   65.2  0.7619  -25.2
 0.145  0.5215  -62.9  16.366  134.2  0.0306   64.8  0.7524  -25.8
 0.150  0.5163  -65.0  16.148  132.7  0.0314   64.3  0.7429  -26.5
 0.155  0.5096  -66.3  15.907  131.9  0.0320   64.1  0.7351  -26.8
 0.160  0.5032  -67.6  15.669  131.1  0.0326   63.9  0.7273  -27.1
 0.165  0.4970  -68.9  15.434  130.3  0.0332   63.7  0.7196  -27.4
 0.170  0.4911  -70.3  15.202  129.4  0.0338   63.5  0.7118  -27.7
 0.175  0.4856  -71.7  14.974  128.5  0.0344   63.4  0.7041  -28.0
 0.180  0.4803  -73.1  14.750  127.6  0.0350   63.2  0.6964  -28.3
 0.185  0.4753  -74.6  14.530  126.7  0.0356   63.0  0.6888  -28.7
 0.190  0.4706  -76.1  14.313  125.7  0.0362   62.9  0.6811  -29.0
 0.195  0.4663  -77.6  14.101  124.7  0.0368   62.7  0.6735  -29.3
 0.200  0.4623  -79.2  13.893  123.7  0.0374   62.6  0.6659  -29.7
 0.220  0.4395  -84.2  13.104  121.0  0.0394   61.8  0.6414  -30.3
 0.240  0.4203  -89.7  12.347  118.0  0.0413   61.0  0.6170  -30.9
 0.260  0.4036  -94.7  11.670  115.3  0.0433   60.7  0.5951  -31.3
 0.280  0.3880  -99.1  11.058  113.0  0.0452   60.6  0.5756  -31.7
 0.300  0.3748 -103.8  10.464  110.5  0.0471   60.6  0.5561  -32.0
 0.320  0.3621 -106.9  10.022  109.2  0.0488   60.7  0.5433  -32.0
 0.340  0.3505 -110.3   9.586  107.8  0.0505   60.8  0.5305  -32.0
 0.360  0.3402 -113.8   9.156  106.2  0.0522   60.9  0.5178  -32.1
 0.380  0.3312 -117.6   8.734  104.5  0.0539   60.9  0.5050  -32.1
 0.400  0.3238 -121.5   8.320  102.6  0.0556   61.0  0.4922  -32.1
 0.420  0.3180 -124.2   8.009  101.4  0.0574   61.2  0.4846  -32.0
 0.440  0.3129 -127.0   7.701  100.2  0.0591   61.5  0.4770  -31.9
 0.450  0.3106 -128.5   7.549   99.5  0.0600   61.6  0.4731  -31.9
 0.460  0.3086 -129.9   7.397   98.9  0.0609   61.7  0.4693  -31.9
 0.480  0.3051 -132.9   7.098   97.4  0.0626   61.9  0.4617  -31.8
 0.500  0.3024 -135.9   6.804   95.8  0.0644   62.1  0.4541  -31.7
 0.520  0.2979 -138.2   6.596   94.9  0.0662   62.3  0.4490  -31.6
 0.540  0.2940 -140.5   6.389   93.9  0.0680   62.5  0.4438  -31.5
 0.560  0.2905 -142.9   6.185   92.8  0.0698   62.7  0.4387  -31.5
 0.580  0.2876 -145.4   5.983   91.7  0.0716   62.8  0.4335  -31.4
 0.600  0.2852 -147.9   5.783   90.5  0.0734   63.0  0.4284  -31.3
 0.620  0.2819 -150.0   5.629   89.7  0.0752   63.2  0.4247  -31.3
 0.640  0.2790 -152.1   5.476   88.8  0.0770   63.3  0.4210  -31.3
 0.660  0.2764 -154.2   5.325   87.8  0.0789   63.4  0.4174  -31.2
 0.680  0.2743 -156.4   5.175   86.8  0.0807   63.6  0.4137  -31.2
 0.700  0.2725 -158.6   5.027   85.8  0.0825   63.7  0.4100  -31.2
 0.720  0.2720 -160.2   4.905   85.1  0.0843   63.7  0.4075  -31.2
 0.740  0.2717 -161.8   4.785   84.3  0.0860   63.8  0.4050  -31.2
 0.760  0.2716 -163.5   4.665   83.5  0.0878   63.8  0.4024  -31.2
 0.780  0.2717 -165.1   4.546   82.7  0.0895   63.9  0.3999  -31.2
 0.800  0.2721 -166.7   4.428   81.8  0.0913   63.9  0.3974  -31.2
 0.820  0.2707 -168.1   4.337   81.2  0.0933   64.0  0.3955  -31.3
 0.840  0.2695 -169.5   4.247   80.5  0.0953   64.0  0.3936  -31.4
 0.860  0.2684 -170.9   4.158   79.8  0.0973   64.1  0.3917  -31.5
 0.880  0.2675 -172.4   4.069   79.1  0.0993   64.1  0.3898  -31.6
 0.900  0.2668 -173.8   3.981   78.3  0.1013   64.2  0.3879  -31.7
 0.920  0.2665 -175.3   3.908   77.7  0.1031   64.2  0.3865  -31.8
 0.940  0.2663 -176.8   3.836   77.0  0.1050   64.2  0.3850  -31.9
 0.960  0.2664 -178.3   3.764   76.3  0.1068   64.2  0.3836  -32.0
 0.980  0.2666 -179.8   3.693   75.6  0.1087   64.2  0.3821  -32.1
 1.000  0.2670  178.7   3.622   74.9  0.1105   64.2  0.3807  -32.2
 1.020  0.2680  177.3   3.562   74.3  0.1125   64.2  0.3794  -32.4
 1.040  0.2692  176.0   3.502   73.8  0.1145   64.2  0.3780  -32.6
 1.060  0.2706  174.6   3.443   73.2  0.1164   64.1  0.3767  -32.8
 1.080  0.2721  173.3   3.384   72.5  0.1184   64.1  0.3754  -33.0
 1.100  0.2737  172.0   3.325   71.9  0.1204   64.1  0.3741  -33.2
 1.120  0.2738  170.8   3.273   71.3  0.1224   64.0  0.3728  -33.4
 1.140  0.2740  169.6   3.222   70.7  0.1243   63.9  0.3715  -33.6
 1.160  0.2743  168.5   3.171   70.0  0.1263   63.9  0.3702  -33.7
 1.180  0.2747  167.3   3.121   69.4  0.1282   63.8  0.3690  -33.9
 1.200  0.2753  166.1   3.071   68.7  0.1302   63.7  0.3677  -34.1
 1.220  0.2759  165.0   3.024   68.2  0.1321   63.6  0.3667  -34.3
 1.240  0.2765  164.0   2.977   67.6  0.1340   63.6  0.3657  -34.5
 1.260  0.2773  162.9   2.930   67.1  0.1360   63.5  0.3647  -34.8
 1.280  0.2782  161.8   2.884   66.5  0.1379   63.5  0.3637  -35.0
 1.300  0.2791  160.8   2.838   65.9  0.1398   63.4  0.3627  -35.2
 1.320  0.2805  159.8   2.800   65.4  0.1417   63.3  0.3615  -35.5
 1.340  0.2820  158.7   2.763   64.8  0.1436   63.3  0.3603  -35.8
 1.360  0.2836  157.7   2.726   64.3  0.1456   63.2  0.3591  -36.0
 1.380  0.2853  156.7   2.689   63.7  0.1475   63.2  0.3580  -36.3
 1.400  0.2871  155.7   2.653   63.1  0.1494   63.1  0.3568  -36.6
 1.420  0.2869  154.9   2.624   62.6  0.1513   63.0  0.3559  -36.8
 1.440  0.2867  154.2   2.595   62.1  0.1533   62.9  0.3550  -37.1
 1.460  0.2866  153.4   2.566   61.6  0.1552   62.7  0.3541  -37.3
 1.480  0.2866  152.7   2.537   61.0  0.1572   62.6  0.3532  -37.6
 1.500  0.2866  151.9   2.509   60.5  0.1591   62.5  0.3523  -37.8
 1.520  0.2890  150.9   2.477   59.9  0.1611   62.4  0.3513  -38.1
 1.540  0.2915  150.0   2.446   59.3  0.1632   62.3  0.3504  -38.4
 1.560  0.2940  149.1   2.415   58.7  0.1652   62.1  0.3495  -38.6
 1.580  0.2966  148.2   2.384   58.1  0.1673   62.0  0.3485  -38.9
 1.600  0.2993  147.3   2.353   57.5  0.1693   61.9  0.3476  -39.2
 1.620  0.3006  146.6   2.330   57.0  0.1712   61.8  0.3464  -39.5
 1.640  0.3020  145.8   2.307   56.5  0.1731   61.7  0.3452  -39.8
 1.660  0.3034  145.1   2.285   56.0  0.1751   61.5  0.3440  -40.0
 1.680  0.3049  144.4   2.262   55.5  0.1770   61.4  0.3428  -40.3
 1.700  0.3064  143.7   2.240   55.0  0.1789   61.3  0.3416  -40.6
 1.720  0.3072  142.8   2.219   54.6  0.1809   61.1  0.3408  -41.0
 1.740  0.3080  141.9   2.198   54.1  0.1830   61.0  0.3400  -41.4
 1.760  0.3089  141.0   2.178   53.6  0.1850   60.8  0.3393  -41.7
 1.780  0.3099  140.2   2.157   53.2  0.1871   60.7  0.3385  -42.1
 1.800  0.3109  139.3   2.137   52.7  0.1891   60.5  0.3378  -42.5
 1.820  0.3129  138.6   2.119   52.2  0.1911   60.3  0.3366  -42.8
 1.840  0.3149  138.0   2.101   51.7  0.1931   60.1  0.3355  -43.2
 1.860  0.3170  137.4   2.083   51.2  0.1951   59.9  0.3343  -43.5
 1.880  0.3191  136.7   2.065   50.7  0.1971   59.8  0.3332  -43.9
 1.900  0.3212  136.1   2.047   50.2  0.1991   59.6  0.3321  -44.2
 1.920  0.3225  135.4   2.028   49.7  0.2011   59.5  0.3310  -44.6
 1.940  0.3239  134.7   2.009   49.3  0.2031   59.3  0.3300  -44.9
 1.960  0.3253  134.0   1.990   48.8  0.2051   59.2  0.3289  -45.3
 1.980  0.3267  133.4   1.971   48.3  0.2071   59.0  0.3279  -45.6
 2.000  0.3282  132.7   1.952   47.8  0.2091   58.9  0.3269  -46.0
 2.020  0.3298  132.1   1.936   47.4  0.2111   58.7  0.3254  -46.4
 2.040  0.3315  131.4   1.920   46.9  0.2132   58.5  0.3238  -46.8
 2.060  0.3332  130.8   1.904   46.5  0.2153   58.3  0.3223  -47.2
 2.080  0.3350  130.2   1.889   46.0  0.2173   58.1  0.3209  -47.6
 2.100  0.3368  129.6   1.873   45.5  0.2194   58.0  0.3194  -48.1
 2.120  0.3386  129.0   1.857   45.1  0.2214   57.8  0.3179  -48.5
 2.140  0.3405  128.4   1.842   44.6  0.2235   57.6  0.3165  -48.9
 2.160  0.3424  127.8   1.827   44.1  0.2256   57.4  0.3151  -49.3
 2.180  0.3443  127.3   1.812   43.6  0.2276   57.3  0.3137  -49.8
 2.200  0.3463  126.7   1.797   43.1  0.2297   57.1  0.3123  -50.2
 2.220  0.3481  126.1   1.785   42.7  0.2317   56.9  0.3109  -50.6
 2.240  0.3500  125.5   1.773   42.2  0.2337   56.7  0.3095  -51.0
 2.260  0.3519  124.9   1.761   41.8  0.2356   56.5  0.3081  -51.4
 2.280  0.3539  124.3   1.749   41.3  0.2376   56.3  0.3067  -51.8
 2.300  0.3559  123.7   1.738   40.9  0.2396   56.2  0.3054  -52.2
 2.320  0.3579  123.1   1.726   40.4  0.2416   56.0  0.3040  -52.6
 2.340  0.3600  122.5   1.715   39.9  0.2436   55.8  0.3027  -53.0
 2.360  0.3621  121.9   1.703   39.5  0.2456   55.6  0.3014  -53.5
 2.380  0.3642  121.4   1.692   39.0  0.2476   55.5  0.3001  -53.9
 2.400  0.3664  120.8   1.681   38.5  0.2496   55.3  0.2988  -54.3
 2.420  0.3686  120.3   1.670   38.1  0.2516   55.1  0.2970  -54.8
 2.440  0.3708  119.7   1.659   37.7  0.2537   54.9  0.2953  -55.2
 2.460  0.3731  119.2   1.647   37.3  0.2557   54.6  0.2935  -55.7
 2.480  0.3754  118.7   1.636   36.9  0.2577   54.4  0.2918  -56.2
 2.500  0.3777  118.2   1.625   36.5  0.2598   54.2  0.2901  -56.6
 2.520  0.3801  117.7   1.615   36.0  0.2618   54.0  0.2885  -57.1
 2.540  0.3825  117.2   1.604   35.6  0.2638   53.8  0.2868  -57.6
 2.560  0.3849  116.7   1.593   35.2  0.2659   53.6  0.2852  -58.1
 2.580  0.3873  116.2   1.582   34.7  0.2679   53.4  0.2836  -58.6
 2.600  0.3898  115.7   1.572   34.3  0.2700   53.2  0.2820  -59.1
 2.620  0.3912  115.2   1.563   33.9  0.2720   53.0  0.2805  -59.6
 2.640  0.3926  114.8   1.555   33.5  0.2740   52.8  0.2791  -60.2
 2.660  0.3941  114.3   1.546   33.1  0.2760   52.5  0.2776  -60.7
 2.680  0.3955  113.9   1.538   32.8  0.2780   52.3  0.2762  -61.3
 2.700  0.3970  113.4   1.529   32.4  0.2800   52.1  0.2748  -61.8
 2.720  0.3986  113.0   1.521   32.0  0.2820   51.9  0.2735  -62.4
 2.740  0.4001  112.5   1.512   31.5  0.2840   51.7  0.2721  -63.0
 2.760  0.4017  112.1   1.504   31.1  0.2860   51.5  0.2708  -63.5
 2.780  0.4033  111.6   1.496   30.7  0.2880   51.3  0.2695  -64.1
 2.800  0.4049  111.2   1.488   30.3  0.2900   51.1  0.2683  -64.7
 2.820  0.4073  110.8   1.479   29.9  0.2920   50.9  0.2662  -65.3
 2.840  0.4098  110.4   1.470   29.5  0.2940   50.6  0.2641  -65.9
 2.860  0.4122  109.9   1.462   29.1  0.2960   50.4  0.2621  -66.5
 2.880  0.4147  109.5   1.453   28.6  0.2980   50.2  0.2601  -67.1
 2.900  0.4172  109.1   1.444   28.2  0.3000   50.0  0.2581  -67.7
 2.920  0.4198  108.7   1.436   27.8  0.3020   49.7  0.2561  -68.3
 2.940  0.4223  108.3   1.428   27.3  0.3040   49.5  0.2542  -68.9
 2.960  0.4249  108.0   1.419   26.9  0.3060   49.3  0.2523  -69.6
 2.980  0.4275  107.6   1.411   26.5  0.3081   49.1  0.2504  -70.2
 3.000  0.4301  107.2   1.403   26.0  0.3101   48.9  0.2486  -70.9
 3.100  0.4405  105.2   1.368   24.3  0.3198   47.6  0.2381  -74.4
 3.200  0.4515  103.2   1.333   22.6  0.3296   46.4  0.2287  -78.3
 3.300  0.4630  101.3   1.300   20.7  0.3395   45.2  0.2203  -82.4
 3.400  0.4749   99.6   1.269   18.7  0.3496   44.1  0.2132  -86.9
 3.500  0.4873   97.9   1.239   16.7  0.3598   43.1  0.2074  -91.6
 3.600  0.4962   96.3   1.213   15.2  0.3686   41.7  0.1984  -96.6
 3.700  0.5055   94.8   1.187   13.6  0.3777   40.4  0.1911 -102.0
 3.800  0.5151   93.3   1.163   11.9  0.3869   39.2  0.1855 -107.8
 3.900  0.5250   91.9   1.139   10.2  0.3963   38.0  0.1820 -113.9
 4.000  0.5353   90.5   1.117    8.4  0.4059   36.9  0.1806 -120.1
 4.100  0.5443   89.2   1.096    7.0  0.4139   35.5  0.1766 -126.2
 4.200  0.5535   87.9   1.076    5.5  0.4222   34.1  0.1748 -132.6
 4.300  0.5631   86.6   1.056    4.0  0.4306   32.8  0.1751 -139.0
 4.400  0.5729   85.4   1.037    2.4  0.4393   31.6  0.1776 -145.3
 4.500  0.5829   84.2   1.019    0.8  0.4482   30.4  0.1821 -151.3
 4.600  0.5889   83.0   1.002   -0.4  0.4555   29.0  0.1837 -157.2
 4.700  0.5951   81.8   0.986   -1.6  0.4630   27.7  0.1872 -162.9
 4.800  0.6016   80.7   0.970   -2.9  0.4708   26.4  0.1925 -168.3
 4.900  0.6083   79.6   0.955   -4.2  0.4788   25.2  0.1994 -173.5
 5.000  0.6152   78.5   0.940   -5.5  0.4870   24.0  0.2078 -178.2
 5.100  0.6207   77.3   0.923   -6.6  0.4933   22.6  0.2136  176.9
 5.200  0.6265   76.2   0.907   -7.8  0.4998   21.3  0.2209  172.2
 5.300  0.6325   75.1   0.891   -9.0  0.5066   19.9  0.2295  167.9
 5.400  0.6387   74.0   0.876  -10.2  0.5137   18.6  0.2393  163.9
 5.500  0.6452   72.9   0.861  -11.5  0.5210   17.4  0.2502  160.3
 5.600  0.6489   71.8   0.848  -12.5  0.5249   16.0  0.2542  156.4
 5.700  0.6529   70.7   0.835  -13.5  0.5290   14.5  0.2594  152.6
 5.800  0.6571   69.7   0.822  -14.6  0.5336   13.1  0.2657  148.9
 5.900  0.6615   68.6   0.809  -15.7  0.5384   11.8  0.2730  145.5
 6.000  0.6661   67.6   0.797  -16.8  0.5435   10.4  0.2812  142.2
!
!  f       NFmin   Gammaopt  rn/50
! GHz       dB    MAG  ANG    -
!
! noise parameter not available yet for this operation point!
!
! (c) 2015  Infineon Technologies AG, Munich
