! Infineon Technologies  Discrete & RF Semiconductors
! BFR182
! VCE =  10. V,  IC =  3.5 mA
! Common Emitter S-Parameters:                            Nov 2015
# GHz  S  MA  R  50
!  f         S11            S21            S12            S22
! GHz     MAG   ANG      MAG   ANG      MAG   ANG      MAG   ANG
 0.010  0.9020   -1.9  10.479  178.1  0.0018   86.0  0.9904   -0.8
 0.015  0.8973   -2.7  10.498  177.2  0.0028   83.8  0.9850   -1.2
 0.020  0.8927   -3.6  10.519  176.3  0.0038   82.7  0.9796   -1.7
 0.025  0.8919   -4.5  10.527  175.5  0.0048   82.8  0.9802   -2.1
 0.030  0.8914   -5.4  10.537  174.7  0.0059   82.8  0.9809   -2.6
 0.035  0.8911   -6.3  10.549  173.9  0.0069   82.8  0.9816   -3.0
 0.040  0.8910   -7.3  10.563  173.1  0.0079   82.9  0.9824   -3.4
 0.045  0.8911   -8.2  10.580  172.3  0.0090   82.9  0.9832   -3.9
 0.050  0.8915   -9.1  10.598  171.5  0.0100   82.9  0.9841   -4.3
 0.055  0.8883  -10.0  10.553  170.8  0.0109   82.4  0.9823   -4.7
 0.060  0.8853  -10.8  10.509  170.0  0.0119   82.0  0.9805   -5.1
 0.065  0.8826  -11.7  10.467  169.3  0.0128   81.6  0.9788   -5.5
 0.070  0.8800  -12.6  10.427  168.5  0.0138   81.3  0.9771   -5.9
 0.075  0.8776  -13.4  10.389  167.8  0.0147   81.0  0.9755   -6.3
 0.080  0.8754  -14.3  10.353  167.0  0.0157   80.8  0.9739   -6.7
 0.085  0.8735  -15.2  10.318  166.2  0.0166   80.6  0.9724   -7.2
 0.090  0.8717  -16.1  10.286  165.5  0.0176   80.4  0.9709   -7.6
 0.095  0.8702  -17.0  10.255  164.7  0.0185   80.3  0.9695   -8.0
 0.100  0.8689  -17.9  10.226  163.9  0.0195   80.1  0.9681   -8.4
 0.105  0.8641  -18.8  10.193  163.0  0.0204   79.4  0.9650   -8.8
 0.110  0.8596  -19.6  10.162  162.2  0.0212   78.7  0.9620   -9.2
 0.115  0.8552  -20.5  10.134  161.3  0.0221   78.1  0.9590   -9.5
 0.120  0.8511  -21.4  10.108  160.4  0.0230   77.6  0.9561   -9.9
 0.125  0.8471  -22.2  10.084  159.5  0.0238   77.1  0.9531  -10.3
 0.130  0.8433  -23.1  10.063  158.7  0.0247   76.6  0.9503  -10.7
 0.135  0.8398  -24.0  10.044  157.8  0.0256   76.2  0.9475  -11.1
 0.140  0.8364  -25.0  10.028  156.9  0.0264   75.8  0.9447  -11.5
 0.145  0.8333  -25.9  10.014  156.0  0.0273   75.4  0.9420  -11.9
 0.150  0.8304  -26.8  10.002  155.1  0.0282   75.0  0.9393  -12.3
 0.155  0.8257  -27.6   9.951  154.4  0.0290   74.6  0.9360  -12.6
 0.160  0.8211  -28.3   9.901  153.8  0.0297   74.1  0.9327  -12.9
 0.165  0.8167  -29.1   9.852  153.1  0.0305   73.7  0.9294  -13.3
 0.170  0.8124  -29.9   9.805  152.4  0.0312   73.3  0.9261  -13.6
 0.175  0.8082  -30.7   9.759  151.7  0.0320   73.0  0.9229  -13.9
 0.180  0.8042  -31.4   9.714  151.0  0.0327   72.6  0.9197  -14.3
 0.185  0.8004  -32.2   9.671  150.3  0.0335   72.3  0.9166  -14.6
 0.190  0.7968  -33.1   9.630  149.6  0.0343   72.0  0.9135  -14.9
 0.195  0.7932  -33.9   9.590  148.9  0.0350   71.7  0.9104  -15.3
 0.200  0.7899  -34.7   9.551  148.2  0.0358   71.4  0.9073  -15.6
 0.220  0.7737  -37.6   9.304  145.7  0.0387   69.8  0.8944  -16.7
 0.240  0.7596  -40.6   9.076  143.1  0.0416   68.4  0.8818  -17.7
 0.260  0.7423  -43.4   8.867  140.5  0.0443   67.3  0.8688  -18.7
 0.280  0.7215  -46.2   8.674  138.1  0.0468   66.3  0.8553  -19.6
 0.300  0.7025  -49.2   8.498  135.5  0.0493   65.4  0.8420  -20.5
 0.320  0.6807  -51.4   8.292  133.7  0.0512   64.5  0.8283  -21.2
 0.340  0.6600  -53.8   8.094  131.8  0.0530   63.6  0.8148  -21.9
 0.360  0.6406  -56.4   7.906  129.8  0.0549   62.8  0.8014  -22.6
 0.380  0.6225  -59.1   7.728  127.8  0.0568   62.1  0.7881  -23.3
 0.400  0.6058  -61.9   7.560  125.6  0.0587   61.4  0.7749  -24.1
 0.420  0.5893  -63.7   7.349  124.0  0.0603   60.8  0.7641  -24.5
 0.440  0.5735  -65.6   7.144  122.4  0.0619   60.3  0.7533  -24.9
 0.450  0.5658  -66.6   7.044  121.5  0.0627   60.0  0.7480  -25.1
 0.460  0.5583  -67.6   6.945  120.6  0.0635   59.8  0.7426  -25.3
 0.480  0.5438  -69.7   6.753  118.8  0.0651   59.3  0.7319  -25.8
 0.500  0.5301  -71.9   6.569  116.8  0.0667   58.8  0.7213  -26.2
 0.520  0.5164  -73.6   6.422  115.6  0.0682   58.4  0.7135  -26.5
 0.540  0.5031  -75.4   6.279  114.3  0.0697   58.1  0.7058  -26.7
 0.560  0.4904  -77.3   6.139  112.9  0.0713   57.7  0.6980  -27.0
 0.580  0.4782  -79.3   6.003  111.5  0.0728   57.4  0.6903  -27.3
 0.600  0.4667  -81.4   5.870  110.0  0.0743   57.1  0.6826  -27.6
 0.620  0.4545  -83.0   5.750  108.9  0.0755   57.0  0.6758  -27.8
 0.640  0.4427  -84.6   5.632  107.7  0.0767   56.8  0.6691  -28.0
 0.660  0.4312  -86.3   5.517  106.4  0.0778   56.7  0.6623  -28.2
 0.680  0.4202  -88.2   5.405  105.1  0.0790   56.6  0.6555  -28.4
 0.700  0.4096  -90.1   5.295  103.8  0.0802   56.5  0.6488  -28.6
 0.720  0.3989  -91.6   5.185  102.8  0.0814   56.4  0.6435  -28.7
 0.740  0.3886  -93.2   5.078  101.7  0.0826   56.2  0.6382  -28.8
 0.760  0.3785  -94.9   4.971  100.6  0.0838   56.1  0.6329  -29.0
 0.780  0.3688  -96.6   4.867   99.5  0.0850   56.0  0.6276  -29.1
 0.800  0.3595  -98.5   4.765   98.3  0.0862   55.9  0.6223  -29.2
 0.820  0.3511  -99.8   4.680   97.4  0.0874   56.0  0.6177  -29.3
 0.840  0.3429 -101.2   4.596   96.5  0.0886   56.1  0.6132  -29.4
 0.860  0.3349 -102.6   4.513   95.5  0.0898   56.2  0.6086  -29.6
 0.880  0.3271 -104.1   4.431   94.5  0.0910   56.3  0.6041  -29.7
 0.900  0.3195 -105.7   4.351   93.5  0.0922   56.4  0.5995  -29.8
 0.920  0.3128 -107.3   4.276   92.8  0.0933   56.4  0.5960  -29.9
 0.940  0.3063 -108.9   4.203   92.0  0.0943   56.5  0.5925  -30.0
 0.960  0.3002 -110.6   4.130   91.2  0.0954   56.5  0.5891  -30.2
 0.980  0.2942 -112.4   4.057   90.4  0.0964   56.6  0.5856  -30.3
 1.000  0.2886 -114.2   3.986   89.5  0.0975   56.6  0.5821  -30.4
 1.020  0.2832 -115.7   3.927   88.8  0.0987   56.6  0.5797  -30.6
 1.040  0.2780 -117.3   3.868   88.1  0.1000   56.7  0.5772  -30.7
 1.060  0.2731 -118.9   3.810   87.3  0.1012   56.7  0.5748  -30.9
 1.080  0.2683 -120.6   3.753   86.6  0.1025   56.8  0.5723  -31.0
 1.100  0.2638 -122.3   3.696   85.8  0.1037   56.8  0.5699  -31.2
 1.120  0.2590 -123.9   3.642   85.1  0.1049   56.8  0.5677  -31.3
 1.140  0.2544 -125.5   3.589   84.4  0.1061   56.9  0.5656  -31.5
 1.160  0.2501 -127.2   3.537   83.6  0.1074   56.9  0.5634  -31.6
 1.180  0.2459 -128.9   3.485   82.9  0.1086   57.0  0.5613  -31.8
 1.200  0.2420 -130.7   3.434   82.1  0.1098   57.0  0.5591  -31.9
 1.220  0.2381 -132.1   3.386   81.5  0.1111   57.1  0.5573  -32.0
 1.240  0.2344 -133.5   3.338   80.9  0.1123   57.2  0.5554  -32.2
 1.260  0.2308 -134.9   3.290   80.2  0.1136   57.2  0.5536  -32.3
 1.280  0.2274 -136.5   3.243   79.6  0.1148   57.3  0.5517  -32.5
 1.300  0.2241 -138.0   3.196   78.9  0.1161   57.4  0.5499  -32.6
 1.320  0.2212 -139.6   3.155   78.3  0.1173   57.4  0.5484  -32.8
 1.340  0.2185 -141.3   3.115   77.6  0.1185   57.5  0.5470  -33.0
 1.360  0.2160 -143.0   3.075   77.0  0.1196   57.5  0.5456  -33.2
 1.380  0.2137 -144.8   3.035   76.3  0.1208   57.6  0.5441  -33.4
 1.400  0.2116 -146.6   2.996   75.6  0.1220   57.6  0.5427  -33.6
 1.420  0.2089 -148.3   2.965   75.1  0.1233   57.7  0.5410  -33.8
 1.440  0.2064 -150.0   2.935   74.5  0.1246   57.7  0.5393  -33.9
 1.460  0.2041 -151.8   2.905   74.0  0.1259   57.8  0.5376  -34.1
 1.480  0.2020 -153.6   2.875   73.4  0.1272   57.8  0.5360  -34.2
 1.500  0.2001 -155.4   2.845   72.8  0.1285   57.9  0.5343  -34.4
 1.520  0.1984 -157.0   2.813   72.2  0.1299   58.0  0.5330  -34.6
 1.540  0.1968 -158.7   2.781   71.5  0.1313   58.0  0.5316  -34.7
 1.560  0.1954 -160.4   2.749   70.8  0.1327   58.1  0.5303  -34.9
 1.580  0.1942 -162.2   2.718   70.1  0.1341   58.1  0.5290  -35.0
 1.600  0.1932 -163.9   2.687   69.4  0.1355   58.2  0.5277  -35.2
 1.620  0.1914 -165.6   2.660   68.9  0.1369   58.3  0.5259  -35.4
 1.640  0.1897 -167.4   2.634   68.4  0.1383   58.3  0.5240  -35.6
 1.660  0.1883 -169.2   2.607   67.8  0.1396   58.4  0.5222  -35.8
 1.680  0.1870 -171.0   2.581   67.3  0.1410   58.4  0.5204  -36.0
 1.700  0.1859 -172.9   2.555   66.7  0.1424   58.5  0.5186  -36.2
 1.720  0.1862 -174.7   2.532   66.2  0.1439   58.5  0.5173  -36.4
 1.740  0.1867 -176.5   2.508   65.7  0.1453   58.5  0.5161  -36.6
 1.760  0.1874 -178.3   2.485   65.2  0.1468   58.5  0.5148  -36.9
 1.780  0.1883  179.9   2.463   64.6  0.1482   58.5  0.5135  -37.1
 1.800  0.1894  178.1   2.440   64.1  0.1497   58.5  0.5123  -37.3
 1.820  0.1902  176.8   2.419   63.6  0.1511   58.5  0.5113  -37.5
 1.840  0.1910  175.5   2.399   63.0  0.1525   58.5  0.5103  -37.8
 1.860  0.1920  174.2   2.378   62.5  0.1540   58.6  0.5093  -38.0
 1.880  0.1930  172.9   2.358   62.0  0.1554   58.6  0.5083  -38.3
 1.900  0.1942  171.6   2.338   61.4  0.1568   58.6  0.5073  -38.5
 1.920  0.1947  170.2   2.316   60.9  0.1583   58.6  0.5066  -38.7
 1.940  0.1952  168.9   2.294   60.4  0.1598   58.5  0.5059  -39.0
 1.960  0.1959  167.5   2.272   59.9  0.1613   58.5  0.5052  -39.2
 1.980  0.1967  166.1   2.250   59.3  0.1628   58.4  0.5046  -39.5
 2.000  0.1976  164.8   2.229   58.8  0.1643   58.4  0.5039  -39.7
 2.020  0.1980  163.5   2.212   58.3  0.1659   58.4  0.5025  -40.0
 2.040  0.1986  162.2   2.195   57.9  0.1674   58.3  0.5011  -40.2
 2.060  0.1992  160.9   2.178   57.4  0.1690   58.3  0.4998  -40.5
 2.080  0.1999  159.6   2.161   56.9  0.1705   58.3  0.4984  -40.8
 2.100  0.2008  158.3   2.145   56.4  0.1721   58.2  0.4971  -41.1
 2.120  0.2017  157.0   2.129   55.9  0.1737   58.2  0.4958  -41.4
 2.140  0.2027  155.8   2.112   55.4  0.1752   58.2  0.4945  -41.6
 2.160  0.2039  154.5   2.096   54.9  0.1768   58.2  0.4932  -41.9
 2.180  0.2051  153.3   2.081   54.3  0.1783   58.1  0.4919  -42.2
 2.200  0.2064  152.1   2.065   53.8  0.1799   58.1  0.4906  -42.5
 2.220  0.2080  150.9   2.051   53.4  0.1815   58.1  0.4895  -42.8
 2.240  0.2096  149.8   2.037   52.9  0.1830   58.0  0.4884  -43.1
 2.260  0.2113  148.7   2.023   52.5  0.1846   58.0  0.4874  -43.4
 2.280  0.2131  147.6   2.009   52.0  0.1861   57.9  0.4863  -43.6
 2.300  0.2150  146.5   1.995   51.5  0.1877   57.9  0.4852  -43.9
 2.320  0.2169  145.4   1.982   51.1  0.1893   57.9  0.4842  -44.2
 2.340  0.2190  144.3   1.968   50.6  0.1908   57.8  0.4832  -44.5
 2.360  0.2211  143.3   1.955   50.1  0.1924   57.8  0.4822  -44.8
 2.380  0.2233  142.3   1.942   49.6  0.1939   57.7  0.4812  -45.1
 2.400  0.2255  141.3   1.929   49.1  0.1955   57.7  0.4802  -45.4
 2.420  0.2274  140.2   1.917   48.7  0.1972   57.6  0.4786  -45.7
 2.440  0.2294  139.2   1.905   48.2  0.1990   57.5  0.4770  -46.0
 2.460  0.2315  138.1   1.894   47.8  0.2007   57.4  0.4754  -46.3
 2.480  0.2337  137.1   1.882   47.4  0.2024   57.3  0.4738  -46.7
 2.500  0.2359  136.1   1.871   46.9  0.2041   57.2  0.4723  -47.0
 2.520  0.2382  135.1   1.859   46.5  0.2059   57.1  0.4707  -47.3
 2.540  0.2406  134.2   1.848   46.0  0.2076   57.1  0.4692  -47.6
 2.560  0.2430  133.2   1.837   45.5  0.2093   57.0  0.4677  -47.9
 2.580  0.2455  132.3   1.826   45.1  0.2111   56.9  0.4662  -48.3
 2.600  0.2481  131.4   1.815   44.6  0.2128   56.8  0.4647  -48.6
 2.620  0.2499  130.7   1.804   44.2  0.2145   56.7  0.4636  -48.9
 2.640  0.2517  130.0   1.794   43.8  0.2161   56.6  0.4624  -49.3
 2.660  0.2536  129.3   1.783   43.4  0.2178   56.5  0.4613  -49.6
 2.680  0.2555  128.6   1.773   43.1  0.2195   56.4  0.4603  -50.0
 2.700  0.2575  128.0   1.762   42.7  0.2211   56.3  0.4592  -50.3
 2.720  0.2595  127.3   1.752   42.3  0.2228   56.2  0.4581  -50.7
 2.740  0.2615  126.7   1.742   41.8  0.2245   56.2  0.4571  -51.0
 2.760  0.2635  126.0   1.732   41.4  0.2262   56.1  0.4561  -51.4
 2.780  0.2656  125.4   1.722   41.0  0.2278   56.0  0.4551  -51.7
 2.800  0.2677  124.8   1.712   40.6  0.2295   55.9  0.4541  -52.1
 2.820  0.2700  124.1   1.703   40.2  0.2313   55.8  0.4524  -52.5
 2.840  0.2723  123.5   1.694   39.8  0.2331   55.7  0.4508  -52.8
 2.860  0.2747  122.8   1.685   39.3  0.2349   55.6  0.4492  -53.2
 2.880  0.2771  122.2   1.677   38.9  0.2366   55.4  0.4476  -53.5
 2.900  0.2795  121.6   1.668   38.5  0.2384   55.3  0.4460  -53.9
 2.920  0.2820  121.0   1.660   38.0  0.2402   55.2  0.4445  -54.3
 2.940  0.2845  120.3   1.651   37.6  0.2420   55.1  0.4429  -54.7
 2.960  0.2870  119.8   1.643   37.1  0.2438   55.0  0.4414  -55.0
 2.980  0.2896  119.2   1.635   36.7  0.2456   54.9  0.4399  -55.4
 3.000  0.2922  118.6   1.627   36.2  0.2474   54.8  0.4384  -55.8
 3.100  0.3037  115.9   1.587   34.4  0.2566   54.0  0.4297  -58.0
 3.200  0.3159  113.3   1.549   32.6  0.2659   53.2  0.4216  -60.2
 3.300  0.3286  111.0   1.513   30.7  0.2752   52.5  0.4142  -62.6
 3.400  0.3419  108.8   1.479   28.6  0.2846   51.8  0.4075  -65.0
 3.500  0.3556  106.8   1.446   26.5  0.2940   51.2  0.4016  -67.5
 3.600  0.3670  104.8   1.416   24.8  0.3036   50.2  0.3922  -70.3
 3.700  0.3789  102.9   1.388   23.1  0.3134   49.3  0.3838  -73.3
 3.800  0.3911  101.2   1.361   21.3  0.3232   48.4  0.3765  -76.4
 3.900  0.4036   99.5   1.335   19.4  0.3331   47.6  0.3704  -79.6
 4.000  0.4165   98.0   1.311   17.4  0.3430   46.8  0.3654  -82.9
 4.100  0.4271   96.5   1.286   15.9  0.3528   45.6  0.3557  -86.2
 4.200  0.4379   95.1   1.263   14.3  0.3628   44.5  0.3472  -89.8
 4.300  0.4491   93.7   1.240   12.6  0.3730   43.4  0.3402  -93.4
 4.400  0.4604   92.4   1.218   10.9  0.3832   42.4  0.3346  -97.3
 4.500  0.4720   91.2   1.198    9.1  0.3936   41.4  0.3305 -101.2
 4.600  0.4803   89.9   1.179    7.6  0.4033   40.1  0.3224 -105.0
 4.700  0.4889   88.7   1.161    6.1  0.4132   38.8  0.3158 -109.0
 4.800  0.4976   87.5   1.143    4.6  0.4232   37.6  0.3108 -113.2
 4.900  0.5066   86.3   1.127    3.0  0.4335   36.5  0.3076 -117.5
 5.000  0.5158   85.2   1.111    1.3  0.4439   35.4  0.3060 -121.8
 5.100  0.5242   83.9   1.091   -0.0  0.4527   34.0  0.3009 -126.2
 5.200  0.5329   82.7   1.072   -1.4  0.4618   32.6  0.2977 -130.8
 5.300  0.5418   81.5   1.053   -2.8  0.4712   31.3  0.2964 -135.4
 5.400  0.5509   80.4   1.035   -4.2  0.4808   30.0  0.2970 -140.0
 5.500  0.5602   79.3   1.018   -5.7  0.4906   28.8  0.2995 -144.6
 5.600  0.5669   78.1   0.999   -6.9  0.4973   27.2  0.2942 -148.9
 5.700  0.5737   77.0   0.981   -8.2  0.5044   25.7  0.2906 -153.3
 5.800  0.5808   75.9   0.964   -9.5  0.5119   24.2  0.2888 -157.8
 5.900  0.5882   74.8   0.947  -10.9  0.5197   22.7  0.2888 -162.4
 6.000  0.5957   73.7   0.930  -12.3  0.5278   21.3  0.2906 -166.9
!
!  f       NFmin   Gammaopt  rn/50
! GHz       dB    MAG  ANG    -
!
! noise parameter not available yet for this operation point!
!
! (c) 2015  Infineon Technologies AG, Munich
