! Infineon Technologies  Discrete & RF Semiconductors
! BFR181W
! VCE =  2.0 V,  IC =  1.0 mA
! Common Emitter S-Parameters:                            Nov 2015
# GHz  S  MA  R  50
!  f         S11            S21            S12            S22
! GHz     MAG   ANG      MAG   ANG      MAG   ANG      MAG   ANG
 0.100  0.9690   -8.0   3.386  173.0  0.0184   84.7  0.9939   -3.8
 0.105  0.9681   -8.4   3.384  172.6  0.0193   84.3  0.9935   -4.0
 0.110  0.9673   -8.8   3.382  172.3  0.0202   84.0  0.9931   -4.2
 0.115  0.9665   -9.2   3.381  171.9  0.0212   83.7  0.9927   -4.3
 0.120  0.9658   -9.6   3.380  171.5  0.0221   83.4  0.9923   -4.5
 0.125  0.9651  -10.0   3.378  171.2  0.0230   83.1  0.9920   -4.7
 0.130  0.9645  -10.5   3.377  170.8  0.0239   82.9  0.9916   -4.9
 0.135  0.9639  -10.9   3.376  170.4  0.0248   82.7  0.9913   -5.1
 0.140  0.9634  -11.3   3.375  170.0  0.0258   82.5  0.9909   -5.2
 0.145  0.9629  -11.7   3.375  169.7  0.0267   82.3  0.9906   -5.4
 0.150  0.9625  -12.1   3.374  169.3  0.0276   82.1  0.9903   -5.6
 0.155  0.9612  -12.5   3.372  169.0  0.0284   81.8  0.9897   -5.8
 0.160  0.9600  -12.9   3.370  168.6  0.0293   81.6  0.9891   -6.0
 0.165  0.9589  -13.3   3.368  168.3  0.0301   81.3  0.9886   -6.2
 0.170  0.9577  -13.6   3.366  167.9  0.0310   81.1  0.9880   -6.4
 0.175  0.9566  -14.0   3.364  167.6  0.0318   80.9  0.9875   -6.5
 0.180  0.9556  -14.4   3.362  167.3  0.0326   80.6  0.9869   -6.7
 0.185  0.9546  -14.8   3.361  166.9  0.0335   80.4  0.9864   -6.9
 0.190  0.9537  -15.2   3.359  166.6  0.0343   80.3  0.9859   -7.1
 0.195  0.9528  -15.6   3.358  166.2  0.0352   80.1  0.9854   -7.3
 0.200  0.9519  -16.0   3.357  165.9  0.0360   79.9  0.9849   -7.5
 0.220  0.9478  -17.6   3.346  164.4  0.0396   78.9  0.9821   -8.2
 0.240  0.9443  -19.1   3.337  162.9  0.0432   78.0  0.9794   -8.9
 0.260  0.9405  -20.7   3.325  161.5  0.0466   77.0  0.9766   -9.6
 0.280  0.9362  -22.3   3.309  160.2  0.0499   76.0  0.9736  -10.3
 0.300  0.9326  -23.9   3.295  158.9  0.0532   75.1  0.9708  -11.0
 0.320  0.9257  -25.4   3.279  157.5  0.0563   74.0  0.9667  -11.7
 0.340  0.9195  -26.8   3.266  156.1  0.0594   73.0  0.9628  -12.3
 0.360  0.9138  -28.3   3.254  154.6  0.0625   72.1  0.9589  -13.0
 0.380  0.9089  -29.9   3.244  153.2  0.0656   71.3  0.9552  -13.7
 0.400  0.9045  -31.4   3.237  151.7  0.0687   70.6  0.9517  -14.4
 0.420  0.8972  -32.8   3.216  150.4  0.0715   69.6  0.9471  -15.0
 0.440  0.8905  -34.3   3.197  149.1  0.0744   68.6  0.9426  -15.6
 0.450  0.8874  -35.0   3.188  148.5  0.0758   68.1  0.9404  -15.9
 0.460  0.8844  -35.7   3.179  147.8  0.0773   67.7  0.9382  -16.2
 0.480  0.8789  -37.2   3.163  146.5  0.0802   66.9  0.9340  -16.9
 0.500  0.8739  -38.7   3.149  145.2  0.0831   66.1  0.9298  -17.5
 0.520  0.8654  -40.1   3.127  144.0  0.0857   65.2  0.9250  -18.1
 0.540  0.8574  -41.6   3.106  142.7  0.0883   64.4  0.9202  -18.6
 0.560  0.8500  -43.1   3.087  141.4  0.0909   63.7  0.9155  -19.2
 0.580  0.8431  -44.6   3.070  140.1  0.0935   63.0  0.9110  -19.8
 0.600  0.8369  -46.1   3.054  138.8  0.0962   62.3  0.9065  -20.4
 0.620  0.8291  -47.5   3.029  137.6  0.0983   61.5  0.9014  -20.9
 0.640  0.8218  -48.9   3.006  136.4  0.1005   60.8  0.8964  -21.4
 0.660  0.8149  -50.3   2.984  135.1  0.1026   60.0  0.8915  -21.9
 0.680  0.8086  -51.7   2.964  133.9  0.1048   59.4  0.8866  -22.5
 0.700  0.8028  -53.2   2.945  132.6  0.1070   58.7  0.8818  -23.0
 0.720  0.7947  -54.5   2.921  131.5  0.1088   58.0  0.8768  -23.5
 0.740  0.7870  -55.8   2.899  130.4  0.1106   57.4  0.8718  -23.9
 0.760  0.7797  -57.1   2.877  129.3  0.1125   56.8  0.8669  -24.4
 0.780  0.7729  -58.5   2.856  128.2  0.1143   56.2  0.8621  -24.9
 0.800  0.7665  -59.9   2.837  127.1  0.1162   55.6  0.8573  -25.4
 0.820  0.7580  -61.1   2.811  126.1  0.1179   55.0  0.8526  -25.8
 0.840  0.7499  -62.3   2.785  125.0  0.1196   54.3  0.8479  -26.2
 0.860  0.7421  -63.5   2.760  124.0  0.1213   53.7  0.8433  -26.6
 0.880  0.7347  -64.8   2.737  122.9  0.1230   53.2  0.8387  -27.0
 0.900  0.7276  -66.1   2.714  121.8  0.1247   52.6  0.8341  -27.4
 0.920  0.7212  -67.3   2.692  120.9  0.1260   52.1  0.8294  -27.8
 0.940  0.7152  -68.5   2.670  119.9  0.1274   51.6  0.8248  -28.2
 0.960  0.7094  -69.8   2.649  118.9  0.1287   51.1  0.8202  -28.6
 0.980  0.7040  -71.0   2.629  117.9  0.1300   50.6  0.8156  -29.0
 1.000  0.6990  -72.3   2.610  116.9  0.1314   50.1  0.8111  -29.4
 1.020  0.6912  -73.3   2.585  116.1  0.1324   49.6  0.8068  -29.7
 1.040  0.6836  -74.4   2.560  115.2  0.1335   49.2  0.8026  -30.0
 1.060  0.6762  -75.4   2.536  114.3  0.1345   48.7  0.7983  -30.4
 1.080  0.6691  -76.5   2.513  113.4  0.1356   48.3  0.7941  -30.7
 1.100  0.6622  -77.7   2.490  112.5  0.1366   47.8  0.7899  -31.0
 1.120  0.6556  -78.8   2.468  111.6  0.1377   47.4  0.7858  -31.3
 1.140  0.6493  -80.0   2.447  110.6  0.1388   46.9  0.7816  -31.7
 1.160  0.6432  -81.2   2.426  109.7  0.1399   46.5  0.7775  -32.0
 1.180  0.6374  -82.4   2.406  108.7  0.1410   46.1  0.7734  -32.4
 1.200  0.6319  -83.6   2.387  107.7  0.1421   45.7  0.7694  -32.7
 1.220  0.6252  -84.6   2.367  106.9  0.1427   45.4  0.7658  -33.0
 1.240  0.6188  -85.7   2.347  106.2  0.1433   45.1  0.7622  -33.2
 1.260  0.6125  -86.7   2.327  105.4  0.1439   44.7  0.7586  -33.5
 1.280  0.6064  -87.8   2.308  104.6  0.1446   44.4  0.7550  -33.7
 1.300  0.6006  -88.9   2.289  103.8  0.1452   44.1  0.7514  -34.0
 1.320  0.5950  -90.1   2.271  102.9  0.1458   43.8  0.7479  -34.3
 1.340  0.5897  -91.2   2.253  102.1  0.1465   43.5  0.7444  -34.6
 1.360  0.5846  -92.4   2.236  101.2  0.1471   43.2  0.7409  -34.8
 1.380  0.5797  -93.6   2.219  100.4  0.1478   42.9  0.7374  -35.1
 1.400  0.5751  -94.8   2.203   99.5  0.1484   42.6  0.7339  -35.4
 1.420  0.5704  -95.8   2.186   98.8  0.1489   42.4  0.7307  -35.6
 1.440  0.5660  -96.9   2.169   98.1  0.1493   42.1  0.7276  -35.9
 1.460  0.5617  -97.9   2.152   97.3  0.1498   41.9  0.7244  -36.1
 1.480  0.5576  -99.0   2.136   96.6  0.1502   41.6  0.7213  -36.4
 1.500  0.5537 -100.1   2.120   95.8  0.1507   41.4  0.7182  -36.6
 1.520  0.5483 -101.1   2.104   95.1  0.1512   41.2  0.7157  -36.8
 1.540  0.5430 -102.0   2.088   94.4  0.1517   41.0  0.7132  -37.0
 1.560  0.5380 -103.0   2.072   93.6  0.1522   40.9  0.7107  -37.3
 1.580  0.5330 -104.1   2.057   92.9  0.1527   40.7  0.7083  -37.5
 1.600  0.5283 -105.1   2.042   92.1  0.1532   40.5  0.7058  -37.7
 1.620  0.5239 -106.1   2.027   91.5  0.1534   40.4  0.7033  -37.9
 1.640  0.5196 -107.0   2.012   90.9  0.1537   40.3  0.7009  -38.1
 1.660  0.5154 -108.0   1.997   90.2  0.1539   40.2  0.6985  -38.3
 1.680  0.5115 -109.0   1.983   89.6  0.1542   40.1  0.6960  -38.5
 1.700  0.5076 -110.1   1.968   89.0  0.1544   39.9  0.6936  -38.7
 1.720  0.5040 -111.1   1.954   88.3  0.1546   39.8  0.6912  -38.9
 1.740  0.5005 -112.2   1.941   87.6  0.1549   39.7  0.6888  -39.2
 1.760  0.4972 -113.2   1.927   87.0  0.1551   39.6  0.6864  -39.4
 1.780  0.4941 -114.3   1.914   86.3  0.1554   39.5  0.6841  -39.6
 1.800  0.4911 -115.4   1.901   85.6  0.1556   39.4  0.6817  -39.8
 1.820  0.4874 -116.3   1.887   85.0  0.1558   39.4  0.6800  -40.0
 1.840  0.4838 -117.1   1.873   84.4  0.1559   39.3  0.6783  -40.2
 1.860  0.4803 -118.0   1.860   83.9  0.1561   39.3  0.6767  -40.4
 1.880  0.4769 -118.9   1.846   83.3  0.1562   39.2  0.6750  -40.6
 1.900  0.4736 -119.8   1.833   82.7  0.1564   39.2  0.6733  -40.8
 1.920  0.4705 -120.8   1.820   82.0  0.1566   39.2  0.6717  -41.0
 1.940  0.4675 -121.7   1.807   81.4  0.1567   39.1  0.6701  -41.3
 1.960  0.4646 -122.7   1.795   80.8  0.1569   39.1  0.6684  -41.5
 1.980  0.4618 -123.6   1.782   80.1  0.1570   39.0  0.6668  -41.7
 2.000  0.4592 -124.6   1.770   79.5  0.1572   39.0  0.6652  -41.9
 2.020  0.4560 -125.5   1.758   79.0  0.1574   39.0  0.6639  -42.1
 2.040  0.4529 -126.4   1.746   78.5  0.1576   39.1  0.6626  -42.3
 2.060  0.4500 -127.4   1.735   78.0  0.1578   39.1  0.6614  -42.4
 2.080  0.4471 -128.3   1.723   77.4  0.1580   39.1  0.6601  -42.6
 2.100  0.4444 -129.3   1.712   76.9  0.1582   39.2  0.6589  -42.8
 2.120  0.4418 -130.2   1.701   76.3  0.1584   39.2  0.6576  -43.0
 2.140  0.4393 -131.2   1.690   75.8  0.1586   39.2  0.6564  -43.2
 2.160  0.4370 -132.2   1.679   75.2  0.1588   39.2  0.6551  -43.3
 2.180  0.4348 -133.2   1.668   74.7  0.1590   39.3  0.6539  -43.5
 2.200  0.4327 -134.2   1.658   74.1  0.1592   39.3  0.6527  -43.7
 2.220  0.4309 -135.0   1.649   73.6  0.1593   39.4  0.6518  -43.9
 2.240  0.4292 -135.9   1.639   73.1  0.1595   39.5  0.6508  -44.1
 2.260  0.4276 -136.7   1.630   72.6  0.1596   39.6  0.6499  -44.4
 2.280  0.4260 -137.5   1.621   72.1  0.1598   39.7  0.6490  -44.6
 2.300  0.4246 -138.4   1.612   71.6  0.1599   39.8  0.6481  -44.8
 2.320  0.4232 -139.2   1.604   71.1  0.1600   39.8  0.6472  -45.0
 2.340  0.4220 -140.1   1.595   70.6  0.1602   39.9  0.6464  -45.2
 2.360  0.4208 -141.0   1.587   70.1  0.1603   40.0  0.6455  -45.5
 2.380  0.4198 -141.8   1.578   69.5  0.1605   40.1  0.6446  -45.7
 2.400  0.4188 -142.7   1.570   69.0  0.1606   40.2  0.6438  -45.9
 2.420  0.4149 -143.5   1.560   68.5  0.1609   40.3  0.6432  -46.0
 2.440  0.4112 -144.4   1.550   67.9  0.1612   40.4  0.6426  -46.2
 2.460  0.4075 -145.3   1.541   67.4  0.1614   40.4  0.6420  -46.3
 2.480  0.4040 -146.2   1.531   66.9  0.1617   40.5  0.6414  -46.5
 2.500  0.4005 -147.1   1.522   66.3  0.1620   40.6  0.6408  -46.6
 2.520  0.3990 -147.9   1.514   65.9  0.1623   40.8  0.6402  -46.8
 2.540  0.3975 -148.7   1.506   65.5  0.1625   41.0  0.6396  -47.0
 2.560  0.3961 -149.5   1.498   65.1  0.1628   41.2  0.6391  -47.3
 2.580  0.3948 -150.3   1.490   64.7  0.1631   41.4  0.6385  -47.5
 2.600  0.3936 -151.2   1.482   64.3  0.1634   41.6  0.6380  -47.7
 2.620  0.3925 -152.0   1.475   63.9  0.1637   41.7  0.6374  -47.9
 2.640  0.3914 -152.8   1.467   63.5  0.1639   41.9  0.6369  -48.2
 2.660  0.3905 -153.7   1.459   63.1  0.1642   42.1  0.6364  -48.4
 2.680  0.3896 -154.5   1.452   62.7  0.1645   42.3  0.6359  -48.6
 2.700  0.3888 -155.3   1.445   62.2  0.1648   42.5  0.6354  -48.9
 2.720  0.3881 -156.2   1.437   61.8  0.1651   42.7  0.6349  -49.1
 2.740  0.3874 -157.0   1.430   61.4  0.1654   42.9  0.6344  -49.3
 2.760  0.3869 -157.9   1.423   60.9  0.1657   43.0  0.6340  -49.5
 2.780  0.3864 -158.8   1.416   60.5  0.1660   43.2  0.6335  -49.8
 2.800  0.3861 -159.6   1.409   60.0  0.1663   43.4  0.6331  -50.0
 2.820  0.3858 -160.5   1.402   59.6  0.1665   43.6  0.6327  -50.2
 2.840  0.3856 -161.3   1.395   59.1  0.1668   43.8  0.6322  -50.5
 2.860  0.3855 -162.2   1.388   58.7  0.1671   44.0  0.6318  -50.7
 2.880  0.3854 -163.0   1.382   58.2  0.1675   44.1  0.6314  -50.9
 2.900  0.3855 -163.9   1.375   57.7  0.1678   44.3  0.6310  -51.1
 2.920  0.3856 -164.8   1.369   57.2  0.1681   44.5  0.6306  -51.4
 2.940  0.3859 -165.6   1.362   56.8  0.1684   44.7  0.6303  -51.6
 2.960  0.3862 -166.5   1.356   56.3  0.1687   44.8  0.6299  -51.8
 2.980  0.3866 -167.3   1.350   55.8  0.1690   45.0  0.6295  -52.1
 3.000  0.3871 -168.2   1.344   55.3  0.1693   45.2  0.6292  -52.3
 3.100  0.3819 -171.8   1.315   53.6  0.1726   46.3  0.6275  -53.6
 3.200  0.3783 -175.4   1.288   51.8  0.1760   47.4  0.6262  -54.9
 3.300  0.3762 -179.1   1.261   49.9  0.1795   48.5  0.6251  -56.2
 3.400  0.3757  177.2   1.236   48.0  0.1830   49.5  0.6244  -57.5
 3.500  0.3767  173.5   1.213   46.0  0.1866   50.5  0.6240  -58.8
 3.600  0.3773  170.0   1.189   44.4  0.1916   51.4  0.6223  -60.1
 3.700  0.3794  166.5   1.166   42.7  0.1966   52.3  0.6209  -61.5
 3.800  0.3828  163.0   1.144   40.9  0.2016   53.1  0.6199  -62.9
 3.900  0.3876  159.7   1.124   39.1  0.2067   53.9  0.6192  -64.2
 4.000  0.3937  156.4   1.104   37.2  0.2118   54.7  0.6189  -65.6
 4.100  0.3935  153.4   1.084   35.9  0.2184   55.3  0.6167  -67.2
 4.200  0.3944  150.4   1.065   34.6  0.2251   55.8  0.6150  -68.8
 4.300  0.3964  147.4   1.047   33.3  0.2318   56.3  0.6138  -70.4
 4.400  0.3994  144.5   1.029   31.9  0.2385   56.8  0.6130  -72.1
 4.500  0.4035  141.6   1.012   30.4  0.2452   57.3  0.6128  -73.7
 4.600  0.4083  139.3   0.998   29.2  0.2536   57.6  0.6107  -75.2
 4.700  0.4137  137.0   0.984   27.9  0.2619   57.8  0.6090  -76.8
 4.800  0.4197  134.8   0.971   26.7  0.2703   58.1  0.6078  -78.3
 4.900  0.4264  132.7   0.958   25.3  0.2786   58.3  0.6070  -79.8
 5.000  0.4336  130.6   0.946   24.0  0.2870   58.5  0.6067  -81.4
 5.100  0.4357  128.3   0.932   23.0  0.2968   58.4  0.6053  -83.0
 5.200  0.4385  126.0   0.918   22.0  0.3066   58.3  0.6045  -84.7
 5.300  0.4420  123.7   0.904   20.9  0.3164   58.2  0.6041  -86.3
 5.400  0.4462  121.5   0.891   19.8  0.3262   58.1  0.6042  -88.0
 5.500  0.4511  119.3   0.878   18.7  0.3360   58.0  0.6048  -89.6
 5.600  0.4519  117.2   0.865   17.9  0.3472   57.5  0.6046  -91.2
 5.700  0.4532  115.1   0.853   17.1  0.3584   56.9  0.6050  -92.9
 5.800  0.4552  113.0   0.840   16.3  0.3697   56.5  0.6058  -94.5
 5.900  0.4577  110.9   0.828   15.5  0.3810   56.0  0.6071  -96.1
 6.000  0.4609  108.9   0.816   14.6  0.3923   55.6  0.6089  -97.7
!
!  f       NFmin   Gammaopt  rn/50
! GHz       dB    MAG  ANG    -
 0.450      1.30  0.70   18   0.50
 0.900      1.40  0.60   39   0.52
 1.800      1.85  0.40   81   0.47
!
! (c) 2015  Infineon Technologies AG, Munich
