! Infineon Technologies  Discrete & RF Semiconductors
! BFR182
! VCE =  10. V,  IC =  9.0 mA
! Common Emitter S-Parameters:                            Nov 2015
# GHz  S  MA  R  50
!  f         S11            S21            S12            S22
! GHz     MAG   ANG      MAG   ANG      MAG   ANG      MAG   ANG
 0.010  0.7862   -3.1  21.804  176.3  0.0017   82.3  0.9776   -1.4
 0.015  0.7816   -4.5  21.762  174.9  0.0029   83.8  0.9740   -2.2
 0.020  0.7775   -6.0  21.734  173.4  0.0041   84.4  0.9706   -3.1
 0.025  0.7744   -7.5  21.642  172.1  0.0049   82.9  0.9679   -3.8
 0.030  0.7719   -8.9  21.560  170.8  0.0058   81.8  0.9654   -4.6
 0.035  0.7698  -10.4  21.490  169.5  0.0066   81.0  0.9630   -5.3
 0.040  0.7683  -11.9  21.431  168.2  0.0074   80.4  0.9608   -6.0
 0.045  0.7673  -13.4  21.383  166.9  0.0083   79.9  0.9587   -6.8
 0.050  0.7668  -14.9  21.346  165.6  0.0091   79.5  0.9568   -7.5
 0.055  0.7596  -16.2  21.146  164.5  0.0099   78.8  0.9513   -8.1
 0.060  0.7527  -17.5  20.954  163.3  0.0107   78.2  0.9459   -8.7
 0.065  0.7463  -18.8  20.771  162.1  0.0116   77.7  0.9406   -9.3
 0.070  0.7403  -20.2  20.598  160.9  0.0124   77.3  0.9354  -10.0
 0.075  0.7346  -21.5  20.433  159.6  0.0132   76.9  0.9303  -10.6
 0.080  0.7295  -22.9  20.279  158.4  0.0140   76.5  0.9253  -11.3
 0.085  0.7247  -24.4  20.134  157.1  0.0148   76.2  0.9205  -11.9
 0.090  0.7204  -25.8  19.999  155.8  0.0157   76.0  0.9158  -12.6
 0.095  0.7166  -27.2  19.875  154.5  0.0165   75.7  0.9112  -13.2
 0.100  0.7132  -28.7  19.761  153.2  0.0173   75.5  0.9067  -13.9
 0.105  0.7039  -29.8  19.553  152.1  0.0180   74.8  0.8997  -14.4
 0.110  0.6949  -30.9  19.352  151.0  0.0186   74.1  0.8927  -14.9
 0.115  0.6862  -32.0  19.159  149.8  0.0193   73.5  0.8859  -15.4
 0.120  0.6777  -33.2  18.974  148.6  0.0200   73.0  0.8790  -15.9
 0.125  0.6695  -34.3  18.797  147.4  0.0206   72.4  0.8723  -16.4
 0.130  0.6616  -35.6  18.629  146.2  0.0213   71.9  0.8656  -16.9
 0.135  0.6540  -36.8  18.469  145.0  0.0220   71.5  0.8590  -17.5
 0.140  0.6468  -38.1  18.318  143.7  0.0226   71.0  0.8525  -18.0
 0.145  0.6398  -39.4  18.177  142.4  0.0233   70.6  0.8461  -18.5
 0.150  0.6332  -40.7  18.044  141.1  0.0240   70.2  0.8397  -19.1
 0.155  0.6259  -41.6  17.828  140.3  0.0246   70.0  0.8336  -19.4
 0.160  0.6187  -42.5  17.614  139.6  0.0252   69.8  0.8274  -19.7
 0.165  0.6116  -43.4  17.404  138.8  0.0258   69.6  0.8213  -20.0
 0.170  0.6048  -44.3  17.198  138.0  0.0264   69.4  0.8152  -20.2
 0.175  0.5981  -45.3  16.995  137.1  0.0270   69.3  0.8092  -20.5
 0.180  0.5915  -46.3  16.795  136.3  0.0276   69.1  0.8031  -20.8
 0.185  0.5852  -47.3  16.600  135.4  0.0282   68.9  0.7971  -21.2
 0.190  0.5790  -48.3  16.408  134.5  0.0288   68.8  0.7911  -21.5
 0.195  0.5730  -49.3  16.220  133.6  0.0294   68.6  0.7851  -21.8
 0.200  0.5672  -50.4  16.037  132.7  0.0300   68.5  0.7792  -22.1
 0.220  0.5399  -53.7  15.295  129.9  0.0319   67.6  0.7580  -22.8
 0.240  0.5145  -57.3  14.593  126.8  0.0338   66.8  0.7369  -23.6
 0.260  0.4897  -60.6  13.954  124.1  0.0357   66.4  0.7170  -24.2
 0.280  0.4648  -63.6  13.362  121.6  0.0376   66.4  0.6983  -24.7
 0.300  0.4413  -66.9  12.796  119.0  0.0394   66.4  0.6797  -25.2
 0.320  0.4221  -68.8  12.305  117.5  0.0410   66.2  0.6666  -25.3
 0.340  0.4034  -71.0  11.823  116.0  0.0426   66.0  0.6535  -25.5
 0.360  0.3854  -73.3  11.351  114.3  0.0442   65.8  0.6404  -25.7
 0.380  0.3680  -75.8  10.889  112.4  0.0458   65.6  0.6274  -25.8
 0.400  0.3514  -78.6  10.440  110.4  0.0474   65.4  0.6143  -26.0
 0.420  0.3385  -80.2  10.071  109.2  0.0489   65.4  0.6059  -26.0
 0.440  0.3258  -81.9   9.707  107.8  0.0505   65.4  0.5975  -26.1
 0.450  0.3196  -82.8   9.527  107.1  0.0513   65.4  0.5932  -26.1
 0.460  0.3135  -83.8   9.349  106.4  0.0520   65.4  0.5890  -26.1
 0.480  0.3016  -85.8   8.997  104.9  0.0536   65.4  0.5806  -26.2
 0.500  0.2900  -88.0   8.652  103.2  0.0551   65.4  0.5722  -26.2
 0.520  0.2800  -89.7   8.406  102.2  0.0567   65.6  0.5665  -26.2
 0.540  0.2703  -91.5   8.162  101.2  0.0584   65.8  0.5608  -26.2
 0.560  0.2609  -93.5   7.921  100.1  0.0600   66.0  0.5550  -26.1
 0.580  0.2517  -95.6   7.683   98.9  0.0617   66.1  0.5493  -26.1
 0.600  0.2430  -97.8   7.448   97.7  0.0633   66.3  0.5436  -26.1
 0.620  0.2349  -99.4   7.262   96.8  0.0648   66.4  0.5393  -26.1
 0.640  0.2269 -101.1   7.077   95.9  0.0662   66.4  0.5350  -26.1
 0.660  0.2192 -102.9   6.894   95.0  0.0677   66.5  0.5307  -26.1
 0.680  0.2117 -104.9   6.714   94.0  0.0691   66.5  0.5264  -26.1
 0.700  0.2045 -107.0   6.535   92.9  0.0706   66.6  0.5221  -26.1
 0.720  0.1980 -108.5   6.380   92.2  0.0722   66.6  0.5191  -26.1
 0.740  0.1917 -110.0   6.225   91.4  0.0738   66.6  0.5161  -26.1
 0.760  0.1855 -111.6   6.072   90.6  0.0755   66.6  0.5130  -26.1
 0.780  0.1794 -113.4   5.920   89.7  0.0771   66.6  0.5100  -26.1
 0.800  0.1736 -115.3   5.770   88.8  0.0787   66.6  0.5070  -26.1
 0.820  0.1693 -116.4   5.649   88.1  0.0804   66.7  0.5050  -26.2
 0.840  0.1651 -117.5   5.529   87.5  0.0820   66.7  0.5030  -26.2
 0.860  0.1610 -118.7   5.410   86.7  0.0837   66.8  0.5009  -26.3
 0.880  0.1569 -120.0   5.292   86.0  0.0853   66.8  0.4989  -26.3
 0.900  0.1529 -121.3   5.175   85.2  0.0870   66.9  0.4969  -26.4
 0.920  0.1492 -123.5   5.082   84.6  0.0885   66.9  0.4953  -26.5
 0.940  0.1456 -125.8   4.989   84.0  0.0900   66.9  0.4937  -26.6
 0.960  0.1424 -128.2   4.897   83.4  0.0916   66.8  0.4922  -26.7
 0.980  0.1393 -130.7   4.805   82.8  0.0931   66.8  0.4906  -26.8
 1.000  0.1366 -133.3   4.714   82.1  0.0946   66.8  0.4890  -26.9
 1.020  0.1337 -135.6   4.637   81.6  0.0964   66.8  0.4876  -27.0
 1.040  0.1309 -137.9   4.561   81.0  0.0982   66.8  0.4862  -27.1
 1.060  0.1284 -140.4   4.485   80.4  0.0999   66.9  0.4848  -27.3
 1.080  0.1262 -143.0   4.409   79.8  0.1017   66.9  0.4834  -27.4
 1.100  0.1242 -145.6   4.334   79.2  0.1035   66.9  0.4820  -27.5
 1.120  0.1228 -147.2   4.267   78.6  0.1051   66.8  0.4808  -27.6
 1.140  0.1214 -148.8   4.201   78.1  0.1066   66.7  0.4796  -27.8
 1.160  0.1202 -150.5   4.135   77.5  0.1082   66.7  0.4783  -27.9
 1.180  0.1190 -152.2   4.069   76.8  0.1097   66.6  0.4771  -28.1
 1.200  0.1180 -153.9   4.004   76.2  0.1113   66.5  0.4759  -28.2
 1.220  0.1161 -155.7   3.944   75.7  0.1131   66.4  0.4748  -28.4
 1.240  0.1143 -157.6   3.884   75.2  0.1149   66.3  0.4736  -28.5
 1.260  0.1126 -159.5   3.825   74.7  0.1166   66.3  0.4725  -28.7
 1.280  0.1110 -161.5   3.766   74.2  0.1184   66.2  0.4713  -28.8
 1.300  0.1096 -163.5   3.707   73.6  0.1202   66.1  0.4702  -29.0
 1.320  0.1089 -166.2   3.659   73.1  0.1217   66.1  0.4692  -29.2
 1.340  0.1084 -168.9   3.611   72.6  0.1233   66.1  0.4683  -29.4
 1.360  0.1082 -171.7   3.563   72.1  0.1248   66.0  0.4673  -29.6
 1.380  0.1082 -174.5   3.515   71.5  0.1264   66.0  0.4663  -29.8
 1.400  0.1085 -177.2   3.468   71.0  0.1279   66.0  0.4654  -30.0
 1.420  0.1078 -178.4   3.429   70.5  0.1297   65.9  0.4644  -30.2
 1.440  0.1071 -179.7   3.390   70.1  0.1314   65.8  0.4633  -30.4
 1.460  0.1065  179.1   3.352   69.6  0.1332   65.7  0.4623  -30.5
 1.480  0.1060  177.8   3.314   69.1  0.1349   65.6  0.4613  -30.7
 1.500  0.1055  176.5   3.276   68.6  0.1367   65.5  0.4603  -30.9
 1.520  0.1064  174.2   3.235   68.1  0.1384   65.4  0.4593  -31.1
 1.540  0.1074  172.0   3.195   67.5  0.1402   65.3  0.4584  -31.3
 1.560  0.1086  169.8   3.155   67.0  0.1419   65.1  0.4575  -31.5
 1.580  0.1100  167.6   3.115   66.4  0.1437   65.0  0.4565  -31.7
 1.600  0.1115  165.5   3.076   65.8  0.1454   64.9  0.4556  -31.9
 1.620  0.1125  163.5   3.043   65.4  0.1471   64.8  0.4546  -32.1
 1.640  0.1136  161.6   3.010   64.9  0.1488   64.7  0.4536  -32.3
 1.660  0.1148  159.7   2.978   64.5  0.1506   64.7  0.4526  -32.6
 1.680  0.1161  157.9   2.945   64.0  0.1523   64.6  0.4516  -32.8
 1.700  0.1176  156.1   2.913   63.5  0.1540   64.5  0.4506  -33.0
 1.720  0.1192  154.7   2.885   63.1  0.1556   64.3  0.4497  -33.3
 1.740  0.1209  153.3   2.858   62.7  0.1573   64.2  0.4489  -33.5
 1.760  0.1226  151.9   2.831   62.3  0.1589   64.0  0.4480  -33.8
 1.780  0.1244  150.6   2.804   61.8  0.1606   63.9  0.4471  -34.0
 1.800  0.1263  149.3   2.777   61.4  0.1622   63.7  0.4463  -34.3
 1.820  0.1276  148.2   2.752   61.0  0.1640   63.6  0.4454  -34.6
 1.840  0.1289  147.1   2.728   60.5  0.1658   63.5  0.4445  -34.9
 1.860  0.1303  146.0   2.704   60.0  0.1677   63.4  0.4436  -35.1
 1.880  0.1317  144.9   2.680   59.6  0.1695   63.3  0.4427  -35.4
 1.900  0.1332  143.9   2.656   59.1  0.1713   63.2  0.4418  -35.7
 1.920  0.1348  143.2   2.632   58.7  0.1730   63.1  0.4409  -36.0
 1.940  0.1365  142.4   2.608   58.2  0.1746   62.9  0.4399  -36.2
 1.960  0.1381  141.7   2.585   57.8  0.1763   62.8  0.4390  -36.5
 1.980  0.1398  141.1   2.561   57.4  0.1779   62.6  0.4381  -36.7
 2.000  0.1415  140.4   2.538   56.9  0.1796   62.5  0.4372  -37.0
 2.020  0.1431  139.3   2.517   56.5  0.1814   62.3  0.4359  -37.3
 2.040  0.1447  138.2   2.497   56.1  0.1832   62.2  0.4347  -37.6
 2.060  0.1464  137.2   2.476   55.7  0.1850   62.0  0.4334  -37.9
 2.080  0.1482  136.2   2.456   55.2  0.1869   61.9  0.4322  -38.1
 2.100  0.1500  135.2   2.436   54.8  0.1887   61.7  0.4310  -38.4
 2.120  0.1518  134.2   2.416   54.3  0.1905   61.6  0.4297  -38.7
 2.140  0.1537  133.2   2.396   53.9  0.1923   61.4  0.4285  -39.0
 2.160  0.1556  132.3   2.376   53.4  0.1941   61.3  0.4274  -39.3
 2.180  0.1576  131.4   2.356   53.0  0.1960   61.1  0.4262  -39.6
 2.200  0.1596  130.5   2.337   52.5  0.1978   61.0  0.4250  -39.9
 2.220  0.1613  129.7   2.321   52.1  0.1995   60.8  0.4238  -40.2
 2.240  0.1629  129.0   2.305   51.7  0.2013   60.7  0.4226  -40.5
 2.260  0.1647  128.2   2.289   51.3  0.2030   60.5  0.4214  -40.8
 2.280  0.1664  127.5   2.274   50.9  0.2047   60.4  0.4203  -41.1
 2.300  0.1682  126.8   2.258   50.4  0.2065   60.2  0.4191  -41.4
 2.320  0.1700  126.1   2.243   50.0  0.2082   60.1  0.4180  -41.7
 2.340  0.1718  125.4   2.228   49.6  0.2100   59.9  0.4168  -42.0
 2.360  0.1736  124.7   2.213   49.1  0.2117   59.8  0.4157  -42.3
 2.380  0.1755  124.0   2.198   48.7  0.2135   59.6  0.4146  -42.6
 2.400  0.1774  123.4   2.183   48.2  0.2152   59.5  0.4135  -42.9
 2.420  0.1799  122.7   2.169   47.8  0.2170   59.3  0.4119  -43.2
 2.440  0.1825  122.0   2.155   47.5  0.2189   59.1  0.4102  -43.5
 2.460  0.1851  121.3   2.141   47.1  0.2207   59.0  0.4086  -43.9
 2.480  0.1877  120.6   2.127   46.7  0.2225   58.8  0.4070  -44.2
 2.500  0.1904  120.0   2.113   46.3  0.2244   58.6  0.4054  -44.5
 2.520  0.1930  119.3   2.100   45.9  0.2262   58.4  0.4038  -44.8
 2.540  0.1957  118.7   2.086   45.5  0.2281   58.3  0.4022  -45.2
 2.560  0.1984  118.1   2.073   45.1  0.2299   58.1  0.4007  -45.5
 2.580  0.2011  117.6   2.059   44.7  0.2318   58.0  0.3991  -45.9
 2.600  0.2039  117.0   2.046   44.3  0.2336   57.8  0.3976  -46.2
 2.620  0.2059  116.6   2.034   43.9  0.2353   57.6  0.3963  -46.5
 2.640  0.2080  116.2   2.023   43.6  0.2371   57.4  0.3950  -46.9
 2.660  0.2101  115.8   2.012   43.2  0.2388   57.3  0.3938  -47.3
 2.680  0.2121  115.4   2.000   42.9  0.2406   57.1  0.3925  -47.6
 2.700  0.2142  115.0   1.989   42.5  0.2423   56.9  0.3913  -48.0
 2.720  0.2163  114.6   1.978   42.1  0.2441   56.8  0.3901  -48.3
 2.740  0.2184  114.3   1.967   41.8  0.2458   56.6  0.3889  -48.7
 2.760  0.2205  113.9   1.956   41.4  0.2476   56.4  0.3877  -49.1
 2.780  0.2227  113.5   1.945   41.0  0.2493   56.3  0.3865  -49.4
 2.800  0.2248  113.2   1.934   40.6  0.2511   56.1  0.3854  -49.8
 2.820  0.2269  112.8   1.923   40.2  0.2529   55.9  0.3836  -50.2
 2.840  0.2291  112.4   1.912   39.8  0.2547   55.7  0.3817  -50.5
 2.860  0.2313  112.0   1.901   39.4  0.2566   55.5  0.3799  -50.9
 2.880  0.2334  111.6   1.890   39.0  0.2584   55.3  0.3781  -51.3
 2.900  0.2356  111.2   1.879   38.6  0.2602   55.1  0.3763  -51.7
 2.920  0.2378  110.8   1.869   38.2  0.2620   54.9  0.3746  -52.0
 2.940  0.2400  110.5   1.858   37.8  0.2639   54.7  0.3728  -52.4
 2.960  0.2422  110.1   1.848   37.4  0.2657   54.5  0.3711  -52.8
 2.980  0.2445  109.7   1.837   36.9  0.2676   54.3  0.3694  -53.2
 3.000  0.2467  109.4   1.827   36.5  0.2694   54.1  0.3677  -53.6
 3.100  0.2597  107.6   1.783   34.8  0.2782   53.0  0.3578  -55.7
 3.200  0.2729  106.1   1.740   33.1  0.2871   52.0  0.3484  -58.0
 3.300  0.2863  104.6   1.699   31.2  0.2961   51.0  0.3396  -60.4
 3.400  0.2999  103.3   1.659   29.3  0.3052   50.1  0.3313  -62.9
 3.500  0.3136  102.1   1.622   27.3  0.3144   49.2  0.3238  -65.5
 3.600  0.3255  100.7   1.590   25.7  0.3232   48.0  0.3129  -68.3
 3.700  0.3376   99.4   1.560   24.0  0.3321   46.9  0.3029  -71.2
 3.800  0.3499   98.2   1.531   22.3  0.3412   45.8  0.2936  -74.3
 3.900  0.3623   97.1   1.504   20.5  0.3503   44.8  0.2854  -77.7
 4.000  0.3748   96.0   1.478   18.6  0.3596   43.8  0.2781  -81.2
 4.100  0.3862   94.8   1.450   17.1  0.3681   42.6  0.2680  -84.6
 4.200  0.3977   93.7   1.424   15.5  0.3767   41.4  0.2590  -88.3
 4.300  0.4093   92.7   1.398   13.9  0.3856   40.2  0.2511  -92.2
 4.400  0.4211   91.7   1.374   12.2  0.3945   39.1  0.2444  -96.3
 4.500  0.4330   90.8   1.351   10.4  0.4036   38.1  0.2391 -100.7
 4.600  0.4428   89.7   1.329    8.9  0.4117   36.8  0.2312 -104.8
 4.700  0.4527   88.6   1.309    7.4  0.4201   35.6  0.2245 -109.1
 4.800  0.4628   87.6   1.289    5.8  0.4286   34.4  0.2192 -113.6
 4.900  0.4730   86.6   1.271    4.2  0.4373   33.3  0.2153 -118.4
 5.000  0.4834   85.7   1.253    2.5  0.4461   32.2  0.2130 -123.3
 5.100  0.4915   84.7   1.231    1.1  0.4535   30.9  0.2085 -128.3
 5.200  0.4998   83.6   1.209   -0.3  0.4611   29.6  0.2056 -133.4
 5.300  0.5082   82.7   1.189   -1.8  0.4690   28.3  0.2045 -138.7
 5.400  0.5168   81.7   1.169   -3.4  0.4770   27.1  0.2051 -144.0
 5.500  0.5255   80.8   1.150   -5.0  0.4853   25.9  0.2074 -149.2
 5.600  0.5346   79.6   1.131   -6.3  0.4907   24.4  0.2041 -153.9
 5.700  0.5438   78.5   1.112   -7.6  0.4964   23.0  0.2022 -158.8
 5.800  0.5533   77.4   1.093   -9.0  0.5024   21.6  0.2017 -163.7
 5.900  0.5630   76.4   1.076  -10.4  0.5086   20.2  0.2028 -168.6
 6.000  0.5728   75.4   1.059  -11.9  0.5152   18.9  0.2053 -173.4
!
!  f       NFmin   Gammaopt  rn/50
! GHz       dB    MAG  ANG    -
!
! noise parameter not available yet for this operation point!
!
! (c) 2015  Infineon Technologies AG, Munich
