! Infineon Technologies  Discrete & RF Semiconductors
! BFR182
! VCE =  6.0 V,  IC =  4.5 mA
! Common Emitter S-Parameters:                            Nov 2015
# GHz  S  MA  R  50
!  f         S11            S21            S12            S22
! GHz     MAG   ANG      MAG   ANG      MAG   ANG      MAG   ANG
 0.010  0.8524   -2.4  13.246  177.8  0.0018   92.5  0.9904   -1.1
 0.015  0.8478   -3.4  13.127  176.8  0.0029   87.0  0.9874   -1.6
 0.020  0.8435   -4.5  13.013  175.7  0.0040   84.5  0.9845   -2.1
 0.025  0.8425   -5.6  13.034  174.7  0.0049   84.3  0.9837   -2.6
 0.030  0.8417   -6.6  13.059  173.8  0.0059   84.2  0.9830   -3.1
 0.035  0.8413   -7.7  13.087  172.8  0.0068   84.1  0.9824   -3.6
 0.040  0.8411   -8.8  13.119  171.9  0.0078   84.0  0.9818   -4.2
 0.045  0.8413   -9.8  13.154  170.9  0.0087   83.9  0.9814   -4.7
 0.050  0.8417  -10.9  13.193  170.0  0.0097   83.9  0.9810   -5.2
 0.055  0.8371  -12.0  13.131  169.1  0.0106   83.1  0.9783   -5.7
 0.060  0.8328  -13.0  13.072  168.2  0.0115   82.4  0.9757   -6.2
 0.065  0.8288  -14.1  13.016  167.3  0.0124   81.8  0.9731   -6.6
 0.070  0.8250  -15.2  12.964  166.4  0.0133   81.3  0.9706   -7.1
 0.075  0.8216  -16.3  12.915  165.4  0.0142   80.8  0.9682   -7.6
 0.080  0.8185  -17.5  12.869  164.5  0.0152   80.4  0.9659   -8.1
 0.085  0.8157  -18.6  12.827  163.6  0.0161   80.1  0.9636   -8.6
 0.090  0.8133  -19.7  12.789  162.6  0.0170   79.7  0.9614   -9.1
 0.095  0.8111  -20.9  12.754  161.7  0.0179   79.5  0.9593   -9.6
 0.100  0.8093  -22.0  12.722  160.7  0.0188   79.2  0.9572  -10.1
 0.105  0.8036  -22.9  12.643  159.8  0.0197   78.4  0.9531  -10.5
 0.110  0.7980  -23.9  12.567  158.8  0.0205   77.7  0.9491  -10.9
 0.115  0.7927  -24.8  12.495  157.9  0.0214   77.0  0.9451  -11.4
 0.120  0.7876  -25.8  12.426  156.9  0.0223   76.4  0.9412  -11.8
 0.125  0.7828  -26.8  12.361  155.9  0.0232   75.8  0.9373  -12.2
 0.130  0.7782  -27.8  12.300  154.9  0.0241   75.3  0.9335  -12.6
 0.135  0.7738  -28.8  12.242  153.9  0.0249   74.8  0.9298  -13.1
 0.140  0.7696  -29.8  12.188  152.9  0.0258   74.3  0.9261  -13.5
 0.145  0.7657  -30.9  12.137  151.9  0.0267   73.9  0.9224  -14.0
 0.150  0.7621  -31.9  12.091  150.9  0.0276   73.5  0.9188  -14.4
 0.155  0.7563  -32.8  12.014  150.2  0.0283   73.1  0.9144  -14.7
 0.160  0.7506  -33.7  11.940  149.4  0.0290   72.6  0.9101  -15.1
 0.165  0.7451  -34.6  11.867  148.7  0.0297   72.2  0.9058  -15.4
 0.170  0.7398  -35.5  11.797  147.9  0.0304   71.9  0.9016  -15.8
 0.175  0.7347  -36.4  11.729  147.1  0.0311   71.5  0.8973  -16.1
 0.180  0.7298  -37.3  11.663  146.3  0.0318   71.1  0.8931  -16.5
 0.185  0.7251  -38.3  11.599  145.5  0.0326   70.8  0.8890  -16.8
 0.190  0.7206  -39.2  11.537  144.7  0.0333   70.5  0.8848  -17.2
 0.195  0.7163  -40.2  11.478  143.9  0.0340   70.2  0.8808  -17.5
 0.200  0.7122  -41.2  11.421  143.1  0.0347   69.9  0.8767  -17.9
 0.220  0.6900  -44.3  11.039  140.4  0.0371   68.3  0.8595  -19.0
 0.240  0.6700  -47.7  10.682  137.6  0.0396   66.8  0.8425  -20.1
 0.260  0.6498  -50.9  10.346  134.9  0.0419   65.9  0.8262  -21.1
 0.280  0.6289  -53.9  10.023  132.5  0.0440   65.3  0.8102  -21.8
 0.300  0.6100  -57.2   9.720  129.9  0.0462   64.7  0.7944  -22.6
 0.320  0.5889  -59.5   9.439  128.1  0.0479   63.9  0.7804  -23.1
 0.340  0.5688  -61.9   9.167  126.3  0.0497   63.2  0.7665  -23.6
 0.360  0.5498  -64.5   8.905  124.3  0.0515   62.5  0.7527  -24.2
 0.380  0.5320  -67.3   8.655  122.2  0.0532   61.9  0.7389  -24.7
 0.400  0.5156  -70.3   8.417  120.0  0.0550   61.3  0.7252  -25.3
 0.420  0.4976  -72.2   8.162  118.5  0.0564   61.0  0.7142  -25.6
 0.440  0.4802  -74.3   7.913  116.9  0.0578   60.7  0.7031  -25.9
 0.450  0.4718  -75.4   7.791  116.0  0.0585   60.6  0.6976  -26.0
 0.460  0.4635  -76.5   7.671  115.2  0.0593   60.4  0.6921  -26.2
 0.480  0.4476  -78.9   7.436  113.3  0.0607   60.2  0.6812  -26.5
 0.500  0.4324  -81.4   7.209  111.4  0.0621   59.9  0.6702  -26.8
 0.520  0.4212  -83.1   7.024  110.3  0.0635   59.7  0.6627  -27.0
 0.540  0.4105  -85.0   6.841  109.1  0.0649   59.5  0.6551  -27.1
 0.560  0.4002  -86.9   6.662  107.8  0.0662   59.3  0.6476  -27.3
 0.580  0.3904  -89.0   6.485  106.5  0.0676   59.2  0.6401  -27.5
 0.600  0.3811  -91.1   6.313  105.1  0.0690   59.0  0.6326  -27.7
 0.620  0.3708  -92.7   6.168  104.1  0.0703   59.0  0.6269  -27.8
 0.640  0.3609  -94.4   6.025  103.0  0.0716   59.0  0.6211  -27.9
 0.660  0.3512  -96.2   5.884  101.8  0.0729   59.0  0.6154  -28.1
 0.680  0.3420  -98.1   5.746  100.7  0.0742   59.0  0.6096  -28.2
 0.700  0.3331 -100.1   5.610   99.4  0.0755   59.0  0.6039  -28.3
 0.720  0.3245 -101.7   5.488   98.5  0.0768   59.0  0.5995  -28.4
 0.740  0.3162 -103.5   5.367   97.5  0.0780   59.0  0.5951  -28.4
 0.760  0.3083 -105.3   5.248   96.5  0.0793   59.0  0.5906  -28.5
 0.780  0.3006 -107.2   5.130   95.5  0.0805   59.0  0.5862  -28.5
 0.800  0.2933 -109.2   5.014   94.4  0.0818   59.0  0.5818  -28.6
 0.820  0.2859 -110.8   4.917   93.6  0.0832   59.1  0.5780  -28.7
 0.840  0.2788 -112.6   4.822   92.7  0.0845   59.3  0.5742  -28.8
 0.860  0.2720 -114.4   4.727   91.8  0.0859   59.4  0.5704  -28.8
 0.880  0.2654 -116.3   4.634   90.9  0.0872   59.6  0.5666  -28.9
 0.900  0.2592 -118.3   4.542   89.9  0.0886   59.7  0.5628  -29.0
 0.920  0.2533 -119.9   4.466   89.2  0.0898   59.8  0.5600  -29.1
 0.940  0.2477 -121.6   4.390   88.4  0.0911   59.9  0.5572  -29.2
 0.960  0.2422 -123.3   4.316   87.6  0.0923   59.9  0.5544  -29.3
 0.980  0.2370 -125.2   4.242   86.8  0.0936   60.0  0.5516  -29.4
 1.000  0.2321 -127.1   4.169   86.0  0.0948   60.1  0.5488  -29.5
 1.020  0.2286 -128.7   4.104   85.4  0.0961   60.2  0.5466  -29.6
 1.040  0.2254 -130.4   4.039   84.7  0.0975   60.2  0.5444  -29.8
 1.060  0.2223 -132.1   3.975   84.0  0.0988   60.3  0.5421  -29.9
 1.080  0.2194 -133.9   3.911   83.3  0.1002   60.3  0.5399  -30.1
 1.100  0.2168 -135.7   3.848   82.6  0.1015   60.4  0.5377  -30.2
 1.120  0.2128 -137.5   3.788   81.9  0.1029   60.5  0.5359  -30.3
 1.140  0.2090 -139.3   3.729   81.3  0.1043   60.6  0.5340  -30.4
 1.160  0.2054 -141.3   3.671   80.6  0.1056   60.6  0.5322  -30.6
 1.180  0.2021 -143.2   3.612   79.8  0.1070   60.7  0.5303  -30.7
 1.200  0.1990 -145.3   3.555   79.1  0.1084   60.8  0.5285  -30.8
 1.220  0.1972 -146.8   3.504   78.6  0.1098   60.8  0.5271  -31.0
 1.240  0.1955 -148.3   3.454   78.0  0.1112   60.8  0.5257  -31.1
 1.260  0.1940 -149.8   3.403   77.4  0.1127   60.9  0.5243  -31.3
 1.280  0.1926 -151.3   3.353   76.8  0.1141   60.9  0.5229  -31.4
 1.300  0.1913 -152.9   3.304   76.2  0.1155   60.9  0.5215  -31.6
 1.320  0.1894 -154.8   3.261   75.6  0.1168   60.9  0.5203  -31.8
 1.340  0.1876 -156.7   3.217   75.0  0.1181   61.0  0.5191  -32.0
 1.360  0.1861 -158.7   3.175   74.4  0.1195   61.0  0.5179  -32.2
 1.380  0.1849 -160.7   3.132   73.8  0.1208   61.1  0.5168  -32.4
 1.400  0.1838 -162.7   3.090   73.2  0.1221   61.1  0.5156  -32.6
 1.420  0.1833 -164.1   3.057   72.7  0.1236   61.1  0.5144  -32.8
 1.440  0.1830 -165.4   3.025   72.2  0.1251   61.1  0.5133  -33.0
 1.460  0.1827 -166.8   2.993   71.6  0.1267   61.2  0.5121  -33.1
 1.480  0.1826 -168.1   2.961   71.1  0.1282   61.2  0.5109  -33.3
 1.500  0.1825 -169.5   2.929   70.5  0.1297   61.2  0.5098  -33.5
 1.520  0.1815 -171.6   2.894   69.9  0.1312   61.2  0.5086  -33.7
 1.540  0.1808 -173.7   2.858   69.3  0.1327   61.1  0.5073  -33.9
 1.560  0.1803 -175.8   2.824   68.7  0.1342   61.1  0.5061  -34.0
 1.580  0.1800 -178.0   2.789   68.1  0.1357   61.0  0.5049  -34.2
 1.600  0.1800  179.9   2.755   67.4  0.1372   61.0  0.5037  -34.4
 1.620  0.1796  178.2   2.728   66.9  0.1387   61.0  0.5022  -34.6
 1.640  0.1794  176.5   2.700   66.4  0.1402   61.1  0.5008  -34.8
 1.660  0.1793  174.8   2.673   65.8  0.1418   61.1  0.4994  -35.0
 1.680  0.1794  173.1   2.647   65.3  0.1433   61.2  0.4979  -35.2
 1.700  0.1797  171.4   2.620   64.7  0.1448   61.2  0.4965  -35.4
 1.720  0.1803  170.0   2.596   64.2  0.1464   61.2  0.4954  -35.6
 1.740  0.1811  168.6   2.573   63.8  0.1479   61.2  0.4942  -35.9
 1.760  0.1820  167.2   2.550   63.3  0.1495   61.1  0.4931  -36.1
 1.780  0.1829  165.8   2.527   62.8  0.1510   61.1  0.4920  -36.4
 1.800  0.1840  164.4   2.504   62.3  0.1526   61.1  0.4909  -36.6
 1.820  0.1855  163.1   2.483   61.8  0.1543   61.1  0.4899  -36.9
 1.840  0.1871  161.7   2.461   61.3  0.1559   61.0  0.4888  -37.1
 1.860  0.1888  160.4   2.440   60.8  0.1576   61.0  0.4878  -37.4
 1.880  0.1906  159.2   2.420   60.2  0.1592   60.9  0.4868  -37.6
 1.900  0.1925  157.9   2.399   59.7  0.1609   60.9  0.4858  -37.9
 1.920  0.1932  156.8   2.375   59.2  0.1625   60.8  0.4850  -38.1
 1.940  0.1940  155.6   2.352   58.8  0.1641   60.8  0.4842  -38.4
 1.960  0.1949  154.5   2.328   58.3  0.1656   60.7  0.4834  -38.6
 1.980  0.1959  153.4   2.305   57.8  0.1672   60.7  0.4826  -38.9
 2.000  0.1969  152.3   2.282   57.3  0.1688   60.6  0.4818  -39.1
 2.020  0.1983  151.2   2.264   56.9  0.1704   60.5  0.4807  -39.4
 2.040  0.1997  150.2   2.246   56.4  0.1721   60.4  0.4796  -39.7
 2.060  0.2012  149.1   2.228   55.9  0.1737   60.4  0.4785  -40.0
 2.080  0.2028  148.1   2.211   55.5  0.1753   60.3  0.4774  -40.2
 2.100  0.2044  147.0   2.193   55.0  0.1769   60.2  0.4763  -40.5
 2.120  0.2061  146.0   2.176   54.5  0.1786   60.2  0.4752  -40.8
 2.140  0.2079  145.1   2.159   54.0  0.1802   60.1  0.4742  -41.1
 2.160  0.2097  144.1   2.142   53.5  0.1818   60.0  0.4731  -41.4
 2.180  0.2116  143.1   2.125   53.0  0.1835   60.0  0.4721  -41.7
 2.200  0.2135  142.2   2.108   52.5  0.1851   59.9  0.4711  -42.0
 2.220  0.2152  141.2   2.094   52.1  0.1868   59.8  0.4698  -42.3
 2.240  0.2170  140.1   2.080   51.6  0.1885   59.7  0.4685  -42.6
 2.260  0.2188  139.1   2.066   51.2  0.1902   59.6  0.4672  -42.9
 2.280  0.2207  138.2   2.052   50.7  0.1919   59.6  0.4659  -43.2
 2.300  0.2227  137.2   2.038   50.3  0.1936   59.5  0.4647  -43.5
 2.320  0.2248  136.2   2.025   49.8  0.1953   59.4  0.4634  -43.8
 2.340  0.2269  135.3   2.011   49.3  0.1970   59.3  0.4622  -44.1
 2.360  0.2290  134.4   1.998   48.9  0.1987   59.2  0.4610  -44.4
 2.380  0.2312  133.5   1.985   48.4  0.2004   59.2  0.4598  -44.7
 2.400  0.2335  132.6   1.972   47.9  0.2021   59.1  0.4586  -45.0
 2.420  0.2356  131.8   1.959   47.5  0.2038   59.0  0.4572  -45.3
 2.440  0.2378  131.0   1.946   47.1  0.2056   58.8  0.4558  -45.7
 2.460  0.2401  130.2   1.933   46.7  0.2073   58.7  0.4544  -46.0
 2.480  0.2424  129.4   1.921   46.3  0.2091   58.6  0.4530  -46.3
 2.500  0.2447  128.7   1.908   45.9  0.2108   58.5  0.4517  -46.7
 2.520  0.2470  127.9   1.896   45.4  0.2126   58.4  0.4503  -47.0
 2.540  0.2494  127.2   1.883   45.0  0.2143   58.2  0.4490  -47.4
 2.560  0.2519  126.5   1.871   44.6  0.2161   58.1  0.4477  -47.7
 2.580  0.2544  125.8   1.859   44.1  0.2178   58.0  0.4464  -48.1
 2.600  0.2569  125.1   1.847   43.7  0.2196   57.9  0.4451  -48.4
 2.620  0.2585  124.5   1.836   43.3  0.2214   57.8  0.4437  -48.7
 2.640  0.2601  123.9   1.826   42.9  0.2232   57.6  0.4424  -49.1
 2.660  0.2618  123.3   1.815   42.5  0.2250   57.5  0.4411  -49.4
 2.680  0.2635  122.7   1.805   42.2  0.2268   57.4  0.4397  -49.8
 2.700  0.2652  122.1   1.795   41.8  0.2286   57.3  0.4384  -50.1
 2.720  0.2670  121.5   1.785   41.4  0.2304   57.2  0.4372  -50.5
 2.740  0.2687  121.0   1.775   40.9  0.2323   57.0  0.4359  -50.8
 2.760  0.2705  120.4   1.765   40.5  0.2341   56.9  0.4346  -51.2
 2.780  0.2724  119.8   1.755   40.1  0.2359   56.8  0.4334  -51.5
 2.800  0.2742  119.3   1.745   39.7  0.2377   56.7  0.4322  -51.9
 2.820  0.2766  118.7   1.736   39.3  0.2395   56.5  0.4307  -52.3
 2.840  0.2790  118.2   1.726   38.9  0.2412   56.4  0.4292  -52.7
 2.860  0.2815  117.6   1.717   38.5  0.2430   56.2  0.4277  -53.1
 2.880  0.2840  117.1   1.708   38.0  0.2448   56.1  0.4262  -53.5
 2.900  0.2865  116.5   1.699   37.6  0.2466   55.9  0.4248  -53.9
 2.920  0.2890  116.0   1.690   37.2  0.2484   55.8  0.4234  -54.3
 2.940  0.2916  115.5   1.681   36.7  0.2501   55.6  0.4220  -54.7
 2.960  0.2942  115.0   1.672   36.3  0.2519   55.5  0.4206  -55.1
 2.980  0.2968  114.5   1.664   35.9  0.2537   55.3  0.4192  -55.5
 3.000  0.2994  114.0   1.655   35.4  0.2555   55.2  0.4179  -55.9
 3.100  0.3111  111.6   1.614   33.7  0.2649   54.3  0.4088  -58.1
 3.200  0.3234  109.4   1.575   31.9  0.2744   53.4  0.4003  -60.4
 3.300  0.3361  107.4   1.538   30.0  0.2839   52.6  0.3924  -62.8
 3.400  0.3492  105.5   1.502   28.1  0.2935   51.9  0.3853  -65.3
 3.500  0.3626  103.7   1.468   26.0  0.3031   51.2  0.3790  -67.9
 3.600  0.3744  101.9   1.438   24.3  0.3127   50.1  0.3691  -70.8
 3.700  0.3865  100.3   1.409   22.6  0.3225   49.1  0.3601  -73.8
 3.800  0.3989   98.7   1.382   20.8  0.3323   48.1  0.3523  -77.0
 3.900  0.4116   97.3   1.356   18.9  0.3423   47.2  0.3455  -80.4
 4.000  0.4246   95.9   1.331   17.0  0.3523   46.3  0.3400  -83.8
 4.100  0.4350   94.6   1.307   15.5  0.3619   45.0  0.3298  -87.2
 4.200  0.4456   93.4   1.284   13.9  0.3718   43.8  0.3209  -90.9
 4.300  0.4563   92.3   1.262   12.2  0.3817   42.6  0.3134  -94.7
 4.400  0.4673   91.2   1.242   10.5  0.3918   41.5  0.3074  -98.7
 4.500  0.4784   90.1   1.222    8.7  0.4021   40.5  0.3029 -102.9
 4.600  0.4867   88.9   1.201    7.3  0.4114   39.2  0.2953 -106.9
 4.700  0.4952   87.7   1.181    5.8  0.4208   37.9  0.2892 -111.0
 4.800  0.5039   86.5   1.162    4.2  0.4305   36.7  0.2847 -115.4
 4.900  0.5128   85.4   1.144    2.6  0.4404   35.5  0.2819 -119.8
 5.000  0.5219   84.3   1.127    1.0  0.4504   34.4  0.2808 -124.3
 5.100  0.5301   83.1   1.108   -0.3  0.4589   33.0  0.2763 -128.9
 5.200  0.5385   81.9   1.089   -1.6  0.4677   31.6  0.2736 -133.6
 5.300  0.5472   80.8   1.071   -3.0  0.4767   30.3  0.2728 -138.4
 5.400  0.5560   79.7   1.053   -4.4  0.4860   29.0  0.2739 -143.2
 5.500  0.5651   78.6   1.036   -5.9  0.4955   27.8  0.2769 -147.9
 5.600  0.5718   77.5   1.018   -7.1  0.5017   26.2  0.2719 -152.3
 5.700  0.5787   76.4   1.000   -8.4  0.5082   24.6  0.2686 -156.8
 5.800  0.5858   75.3   0.982   -9.7  0.5151   23.1  0.2670 -161.5
 5.900  0.5931   74.2   0.965  -11.1  0.5224   21.6  0.2672 -166.1
 6.000  0.6006   73.2   0.949  -12.5  0.5300   20.2  0.2691 -170.7
!
!  f       NFmin   Gammaopt  rn/50
! GHz       dB    MAG  ANG    -
!
! noise parameter not available yet for this operation point!
!
! (c) 2015  Infineon Technologies AG, Munich
