! Infineon Technologies  Discrete & RF Semiconductors
! BFR106
! VCE =  6.0 V,  IC =  3.0 mA
! Common Emitter S-Parameters:                            Nov 2015
# GHz  S  MA  R  50
!  f         S11            S21            S12            S22
! GHz     MAG   ANG      MAG   ANG      MAG   ANG      MAG   ANG
 0.010  0.9033   -6.7  10.224  175.0  0.0056   88.1  0.9965   -2.3
 0.015  0.9017  -10.1  10.199  173.3  0.0083   85.2  0.9928   -3.4
 0.020  0.9032  -13.5  10.182  171.6  0.0111   83.8  0.9896   -4.6
 0.025  0.8923  -16.6  10.061  169.6  0.0137   80.4  0.9832   -5.6
 0.030  0.8840  -19.8   9.953  167.5  0.0164   78.1  0.9771   -6.7
 0.035  0.8786  -23.1   9.859  165.4  0.0191   76.5  0.9713   -7.7
 0.040  0.8760  -26.3   9.778  163.2  0.0218   75.2  0.9658   -8.8
 0.045  0.8763  -29.6   9.711  161.0  0.0245   74.3  0.9607   -9.9
 0.050  0.8795  -32.9   9.659  158.8  0.0272   73.5  0.9560  -11.0
 0.055  0.8650  -35.5   9.513  157.3  0.0292   71.1  0.9466  -11.8
 0.060  0.8524  -38.2   9.374  155.8  0.0312   69.0  0.9374  -12.5
 0.065  0.8418  -41.0   9.242  154.3  0.0332   67.1  0.9284  -13.3
 0.070  0.8332  -43.9   9.117  152.7  0.0353   65.5  0.9195  -14.1
 0.075  0.8267  -46.7   8.999  151.0  0.0374   64.0  0.9109  -14.9
 0.080  0.8223  -49.7   8.888  149.3  0.0395   62.7  0.9024  -15.7
 0.085  0.8201  -52.6   8.786  147.6  0.0417   61.6  0.8941  -16.6
 0.090  0.8201  -55.6   8.691  145.8  0.0438   60.5  0.8860  -17.4
 0.095  0.8223  -58.6   8.605  144.0  0.0460   59.6  0.8781  -18.3
 0.100  0.8267  -61.5   8.528  142.2  0.0482   58.7  0.8704  -19.2
 0.105  0.8147  -63.6   8.378  141.0  0.0494   57.5  0.8615  -19.7
 0.110  0.8038  -65.7   8.232  139.7  0.0507   56.3  0.8526  -20.2
 0.115  0.7941  -68.0   8.091  138.4  0.0519   55.1  0.8438  -20.6
 0.120  0.7856  -70.2   7.953  137.0  0.0532   54.1  0.8351  -21.2
 0.125  0.7784  -72.5   7.821  135.6  0.0545   53.0  0.8265  -21.7
 0.130  0.7724  -74.9   7.693  134.2  0.0558   52.1  0.8179  -22.2
 0.135  0.7678  -77.2   7.570  132.7  0.0571   51.1  0.8093  -22.7
 0.140  0.7645  -79.7   7.453  131.1  0.0585   50.3  0.8009  -23.3
 0.145  0.7625  -82.1   7.341  129.5  0.0598   49.4  0.7925  -23.8
 0.150  0.7619  -84.5   7.235  127.9  0.0612   48.6  0.7842  -24.4
 0.155  0.7551  -86.2   7.124  127.1  0.0619   47.9  0.7773  -24.6
 0.160  0.7489  -87.9   7.015  126.2  0.0627   47.2  0.7705  -24.9
 0.165  0.7434  -89.6   6.907  125.4  0.0634   46.6  0.7636  -25.1
 0.170  0.7385  -91.3   6.801  124.4  0.0641   45.9  0.7568  -25.4
 0.175  0.7344  -93.1   6.697  123.5  0.0649   45.3  0.7500  -25.6
 0.180  0.7309  -94.9   6.594  122.6  0.0657   44.6  0.7432  -25.9
 0.185  0.7282  -96.7   6.493  121.6  0.0664   44.0  0.7364  -26.2
 0.190  0.7262  -98.5   6.395  120.5  0.0672   43.4  0.7297  -26.4
 0.195  0.7249 -100.3   6.298  119.5  0.0680   42.9  0.7229  -26.7
 0.200  0.7243 -102.1   6.204  118.4  0.0688   42.3  0.7162  -27.0
 0.220  0.7089 -107.7   5.826  115.4  0.0706   40.4  0.6946  -27.6
 0.240  0.7005 -113.5   5.466  111.9  0.0725   38.6  0.6730  -28.3
 0.260  0.6926 -118.5   5.151  109.0  0.0741   37.3  0.6554  -28.9
 0.280  0.6824 -122.7   4.870  106.7  0.0753   36.4  0.6415  -29.2
 0.300  0.6761 -127.0   4.597  104.2  0.0765   35.6  0.6277  -29.6
 0.320  0.6671 -130.2   4.399  102.6  0.0770   35.1  0.6178  -29.9
 0.340  0.6602 -133.5   4.204  100.9  0.0775   34.5  0.6079  -30.2
 0.360  0.6556 -136.9   4.013   99.0  0.0780   34.0  0.5980  -30.5
 0.380  0.6533 -140.3   3.827   97.0  0.0786   33.5  0.5881  -30.8
 0.400  0.6533 -143.7   3.647   94.7  0.0791   33.0  0.5782  -31.1
 0.420  0.6496 -146.0   3.508   93.4  0.0794   33.0  0.5729  -31.4
 0.440  0.6470 -148.4   3.371   91.9  0.0797   33.0  0.5675  -31.6
 0.450  0.6461 -149.6   3.304   91.2  0.0799   33.1  0.5649  -31.8
 0.460  0.6454 -150.8   3.237   90.4  0.0801   33.1  0.5622  -31.9
 0.480  0.6450 -153.1   3.105   88.7  0.0804   33.1  0.5569  -32.2
 0.500  0.6457 -155.5   2.976   86.8  0.0807   33.1  0.5516  -32.5
 0.520  0.6443 -157.4   2.884   85.7  0.0810   33.4  0.5490  -32.9
 0.540  0.6435 -159.3   2.794   84.5  0.0813   33.7  0.5464  -33.3
 0.560  0.6434 -161.1   2.705   83.2  0.0815   34.1  0.5438  -33.7
 0.580  0.6441 -163.0   2.617   81.9  0.0818   34.4  0.5412  -34.2
 0.600  0.6454 -164.9   2.531   80.4  0.0821   34.7  0.5387  -34.6
 0.620  0.6435 -166.4   2.465   79.4  0.0823   35.3  0.5368  -35.1
 0.640  0.6422 -168.0   2.399   78.3  0.0825   35.8  0.5349  -35.6
 0.660  0.6413 -169.6   2.334   77.2  0.0827   36.4  0.5331  -36.1
 0.680  0.6408 -171.1   2.271   76.0  0.0829   36.9  0.5313  -36.6
 0.700  0.6409 -172.7   2.208   74.8  0.0831   37.5  0.5295  -37.1
 0.720  0.6401 -173.9   2.155   73.9  0.0836   38.2  0.5278  -37.6
 0.740  0.6395 -175.0   2.103   72.9  0.0841   38.9  0.5262  -38.1
 0.760  0.6392 -176.2   2.051   72.0  0.0847   39.6  0.5246  -38.6
 0.780  0.6392 -177.3   2.000   70.9  0.0852   40.2  0.5231  -39.1
 0.800  0.6394 -178.5   1.950   69.8  0.0858   40.9  0.5216  -39.6
 0.820  0.6387 -179.7   1.909   68.9  0.0863   41.7  0.5203  -40.1
 0.840  0.6383  179.1   1.869   68.0  0.0869   42.6  0.5190  -40.7
 0.860  0.6381  177.8   1.828   67.1  0.0875   43.4  0.5178  -41.2
 0.880  0.6383  176.6   1.789   66.1  0.0881   44.2  0.5166  -41.8
 0.900  0.6387  175.4   1.750   65.1  0.0887   45.0  0.5155  -42.3
 0.920  0.6387  174.3   1.718   64.3  0.0893   45.9  0.5150  -42.9
 0.940  0.6390  173.2   1.686   63.4  0.0900   46.7  0.5145  -43.6
 0.960  0.6395  172.2   1.655   62.6  0.0906   47.6  0.5140  -44.2
 0.980  0.6402  171.1   1.624   61.6  0.0913   48.4  0.5137  -44.9
 1.000  0.6411  170.0   1.593   60.7  0.0920   49.2  0.5134  -45.5
 1.020  0.6422  168.9   1.567   59.9  0.0932   50.1  0.5128  -46.2
 1.040  0.6435  167.9   1.541   59.1  0.0943   51.0  0.5123  -46.9
 1.060  0.6451  166.8   1.515   58.3  0.0955   51.8  0.5118  -47.6
 1.080  0.6468  165.7   1.490   57.5  0.0968   52.7  0.5114  -48.3
 1.100  0.6488  164.7   1.465   56.6  0.0980   53.5  0.5111  -49.0
 1.120  0.6497  163.8   1.443   55.8  0.0994   54.3  0.5104  -49.7
 1.140  0.6507  162.8   1.421   55.1  0.1007   55.1  0.5099  -50.4
 1.160  0.6520  161.9   1.399   54.3  0.1021   55.8  0.5094  -51.1
 1.180  0.6533  161.0   1.377   53.5  0.1036   56.6  0.5089  -51.8
 1.200  0.6549  160.1   1.356   52.6  0.1050   57.3  0.5086  -52.5
 1.220  0.6543  159.3   1.336   52.0  0.1068   58.0  0.5082  -53.2
 1.240  0.6539  158.4   1.317   51.4  0.1086   58.6  0.5078  -53.9
 1.260  0.6536  157.6   1.297   50.8  0.1104   59.2  0.5075  -54.6
 1.280  0.6535  156.7   1.278   50.2  0.1122   59.8  0.5073  -55.3
 1.300  0.6535  155.9   1.259   49.5  0.1140   60.4  0.5072  -56.0
 1.320  0.6557  155.1   1.242   48.9  0.1159   61.0  0.5072  -56.8
 1.340  0.6579  154.3   1.226   48.2  0.1178   61.7  0.5074  -57.5
 1.360  0.6603  153.5   1.209   47.6  0.1197   62.3  0.5076  -58.3
 1.380  0.6629  152.8   1.193   46.9  0.1217   62.8  0.5079  -59.0
 1.400  0.6655  152.0   1.177   46.2  0.1236   63.4  0.5083  -59.8
 1.420  0.6648  151.2   1.165   45.6  0.1260   63.9  0.5077  -60.6
 1.440  0.6643  150.5   1.153   45.0  0.1283   64.4  0.5072  -61.4
 1.460  0.6638  149.7   1.142   44.4  0.1307   64.8  0.5068  -62.1
 1.480  0.6635  149.0   1.130   43.7  0.1331   65.3  0.5064  -62.9
 1.500  0.6633  148.2   1.119   43.1  0.1355   65.7  0.5062  -63.7
 1.520  0.6642  147.5   1.104   42.5  0.1381   66.0  0.5056  -64.5
 1.540  0.6653  146.8   1.088   41.8  0.1407   66.3  0.5050  -65.3
 1.560  0.6664  146.0   1.073   41.2  0.1433   66.6  0.5046  -66.1
 1.580  0.6677  145.3   1.058   40.5  0.1460   66.9  0.5042  -66.9
 1.600  0.6690  144.6   1.043   39.8  0.1486   67.2  0.5040  -67.7
 1.620  0.6701  143.8   1.033   39.3  0.1515   67.4  0.5028  -68.5
 1.640  0.6714  143.1   1.024   38.7  0.1543   67.7  0.5017  -69.4
 1.660  0.6728  142.3   1.015   38.2  0.1572   67.9  0.5007  -70.2
 1.680  0.6743  141.6   1.005   37.7  0.1600   68.1  0.4999  -71.1
 1.700  0.6759  140.8   0.996   37.1  0.1629   68.3  0.4991  -71.9
 1.720  0.6776  140.0   0.987   36.6  0.1659   68.4  0.4989  -72.7
 1.740  0.6794  139.2   0.978   36.1  0.1689   68.4  0.4987  -73.5
 1.760  0.6813  138.4   0.969   35.6  0.1718   68.5  0.4987  -74.4
 1.780  0.6833  137.7   0.960   35.1  0.1748   68.5  0.4987  -75.2
 1.800  0.6855  136.9   0.951   34.6  0.1778   68.6  0.4989  -76.0
 1.820  0.6856  136.3   0.943   34.1  0.1811   68.6  0.4991  -76.9
 1.840  0.6858  135.7   0.934   33.5  0.1844   68.7  0.4995  -77.9
 1.860  0.6860  135.0   0.926   32.9  0.1878   68.7  0.5000  -78.8
 1.880  0.6864  134.4   0.918   32.4  0.1911   68.8  0.5006  -79.8
 1.900  0.6868  133.8   0.910   31.8  0.1944   68.8  0.5014  -80.7
 1.920  0.6875  133.1   0.901   31.4  0.1977   68.7  0.5007  -81.6
 1.940  0.6884  132.5   0.893   30.9  0.2010   68.6  0.5002  -82.5
 1.960  0.6893  131.8   0.884   30.5  0.2044   68.6  0.4998  -83.5
 1.980  0.6903  131.2   0.875   30.1  0.2077   68.5  0.4995  -84.4
 2.000  0.6914  130.5   0.867   29.6  0.2110   68.4  0.4994  -85.3
 2.020  0.6920  129.9   0.860   29.2  0.2146   68.2  0.4989  -86.2
 2.040  0.6927  129.2   0.853   28.8  0.2183   68.1  0.4985  -87.2
 2.060  0.6935  128.6   0.846   28.4  0.2219   67.9  0.4982  -88.1
 2.080  0.6944  128.0   0.840   28.0  0.2255   67.8  0.4981  -89.0
 2.100  0.6954  127.3   0.833   27.6  0.2292   67.6  0.4981  -90.0
 2.120  0.6965  126.7   0.826   27.2  0.2328   67.5  0.4982  -90.9
 2.140  0.6976  126.1   0.820   26.8  0.2365   67.4  0.4985  -91.8
 2.160  0.6988  125.4   0.813   26.4  0.2401   67.2  0.4989  -92.7
 2.180  0.7001  124.8   0.807   25.9  0.2438   67.1  0.4994  -93.7
 2.200  0.7015  124.2   0.800   25.5  0.2474   67.0  0.5001  -94.6
 2.220  0.7017  123.6   0.795   25.2  0.2511   66.7  0.4993  -95.7
 2.240  0.7019  123.0   0.789   24.8  0.2548   66.4  0.4987  -96.7
 2.260  0.7022  122.4   0.784   24.4  0.2585   66.1  0.4982  -97.8
 2.280  0.7026  121.7   0.778   24.1  0.2623   65.9  0.4979  -98.8
 2.300  0.7031  121.1   0.773   23.7  0.2660   65.6  0.4978  -99.9
 2.320  0.7036  120.5   0.768   23.3  0.2697   65.4  0.4979 -101.0
 2.340  0.7042  119.9   0.763   23.0  0.2735   65.1  0.4981 -102.0
 2.360  0.7049  119.3   0.757   22.6  0.2772   64.9  0.4985 -103.1
 2.380  0.7057  118.7   0.752   22.2  0.2809   64.6  0.4991 -104.1
 2.400  0.7066  118.1   0.747   21.8  0.2847   64.4  0.4998 -105.2
 2.420  0.7074  117.5   0.742   21.5  0.2884   64.0  0.4991 -106.2
 2.440  0.7083  116.9   0.737   21.3  0.2920   63.7  0.4985 -107.2
 2.460  0.7093  116.2   0.732   21.0  0.2957   63.3  0.4981 -108.2
 2.480  0.7103  115.6   0.728   20.8  0.2994   62.9  0.4979 -109.2
 2.500  0.7115  115.0   0.723   20.5  0.3031   62.6  0.4978 -110.2
 2.520  0.7127  114.4   0.718   20.2  0.3068   62.3  0.4979 -111.2
 2.540  0.7140  113.8   0.713   19.9  0.3106   61.9  0.4981 -112.2
 2.560  0.7154  113.2   0.708   19.7  0.3143   61.6  0.4984 -113.2
 2.580  0.7169  112.6   0.704   19.4  0.3180   61.3  0.4989 -114.2
 2.600  0.7184  112.0   0.699   19.1  0.3218   61.0  0.4996 -115.2
 2.620  0.7189  111.5   0.696   18.9  0.3254   60.6  0.4992 -116.3
 2.640  0.7195  111.0   0.692   18.7  0.3291   60.2  0.4989 -117.5
 2.660  0.7201  110.5   0.689   18.5  0.3328   59.8  0.4989 -118.6
 2.680  0.7208  109.9   0.685   18.2  0.3365   59.4  0.4991 -119.7
 2.700  0.7215  109.4   0.682   18.0  0.3402   59.0  0.4994 -120.9
 2.720  0.7223  108.9   0.678   17.8  0.3439   58.6  0.5000 -122.0
 2.740  0.7231  108.4   0.675   17.6  0.3476   58.3  0.5007 -123.1
 2.760  0.7240  107.9   0.672   17.4  0.3514   57.9  0.5016 -124.3
 2.780  0.7250  107.4   0.668   17.1  0.3551   57.5  0.5028 -125.4
 2.800  0.7260  106.9   0.665   16.9  0.3589   57.2  0.5041 -126.5
 2.820  0.7268  106.4   0.662   16.7  0.3625   56.8  0.5040 -127.5
 2.840  0.7276  105.9   0.659   16.5  0.3661   56.3  0.5041 -128.6
 2.860  0.7285  105.4   0.656   16.3  0.3698   55.9  0.5044 -129.6
 2.880  0.7294  105.0   0.653   16.1  0.3735   55.5  0.5048 -130.7
 2.900  0.7304  104.5   0.650   15.9  0.3772   55.0  0.5054 -131.7
 2.920  0.7314  104.0   0.647   15.7  0.3809   54.6  0.5062 -132.8
 2.940  0.7325  103.5   0.645   15.4  0.3846   54.2  0.5071 -133.8
 2.960  0.7337  103.0   0.642   15.2  0.3884   53.9  0.5082 -134.8
 2.980  0.7349  102.6   0.639   15.0  0.3921   53.5  0.5095 -135.9
 3.000  0.7361  102.1   0.636   14.8  0.3959   53.1  0.5109 -136.9
 3.100  0.7361  100.0   0.627   14.1  0.4104   50.5  0.5078 -142.4
 3.200  0.7370   98.0   0.618   13.3  0.4258   48.1  0.5095 -147.9
 3.300  0.7389   95.9   0.609   12.6  0.4418   45.9  0.5158 -153.3
 3.400  0.7418   93.8   0.600   11.8  0.4584   43.8  0.5266 -158.6
 3.500  0.7456   91.8   0.591   11.0  0.4756   41.9  0.5417 -163.6
 3.600  0.7461   90.1   0.587   10.4  0.4849   39.4  0.5415 -168.7
 3.700  0.7472   88.5   0.583    9.7  0.4951   37.0  0.5455 -173.8
 3.800  0.7489   86.9   0.579    9.0  0.5061   34.7  0.5538 -178.8
 3.900  0.7513   85.2   0.576    8.4  0.5180   32.5  0.5661  176.5
 4.000  0.7542   83.6   0.572    7.7  0.5305   30.4  0.5822  171.9
 4.100  0.7527   82.3   0.571    6.9  0.5350   28.3  0.5820  167.8
 4.200  0.7516   81.1   0.570    6.1  0.5403   26.1  0.5848  163.7
 4.300  0.7509   79.8   0.569    5.2  0.5462   24.1  0.5906  159.7
 4.400  0.7505   78.6   0.568    4.4  0.5529   22.1  0.5992  155.7
 4.500  0.7505   77.3   0.567    3.6  0.5602   20.1  0.6106  151.9
 4.600  0.7502   76.2   0.567    2.7  0.5623   18.3  0.6104  148.5
 4.700  0.7502   75.1   0.566    1.8  0.5649   16.6  0.6123  145.2
 4.800  0.7505   74.1   0.566    1.0  0.5681   14.8  0.6163  141.9
 4.900  0.7510   73.0   0.566    0.1  0.5717   13.1  0.6224  138.6
 5.000  0.7518   71.9   0.566   -0.8  0.5759   11.4  0.6304  135.4
 5.100  0.7494   70.9   0.565   -0.9  0.5765   10.5  0.6243  134.2
 5.200  0.7473   69.8   0.563   -1.0  0.5773    9.7  0.6186  132.9
 5.300  0.7455   68.7   0.562   -1.1  0.5781    8.8  0.6131  131.6
 5.400  0.7438   67.7   0.560   -1.2  0.5792    8.0  0.6079  130.3
 5.500  0.7425   66.6   0.559   -1.3  0.5803    7.1  0.6031  129.0
 5.600  0.7417   65.9   0.563   -2.5  0.5850    5.4  0.6152  126.3
 5.700  0.7411   65.3   0.567   -3.7  0.5902    3.7  0.6287  123.7
 5.800  0.7405   64.6   0.572   -4.8  0.5960    2.0  0.6434  121.2
 5.900  0.7401   64.0   0.577   -6.0  0.6022    0.4  0.6593  118.8
 6.000  0.7397   63.3   0.582   -7.1  0.6089   -1.2  0.6763  116.5
!
!  f       NFmin   Gammaopt  rn/50
! GHz       dB    MAG  ANG    -
!
! noise parameter not available yet for this operation point!
!
! (c) 2015  Infineon Technologies AG, Munich
