! Infineon Technologies  Discrete & RF Semiconductors
! BFR182
! VCE =  5.0 V,  IC =  4.5 mA
! Common Emitter S-Parameters:                            Nov 2015
# GHz  S  MA  R  50
!  f         S11            S21            S12            S22
! GHz     MAG   ANG      MAG   ANG      MAG   ANG      MAG   ANG
 0.010  0.8451   -2.3  13.165  177.9  0.0019   86.8  0.9912   -1.1
 0.015  0.8442   -3.4  13.181  176.7  0.0028   87.7  0.9877   -1.6
 0.020  0.8437   -4.5  13.202  175.5  0.0037   88.2  0.9842   -2.1
 0.025  0.8419   -5.6  13.201  174.6  0.0047   87.0  0.9835   -2.6
 0.030  0.8405   -6.8  13.204  173.6  0.0057   86.2  0.9829   -3.2
 0.035  0.8394   -7.9  13.210  172.7  0.0067   85.7  0.9824   -3.7
 0.040  0.8386   -9.1  13.219  171.8  0.0077   85.3  0.9819   -4.2
 0.045  0.8382  -10.2  13.232  170.8  0.0087   84.9  0.9816   -4.8
 0.050  0.8381  -11.4  13.249  169.9  0.0097   84.7  0.9813   -5.3
 0.055  0.8339  -12.4  13.175  169.0  0.0107   83.7  0.9787   -5.8
 0.060  0.8300  -13.5  13.105  168.1  0.0116   82.8  0.9761   -6.3
 0.065  0.8264  -14.6  13.038  167.2  0.0126   82.1  0.9736   -6.7
 0.070  0.8230  -15.6  12.974  166.3  0.0136   81.4  0.9711   -7.2
 0.075  0.8199  -16.7  12.914  165.4  0.0146   80.9  0.9688   -7.7
 0.080  0.8172  -17.8  12.857  164.4  0.0156   80.4  0.9665   -8.2
 0.085  0.8147  -18.9  12.803  163.5  0.0165   80.0  0.9642   -8.7
 0.090  0.8125  -20.0  12.753  162.5  0.0175   79.6  0.9621   -9.2
 0.095  0.8107  -21.1  12.707  161.6  0.0185   79.3  0.9600   -9.7
 0.100  0.8091  -22.2  12.664  160.6  0.0195   79.0  0.9580  -10.2
 0.105  0.8026  -23.2  12.594  159.6  0.0203   78.2  0.9536  -10.6
 0.110  0.7963  -24.1  12.528  158.7  0.0211   77.4  0.9493  -11.0
 0.115  0.7902  -25.1  12.465  157.7  0.0219   76.7  0.9450  -11.5
 0.120  0.7844  -26.1  12.407  156.7  0.0227   76.0  0.9407  -11.9
 0.125  0.7788  -27.2  12.351  155.7  0.0236   75.4  0.9366  -12.4
 0.130  0.7735  -28.2  12.300  154.7  0.0244   74.8  0.9324  -12.8
 0.135  0.7684  -29.3  12.252  153.7  0.0252   74.2  0.9284  -13.2
 0.140  0.7636  -30.3  12.209  152.7  0.0260   73.7  0.9244  -13.7
 0.145  0.7591  -31.4  12.169  151.6  0.0269   73.2  0.9204  -14.1
 0.150  0.7548  -32.5  12.133  150.6  0.0277   72.8  0.9165  -14.6
 0.155  0.7495  -33.4  12.047  149.9  0.0284   72.4  0.9121  -14.9
 0.160  0.7444  -34.3  11.962  149.1  0.0291   72.1  0.9078  -15.3
 0.165  0.7395  -35.2  11.880  148.4  0.0297   71.7  0.9034  -15.6
 0.170  0.7348  -36.2  11.799  147.6  0.0304   71.4  0.8991  -15.9
 0.175  0.7303  -37.1  11.721  146.9  0.0311   71.1  0.8949  -16.3
 0.180  0.7260  -38.1  11.645  146.1  0.0318   70.8  0.8906  -16.6
 0.185  0.7219  -39.0  11.571  145.3  0.0325   70.5  0.8864  -16.9
 0.190  0.7180  -40.0  11.499  144.5  0.0331   70.2  0.8822  -17.3
 0.195  0.7143  -41.0  11.429  143.7  0.0338   70.0  0.8781  -17.6
 0.200  0.7108  -42.0  11.362  142.9  0.0345   69.7  0.8740  -18.0
 0.220  0.6890  -45.3  10.991  140.2  0.0371   68.0  0.8575  -19.0
 0.240  0.6696  -48.7  10.646  137.2  0.0398   66.6  0.8412  -20.1
 0.260  0.6478  -51.9  10.327  134.5  0.0422   65.5  0.8249  -21.1
 0.280  0.6230  -55.0  10.026  132.0  0.0443   64.8  0.8085  -21.9
 0.300  0.6001  -58.3   9.745  129.4  0.0464   64.2  0.7922  -22.8
 0.320  0.5794  -60.5   9.453  127.7  0.0481   63.5  0.7778  -23.3
 0.340  0.5597  -62.9   9.171  125.8  0.0498   62.8  0.7635  -23.8
 0.360  0.5410  -65.4   8.899  123.9  0.0515   62.2  0.7492  -24.3
 0.380  0.5234  -68.1   8.637  121.8  0.0532   61.6  0.7350  -24.8
 0.400  0.5071  -71.0   8.388  119.6  0.0549   61.1  0.7208  -25.4
 0.420  0.4910  -72.9   8.126  118.1  0.0563   60.8  0.7103  -25.7
 0.440  0.4755  -75.0   7.870  116.6  0.0577   60.5  0.6999  -26.0
 0.450  0.4681  -76.1   7.744  115.7  0.0583   60.3  0.6947  -26.1
 0.460  0.4607  -77.2   7.620  114.9  0.0590   60.2  0.6895  -26.3
 0.480  0.4467  -79.6   7.376  113.1  0.0604   59.9  0.6791  -26.6
 0.500  0.4334  -82.1   7.141  111.2  0.0618   59.6  0.6687  -26.9
 0.520  0.4208  -84.0   6.963  110.0  0.0633   59.4  0.6612  -27.1
 0.540  0.4087  -86.1   6.787  108.8  0.0648   59.3  0.6537  -27.2
 0.560  0.3972  -88.3   6.615  107.5  0.0663   59.1  0.6462  -27.4
 0.580  0.3863  -90.6   6.447  106.1  0.0678   58.9  0.6388  -27.5
 0.600  0.3760  -93.0   6.282  104.7  0.0693   58.8  0.6313  -27.7
 0.620  0.3657  -94.6   6.138  103.6  0.0705   58.9  0.6253  -27.8
 0.640  0.3557  -96.3   5.996  102.5  0.0717   58.9  0.6192  -27.9
 0.660  0.3460  -98.1   5.857  101.4  0.0730   59.0  0.6132  -28.1
 0.680  0.3367 -100.0   5.720  100.2  0.0742   59.0  0.6071  -28.2
 0.700  0.3278 -102.0   5.586   98.9  0.0754   59.1  0.6011  -28.3
 0.720  0.3193 -103.8   5.464   98.0  0.0767   59.1  0.5966  -28.4
 0.740  0.3112 -105.7   5.343   97.1  0.0780   59.1  0.5920  -28.4
 0.760  0.3034 -107.7   5.224   96.1  0.0793   59.2  0.5875  -28.5
 0.780  0.2960 -109.8   5.107   95.1  0.0806   59.2  0.5829  -28.5
 0.800  0.2890 -112.0   4.991   94.0  0.0819   59.2  0.5784  -28.6
 0.820  0.2826 -113.4   4.894   93.2  0.0833   59.2  0.5748  -28.7
 0.840  0.2765 -114.9   4.797   92.3  0.0846   59.3  0.5712  -28.8
 0.860  0.2705 -116.4   4.702   91.5  0.0860   59.3  0.5677  -28.8
 0.880  0.2647 -118.0   4.608   90.6  0.0873   59.4  0.5641  -28.9
 0.900  0.2591 -119.7   4.515   89.6  0.0887   59.4  0.5605  -29.0
 0.920  0.2538 -121.4   4.436   88.9  0.0899   59.5  0.5579  -29.1
 0.940  0.2487 -123.1   4.357   88.2  0.0912   59.6  0.5553  -29.2
 0.960  0.2439 -124.9   4.279   87.5  0.0924   59.7  0.5528  -29.3
 0.980  0.2393 -126.8   4.202   86.7  0.0937   59.8  0.5502  -29.4
 1.000  0.2350 -128.8   4.126   85.9  0.0949   59.9  0.5476  -29.5
 1.020  0.2319 -130.6   4.061   85.2  0.0963   60.0  0.5455  -29.7
 1.040  0.2290 -132.5   3.997   84.6  0.0977   60.0  0.5434  -29.8
 1.060  0.2263 -134.4   3.934   83.9  0.0992   60.1  0.5413  -30.0
 1.080  0.2239 -136.3   3.871   83.1  0.1006   60.1  0.5393  -30.1
 1.100  0.2218 -138.3   3.809   82.4  0.1020   60.2  0.5372  -30.3
 1.120  0.2183 -139.9   3.753   81.7  0.1033   60.3  0.5356  -30.4
 1.140  0.2151 -141.6   3.697   81.1  0.1046   60.4  0.5340  -30.5
 1.160  0.2120 -143.4   3.642   80.4  0.1060   60.5  0.5325  -30.7
 1.180  0.2091 -145.2   3.587   79.6  0.1073   60.6  0.5309  -30.8
 1.200  0.2064 -147.0   3.533   78.9  0.1086   60.7  0.5293  -30.9
 1.220  0.2042 -148.3   3.481   78.3  0.1100   60.7  0.5277  -31.1
 1.240  0.2022 -149.7   3.429   77.8  0.1114   60.8  0.5260  -31.2
 1.260  0.2002 -151.1   3.378   77.2  0.1127   60.8  0.5244  -31.4
 1.280  0.1984 -152.5   3.327   76.5  0.1141   60.9  0.5228  -31.5
 1.300  0.1967 -154.0   3.276   75.9  0.1155   60.9  0.5212  -31.7
 1.320  0.1947 -156.1   3.234   75.3  0.1168   60.9  0.5200  -31.9
 1.340  0.1930 -158.3   3.193   74.7  0.1182   61.0  0.5188  -32.1
 1.360  0.1915 -160.5   3.151   74.1  0.1195   61.0  0.5176  -32.2
 1.380  0.1904 -162.7   3.110   73.5  0.1209   61.1  0.5165  -32.4
 1.400  0.1895 -165.0   3.070   72.9  0.1222   61.1  0.5153  -32.6
 1.420  0.1885 -166.4   3.037   72.4  0.1237   61.1  0.5139  -32.8
 1.440  0.1876 -167.8   3.004   71.9  0.1253   61.1  0.5124  -33.0
 1.460  0.1869 -169.2   2.971   71.3  0.1268   61.1  0.5110  -33.1
 1.480  0.1862 -170.7   2.939   70.8  0.1284   61.1  0.5096  -33.3
 1.500  0.1857 -172.1   2.907   70.2  0.1299   61.1  0.5082  -33.5
 1.520  0.1853 -174.1   2.873   69.6  0.1314   61.1  0.5071  -33.7
 1.540  0.1852 -176.1   2.839   69.0  0.1329   61.1  0.5059  -33.9
 1.560  0.1853 -178.0   2.806   68.3  0.1343   61.2  0.5048  -34.0
 1.580  0.1856  180.0   2.773   67.7  0.1358   61.2  0.5036  -34.2
 1.600  0.1861  178.0   2.740   67.0  0.1373   61.2  0.5025  -34.4
 1.620  0.1859  176.5   2.712   66.5  0.1389   61.2  0.5010  -34.6
 1.640  0.1859  174.9   2.685   66.0  0.1404   61.3  0.4994  -34.8
 1.660  0.1859  173.4   2.658   65.5  0.1420   61.3  0.4979  -35.1
 1.680  0.1862  171.8   2.631   64.9  0.1435   61.4  0.4964  -35.3
 1.700  0.1865  170.3   2.604   64.4  0.1451   61.4  0.4949  -35.5
 1.720  0.1873  168.9   2.579   64.0  0.1466   61.3  0.4940  -35.7
 1.740  0.1882  167.4   2.554   63.5  0.1481   61.3  0.4931  -36.0
 1.760  0.1892  166.0   2.529   63.0  0.1495   61.2  0.4922  -36.2
 1.780  0.1903  164.6   2.504   62.6  0.1510   61.2  0.4913  -36.5
 1.800  0.1915  163.2   2.479   62.1  0.1525   61.1  0.4904  -36.7
 1.820  0.1929  162.1   2.458   61.6  0.1541   61.1  0.4895  -37.0
 1.840  0.1943  161.1   2.437   61.1  0.1556   61.1  0.4886  -37.2
 1.860  0.1958  160.1   2.416   60.6  0.1572   61.0  0.4878  -37.5
 1.880  0.1973  159.1   2.395   60.0  0.1587   61.0  0.4869  -37.7
 1.900  0.1989  158.1   2.375   59.5  0.1603   61.0  0.4861  -38.0
 1.920  0.2003  156.6   2.353   59.0  0.1620   60.9  0.4852  -38.3
 1.940  0.2019  155.2   2.330   58.5  0.1636   60.8  0.4844  -38.5
 1.960  0.2036  153.8   2.308   58.0  0.1653   60.7  0.4836  -38.8
 1.980  0.2054  152.4   2.287   57.5  0.1669   60.6  0.4827  -39.0
 2.000  0.2073  151.0   2.265   57.0  0.1686   60.5  0.4819  -39.3
 2.020  0.2082  149.9   2.247   56.6  0.1703   60.5  0.4806  -39.6
 2.040  0.2091  148.9   2.229   56.1  0.1720   60.4  0.4793  -39.8
 2.060  0.2101  147.9   2.212   55.6  0.1737   60.4  0.4781  -40.1
 2.080  0.2112  146.8   2.194   55.2  0.1754   60.3  0.4768  -40.4
 2.100  0.2123  145.8   2.177   54.7  0.1771   60.3  0.4756  -40.7
 2.120  0.2135  144.8   2.159   54.2  0.1788   60.3  0.4744  -41.0
 2.140  0.2148  143.8   2.142   53.7  0.1805   60.2  0.4732  -41.2
 2.160  0.2161  142.8   2.125   53.2  0.1822   60.2  0.4720  -41.5
 2.180  0.2175  141.9   2.109   52.7  0.1839   60.1  0.4708  -41.8
 2.200  0.2190  140.9   2.092   52.2  0.1856   60.1  0.4696  -42.1
 2.220  0.2208  140.0   2.078   51.8  0.1873   60.0  0.4685  -42.4
 2.240  0.2227  139.1   2.063   51.3  0.1889   59.9  0.4674  -42.7
 2.260  0.2246  138.2   2.049   50.9  0.1906   59.8  0.4663  -43.0
 2.280  0.2266  137.3   2.035   50.4  0.1923   59.7  0.4652  -43.3
 2.300  0.2286  136.5   2.021   49.9  0.1939   59.6  0.4641  -43.6
 2.320  0.2306  135.6   2.008   49.5  0.1956   59.5  0.4631  -43.9
 2.340  0.2328  134.8   1.994   49.0  0.1973   59.4  0.4620  -44.3
 2.360  0.2349  134.0   1.980   48.5  0.1990   59.3  0.4610  -44.6
 2.380  0.2371  133.2   1.967   48.0  0.2006   59.2  0.4600  -44.9
 2.400  0.2394  132.4   1.954   47.5  0.2023   59.1  0.4590  -45.2
 2.420  0.2414  131.5   1.942   47.1  0.2041   59.0  0.4574  -45.5
 2.440  0.2434  130.7   1.929   46.7  0.2059   58.9  0.4558  -45.8
 2.460  0.2454  129.9   1.917   46.3  0.2078   58.7  0.4542  -46.2
 2.480  0.2475  129.1   1.905   45.9  0.2096   58.6  0.4526  -46.5
 2.500  0.2497  128.3   1.893   45.5  0.2114   58.5  0.4511  -46.8
 2.520  0.2519  127.5   1.881   45.0  0.2132   58.4  0.4495  -47.2
 2.540  0.2542  126.7   1.869   44.6  0.2150   58.3  0.4480  -47.5
 2.560  0.2565  126.0   1.857   44.2  0.2169   58.2  0.4465  -47.8
 2.580  0.2588  125.2   1.846   43.7  0.2187   58.1  0.4450  -48.2
 2.600  0.2612  124.5   1.834   43.3  0.2205   58.0  0.4435  -48.5
 2.620  0.2633  123.9   1.823   42.9  0.2222   57.9  0.4423  -48.9
 2.640  0.2654  123.2   1.813   42.6  0.2240   57.7  0.4412  -49.2
 2.660  0.2676  122.6   1.803   42.2  0.2257   57.6  0.4401  -49.6
 2.680  0.2698  122.0   1.792   41.8  0.2274   57.5  0.4390  -50.0
 2.700  0.2720  121.4   1.782   41.4  0.2292   57.4  0.4379  -50.3
 2.720  0.2742  120.8   1.772   41.0  0.2309   57.3  0.4369  -50.7
 2.740  0.2765  120.3   1.762   40.6  0.2327   57.1  0.4358  -51.1
 2.760  0.2788  119.7   1.752   40.2  0.2344   57.0  0.4348  -51.4
 2.780  0.2811  119.1   1.742   39.8  0.2362   56.9  0.4338  -51.8
 2.800  0.2835  118.6   1.732   39.4  0.2379   56.8  0.4328  -52.2
 2.820  0.2857  118.1   1.723   39.0  0.2398   56.7  0.4311  -52.6
 2.840  0.2880  117.5   1.713   38.6  0.2416   56.5  0.4293  -53.0
 2.860  0.2902  117.0   1.704   38.1  0.2435   56.4  0.4276  -53.3
 2.880  0.2925  116.5   1.695   37.7  0.2453   56.2  0.4260  -53.7
 2.900  0.2949  115.9   1.686   37.3  0.2472   56.1  0.4243  -54.1
 2.920  0.2972  115.4   1.677   36.8  0.2490   55.9  0.4227  -54.5
 2.940  0.2996  114.9   1.668   36.4  0.2509   55.8  0.4210  -54.9
 2.960  0.3020  114.5   1.659   35.9  0.2528   55.7  0.4194  -55.3
 2.980  0.3044  114.0   1.651   35.5  0.2546   55.5  0.4179  -55.7
 3.000  0.3068  113.5   1.642   35.0  0.2565   55.4  0.4163  -56.1
 3.100  0.3186  111.2   1.602   33.3  0.2660   54.4  0.4072  -58.3
 3.200  0.3309  109.0   1.563   31.5  0.2755   53.5  0.3987  -60.7
 3.300  0.3436  107.1   1.525   29.6  0.2851   52.7  0.3909  -63.1
 3.400  0.3567  105.2   1.490   27.7  0.2947   51.9  0.3839  -65.7
 3.500  0.3702  103.5   1.456   25.6  0.3044   51.2  0.3776  -68.3
 3.600  0.3812  101.8   1.426   24.0  0.3141   50.1  0.3676  -71.2
 3.700  0.3925  100.2   1.398   22.3  0.3239   49.1  0.3585  -74.3
 3.800  0.4041   98.7   1.371   20.5  0.3338   48.1  0.3506  -77.5
 3.900  0.4159   97.3   1.345   18.7  0.3437   47.2  0.3438  -80.9
 4.000  0.4280   96.0   1.321   16.8  0.3538   46.3  0.3383  -84.4
 4.100  0.4387   94.6   1.296   15.2  0.3634   45.0  0.3287  -87.9
 4.200  0.4496   93.3   1.273   13.6  0.3733   43.8  0.3205  -91.7
 4.300  0.4607   92.0   1.250   11.9  0.3832   42.6  0.3136  -95.6
 4.400  0.4721   90.8   1.228   10.2  0.3933   41.5  0.3083  -99.6
 4.500  0.4837   89.6   1.208    8.4  0.4036   40.5  0.3046 -103.8
 4.600  0.4919   88.4   1.189    7.0  0.4130   39.2  0.2968 -107.8
 4.700  0.5004   87.2   1.171    5.5  0.4227   37.9  0.2905 -111.9
 4.800  0.5090   86.0   1.154    3.9  0.4325   36.7  0.2858 -116.3
 4.900  0.5179   84.9   1.137    2.3  0.4426   35.5  0.2828 -120.7
 5.000  0.5269   83.8   1.122    0.7  0.4528   34.4  0.2815 -125.2
 5.100  0.5343   82.7   1.102   -0.6  0.4612   32.9  0.2768 -129.8
 5.200  0.5420   81.5   1.083   -1.9  0.4698   31.5  0.2740 -134.6
 5.300  0.5498   80.5   1.064   -3.3  0.4788   30.2  0.2731 -139.4
 5.400  0.5578   79.4   1.046   -4.7  0.4880   28.9  0.2741 -144.2
 5.500  0.5660   78.4   1.028   -6.2  0.4974   27.6  0.2771 -149.0
 5.600  0.5735   77.3   1.010   -7.4  0.5036   26.0  0.2729 -153.4
 5.700  0.5812   76.2   0.992   -8.7  0.5103   24.5  0.2704 -158.0
 5.800  0.5890   75.1   0.975  -10.0  0.5172   23.0  0.2696 -162.6
 5.900  0.5971   74.1   0.958  -11.4  0.5245   21.5  0.2705 -167.2
 6.000  0.6054   73.1   0.942  -12.8  0.5322   20.1  0.2732 -171.7
!
!  f       NFmin   Gammaopt  rn/50
! GHz       dB    MAG  ANG    -
!
! noise parameter not available yet for this operation point!
!
! (c) 2015  Infineon Technologies AG, Munich
