! Infineon Technologies  Discrete & RF Semiconductors
! BFR106
! VCE = 0.50 V,  IC =  70 mA
! Common Emitter S-Parameters:                            Nov 2015
# GHz  S  MA  R  50
!  f         S11            S21            S12            S22
! GHz     MAG   ANG      MAG   ANG      MAG   ANG      MAG   ANG
 0.010  0.5473 -138.6  29.266  136.7  0.0127   49.3  0.4163 -117.2
 0.015  0.6170 -148.4  23.618  129.3  0.0147   44.1  0.4632 -131.8
 0.020  0.7009 -156.0  18.600  117.6  0.0168   40.2  0.5339 -143.1
 0.025  0.7084 -158.6  16.810  116.2  0.0177   40.6  0.5368 -147.0
 0.030  0.7174 -161.2  15.032  114.5  0.0186   41.0  0.5422 -150.9
 0.035  0.7278 -163.6  13.270  112.4  0.0195   41.4  0.5499 -154.6
 0.040  0.7394 -166.0  11.533  109.6  0.0205   41.7  0.5600 -158.3
 0.045  0.7524 -168.4   9.833  105.8  0.0214   42.0  0.5722 -161.8
 0.050  0.7665 -170.6   8.193  100.5  0.0223   42.3  0.5865 -165.1
 0.055  0.7678 -171.4   7.787  100.1  0.0232   43.8  0.5867 -166.1
 0.060  0.7693 -172.1   7.382   99.6  0.0240   45.2  0.5871 -167.1
 0.065  0.7709 -172.9   6.977   99.0  0.0249   46.4  0.5876 -168.0
 0.070  0.7727 -173.7   6.573   98.4  0.0258   47.6  0.5883 -169.0
 0.075  0.7745 -174.4   6.170   97.7  0.0267   48.7  0.5892 -170.0
 0.080  0.7766 -175.2   5.768   96.9  0.0276   49.8  0.5902 -171.0
 0.085  0.7787 -176.0   5.367   96.0  0.0285   50.7  0.5914 -171.9
 0.090  0.7810 -176.7   4.968   94.9  0.0294   51.6  0.5928 -172.9
 0.095  0.7834 -177.5   4.571   93.7  0.0304   52.5  0.5944 -173.8
 0.100  0.7860 -178.2   4.176   92.2  0.0313   53.3  0.5961 -174.8
 0.105  0.7862 -178.5   4.039   91.9  0.0323   54.2  0.5967 -175.1
 0.110  0.7864 -178.9   3.902   91.6  0.0332   55.0  0.5974 -175.5
 0.115  0.7866 -179.2   3.765   91.3  0.0342   55.8  0.5981 -175.8
 0.120  0.7869 -179.5   3.628   90.9  0.0352   56.5  0.5988 -176.1
 0.125  0.7872 -179.9   3.491   90.6  0.0361   57.2  0.5995 -176.5
 0.130  0.7875  179.8   3.354   90.1  0.0371   57.9  0.6002 -176.8
 0.135  0.7878  179.5   3.218   89.7  0.0381   58.5  0.6010 -177.1
 0.140  0.7882  179.2   3.082   89.2  0.0391   59.1  0.6018 -177.4
 0.145  0.7886  178.8   2.946   88.7  0.0401   59.7  0.6026 -177.8
 0.150  0.7890  178.5   2.810   88.1  0.0411   60.2  0.6034 -178.1
 0.155  0.7889  178.2   2.742   87.9  0.0422   60.7  0.6026 -178.4
 0.160  0.7889  178.0   2.674   87.6  0.0432   61.1  0.6019 -178.6
 0.165  0.7888  177.7   2.607   87.3  0.0443   61.6  0.6012 -178.9
 0.170  0.7888  177.5   2.539   87.1  0.0454   62.0  0.6005 -179.1
 0.175  0.7888  177.2   2.472   86.8  0.0464   62.4  0.5997 -179.4
 0.180  0.7888  176.9   2.404   86.4  0.0475   62.8  0.5991 -179.7
 0.185  0.7888  176.7   2.337   86.1  0.0486   63.1  0.5984 -179.9
 0.190  0.7889  176.4   2.269   85.8  0.0496   63.5  0.5977  179.8
 0.195  0.7889  176.2   2.202   85.4  0.0507   63.8  0.5970  179.6
 0.200  0.7890  175.9   2.135   85.0  0.0518   64.1  0.5964  179.3
 0.220  0.7882  175.0   1.968   84.1  0.0560   65.0  0.5974  178.4
 0.240  0.7875  174.1   1.802   83.1  0.0603   65.8  0.5986  177.5
 0.260  0.7871  173.2   1.666   82.1  0.0646   66.4  0.5992  176.7
 0.280  0.7868  172.5   1.561   81.3  0.0691   66.8  0.5991  176.2
 0.300  0.7866  171.8   1.456   80.4  0.0735   67.1  0.5991  175.6
 0.320  0.7869  171.0   1.391   79.7  0.0778   67.3  0.5990  175.0
 0.340  0.7874  170.2   1.327   78.9  0.0821   67.4  0.5990  174.4
 0.360  0.7880  169.5   1.263   78.0  0.0864   67.6  0.5990  173.9
 0.380  0.7888  168.7   1.199   77.1  0.0907   67.7  0.5991  173.3
 0.400  0.7897  167.9   1.136   76.0  0.0950   67.8  0.5992  172.7
 0.420  0.7899  167.3   1.098   75.3  0.0993   67.7  0.5987  172.2
 0.440  0.7902  166.6   1.061   74.6  0.1035   67.5  0.5983  171.6
 0.450  0.7903  166.3   1.042   74.3  0.1056   67.5  0.5981  171.4
 0.460  0.7905  166.0   1.024   73.9  0.1078   67.4  0.5980  171.1
 0.480  0.7910  165.3   0.987   73.1  0.1120   67.3  0.5977  170.5
 0.500  0.7916  164.7   0.950   72.2  0.1163   67.2  0.5974  170.0
 0.520  0.7904  163.9   0.925   71.5  0.1206   66.9  0.5968  169.6
 0.540  0.7893  163.1   0.901   70.7  0.1248   66.7  0.5963  169.1
 0.560  0.7884  162.2   0.876   69.9  0.1291   66.4  0.5957  168.7
 0.580  0.7877  161.4   0.852   69.1  0.1333   66.2  0.5952  168.2
 0.600  0.7871  160.6   0.828   68.2  0.1376   66.0  0.5948  167.8
 0.620  0.7865  159.9   0.812   67.5  0.1419   65.7  0.5954  167.4
 0.640  0.7860  159.3   0.796   66.7  0.1461   65.4  0.5960  166.9
 0.660  0.7856  158.6   0.780   66.0  0.1504   65.2  0.5966  166.5
 0.680  0.7853  158.0   0.764   65.1  0.1546   64.9  0.5973  166.0
 0.700  0.7851  157.3   0.749   64.3  0.1589   64.7  0.5980  165.6
 0.720  0.7854  156.7   0.737   63.7  0.1630   64.3  0.5980  165.1
 0.740  0.7858  156.1   0.725   63.1  0.1671   63.9  0.5981  164.6
 0.760  0.7863  155.5   0.713   62.5  0.1712   63.5  0.5983  164.1
 0.780  0.7869  154.9   0.702   61.9  0.1753   63.1  0.5985  163.6
 0.800  0.7876  154.3   0.690   61.2  0.1794   62.8  0.5987  163.1
 0.820  0.7862  153.7   0.682   60.6  0.1836   62.4  0.5985  162.6
 0.840  0.7849  153.0   0.675   60.0  0.1879   62.0  0.5984  162.1
 0.860  0.7837  152.4   0.668   59.4  0.1921   61.6  0.5983  161.7
 0.880  0.7826  151.7   0.660   58.7  0.1963   61.2  0.5983  161.2
 0.900  0.7816  151.1   0.653   58.1  0.2006   60.9  0.5983  160.7
 0.920  0.7811  150.4   0.647   57.5  0.2045   60.5  0.5985  160.3
 0.940  0.7808  149.6   0.641   56.9  0.2084   60.1  0.5988  159.9
 0.960  0.7806  148.9   0.635   56.3  0.2123   59.7  0.5991  159.5
 0.980  0.7805  148.1   0.630   55.7  0.2162   59.4  0.5994  159.1
 1.000  0.7806  147.4   0.624   55.1  0.2201   59.0  0.5997  158.7
 1.020  0.7805  146.8   0.619   54.5  0.2239   58.6  0.6000  158.3
 1.040  0.7805  146.2   0.615   53.8  0.2276   58.2  0.6004  157.9
 1.060  0.7806  145.5   0.610   53.2  0.2314   57.8  0.6007  157.4
 1.080  0.7807  144.9   0.605   52.6  0.2352   57.4  0.6012  157.0
 1.100  0.7810  144.3   0.601   51.9  0.2390   57.0  0.6016  156.6
 1.120  0.7809  143.6   0.598   51.3  0.2426   56.6  0.6014  156.1
 1.140  0.7809  143.0   0.596   50.8  0.2461   56.1  0.6013  155.6
 1.160  0.7810  142.3   0.593   50.2  0.2497   55.7  0.6012  155.2
 1.180  0.7813  141.7   0.590   49.7  0.2533   55.3  0.6012  154.7
 1.200  0.7816  141.0   0.588   49.1  0.2569   54.9  0.6012  154.2
 1.220  0.7803  140.4   0.585   48.6  0.2606   54.4  0.6013  153.7
 1.240  0.7792  139.8   0.583   48.1  0.2643   53.9  0.6015  153.2
 1.260  0.7781  139.2   0.580   47.6  0.2681   53.5  0.6017  152.8
 1.280  0.7771  138.6   0.578   47.1  0.2718   53.0  0.6020  152.3
 1.300  0.7762  138.0   0.575   46.6  0.2756   52.6  0.6023  151.8
 1.320  0.7779  137.4   0.573   46.2  0.2790   52.2  0.6025  151.4
 1.340  0.7797  136.9   0.571   45.8  0.2824   51.7  0.6027  151.0
 1.360  0.7816  136.3   0.568   45.5  0.2858   51.3  0.6029  150.6
 1.380  0.7835  135.8   0.566   45.1  0.2892   50.9  0.6031  150.2
 1.400  0.7855  135.2   0.564   44.7  0.2926   50.5  0.6034  149.8
 1.420  0.7837  134.7   0.564   44.1  0.2959   50.1  0.6037  149.4
 1.440  0.7819  134.1   0.565   43.5  0.2993   49.7  0.6041  149.0
 1.460  0.7803  133.6   0.565   42.8  0.3026   49.3  0.6045  148.6
 1.480  0.7786  133.0   0.565   42.2  0.3060   48.9  0.6049  148.2
 1.500  0.7771  132.5   0.566   41.6  0.3094   48.5  0.6054  147.8
 1.520  0.7774  131.9   0.563   41.2  0.3124   48.1  0.6058  147.4
 1.540  0.7777  131.3   0.560   40.7  0.3155   47.6  0.6062  147.0
 1.560  0.7781  130.8   0.557   40.3  0.3185   47.2  0.6067  146.5
 1.580  0.7786  130.2   0.554   39.8  0.3216   46.8  0.6072  146.1
 1.600  0.7792  129.6   0.551   39.4  0.3247   46.4  0.6077  145.7
 1.620  0.7785  129.0   0.550   38.9  0.3275   46.0  0.6079  145.2
 1.640  0.7779  128.4   0.549   38.4  0.3304   45.5  0.6081  144.7
 1.660  0.7773  127.8   0.548   37.9  0.3332   45.1  0.6083  144.3
 1.680  0.7769  127.2   0.548   37.4  0.3361   44.7  0.6086  143.8
 1.700  0.7765  126.6   0.547   36.9  0.3390   44.3  0.6089  143.3
 1.720  0.7774  126.1   0.548   36.6  0.3417   43.9  0.6084  142.9
 1.740  0.7784  125.6   0.549   36.2  0.3445   43.4  0.6080  142.5
 1.760  0.7794  125.1   0.549   35.9  0.3472   43.0  0.6076  142.1
 1.780  0.7805  124.6   0.550   35.5  0.3500   42.6  0.6072  141.7
 1.800  0.7816  124.1   0.551   35.2  0.3528   42.2  0.6069  141.3
 1.820  0.7804  123.5   0.551   34.8  0.3555   41.8  0.6075  140.9
 1.840  0.7792  122.9   0.550   34.4  0.3582   41.3  0.6082  140.5
 1.860  0.7781  122.4   0.550   33.9  0.3610   40.9  0.6089  140.2
 1.880  0.7771  121.8   0.549   33.5  0.3637   40.5  0.6096  139.8
 1.900  0.7762  121.2   0.549   33.1  0.3665   40.1  0.6103  139.4
 1.920  0.7752  120.7   0.548   32.7  0.3690   39.7  0.6113  139.0
 1.940  0.7742  120.2   0.547   32.3  0.3715   39.2  0.6124  138.5
 1.960  0.7732  119.8   0.547   31.9  0.3741   38.8  0.6135  138.1
 1.980  0.7723  119.3   0.546   31.5  0.3766   38.4  0.6146  137.6
 2.000  0.7715  118.8   0.545   31.1  0.3792   38.0  0.6158  137.2
 2.020  0.7713  118.3   0.544   30.7  0.3815   37.6  0.6159  136.8
 2.040  0.7711  117.8   0.544   30.3  0.3838   37.2  0.6161  136.4
 2.060  0.7709  117.3   0.544   29.9  0.3861   36.8  0.6163  136.0
 2.080  0.7709  116.8   0.543   29.5  0.3885   36.4  0.6165  135.6
 2.100  0.7708  116.3   0.543   29.1  0.3909   36.0  0.6168  135.1
 2.120  0.7709  115.9   0.542   28.7  0.3933   35.6  0.6171  134.7
 2.140  0.7710  115.4   0.542   28.3  0.3957   35.2  0.6174  134.3
 2.160  0.7711  114.9   0.542   27.9  0.3981   34.8  0.6178  133.9
 2.180  0.7713  114.4   0.541   27.5  0.4005   34.5  0.6182  133.5
 2.200  0.7716  113.9   0.541   27.1  0.4030   34.1  0.6186  133.1
 2.220  0.7710  113.4   0.541   26.7  0.4050   33.7  0.6195  132.7
 2.240  0.7706  112.9   0.542   26.3  0.4070   33.3  0.6205  132.3
 2.260  0.7701  112.4   0.542   25.9  0.4090   32.9  0.6215  131.9
 2.280  0.7697  111.9   0.543   25.5  0.4110   32.5  0.6226  131.5
 2.300  0.7694  111.5   0.543   25.1  0.4131   32.1  0.6236  131.1
 2.320  0.7691  111.0   0.544   24.7  0.4151   31.7  0.6247  130.7
 2.340  0.7689  110.5   0.544   24.3  0.4172   31.3  0.6258  130.3
 2.360  0.7687  110.0   0.545   23.9  0.4193   30.9  0.6270  129.9
 2.380  0.7686  109.5   0.545   23.5  0.4215   30.6  0.6282  129.5
 2.400  0.7686  109.0   0.546   23.1  0.4236   30.2  0.6294  129.1
 2.420  0.7688  108.5   0.545   22.8  0.4251   29.8  0.6294  128.7
 2.440  0.7690  108.0   0.545   22.5  0.4267   29.4  0.6294  128.3
 2.460  0.7693  107.6   0.544   22.2  0.4283   29.1  0.6295  128.0
 2.480  0.7696  107.1   0.544   21.9  0.4299   28.7  0.6296  127.6
 2.500  0.7700  106.6   0.543   21.6  0.4315   28.3  0.6297  127.2
 2.520  0.7705  106.1   0.543   21.3  0.4332   27.9  0.6298  126.8
 2.540  0.7710  105.6   0.542   21.0  0.4348   27.6  0.6300  126.4
 2.560  0.7715  105.2   0.542   20.7  0.4365   27.2  0.6302  126.1
 2.580  0.7721  104.7   0.541   20.4  0.4382   26.9  0.6304  125.7
 2.600  0.7728  104.2   0.541   20.1  0.4399   26.5  0.6307  125.3
 2.620  0.7727  103.8   0.541   19.8  0.4413   26.1  0.6317  124.9
 2.640  0.7727  103.4   0.541   19.5  0.4426   25.8  0.6327  124.6
 2.660  0.7727  103.0   0.541   19.1  0.4440   25.4  0.6337  124.2
 2.680  0.7727  102.6   0.542   18.8  0.4455   25.1  0.6348  123.8
 2.700  0.7728  102.1   0.542   18.5  0.4469   24.7  0.6358  123.5
 2.720  0.7729  101.7   0.542   18.2  0.4483   24.4  0.6369  123.1
 2.740  0.7731  101.3   0.542   17.9  0.4498   24.0  0.6381  122.8
 2.760  0.7733  100.9   0.542   17.5  0.4513   23.7  0.6392  122.4
 2.780  0.7735  100.5   0.543   17.2  0.4528   23.3  0.6404  122.1
 2.800  0.7738  100.1   0.543   16.9  0.4543   23.0  0.6416  121.7
 2.820  0.7738   99.7   0.543   16.6  0.4555   22.6  0.6420  121.3
 2.840  0.7739   99.4   0.542   16.3  0.4568   22.3  0.6424  121.0
 2.860  0.7740   99.0   0.542   15.9  0.4580   21.9  0.6429  120.6
 2.880  0.7741   98.6   0.541   15.6  0.4593   21.5  0.6434  120.2
 2.900  0.7742   98.2   0.541   15.3  0.4606   21.2  0.6439  119.8
 2.920  0.7744   97.9   0.540   15.0  0.4619   20.8  0.6444  119.5
 2.940  0.7747   97.5   0.540   14.7  0.4633   20.5  0.6450  119.1
 2.960  0.7749   97.1   0.540   14.3  0.4646   20.1  0.6455  118.7
 2.980  0.7752   96.8   0.539   14.0  0.4660   19.8  0.6462  118.4
 3.000  0.7755   96.4   0.539   13.7  0.4674   19.4  0.6468  118.0
 3.100  0.7749   94.7   0.538   12.3  0.4713   17.9  0.6503  116.4
 3.200  0.7749   93.0   0.537   11.0  0.4756   16.4  0.6543  114.8
 3.300  0.7757   91.3   0.537    9.6  0.4801   14.9  0.6588  113.3
 3.400  0.7770   89.7   0.537    8.3  0.4850   13.4  0.6638  111.7
 3.500  0.7791   88.0   0.537    6.9  0.4902   12.0  0.6692  110.2
 3.600  0.7796   86.7   0.536    5.8  0.4920   10.6  0.6729  108.7
 3.700  0.7806   85.3   0.534    4.8  0.4940    9.2  0.6770  107.2
 3.800  0.7820   84.0   0.533    3.7  0.4964    7.8  0.6816  105.7
 3.900  0.7838   82.6   0.533    2.7  0.4990    6.5  0.6867  104.2
 4.000  0.7861   81.3   0.532    1.6  0.5019    5.1  0.6922  102.8
 4.100  0.7849   80.1   0.531    0.6  0.5021    3.9  0.6920  101.5
 4.200  0.7841   78.9   0.530   -0.5  0.5025    2.8  0.6921  100.1
 4.300  0.7835   77.8   0.529   -1.5  0.5031    1.6  0.6927   98.8
 4.400  0.7834   76.6   0.528   -2.6  0.5040    0.5  0.6936   97.4
 4.500  0.7835   75.4   0.528   -3.6  0.5050   -0.7  0.6949   96.1
 4.600  0.7838   74.4   0.527   -4.5  0.5054   -1.7  0.6944   94.9
 4.700  0.7843   73.4   0.527   -5.4  0.5060   -2.6  0.6941   93.8
 4.800  0.7851   72.4   0.526   -6.4  0.5067   -3.6  0.6941   92.6
 4.900  0.7861   71.4   0.526   -7.3  0.5075   -4.5  0.6944   91.5
 5.000  0.7874   70.4   0.526   -8.2  0.5085   -5.5  0.6950   90.3
 5.100  0.7844   69.5   0.527   -8.5  0.5113   -6.0  0.6919   90.2
 5.200  0.7815   68.6   0.528   -8.8  0.5142   -6.4  0.6887   90.1
 5.300  0.7789   67.7   0.530   -9.1  0.5171   -6.9  0.6856   90.0
 5.400  0.7764   66.7   0.531   -9.4  0.5200   -7.4  0.6824   89.9
 5.500  0.7742   65.8   0.532   -9.7  0.5230   -7.8  0.6793   89.8
 5.600  0.7739   65.1   0.533  -10.7  0.5252   -9.0  0.6855   88.6
 5.700  0.7738   64.4   0.534  -11.7  0.5276  -10.1  0.6919   87.5
 5.800  0.7738   63.6   0.535  -12.7  0.5302  -11.3  0.6986   86.3
 5.900  0.7739   62.9   0.536  -13.7  0.5330  -12.4  0.7056   85.2
 6.000  0.7741   62.2   0.538  -14.7  0.5360  -13.5  0.7129   84.1
!
!  f       NFmin   Gammaopt  rn/50
! GHz       dB    MAG  ANG    -
!
! noise parameter not available yet for this operation point!
!
! (c) 2015  Infineon Technologies AG, Munich
