! Infineon Technologies  Discrete & RF Semiconductors
! BFR182W
! VCE =  8.0 V,  IC =  7.0 mA
! Common Emitter S-Parameters:                            Nov 2015
# GHz  S  MA  R  50
!  f         S11            S21            S12            S22
! GHz     MAG   ANG      MAG   ANG      MAG   ANG      MAG   ANG
 0.100  0.7585  -29.5  17.808  157.6  0.0187   75.7  0.9304  -13.9
 0.105  0.7517  -30.8  17.664  156.7  0.0195   74.9  0.9247  -14.4
 0.110  0.7453  -32.0  17.524  155.8  0.0203   74.2  0.9191  -14.9
 0.115  0.7393  -33.3  17.389  154.8  0.0210   73.6  0.9136  -15.5
 0.120  0.7336  -34.7  17.258  153.9  0.0218   73.0  0.9081  -16.0
 0.125  0.7284  -36.0  17.133  152.9  0.0226   72.4  0.9027  -16.5
 0.130  0.7235  -37.4  17.012  151.9  0.0234   71.9  0.8975  -17.1
 0.135  0.7191  -38.8  16.896  151.0  0.0242   71.4  0.8922  -17.6
 0.140  0.7151  -40.2  16.785  149.9  0.0250   70.9  0.8871  -18.2
 0.145  0.7115  -41.6  16.680  148.9  0.0258   70.5  0.8821  -18.7
 0.150  0.7084  -43.0  16.580  147.9  0.0266   70.1  0.8771  -19.3
 0.155  0.7022  -44.1  16.434  147.1  0.0272   69.6  0.8710  -19.7
 0.160  0.6963  -45.2  16.291  146.3  0.0278   69.1  0.8650  -20.1
 0.165  0.6906  -46.4  16.151  145.5  0.0284   68.6  0.8590  -20.5
 0.170  0.6852  -47.5  16.015  144.7  0.0290   68.2  0.8530  -20.9
 0.175  0.6801  -48.7  15.882  143.9  0.0296   67.7  0.8471  -21.4
 0.180  0.6753  -49.9  15.752  143.0  0.0302   67.3  0.8412  -21.8
 0.185  0.6707  -51.1  15.626  142.2  0.0308   66.9  0.8354  -22.2
 0.190  0.6665  -52.3  15.503  141.3  0.0314   66.5  0.8297  -22.7
 0.195  0.6626  -53.5  15.384  140.4  0.0320   66.2  0.8240  -23.1
 0.200  0.6590  -54.8  15.269  139.5  0.0326   65.8  0.8183  -23.6
 0.220  0.6366  -58.9  14.715  136.8  0.0349   64.2  0.7951  -24.9
 0.240  0.6176  -63.3  14.196  133.9  0.0371   62.7  0.7722  -26.2
 0.260  0.5999  -67.3  13.690  131.3  0.0391   61.6  0.7511  -27.3
 0.280  0.5822  -70.8  13.184  128.9  0.0406   60.8  0.7315  -28.2
 0.300  0.5668  -74.6  12.702  126.4  0.0422   60.0  0.7120  -29.2
 0.320  0.5487  -77.6  12.264  124.7  0.0436   59.5  0.6956  -29.7
 0.340  0.5322  -80.8  11.838  122.9  0.0449   59.0  0.6792  -30.2
 0.360  0.5175  -84.1  11.426  120.9  0.0463   58.5  0.6628  -30.7
 0.380  0.5046  -87.7  11.027  118.8  0.0476   58.1  0.6465  -31.2
 0.400  0.4938  -91.4  10.645  116.5  0.0490   57.7  0.6303  -31.8
 0.420  0.4822  -93.7  10.315  115.3  0.0502   57.5  0.6188  -32.0
 0.440  0.4714  -96.2   9.991  113.9  0.0513   57.3  0.6072  -32.3
 0.450  0.4663  -97.5   9.831  113.2  0.0519   57.2  0.6015  -32.4
 0.460  0.4615  -98.8   9.672  112.5  0.0525   57.1  0.5957  -32.5
 0.480  0.4526 -101.4   9.360  111.0  0.0536   57.0  0.5842  -32.8
 0.500  0.4447 -104.2   9.054  109.4  0.0548   56.8  0.5727  -33.1
 0.520  0.4363 -106.3   8.803  108.4  0.0559   56.8  0.5643  -33.2
 0.540  0.4285 -108.5   8.555  107.3  0.0570   56.7  0.5559  -33.3
 0.560  0.4213 -110.8   8.310  106.1  0.0581   56.7  0.5475  -33.4
 0.580  0.4149 -113.1   8.069  104.9  0.0592   56.6  0.5391  -33.5
 0.600  0.4091 -115.5   7.832  103.6  0.0603   56.6  0.5307  -33.6
 0.620  0.4035 -117.3   7.633  102.7  0.0613   56.8  0.5248  -33.6
 0.640  0.3983 -119.1   7.435  101.8  0.0623   57.0  0.5189  -33.6
 0.660  0.3936 -121.0   7.240  100.8  0.0633   57.2  0.5130  -33.7
 0.680  0.3893 -122.9   7.047   99.7  0.0643   57.4  0.5071  -33.7
 0.700  0.3854 -124.9   6.857   98.6  0.0653   57.6  0.5012  -33.7
 0.720  0.3817 -126.6   6.707   97.9  0.0663   57.8  0.4967  -33.8
 0.740  0.3784 -128.3   6.559   97.1  0.0673   57.9  0.4921  -33.8
 0.760  0.3754 -130.0   6.411   96.3  0.0684   58.1  0.4876  -33.9
 0.780  0.3728 -131.8   6.265   95.4  0.0694   58.2  0.4830  -33.9
 0.800  0.3705 -133.6   6.121   94.5  0.0704   58.4  0.4785  -34.0
 0.820  0.3663 -135.0   5.993   93.9  0.0715   58.5  0.4751  -34.0
 0.840  0.3623 -136.4   5.866   93.2  0.0726   58.7  0.4717  -34.0
 0.860  0.3585 -137.8   5.740   92.5  0.0736   58.8  0.4683  -34.0
 0.880  0.3549 -139.3   5.615   91.8  0.0747   59.0  0.4649  -34.0
 0.900  0.3516 -140.8   5.491   91.0  0.0758   59.1  0.4615  -34.0
 0.920  0.3512 -142.2   5.394   90.4  0.0768   59.3  0.4590  -34.1
 0.940  0.3509 -143.6   5.297   89.8  0.0779   59.5  0.4565  -34.2
 0.960  0.3509 -144.9   5.201   89.2  0.0789   59.7  0.4539  -34.2
 0.980  0.3510 -146.3   5.106   88.5  0.0800   59.9  0.4514  -34.3
 1.000  0.3514 -147.7   5.011   87.8  0.0810   60.1  0.4489  -34.4
 1.020  0.3493 -148.8   4.931   87.3  0.0821   60.3  0.4469  -34.5
 1.040  0.3474 -149.8   4.852   86.8  0.0832   60.4  0.4448  -34.5
 1.060  0.3456 -150.9   4.773   86.3  0.0842   60.6  0.4428  -34.6
 1.080  0.3439 -152.0   4.694   85.7  0.0853   60.7  0.4408  -34.7
 1.100  0.3423 -153.1   4.616   85.2  0.0864   60.8  0.4387  -34.7
 1.120  0.3409 -154.2   4.539   84.6  0.0875   61.0  0.4367  -34.8
 1.140  0.3396 -155.4   4.461   84.0  0.0886   61.1  0.4347  -34.9
 1.160  0.3384 -156.5   4.385   83.4  0.0896   61.2  0.4327  -35.0
 1.180  0.3374 -157.7   4.309   82.8  0.0907   61.4  0.4306  -35.0
 1.200  0.3365 -158.8   4.233   82.1  0.0918   61.5  0.4286  -35.1
 1.220  0.3360 -159.7   4.176   81.7  0.0929   61.6  0.4274  -35.2
 1.240  0.3356 -160.6   4.119   81.2  0.0940   61.8  0.4262  -35.3
 1.260  0.3352 -161.5   4.062   80.7  0.0950   61.9  0.4250  -35.4
 1.280  0.3350 -162.4   4.006   80.3  0.0961   62.1  0.4238  -35.5
 1.300  0.3348 -163.3   3.950   79.8  0.0972   62.2  0.4226  -35.6
 1.320  0.3347 -164.2   3.894   79.3  0.0983   62.3  0.4214  -35.7
 1.340  0.3347 -165.1   3.838   78.8  0.0994   62.4  0.4202  -35.8
 1.360  0.3348 -166.0   3.783   78.2  0.1004   62.6  0.4190  -35.9
 1.380  0.3350 -166.9   3.728   77.7  0.1015   62.7  0.4178  -36.0
 1.400  0.3352 -167.8   3.674   77.1  0.1026   62.8  0.4166  -36.1
 1.420  0.3348 -168.6   3.629   76.6  0.1038   62.9  0.4157  -36.3
 1.440  0.3344 -169.4   3.584   76.2  0.1050   63.0  0.4147  -36.5
 1.460  0.3341 -170.1   3.539   75.7  0.1062   63.2  0.4138  -36.6
 1.480  0.3339 -170.9   3.495   75.2  0.1074   63.3  0.4129  -36.8
 1.500  0.3337 -171.7   3.451   74.7  0.1086   63.4  0.4120  -37.0
 1.520  0.3333 -172.5   3.412   74.3  0.1098   63.5  0.4113  -37.1
 1.540  0.3329 -173.2   3.372   73.8  0.1109   63.6  0.4106  -37.2
 1.560  0.3326 -174.0   3.333   73.4  0.1121   63.6  0.4098  -37.2
 1.580  0.3323 -174.7   3.295   72.9  0.1132   63.7  0.4091  -37.3
 1.600  0.3321 -175.5   3.256   72.4  0.1144   63.8  0.4084  -37.4
 1.620  0.3326 -176.1   3.222   72.0  0.1156   63.9  0.4078  -37.6
 1.640  0.3331 -176.8   3.189   71.7  0.1168   64.0  0.4072  -37.7
 1.660  0.3337 -177.4   3.155   71.3  0.1179   64.1  0.4066  -37.9
 1.680  0.3343 -178.0   3.122   70.9  0.1191   64.2  0.4060  -38.1
 1.700  0.3349 -178.7   3.089   70.5  0.1203   64.3  0.4055  -38.2
 1.720  0.3356 -179.3   3.056   70.1  0.1215   64.4  0.4049  -38.4
 1.740  0.3363 -179.9   3.023   69.7  0.1227   64.4  0.4043  -38.6
 1.760  0.3371  179.4   2.991   69.3  0.1238   64.5  0.4037  -38.8
 1.780  0.3379  178.8   2.958   68.8  0.1250   64.6  0.4032  -38.9
 1.800  0.3387  178.2   2.926   68.4  0.1262   64.7  0.4026  -39.1
 1.820  0.3387  177.5   2.899   68.0  0.1274   64.8  0.4023  -39.3
 1.840  0.3387  176.8   2.872   67.7  0.1286   64.8  0.4021  -39.5
 1.860  0.3388  176.1   2.845   67.3  0.1298   64.9  0.4018  -39.7
 1.880  0.3390  175.3   2.818   66.9  0.1310   64.9  0.4015  -39.9
 1.900  0.3392  174.6   2.791   66.5  0.1322   65.0  0.4013  -40.1
 1.920  0.3395  173.9   2.764   66.1  0.1334   65.0  0.4010  -40.4
 1.940  0.3398  173.2   2.738   65.7  0.1346   65.1  0.4008  -40.6
 1.960  0.3401  172.5   2.711   65.3  0.1358   65.1  0.4006  -40.8
 1.980  0.3405  171.8   2.685   64.8  0.1370   65.2  0.4003  -41.0
 2.000  0.3410  171.1   2.659   64.4  0.1382   65.2  0.4001  -41.2
 2.020  0.3409  170.6   2.637   64.0  0.1394   65.2  0.4002  -41.4
 2.040  0.3409  170.1   2.615   63.7  0.1406   65.2  0.4003  -41.6
 2.060  0.3409  169.6   2.593   63.3  0.1419   65.3  0.4004  -41.8
 2.080  0.3409  169.1   2.571   63.0  0.1431   65.3  0.4005  -42.0
 2.100  0.3410  168.5   2.550   62.6  0.1443   65.3  0.4006  -42.3
 2.120  0.3410  168.0   2.528   62.2  0.1455   65.3  0.4007  -42.5
 2.140  0.3411  167.5   2.507   61.8  0.1467   65.3  0.4008  -42.7
 2.160  0.3413  167.0   2.485   61.4  0.1480   65.4  0.4009  -42.9
 2.180  0.3414  166.5   2.464   61.0  0.1492   65.4  0.4011  -43.1
 2.200  0.3416  166.0   2.443   60.6  0.1504   65.4  0.4012  -43.3
 2.220  0.3420  165.6   2.426   60.3  0.1517   65.4  0.4012  -43.6
 2.240  0.3424  165.1   2.408   60.0  0.1530   65.4  0.4012  -43.8
 2.260  0.3429  164.7   2.391   59.6  0.1544   65.5  0.4012  -44.1
 2.280  0.3433  164.3   2.374   59.3  0.1557   65.5  0.4012  -44.3
 2.300  0.3438  163.8   2.356   59.0  0.1570   65.5  0.4012  -44.6
 2.320  0.3443  163.4   2.339   58.6  0.1583   65.5  0.4012  -44.8
 2.340  0.3448  163.0   2.322   58.3  0.1596   65.5  0.4013  -45.1
 2.360  0.3454  162.5   2.306   57.9  0.1610   65.6  0.4013  -45.3
 2.380  0.3459  162.1   2.289   57.6  0.1623   65.6  0.4013  -45.6
 2.400  0.3465  161.7   2.272   57.2  0.1636   65.6  0.4014  -45.8
 2.420  0.3468  161.0   2.255   56.8  0.1649   65.6  0.4014  -45.9
 2.440  0.3472  160.4   2.237   56.4  0.1661   65.6  0.4014  -46.1
 2.460  0.3477  159.7   2.220   56.0  0.1674   65.6  0.4013  -46.2
 2.480  0.3482  159.1   2.203   55.6  0.1686   65.6  0.4013  -46.4
 2.500  0.3487  158.4   2.186   55.2  0.1699   65.6  0.4013  -46.5
 2.520  0.3493  158.0   2.173   54.9  0.1712   65.6  0.4013  -46.8
 2.540  0.3500  157.6   2.160   54.6  0.1726   65.6  0.4014  -47.1
 2.560  0.3506  157.1   2.147   54.4  0.1739   65.5  0.4014  -47.3
 2.580  0.3513  156.7   2.134   54.1  0.1753   65.5  0.4015  -47.6
 2.600  0.3520  156.3   2.121   53.8  0.1766   65.5  0.4016  -47.9
 2.620  0.3527  155.9   2.108   53.5  0.1779   65.5  0.4017  -48.2
 2.640  0.3534  155.5   2.096   53.2  0.1793   65.4  0.4018  -48.4
 2.660  0.3542  155.0   2.083   52.9  0.1806   65.4  0.4019  -48.7
 2.680  0.3550  154.6   2.070   52.6  0.1820   65.4  0.4020  -49.0
 2.700  0.3558  154.2   2.058   52.3  0.1833   65.4  0.4021  -49.3
 2.720  0.3566  153.8   2.045   51.9  0.1846   65.4  0.4023  -49.6
 2.740  0.3574  153.4   2.033   51.6  0.1860   65.3  0.4024  -49.8
 2.760  0.3582  153.0   2.020   51.3  0.1873   65.3  0.4025  -50.1
 2.780  0.3591  152.6   2.008   51.0  0.1887   65.3  0.4027  -50.4
 2.800  0.3600  152.2   1.996   50.6  0.1900   65.3  0.4029  -50.7
 2.820  0.3609  151.8   1.983   50.3  0.1913   65.3  0.4031  -50.9
 2.840  0.3618  151.4   1.971   50.0  0.1927   65.2  0.4032  -51.2
 2.860  0.3627  151.0   1.959   49.6  0.1940   65.2  0.4034  -51.5
 2.880  0.3637  150.6   1.947   49.3  0.1954   65.2  0.4037  -51.8
 2.900  0.3646  150.2   1.935   48.9  0.1967   65.2  0.4039  -52.0
 2.920  0.3656  149.8   1.924   48.6  0.1980   65.2  0.4041  -52.3
 2.940  0.3666  149.4   1.912   48.2  0.1994   65.2  0.4043  -52.6
 2.960  0.3676  149.1   1.900   47.8  0.2007   65.1  0.4046  -52.9
 2.980  0.3687  148.7   1.889   47.5  0.2021   65.1  0.4048  -53.1
 3.000  0.3697  148.3   1.877   47.1  0.2034   65.1  0.4051  -53.4
 3.100  0.3721  146.5   1.832   45.7  0.2109   64.8  0.4053  -54.9
 3.200  0.3749  144.7   1.788   44.3  0.2184   64.6  0.4058  -56.5
 3.300  0.3781  142.9   1.745   42.8  0.2259   64.3  0.4066  -58.0
 3.400  0.3816  141.1   1.703   41.2  0.2334   64.1  0.4076  -59.6
 3.500  0.3855  139.4   1.663   39.6  0.2409   63.9  0.4090  -61.1
 3.600  0.3920  137.4   1.629   38.2  0.2483   63.4  0.4090  -62.7
 3.700  0.3990  135.5   1.595   36.8  0.2557   62.9  0.4094  -64.3
 3.800  0.4064  133.6   1.563   35.3  0.2631   62.5  0.4101  -65.9
 3.900  0.4143  131.8   1.532   33.8  0.2706   62.1  0.4111  -67.5
 4.000  0.4225  130.1   1.502   32.2  0.2780   61.7  0.4124  -69.1
 4.100  0.4245  128.3   1.473   31.0  0.2853   61.1  0.4112  -71.0
 4.200  0.4270  126.6   1.444   29.8  0.2925   60.6  0.4104  -72.9
 4.300  0.4298  124.9   1.417   28.6  0.2998   60.1  0.4101  -74.8
 4.400  0.4330  123.2   1.389   27.3  0.3072   59.7  0.4102  -76.7
 4.500  0.4366  121.5   1.363   25.9  0.3145   59.2  0.4108  -78.6
 4.600  0.4422  120.2   1.342   24.7  0.3223   58.7  0.4096  -80.3
 4.700  0.4479  119.0   1.321   23.5  0.3301   58.2  0.4087  -82.0
 4.800  0.4539  117.7   1.301   22.2  0.3380   57.7  0.4083  -83.7
 4.900  0.4601  116.6   1.282   20.9  0.3459   57.2  0.4081  -85.5
 5.000  0.4665  115.4   1.263   19.5  0.3538   56.8  0.4084  -87.2
 5.100  0.4698  113.8   1.243   18.4  0.3622   56.2  0.4086  -88.8
 5.200  0.4735  112.3   1.224   17.4  0.3707   55.6  0.4092  -90.4
 5.300  0.4775  110.8   1.205   16.2  0.3792   55.1  0.4101  -92.0
 5.400  0.4818  109.3   1.186   15.1  0.3877   54.6  0.4113  -93.6
 5.500  0.4865  107.8   1.168   13.9  0.3963   54.1  0.4128  -95.2
 5.600  0.4897  106.5   1.151   13.0  0.4058   53.4  0.4137  -96.9
 5.700  0.4932  105.3   1.133   12.0  0.4153   52.7  0.4150  -98.5
 5.800  0.4969  104.0   1.117   11.0  0.4248   52.1  0.4166 -100.2
 5.900  0.5008  102.8   1.100   10.0  0.4344   51.5  0.4186 -101.8
 6.000  0.5050  101.6   1.084    8.9  0.4441   50.9  0.4209 -103.4
!
!  f       NFmin   Gammaopt  rn/50
! GHz       dB    MAG  ANG    -
 0.450      1.30  0.26   40   0.29
 0.900      1.45  0.25   81   0.23
 1.800      2.00  0.21  157   0.20
!
! (c) 2015  Infineon Technologies AG, Munich
