! Infineon Technologies  Discrete & RF Semiconductors
! BFR182
! VCE =  3.0 V,  IC =  4.0 mA
! Common Emitter S-Parameters:                            Nov 2015
# GHz  S  MA  R  50
!  f         S11            S21            S12            S22
! GHz     MAG   ANG      MAG   ANG      MAG   ANG      MAG   ANG
 0.010  0.8524   -2.2  12.164  178.1  0.0019   86.2  0.9920   -1.0
 0.015  0.8489   -3.3  12.011  177.0  0.0029   82.0  0.9890   -1.5
 0.020  0.8457   -4.5  11.863  175.9  0.0040   80.0  0.9861   -2.1
 0.025  0.8446   -5.6  11.879  175.0  0.0050   81.3  0.9856   -2.6
 0.030  0.8438   -6.7  11.898  174.0  0.0061   82.1  0.9851   -3.1
 0.035  0.8433   -7.7  11.921  173.1  0.0071   82.7  0.9847   -3.5
 0.040  0.8432   -8.8  11.946  172.2  0.0082   83.2  0.9844   -4.0
 0.045  0.8433   -9.9  11.975  171.2  0.0092   83.5  0.9841   -4.5
 0.050  0.8437  -11.0  12.007  170.3  0.0103   83.8  0.9839   -5.0
 0.055  0.8394  -12.1  11.967  169.4  0.0112   82.7  0.9813   -5.5
 0.060  0.8354  -13.1  11.930  168.5  0.0122   81.8  0.9788   -5.9
 0.065  0.8318  -14.2  11.896  167.6  0.0131   81.1  0.9763   -6.4
 0.070  0.8284  -15.3  11.864  166.8  0.0140   80.4  0.9740   -6.9
 0.075  0.8253  -16.4  11.836  165.9  0.0150   79.8  0.9716   -7.4
 0.080  0.8225  -17.5  11.810  164.9  0.0159   79.3  0.9694   -7.9
 0.085  0.8200  -18.6  11.788  164.0  0.0169   78.8  0.9672   -8.3
 0.090  0.8179  -19.7  11.768  163.1  0.0178   78.4  0.9651   -8.8
 0.095  0.8160  -20.9  11.752  162.2  0.0188   78.0  0.9631   -9.3
 0.100  0.8145  -22.0  11.738  161.3  0.0197   77.7  0.9611   -9.8
 0.105  0.8096  -22.9  11.656  160.4  0.0206   77.0  0.9572  -10.2
 0.110  0.8049  -23.8  11.576  159.5  0.0215   76.4  0.9533  -10.6
 0.115  0.8005  -24.7  11.500  158.6  0.0224   75.9  0.9494  -11.1
 0.120  0.7962  -25.7  11.426  157.7  0.0233   75.3  0.9457  -11.5
 0.125  0.7922  -26.6  11.356  156.7  0.0242   74.8  0.9419  -11.9
 0.130  0.7883  -27.6  11.288  155.8  0.0251   74.4  0.9383  -12.3
 0.135  0.7847  -28.6  11.224  154.8  0.0261   74.0  0.9346  -12.8
 0.140  0.7814  -29.5  11.163  153.9  0.0270   73.6  0.9311  -13.2
 0.145  0.7782  -30.5  11.105  152.9  0.0279   73.2  0.9276  -13.7
 0.150  0.7753  -31.5  11.050  151.9  0.0288   72.9  0.9241  -14.1
 0.155  0.7695  -32.4  10.992  151.2  0.0295   72.5  0.9200  -14.4
 0.160  0.7640  -33.4  10.936  150.4  0.0303   72.1  0.9160  -14.7
 0.165  0.7587  -34.3  10.881  149.6  0.0310   71.7  0.9120  -15.1
 0.170  0.7535  -35.3  10.829  148.9  0.0317   71.4  0.9081  -15.4
 0.175  0.7487  -36.3  10.778  148.1  0.0325   71.1  0.9041  -15.7
 0.180  0.7440  -37.3  10.730  147.3  0.0332   70.7  0.9002  -16.0
 0.185  0.7395  -38.3  10.684  146.5  0.0340   70.4  0.8963  -16.4
 0.190  0.7353  -39.3  10.639  145.7  0.0347   70.1  0.8925  -16.7
 0.195  0.7313  -40.4  10.597  144.9  0.0355   69.9  0.8887  -17.1
 0.200  0.7276  -41.4  10.557  144.1  0.0362   69.6  0.8849  -17.4
 0.220  0.7044  -44.7  10.249  141.3  0.0386   68.0  0.8677  -18.6
 0.240  0.6836  -48.3   9.967  138.3  0.0411   66.6  0.8509  -19.8
 0.260  0.6637  -51.5   9.673  135.7  0.0436   65.5  0.8351  -20.8
 0.280  0.6437  -54.4   9.356  133.4  0.0461   64.7  0.8199  -21.6
 0.300  0.6254  -57.5   9.055  130.9  0.0486   63.9  0.8049  -22.5
 0.320  0.6045  -59.9   8.800  129.1  0.0504   63.0  0.7914  -23.0
 0.340  0.5846  -62.4   8.553  127.2  0.0521   62.1  0.7780  -23.6
 0.360  0.5660  -65.1   8.316  125.2  0.0539   61.3  0.7646  -24.2
 0.380  0.5488  -68.0   8.090  123.1  0.0557   60.6  0.7514  -24.8
 0.400  0.5330  -71.1   7.876  120.9  0.0575   59.9  0.7382  -25.4
 0.420  0.5158  -73.2   7.645  119.3  0.0589   59.5  0.7268  -25.7
 0.440  0.4994  -75.4   7.420  117.7  0.0603   59.1  0.7154  -26.0
 0.450  0.4915  -76.6   7.311  116.8  0.0610   58.9  0.7097  -26.2
 0.460  0.4838  -77.8   7.202  115.9  0.0617   58.8  0.7040  -26.4
 0.480  0.4691  -80.4   6.992  114.0  0.0631   58.4  0.6926  -26.7
 0.500  0.4554  -83.1   6.789  112.0  0.0645   58.1  0.6813  -27.1
 0.520  0.4433  -85.0   6.620  110.8  0.0659   57.9  0.6730  -27.3
 0.540  0.4318  -87.0   6.454  109.6  0.0672   57.7  0.6647  -27.4
 0.560  0.4208  -89.1   6.291  108.3  0.0686   57.5  0.6564  -27.6
 0.580  0.4104  -91.4   6.131  106.9  0.0699   57.4  0.6481  -27.8
 0.600  0.4007  -93.7   5.975  105.5  0.0713   57.2  0.6398  -28.0
 0.620  0.3907  -95.4   5.837  104.5  0.0726   57.2  0.6341  -28.1
 0.640  0.3811  -97.1   5.702  103.4  0.0739   57.2  0.6283  -28.3
 0.660  0.3718  -98.9   5.568  102.2  0.0752   57.3  0.6226  -28.4
 0.680  0.3629 -100.9   5.437  101.1  0.0765   57.3  0.6168  -28.6
 0.700  0.3545 -102.9   5.308   99.8  0.0778   57.3  0.6111  -28.7
 0.720  0.3471 -104.8   5.193   98.9  0.0790   57.2  0.6065  -28.8
 0.740  0.3401 -106.7   5.079   97.9  0.0803   57.2  0.6019  -28.9
 0.760  0.3335 -108.8   4.966   96.8  0.0815   57.1  0.5973  -29.0
 0.780  0.3274 -110.9   4.856   95.7  0.0828   57.1  0.5927  -29.1
 0.800  0.3217 -113.1   4.747   94.6  0.0840   57.0  0.5881  -29.2
 0.820  0.3130 -114.6   4.658   93.7  0.0853   57.1  0.5846  -29.3
 0.840  0.3046 -116.2   4.571   92.8  0.0865   57.2  0.5811  -29.4
 0.860  0.2964 -117.9   4.484   91.9  0.0878   57.2  0.5776  -29.5
 0.880  0.2885 -119.7   4.399   90.9  0.0890   57.3  0.5741  -29.6
 0.900  0.2809 -121.6   4.315   89.9  0.0903   57.4  0.5706  -29.7
 0.920  0.2761 -123.3   4.242   89.2  0.0915   57.6  0.5674  -29.8
 0.940  0.2716 -125.1   4.170   88.4  0.0927   57.8  0.5643  -29.9
 0.960  0.2674 -127.0   4.099   87.6  0.0940   58.0  0.5611  -30.1
 0.980  0.2634 -128.9   4.029   86.8  0.0952   58.1  0.5580  -30.2
 1.000  0.2598 -130.9   3.959   86.0  0.0964   58.3  0.5548  -30.3
 1.020  0.2559 -132.7   3.899   85.3  0.0977   58.4  0.5524  -30.4
 1.040  0.2522 -134.6   3.839   84.6  0.0989   58.4  0.5499  -30.6
 1.060  0.2488 -136.5   3.780   83.9  0.1002   58.5  0.5475  -30.7
 1.080  0.2457 -138.5   3.722   83.2  0.1014   58.5  0.5450  -30.9
 1.100  0.2429 -140.5   3.664   82.4  0.1027   58.6  0.5426  -31.0
 1.120  0.2394 -142.3   3.609   81.7  0.1040   58.7  0.5407  -31.1
 1.140  0.2361 -144.1   3.554   81.0  0.1053   58.9  0.5388  -31.2
 1.160  0.2330 -145.9   3.500   80.3  0.1066   59.0  0.5369  -31.4
 1.180  0.2302 -147.8   3.446   79.6  0.1079   59.2  0.5350  -31.5
 1.200  0.2277 -149.8   3.393   78.8  0.1092   59.3  0.5331  -31.6
 1.220  0.2257 -151.2   3.343   78.2  0.1106   59.3  0.5315  -31.8
 1.240  0.2238 -152.7   3.294   77.7  0.1119   59.4  0.5299  -31.9
 1.260  0.2220 -154.2   3.246   77.1  0.1133   59.4  0.5283  -32.1
 1.280  0.2204 -155.7   3.197   76.4  0.1146   59.5  0.5267  -32.2
 1.300  0.2190 -157.2   3.149   75.8  0.1160   59.5  0.5251  -32.4
 1.320  0.2178 -158.9   3.107   75.2  0.1173   59.5  0.5237  -32.6
 1.340  0.2167 -160.7   3.066   74.6  0.1186   59.6  0.5224  -32.8
 1.360  0.2159 -162.4   3.025   74.0  0.1198   59.6  0.5211  -33.0
 1.380  0.2153 -164.2   2.984   73.4  0.1211   59.7  0.5197  -33.2
 1.400  0.2149 -166.0   2.944   72.7  0.1224   59.7  0.5184  -33.4
 1.420  0.2139 -167.4   2.912   72.2  0.1238   59.7  0.5172  -33.6
 1.440  0.2130 -168.9   2.881   71.6  0.1252   59.8  0.5160  -33.8
 1.460  0.2122 -170.3   2.850   71.1  0.1267   59.8  0.5148  -33.9
 1.480  0.2116 -171.8   2.819   70.5  0.1281   59.9  0.5137  -34.1
 1.500  0.2111 -173.3   2.788   69.9  0.1295   59.9  0.5125  -34.3
 1.520  0.2112 -174.9   2.755   69.3  0.1309   59.9  0.5114  -34.5
 1.540  0.2114 -176.6   2.722   68.7  0.1324   60.0  0.5104  -34.7
 1.560  0.2118 -178.2   2.690   68.0  0.1338   60.0  0.5093  -34.9
 1.580  0.2124 -179.8   2.658   67.4  0.1353   60.1  0.5082  -35.1
 1.600  0.2131  178.6   2.626   66.7  0.1367   60.1  0.5072  -35.3
 1.620  0.2127  176.9   2.600   66.2  0.1382   60.1  0.5059  -35.5
 1.640  0.2125  175.2   2.575   65.7  0.1397   60.1  0.5046  -35.7
 1.660  0.2125  173.4   2.549   65.1  0.1412   60.0  0.5033  -36.0
 1.680  0.2126  171.7   2.524   64.6  0.1427   60.0  0.5021  -36.2
 1.700  0.2130  170.0   2.499   64.0  0.1442   60.0  0.5008  -36.4
 1.720  0.2135  168.7   2.476   63.5  0.1458   60.0  0.4996  -36.6
 1.740  0.2142  167.5   2.454   63.0  0.1473   60.1  0.4984  -36.9
 1.760  0.2149  166.3   2.431   62.5  0.1489   60.1  0.4972  -37.1
 1.780  0.2158  165.0   2.409   62.0  0.1504   60.2  0.4961  -37.4
 1.800  0.2167  163.8   2.387   61.5  0.1520   60.2  0.4949  -37.6
 1.820  0.2181  162.6   2.367   61.0  0.1536   60.2  0.4938  -37.9
 1.840  0.2195  161.4   2.347   60.4  0.1552   60.2  0.4928  -38.1
 1.860  0.2210  160.2   2.328   59.9  0.1569   60.2  0.4917  -38.4
 1.880  0.2227  159.0   2.308   59.4  0.1585   60.2  0.4907  -38.6
 1.900  0.2244  157.9   2.289   58.8  0.1601   60.2  0.4897  -38.9
 1.920  0.2246  156.8   2.267   58.3  0.1617   60.2  0.4886  -39.2
 1.940  0.2249  155.6   2.246   57.9  0.1633   60.1  0.4875  -39.4
 1.960  0.2253  154.5   2.225   57.4  0.1649   60.1  0.4865  -39.7
 1.980  0.2258  153.4   2.204   56.9  0.1665   60.0  0.4854  -39.9
 2.000  0.2264  152.3   2.183   56.4  0.1681   60.0  0.4844  -40.2
 2.020  0.2279  151.2   2.165   55.9  0.1697   59.9  0.4834  -40.5
 2.040  0.2295  150.1   2.148   55.5  0.1713   59.9  0.4824  -40.8
 2.060  0.2312  149.0   2.130   55.0  0.1729   59.8  0.4814  -41.1
 2.080  0.2329  147.9   2.113   54.5  0.1745   59.7  0.4804  -41.4
 2.100  0.2347  146.9   2.096   54.0  0.1761   59.7  0.4794  -41.7
 2.120  0.2366  145.9   2.079   53.6  0.1777   59.6  0.4785  -42.0
 2.140  0.2386  144.8   2.062   53.1  0.1793   59.6  0.4775  -42.3
 2.160  0.2407  143.8   2.045   52.5  0.1809   59.5  0.4766  -42.6
 2.180  0.2428  142.9   2.028   52.0  0.1825   59.5  0.4757  -42.9
 2.200  0.2450  141.9   2.012   51.5  0.1841   59.4  0.4748  -43.2
 2.220  0.2464  141.0   1.999   51.0  0.1858   59.3  0.4734  -43.5
 2.240  0.2479  140.0   1.986   50.6  0.1876   59.3  0.4721  -43.8
 2.260  0.2494  139.1   1.972   50.1  0.1893   59.2  0.4707  -44.1
 2.280  0.2510  138.2   1.960   49.7  0.1911   59.1  0.4694  -44.4
 2.300  0.2527  137.4   1.947   49.2  0.1928   59.1  0.4680  -44.7
 2.320  0.2544  136.5   1.934   48.7  0.1946   59.0  0.4667  -45.0
 2.340  0.2562  135.6   1.922   48.2  0.1963   59.0  0.4654  -45.3
 2.360  0.2581  134.8   1.909   47.7  0.1981   58.9  0.4641  -45.6
 2.380  0.2599  133.9   1.897   47.2  0.1998   58.9  0.4629  -45.9
 2.400  0.2619  133.1   1.885   46.7  0.2016   58.8  0.4616  -46.2
 2.420  0.2641  132.3   1.872   46.3  0.2034   58.7  0.4603  -46.5
 2.440  0.2664  131.4   1.860   45.9  0.2052   58.6  0.4590  -46.9
 2.460  0.2687  130.6   1.847   45.5  0.2069   58.5  0.4577  -47.2
 2.480  0.2711  129.9   1.835   45.1  0.2087   58.3  0.4564  -47.6
 2.500  0.2735  129.1   1.822   44.7  0.2105   58.2  0.4551  -47.9
 2.520  0.2760  128.3   1.810   44.2  0.2123   58.1  0.4539  -48.3
 2.540  0.2785  127.6   1.798   43.8  0.2141   58.0  0.4527  -48.6
 2.560  0.2810  126.8   1.786   43.4  0.2158   57.9  0.4515  -49.0
 2.580  0.2836  126.1   1.774   42.9  0.2176   57.8  0.4503  -49.3
 2.600  0.2863  125.4   1.762   42.5  0.2194   57.7  0.4491  -49.7
 2.620  0.2881  124.7   1.752   42.1  0.2212   57.6  0.4477  -50.1
 2.640  0.2900  124.1   1.743   41.7  0.2230   57.5  0.4463  -50.4
 2.660  0.2919  123.4   1.733   41.3  0.2248   57.4  0.4449  -50.8
 2.680  0.2938  122.7   1.724   40.9  0.2266   57.3  0.4436  -51.2
 2.700  0.2958  122.1   1.715   40.5  0.2284   57.2  0.4422  -51.5
 2.720  0.2978  121.5   1.706   40.1  0.2303   57.1  0.4409  -51.9
 2.740  0.2998  120.8   1.697   39.7  0.2321   57.0  0.4396  -52.3
 2.760  0.3019  120.2   1.688   39.3  0.2339   56.9  0.4383  -52.6
 2.780  0.3040  119.6   1.679   38.8  0.2357   56.8  0.4370  -53.0
 2.800  0.3062  119.0   1.670   38.4  0.2375   56.7  0.4358  -53.4
 2.820  0.3085  118.5   1.660   38.0  0.2393   56.6  0.4343  -53.8
 2.840  0.3108  118.0   1.650   37.6  0.2412   56.4  0.4328  -54.2
 2.860  0.3132  117.5   1.641   37.2  0.2430   56.3  0.4313  -54.6
 2.880  0.3156  117.0   1.631   36.7  0.2448   56.1  0.4299  -55.0
 2.900  0.3180  116.5   1.621   36.3  0.2467   56.0  0.4285  -55.4
 2.920  0.3204  116.0   1.612   35.9  0.2485   55.8  0.4271  -55.8
 2.940  0.3228  115.6   1.603   35.4  0.2504   55.7  0.4257  -56.2
 2.960  0.3253  115.1   1.593   35.0  0.2522   55.6  0.4243  -56.7
 2.980  0.3278  114.6   1.584   34.6  0.2541   55.4  0.4230  -57.1
 3.000  0.3303  114.2   1.575   34.1  0.2559   55.3  0.4217  -57.5
 3.100  0.3420  111.8   1.536   32.4  0.2655   54.4  0.4126  -59.8
 3.200  0.3542  109.6   1.499   30.5  0.2753   53.5  0.4043  -62.3
 3.300  0.3669  107.5   1.463   28.6  0.2850   52.7  0.3967  -64.8
 3.400  0.3800  105.6   1.429   26.6  0.2948   52.0  0.3899  -67.5
 3.500  0.3936  103.8   1.397   24.5  0.3047   51.3  0.3840  -70.2
 3.600  0.4043  102.0   1.369   22.9  0.3147   50.2  0.3739  -73.2
 3.700  0.4153  100.3   1.341   21.1  0.3249   49.1  0.3649  -76.4
 3.800  0.4267   98.7   1.315   19.4  0.3351   48.1  0.3571  -79.7
 3.900  0.4383   97.2   1.290   17.5  0.3455   47.2  0.3505  -83.2
 4.000  0.4503   95.8   1.267   15.6  0.3559   46.3  0.3453  -86.8
 4.100  0.4603   94.4   1.244   14.1  0.3659   45.0  0.3355  -90.4
 4.200  0.4705   93.0   1.223   12.5  0.3760   43.8  0.3270  -94.2
 4.300  0.4810   91.7   1.202   10.9  0.3863   42.6  0.3201  -98.2
 4.400  0.4917   90.4   1.182    9.2  0.3968   41.5  0.3148 -102.3
 4.500  0.5027   89.2   1.163    7.5  0.4074   40.5  0.3112 -106.6
 4.600  0.5108   87.9   1.144    6.1  0.4170   39.1  0.3044 -110.7
 4.700  0.5192   86.6   1.126    4.6  0.4267   37.8  0.2993 -115.0
 4.800  0.5279   85.4   1.108    3.1  0.4367   36.6  0.2959 -119.5
 4.900  0.5367   84.2   1.092    1.5  0.4469   35.4  0.2943 -124.0
 5.000  0.5458   83.1   1.076   -0.1  0.4573   34.3  0.2945 -128.5
 5.100  0.5526   82.0   1.056   -1.3  0.4660   32.8  0.2902 -133.1
 5.200  0.5595   80.9   1.037   -2.6  0.4750   31.4  0.2878 -137.9
 5.300  0.5667   79.8   1.018   -4.0  0.4843   30.0  0.2875 -142.7
 5.400  0.5740   78.7   1.000   -5.4  0.4938   28.7  0.2891 -147.4
 5.500  0.5816   77.7   0.983   -6.8  0.5036   27.4  0.2927 -152.1
 5.600  0.5884   76.5   0.967   -8.0  0.5097   25.8  0.2882 -156.5
 5.700  0.5954   75.3   0.952   -9.2  0.5162   24.2  0.2855 -161.1
 5.800  0.6027   74.1   0.937  -10.4  0.5230   22.6  0.2845 -165.7
 5.900  0.6103   72.9   0.923  -11.7  0.5303   21.1  0.2855 -170.3
 6.000  0.6181   71.8   0.909  -13.0  0.5379   19.6  0.2882 -174.8
!
!  f       NFmin   Gammaopt  rn/50
! GHz       dB    MAG  ANG    -
!
! noise parameter not available yet for this operation point!
!
! (c) 2015  Infineon Technologies AG, Munich
