! Infineon Technologies  Discrete & RF Semiconductors
! BFR106
! VCE =  5.0 V,  IC = 0.10 A
! Common Emitter S-Parameters:                            Nov 2015
# GHz  S  MA  R  50
!  f         S11            S21            S12            S22
! GHz     MAG   ANG      MAG   ANG      MAG   ANG      MAG   ANG
 0.010  0.3081  -50.8  85.188  159.7  0.0039   78.2  0.8625  -17.5
 0.015  0.3155  -69.4  78.680  152.5  0.0055   73.7  0.8015  -24.7
 0.020  0.3528  -85.5  73.634  144.1  0.0072   71.2  0.7551  -32.9
 0.025  0.3477  -94.1  68.104  141.4  0.0081   68.4  0.7017  -35.4
 0.030  0.3505 -102.7  62.746  138.3  0.0091   66.2  0.6498  -38.3
 0.035  0.3609 -111.0  57.608  134.7  0.0101   64.4  0.5998  -41.7
 0.040  0.3785 -118.7  52.753  130.3  0.0110   63.0  0.5523  -45.6
 0.045  0.4022 -125.6  48.268  125.0  0.0120   61.7  0.5080  -50.3
 0.050  0.4310 -131.6  44.264  118.8  0.0130   60.7  0.4677  -55.9
 0.055  0.4316 -134.2  42.231  117.9  0.0136   61.4  0.4472  -56.6
 0.060  0.4330 -136.8  40.210  117.0  0.0143   61.9  0.4267  -57.4
 0.065  0.4354 -139.4  38.201  115.9  0.0149   62.5  0.4064  -58.2
 0.070  0.4387 -142.0  36.206  114.7  0.0155   63.0  0.3861  -59.1
 0.075  0.4428 -144.5  34.230  113.4  0.0162   63.5  0.3659  -60.2
 0.080  0.4477 -147.0  32.274  111.9  0.0168   63.9  0.3459  -61.3
 0.085  0.4535 -149.4  30.342  110.2  0.0175   64.3  0.3260  -62.6
 0.090  0.4600 -151.7  28.440  108.3  0.0181   64.6  0.3063  -64.0
 0.095  0.4673 -154.0  26.575  106.1  0.0188   65.0  0.2869  -65.7
 0.100  0.4753 -156.2  24.753  103.6  0.0194   65.3  0.2677  -67.6
 0.105  0.4753 -157.3  23.955  103.1  0.0201   65.6  0.2601  -68.0
 0.110  0.4754 -158.3  23.158  102.5  0.0208   66.0  0.2524  -68.4
 0.115  0.4757 -159.4  22.364  101.9  0.0215   66.3  0.2448  -68.8
 0.120  0.4762 -160.5  21.573  101.3  0.0222   66.5  0.2372  -69.2
 0.125  0.4768 -161.5  20.784  100.6  0.0229   66.8  0.2296  -69.7
 0.130  0.4776 -162.6  19.998   99.9  0.0237   67.0  0.2220  -70.2
 0.135  0.4786 -163.7  19.216   99.1  0.0244   67.3  0.2144  -70.7
 0.140  0.4797 -164.7  18.438   98.3  0.0251   67.5  0.2069  -71.3
 0.145  0.4810 -165.8  17.664   97.3  0.0258   67.7  0.1994  -71.9
 0.150  0.4824 -166.8  16.896   96.3  0.0265   67.9  0.1919  -72.6
 0.155  0.4831 -167.3  16.489   96.0  0.0272   68.3  0.1879  -72.6
 0.160  0.4838 -167.8  16.082   95.7  0.0278   68.7  0.1839  -72.6
 0.165  0.4846 -168.3  15.675   95.3  0.0285   69.0  0.1800  -72.6
 0.170  0.4855 -168.9  15.270   95.0  0.0292   69.4  0.1760  -72.6
 0.175  0.4863 -169.4  14.865   94.6  0.0298   69.7  0.1720  -72.6
 0.180  0.4872 -169.9  14.460   94.2  0.0305   70.0  0.1680  -72.5
 0.185  0.4882 -170.4  14.057   93.7  0.0312   70.3  0.1640  -72.5
 0.190  0.4891 -170.9  13.654   93.3  0.0319   70.6  0.1601  -72.5
 0.195  0.4901 -171.4  13.252   92.8  0.0325   70.8  0.1561  -72.5
 0.200  0.4912 -171.9  12.851   92.3  0.0332   71.1  0.1521  -72.5
 0.220  0.4910 -173.7  11.822   91.2  0.0362   71.5  0.1413  -73.1
 0.240  0.4912 -175.4  10.798   89.8  0.0393   71.8  0.1306  -73.8
 0.260  0.4915 -176.8   9.955   88.6  0.0422   72.3  0.1227  -74.5
 0.280  0.4917 -177.9   9.288   87.7  0.0450   73.1  0.1177  -75.1
 0.300  0.4921 -178.9   8.624   86.6  0.0478   73.8  0.1127  -75.7
 0.320  0.4927 -179.9   8.202   85.9  0.0507   73.9  0.1088  -76.0
 0.340  0.4934  179.0   7.781   85.2  0.0536   73.9  0.1048  -76.4
 0.360  0.4943  178.0   7.361   84.4  0.0565   74.0  0.1009  -76.8
 0.380  0.4953  177.0   6.944   83.4  0.0594   74.1  0.0969  -77.2
 0.400  0.4965  176.0   6.528   82.4  0.0623   74.1  0.0930  -77.6
 0.420  0.4976  175.2   6.267   81.7  0.0651   74.1  0.0908  -77.9
 0.440  0.4987  174.3   6.007   81.0  0.0679   74.1  0.0886  -78.1
 0.450  0.4994  173.9   5.877   80.6  0.0693   74.0  0.0874  -78.3
 0.460  0.5000  173.5   5.748   80.2  0.0707   74.0  0.0863  -78.4
 0.480  0.5014  172.6   5.490   79.4  0.0735   74.0  0.0841  -78.7
 0.500  0.5029  171.8   5.233   78.4  0.0763   74.0  0.0819  -79.0
 0.520  0.5033  171.1   5.064   77.8  0.0793   73.8  0.0812  -79.6
 0.540  0.5037  170.4   4.896   77.1  0.0823   73.6  0.0804  -80.2
 0.560  0.5042  169.8   4.728   76.3  0.0853   73.4  0.0797  -80.9
 0.580  0.5048  169.1   4.562   75.5  0.0883   73.3  0.0790  -81.5
 0.600  0.5055  168.4   4.396   74.7  0.0913   73.1  0.0783  -82.2
 0.620  0.5056  167.6   4.274   74.1  0.0941   72.9  0.0777  -83.1
 0.640  0.5058  166.9   4.153   73.4  0.0969   72.6  0.0771  -84.1
 0.660  0.5061  166.1   4.032   72.7  0.0996   72.4  0.0766  -85.0
 0.680  0.5065  165.4   3.912   71.9  0.1024   72.2  0.0760  -86.0
 0.700  0.5070  164.6   3.793   71.1  0.1052   72.0  0.0755  -87.0
 0.720  0.5084  164.0   3.700   70.5  0.1081   71.7  0.0748  -87.8
 0.740  0.5099  163.3   3.607   69.9  0.1110   71.4  0.0740  -88.7
 0.760  0.5114  162.7   3.515   69.2  0.1140   71.1  0.0733  -89.6
 0.780  0.5130  162.1   3.423   68.5  0.1169   70.9  0.0727  -90.5
 0.800  0.5147  161.5   3.332   67.8  0.1198   70.6  0.0720  -91.4
 0.820  0.5132  160.8   3.261   67.2  0.1227   70.4  0.0717  -92.0
 0.840  0.5117  160.2   3.191   66.6  0.1255   70.1  0.0714  -92.7
 0.860  0.5103  159.5   3.121   66.0  0.1284   69.9  0.0711  -93.4
 0.880  0.5090  158.8   3.052   65.4  0.1312   69.7  0.0708  -94.0
 0.900  0.5077  158.1   2.983   64.7  0.1341   69.5  0.0705  -94.7
 0.920  0.5097  157.4   2.927   64.1  0.1369   69.2  0.0710  -95.7
 0.940  0.5118  156.8   2.871   63.5  0.1397   68.9  0.0715  -96.7
 0.960  0.5139  156.2   2.816   62.9  0.1424   68.7  0.0721  -97.7
 0.980  0.5161  155.5   2.761   62.2  0.1452   68.4  0.0726  -98.7
 1.000  0.5184  154.9   2.706   61.5  0.1480   68.2  0.0732  -99.7
 1.020  0.5200  154.3   2.661   60.9  0.1508   67.9  0.0735 -101.0
 1.040  0.5217  153.8   2.616   60.3  0.1536   67.7  0.0739 -102.3
 1.060  0.5235  153.2   2.571   59.7  0.1564   67.4  0.0743 -103.6
 1.080  0.5253  152.7   2.527   59.1  0.1592   67.1  0.0747 -104.8
 1.100  0.5271  152.1   2.483   58.4  0.1620   66.9  0.0752 -106.1
 1.120  0.5278  151.4   2.445   57.8  0.1648   66.6  0.0752 -107.1
 1.140  0.5285  150.8   2.407   57.3  0.1675   66.3  0.0753 -108.2
 1.160  0.5293  150.1   2.369   56.7  0.1703   66.0  0.0754 -109.2
 1.180  0.5302  149.5   2.331   56.0  0.1731   65.8  0.0755 -110.3
 1.200  0.5311  148.8   2.294   55.4  0.1759   65.5  0.0756 -111.3
 1.220  0.5312  148.3   2.260   54.9  0.1786   65.2  0.0759 -112.3
 1.240  0.5313  147.8   2.227   54.3  0.1812   64.9  0.0762 -113.2
 1.260  0.5314  147.4   2.194   53.7  0.1839   64.6  0.0765 -114.2
 1.280  0.5316  146.9   2.161   53.1  0.1866   64.3  0.0768 -115.2
 1.300  0.5318  146.4   2.128   52.5  0.1893   64.0  0.0772 -116.1
 1.320  0.5341  145.8   2.101   52.0  0.1919   63.7  0.0780 -117.2
 1.340  0.5365  145.2   2.074   51.5  0.1946   63.4  0.0789 -118.3
 1.360  0.5389  144.6   2.047   51.0  0.1973   63.1  0.0798 -119.4
 1.380  0.5414  144.0   2.020   50.5  0.1999   62.8  0.0807 -120.5
 1.400  0.5440  143.4   1.994   50.0  0.2026   62.5  0.0816 -121.5
 1.420  0.5432  142.9   1.973   49.4  0.2052   62.2  0.0824 -122.6
 1.440  0.5424  142.4   1.953   48.9  0.2079   61.9  0.0832 -123.7
 1.460  0.5417  142.0   1.932   48.3  0.2106   61.6  0.0840 -124.7
 1.480  0.5410  141.5   1.912   47.7  0.2132   61.4  0.0849 -125.8
 1.500  0.5403  141.0   1.892   47.1  0.2159   61.1  0.0858 -126.8
 1.520  0.5422  140.4   1.868   46.5  0.2185   60.8  0.0864 -128.1
 1.540  0.5442  139.8   1.845   45.9  0.2211   60.4  0.0870 -129.4
 1.560  0.5463  139.2   1.821   45.3  0.2237   60.1  0.0877 -130.6
 1.580  0.5484  138.6   1.798   44.7  0.2263   59.8  0.0884 -131.9
 1.600  0.5506  138.0   1.775   44.1  0.2289   59.5  0.0891 -133.1
 1.620  0.5517  137.5   1.757   43.6  0.2314   59.2  0.0896 -134.3
 1.640  0.5529  137.0   1.739   43.1  0.2340   58.9  0.0902 -135.4
 1.660  0.5541  136.5   1.721   42.5  0.2366   58.6  0.0907 -136.6
 1.680  0.5554  136.0   1.703   42.0  0.2391   58.4  0.0913 -137.7
 1.700  0.5567  135.5   1.686   41.4  0.2417   58.1  0.0920 -138.8
 1.720  0.5580  134.9   1.672   41.0  0.2442   57.8  0.0930 -139.7
 1.740  0.5594  134.4   1.657   40.5  0.2467   57.4  0.0940 -140.5
 1.760  0.5609  133.8   1.643   40.0  0.2492   57.1  0.0950 -141.3
 1.780  0.5624  133.3   1.629   39.6  0.2518   56.8  0.0960 -142.1
 1.800  0.5639  132.7   1.615   39.1  0.2543   56.5  0.0971 -142.9
 1.820  0.5654  132.2   1.601   38.6  0.2569   56.2  0.0987 -143.9
 1.840  0.5670  131.7   1.587   38.1  0.2596   55.9  0.1004 -145.0
 1.860  0.5686  131.2   1.573   37.6  0.2622   55.6  0.1021 -145.9
 1.880  0.5703  130.7   1.559   37.0  0.2648   55.3  0.1038 -146.9
 1.900  0.5720  130.2   1.545   36.5  0.2675   55.0  0.1055 -147.8
 1.920  0.5721  129.8   1.531   36.0  0.2699   54.7  0.1068 -149.1
 1.940  0.5723  129.3   1.516   35.5  0.2724   54.3  0.1083 -150.5
 1.960  0.5725  128.9   1.502   35.0  0.2749   54.0  0.1097 -151.7
 1.980  0.5727  128.4   1.488   34.4  0.2773   53.7  0.1112 -153.0
 2.000  0.5730  128.0   1.474   33.9  0.2798   53.4  0.1128 -154.2
 2.020  0.5747  127.5   1.462   33.5  0.2822   53.1  0.1139 -155.1
 2.040  0.5764  127.0   1.451   33.0  0.2846   52.8  0.1150 -156.1
 2.060  0.5781  126.5   1.439   32.5  0.2870   52.4  0.1161 -157.0
 2.080  0.5799  126.0   1.428   32.1  0.2895   52.1  0.1173 -157.8
 2.100  0.5817  125.5   1.416   31.6  0.2919   51.8  0.1185 -158.7
 2.120  0.5836  125.0   1.405   31.1  0.2943   51.5  0.1197 -159.6
 2.140  0.5855  124.5   1.394   30.6  0.2968   51.2  0.1209 -160.4
 2.160  0.5875  124.1   1.383   30.1  0.2993   51.0  0.1222 -161.2
 2.180  0.5895  123.6   1.372   29.6  0.3017   50.7  0.1235 -162.0
 2.200  0.5915  123.1   1.361   29.1  0.3042   50.4  0.1248 -162.8
 2.220  0.5924  122.6   1.352   28.6  0.3065   50.1  0.1266 -164.0
 2.240  0.5932  122.1   1.344   28.2  0.3089   49.7  0.1285 -165.1
 2.260  0.5942  121.6   1.336   27.7  0.3112   49.4  0.1305 -166.2
 2.280  0.5952  121.1   1.327   27.2  0.3136   49.1  0.1325 -167.3
 2.300  0.5962  120.6   1.319   26.7  0.3159   48.8  0.1345 -168.3
 2.320  0.5973  120.1   1.311   26.2  0.3183   48.5  0.1366 -169.4
 2.340  0.5984  119.7   1.303   25.7  0.3207   48.2  0.1387 -170.3
 2.360  0.5996  119.2   1.295   25.2  0.3231   47.9  0.1409 -171.3
 2.380  0.6008  118.7   1.288   24.7  0.3255   47.6  0.1431 -172.2
 2.400  0.6020  118.2   1.280   24.2  0.3279   47.3  0.1453 -173.1
 2.420  0.6039  117.7   1.271   23.8  0.3300   47.0  0.1469 -173.9
 2.440  0.6059  117.2   1.262   23.4  0.3321   46.6  0.1484 -174.7
 2.460  0.6079  116.7   1.253   23.0  0.3342   46.3  0.1501 -175.4
 2.480  0.6100  116.2   1.244   22.6  0.3363   46.0  0.1517 -176.2
 2.500  0.6121  115.7   1.236   22.2  0.3385   45.6  0.1533 -176.9
 2.520  0.6142  115.2   1.227   21.8  0.3406   45.3  0.1550 -177.6
 2.540  0.6164  114.7   1.218   21.3  0.3428   45.0  0.1567 -178.3
 2.560  0.6187  114.3   1.210   20.9  0.3449   44.7  0.1585 -179.0
 2.580  0.6210  113.8   1.201   20.4  0.3471   44.4  0.1602 -179.6
 2.600  0.6233  113.3   1.193   20.0  0.3493   44.1  0.1620  179.7
 2.620  0.6243  112.9   1.186   19.6  0.3513   43.8  0.1644  178.8
 2.640  0.6254  112.5   1.179   19.2  0.3534   43.5  0.1667  177.9
 2.660  0.6264  112.1   1.173   18.8  0.3554   43.1  0.1692  177.0
 2.680  0.6275  111.7   1.166   18.4  0.3575   42.8  0.1717  176.2
 2.700  0.6287  111.3   1.159   18.0  0.3596   42.5  0.1742  175.4
 2.720  0.6298  110.9   1.153   17.6  0.3617   42.2  0.1767  174.6
 2.740  0.6310  110.5   1.146   17.2  0.3638   41.9  0.1793  173.8
 2.760  0.6323  110.1   1.140   16.8  0.3659   41.6  0.1819  173.0
 2.780  0.6335  109.7   1.133   16.3  0.3680   41.3  0.1845  172.3
 2.800  0.6348  109.3   1.127   15.9  0.3701   41.0  0.1872  171.6
 2.820  0.6364  108.9   1.120   15.5  0.3721   40.7  0.1892  170.9
 2.840  0.6381  108.5   1.114   15.1  0.3741   40.4  0.1912  170.3
 2.860  0.6398  108.0   1.107   14.7  0.3761   40.0  0.1933  169.7
 2.880  0.6415  107.6   1.101   14.3  0.3781   39.7  0.1953  169.0
 2.900  0.6432  107.2   1.094   13.9  0.3801   39.4  0.1974  168.4
 2.920  0.6450  106.8   1.088   13.5  0.3821   39.1  0.1995  167.8
 2.940  0.6468  106.4   1.082   13.1  0.3842   38.8  0.2017  167.3
 2.960  0.6487  106.0   1.075   12.7  0.3863   38.5  0.2038  166.7
 2.980  0.6506  105.6   1.069   12.2  0.3883   38.2  0.2060  166.1
 3.000  0.6525  105.2   1.063   11.8  0.3904   37.9  0.2082  165.6
 3.100  0.6585  103.3   1.035   10.3  0.3990   36.3  0.2208  162.0
 3.200  0.6651  101.5   1.009    8.6  0.4079   34.7  0.2341  158.9
 3.300  0.6725   99.7   0.983    6.9  0.4172   33.2  0.2481  156.1
 3.400  0.6805   97.9   0.958    5.1  0.4267   31.8  0.2626  153.5
 3.500  0.6891   96.2   0.934    3.2  0.4364   30.4  0.2776  151.3
 3.600  0.6954   94.6   0.913    2.0  0.4428   28.8  0.2908  148.3
 3.700  0.7022   92.9   0.893    0.7  0.4495   27.2  0.3048  145.5
 3.800  0.7096   91.4   0.872   -0.7  0.4565   25.6  0.3194  143.0
 3.900  0.7176   89.8   0.853   -2.1  0.4638   24.1  0.3346  140.7
 4.000  0.7260   88.3   0.834   -3.6  0.4715   22.7  0.3503  138.6
 4.100  0.7285   86.9   0.818   -4.7  0.4756   21.2  0.3603  136.2
 4.200  0.7314   85.5   0.801   -5.9  0.4800   19.8  0.3709  134.0
 4.300  0.7348   84.2   0.786   -7.1  0.4847   18.4  0.3820  131.9
 4.400  0.7385   82.8   0.770   -8.3  0.4896   17.0  0.3936  130.0
 4.500  0.7427   81.5   0.755   -9.6  0.4949   15.6  0.4056  128.1
 4.600  0.7457   80.3   0.743  -10.5  0.4987   14.3  0.4144  126.1
 4.700  0.7489   79.1   0.731  -11.4  0.5027   13.0  0.4237  124.2
 4.800  0.7525   77.9   0.720  -12.4  0.5070   11.8  0.4334  122.3
 4.900  0.7565   76.8   0.708  -13.4  0.5115   10.5  0.4435  120.6
 5.000  0.7607   75.6   0.697  -14.4  0.5163    9.3  0.4541  118.9
 5.100  0.7592   74.4   0.685  -14.5  0.5179    8.6  0.4518  118.4
 5.200  0.7580   73.2   0.674  -14.7  0.5196    8.0  0.4496  117.8
 5.300  0.7571   71.9   0.662  -14.9  0.5213    7.3  0.4474  117.3
 5.400  0.7567   70.7   0.651  -15.0  0.5231    6.7  0.4453  116.8
 5.500  0.7565   69.5   0.639  -15.2  0.5250    6.0  0.4432  116.2
 5.600  0.7572   68.7   0.637  -16.1  0.5317    4.5  0.4611  114.5
 5.700  0.7580   68.0   0.636  -16.9  0.5388    3.1  0.4795  112.9
 5.800  0.7589   67.2   0.634  -17.8  0.5462    1.7  0.4981  111.4
 5.900  0.7600   66.5   0.633  -18.7  0.5540    0.3  0.5171  110.0
 6.000  0.7612   65.7   0.632  -19.6  0.5620   -1.0  0.5364  108.7
!
!  f       NFmin   Gammaopt  rn/50
! GHz       dB    MAG  ANG    -
!
! noise parameter not available yet for this operation point!
!
! (c) 2015  Infineon Technologies AG, Munich
