! Infineon Technologies  Discrete & RF Semiconductors
! BFR106
! VCE =  1.7 V,  IC = 0.10 A
! Common Emitter S-Parameters:                            Nov 2015
# GHz  S  MA  R  50
!  f         S11            S21            S12            S22
! GHz     MAG   ANG      MAG   ANG      MAG   ANG      MAG   ANG
 0.010  0.2653 -114.3  68.498  154.4  0.0056   69.9  0.6912  -30.6
 0.015  0.3376 -126.0  61.007  146.4  0.0073   64.5  0.6217  -41.9
 0.020  0.4189 -133.3  55.002  136.5  0.0090   61.1  0.5814  -55.3
 0.025  0.4373 -138.3  50.380  134.2  0.0100   60.3  0.5312  -59.4
 0.030  0.4589 -142.9  45.854  131.5  0.0109   59.7  0.4842  -64.4
 0.035  0.4831 -147.1  41.458  128.1  0.0119   59.1  0.4417  -70.4
 0.040  0.5096 -150.8  37.235  124.0  0.0129   58.6  0.4050  -77.5
 0.045  0.5381 -154.2  33.253  118.9  0.0138   58.2  0.3757  -85.9
 0.050  0.5682 -157.2  29.608  112.4  0.0148   57.9  0.3557  -95.5
 0.055  0.5715 -158.6  28.196  111.7  0.0156   58.7  0.3419  -97.7
 0.060  0.5752 -159.9  26.789  110.9  0.0164   59.4  0.3287 -100.1
 0.065  0.5792 -161.3  25.388  110.0  0.0172   60.1  0.3160 -102.6
 0.070  0.5835 -162.6  23.994  109.0  0.0180   60.7  0.3041 -105.4
 0.075  0.5881 -163.9  22.607  107.9  0.0188   61.2  0.2929 -108.4
 0.080  0.5930 -165.2  21.229  106.7  0.0196   61.7  0.2826 -111.6
 0.085  0.5982 -166.5  19.863  105.3  0.0205   62.2  0.2732 -115.1
 0.090  0.6037 -167.7  18.511  103.7  0.0213   62.6  0.2649 -118.8
 0.095  0.6095 -168.9  17.176  101.8  0.0221   63.0  0.2578 -122.7
 0.100  0.6155 -170.1  15.863   99.6  0.0229   63.4  0.2519 -126.8
 0.105  0.6163 -170.7  15.347   99.2  0.0237   64.0  0.2490 -128.2
 0.110  0.6172 -171.4  14.832   98.8  0.0245   64.6  0.2463 -129.6
 0.115  0.6181 -172.0  14.318   98.3  0.0254   65.1  0.2438 -131.1
 0.120  0.6192 -172.6  13.805   97.8  0.0262   65.6  0.2414 -132.6
 0.125  0.6203 -173.3  13.294   97.3  0.0270   66.1  0.2392 -134.1
 0.130  0.6214 -173.9  12.783   96.7  0.0279   66.6  0.2371 -135.6
 0.135  0.6227 -174.5  12.274   96.0  0.0287   67.0  0.2353 -137.2
 0.140  0.6240 -175.2  11.766   95.4  0.0295   67.4  0.2336 -138.8
 0.145  0.6254 -175.8  11.261   94.6  0.0304   67.7  0.2320 -140.4
 0.150  0.6269 -176.4  10.757   93.8  0.0312   68.1  0.2307 -142.0
 0.155  0.6273 -176.7  10.496   93.5  0.0320   68.4  0.2289 -142.8
 0.160  0.6278 -177.1  10.235   93.2  0.0329   68.7  0.2272 -143.6
 0.165  0.6283 -177.4   9.974   92.9  0.0337   69.0  0.2256 -144.4
 0.170  0.6288 -177.8   9.713   92.5  0.0346   69.3  0.2239 -145.2
 0.175  0.6294 -178.1   9.453   92.2  0.0354   69.6  0.2224 -146.0
 0.180  0.6299 -178.4   9.194   91.8  0.0362   69.8  0.2208 -146.8
 0.185  0.6305 -178.8   8.935   91.4  0.0371   70.0  0.2194 -147.7
 0.190  0.6311 -179.1   8.676   90.9  0.0379   70.3  0.2179 -148.5
 0.195  0.6318 -179.5   8.418   90.5  0.0388   70.5  0.2165 -149.4
 0.200  0.6324 -179.8   8.160   90.0  0.0396   70.7  0.2152 -150.3
 0.220  0.6316  179.1   7.502   89.0  0.0429   71.3  0.2135 -153.1
 0.240  0.6309  178.0   6.847   87.8  0.0462   71.8  0.2124 -156.0
 0.260  0.6305  177.0   6.311   86.7  0.0497   72.2  0.2120 -158.1
 0.280  0.6302  176.1   5.892   85.9  0.0532   72.6  0.2120 -159.5
 0.300  0.6300  175.2   5.475   84.9  0.0568   73.0  0.2122 -160.9
 0.320  0.6311  174.4   5.211   84.2  0.0604   73.0  0.2118 -162.1
 0.340  0.6324  173.5   4.948   83.5  0.0639   73.0  0.2116 -163.3
 0.360  0.6338  172.7   4.686   82.7  0.0675   73.0  0.2114 -164.6
 0.380  0.6353  171.9   4.425   81.8  0.0710   73.0  0.2113 -165.8
 0.400  0.6370  171.1   4.165   80.8  0.0746   73.0  0.2113 -167.0
 0.420  0.6380  170.4   4.002   80.1  0.0779   72.9  0.2113 -167.9
 0.440  0.6391  169.7   3.840   79.4  0.0813   72.8  0.2113 -168.7
 0.450  0.6396  169.3   3.760   79.0  0.0829   72.8  0.2113 -169.2
 0.460  0.6402  168.9   3.679   78.6  0.0846   72.7  0.2113 -169.6
 0.480  0.6415  168.2   3.519   77.7  0.0880   72.7  0.2114 -170.4
 0.500  0.6429  167.5   3.359   76.8  0.0913   72.6  0.2116 -171.3
 0.520  0.6423  166.8   3.252   76.1  0.0948   72.3  0.2120 -171.8
 0.540  0.6418  166.1   3.145   75.4  0.0983   72.0  0.2125 -172.3
 0.560  0.6414  165.3   3.039   74.6  0.1017   71.8  0.2130 -172.8
 0.580  0.6411  164.6   2.934   73.8  0.1052   71.5  0.2135 -173.3
 0.600  0.6409  163.9   2.829   72.9  0.1087   71.3  0.2140 -173.8
 0.620  0.6411  163.2   2.754   72.2  0.1122   71.1  0.2149 -174.3
 0.640  0.6413  162.6   2.680   71.5  0.1156   70.8  0.2159 -174.8
 0.660  0.6417  161.9   2.607   70.7  0.1191   70.6  0.2169 -175.3
 0.680  0.6421  161.3   2.534   69.9  0.1225   70.4  0.2179 -175.8
 0.700  0.6426  160.6   2.461   69.0  0.1260   70.2  0.2189 -176.3
 0.720  0.6427  160.0   2.404   68.4  0.1295   69.8  0.2197 -176.8
 0.740  0.6428  159.4   2.347   67.8  0.1330   69.5  0.2206 -177.4
 0.760  0.6431  158.9   2.290   67.2  0.1365   69.2  0.2214 -177.9
 0.780  0.6433  158.3   2.233   66.5  0.1401   68.9  0.2223 -178.5
 0.800  0.6437  157.7   2.177   65.8  0.1436   68.6  0.2232 -179.0
 0.820  0.6433  157.0   2.132   65.2  0.1470   68.2  0.2235 -179.5
 0.840  0.6429  156.3   2.088   64.6  0.1503   67.9  0.2238  180.0
 0.860  0.6426  155.7   2.044   63.9  0.1537   67.5  0.2242  179.4
 0.880  0.6425  155.0   2.000   63.2  0.1571   67.2  0.2245  178.9
 0.900  0.6424  154.3   1.956   62.5  0.1605   66.9  0.2249  178.4
 0.920  0.6427  153.6   1.922   61.9  0.1637   66.6  0.2258  178.1
 0.940  0.6431  152.9   1.888   61.3  0.1670   66.3  0.2268  177.8
 0.960  0.6436  152.2   1.855   60.6  0.1702   66.0  0.2278  177.5
 0.980  0.6441  151.5   1.822   59.9  0.1735   65.7  0.2287  177.2
 1.000  0.6448  150.8   1.789   59.2  0.1767   65.4  0.2297  176.9
 1.020  0.6459  150.2   1.761   58.6  0.1799   65.0  0.2311  176.5
 1.040  0.6471  149.7   1.734   57.9  0.1831   64.7  0.2326  176.2
 1.060  0.6483  149.1   1.706   57.3  0.1863   64.3  0.2340  175.8
 1.080  0.6496  148.6   1.679   56.6  0.1896   64.0  0.2354  175.5
 1.100  0.6509  148.0   1.652   55.9  0.1928   63.7  0.2369  175.1
 1.120  0.6513  147.4   1.629   55.3  0.1960   63.3  0.2378  174.6
 1.140  0.6517  146.8   1.606   54.8  0.1992   63.0  0.2388  174.2
 1.160  0.6522  146.1   1.583   54.2  0.2024   62.6  0.2398  173.7
 1.180  0.6528  145.5   1.560   53.5  0.2057   62.3  0.2408  173.3
 1.200  0.6535  144.9   1.538   52.9  0.2089   62.0  0.2418  172.8
 1.220  0.6531  144.3   1.518   52.3  0.2120   61.6  0.2427  172.4
 1.240  0.6528  143.8   1.498   51.7  0.2151   61.2  0.2436  172.0
 1.260  0.6526  143.2   1.478   51.1  0.2183   60.8  0.2445  171.5
 1.280  0.6524  142.7   1.458   50.5  0.2214   60.4  0.2454  171.1
 1.300  0.6523  142.1   1.438   49.9  0.2246   60.0  0.2463  170.7
 1.320  0.6528  141.5   1.421   49.5  0.2277   59.6  0.2475  170.4
 1.340  0.6534  141.0   1.405   49.0  0.2308   59.3  0.2488  170.1
 1.360  0.6541  140.4   1.389   48.6  0.2339   59.0  0.2501  169.8
 1.380  0.6548  139.9   1.372   48.1  0.2370   58.6  0.2513  169.5
 1.400  0.6556  139.3   1.356   47.6  0.2401   58.3  0.2526  169.2
 1.420  0.6561  138.7   1.345   47.0  0.2431   57.9  0.2539  168.8
 1.440  0.6566  138.2   1.334   46.4  0.2462   57.6  0.2552  168.5
 1.460  0.6572  137.6   1.323   45.8  0.2492   57.2  0.2565  168.1
 1.480  0.6578  137.1   1.312   45.1  0.2522   56.8  0.2579  167.8
 1.500  0.6585  136.5   1.301   44.5  0.2553   56.5  0.2592  167.4
 1.520  0.6592  136.0   1.286   43.9  0.2582   56.1  0.2605  167.0
 1.540  0.6600  135.4   1.270   43.4  0.2610   55.7  0.2619  166.5
 1.560  0.6608  134.9   1.255   42.8  0.2639   55.3  0.2633  166.1
 1.580  0.6617  134.3   1.240   42.2  0.2668   55.0  0.2647  165.6
 1.600  0.6626  133.8   1.225   41.6  0.2697   54.6  0.2661  165.2
 1.620  0.6633  133.2   1.215   41.1  0.2725   54.2  0.2674  164.7
 1.640  0.6640  132.6   1.205   40.5  0.2754   53.9  0.2688  164.3
 1.660  0.6648  132.0   1.196   40.0  0.2783   53.6  0.2702  163.8
 1.680  0.6657  131.4   1.186   39.5  0.2811   53.2  0.2716  163.4
 1.700  0.6667  130.8   1.177   38.9  0.2840   52.9  0.2730  162.9
 1.720  0.6684  130.3   1.168   38.5  0.2867   52.5  0.2740  162.5
 1.740  0.6702  129.8   1.160   38.1  0.2893   52.1  0.2750  162.2
 1.760  0.6720  129.2   1.152   37.7  0.2920   51.7  0.2761  161.8
 1.780  0.6739  128.7   1.143   37.2  0.2947   51.4  0.2771  161.5
 1.800  0.6758  128.2   1.135   36.8  0.2974   51.0  0.2782  161.1
 1.820  0.6752  127.7   1.126   36.3  0.3002   50.6  0.2802  160.8
 1.840  0.6747  127.2   1.116   35.7  0.3031   50.3  0.2822  160.4
 1.860  0.6742  126.8   1.107   35.2  0.3059   49.9  0.2842  160.1
 1.880  0.6738  126.3   1.098   34.7  0.3088   49.5  0.2862  159.8
 1.900  0.6734  125.8   1.089   34.1  0.3117   49.2  0.2882  159.5
 1.920  0.6737  125.3   1.081   33.6  0.3143   48.8  0.2902  159.0
 1.940  0.6740  124.8   1.073   33.2  0.3168   48.4  0.2922  158.6
 1.960  0.6744  124.3   1.065   32.7  0.3194   48.0  0.2942  158.1
 1.980  0.6749  123.8   1.057   32.2  0.3220   47.7  0.2962  157.6
 2.000  0.6754  123.3   1.049   31.7  0.3246   47.3  0.2983  157.2
 2.020  0.6761  122.8   1.042   31.3  0.3271   46.9  0.2997  156.8
 2.040  0.6768  122.3   1.035   30.8  0.3296   46.6  0.3011  156.3
 2.060  0.6775  121.8   1.028   30.4  0.3321   46.2  0.3025  155.9
 2.080  0.6784  121.3   1.022   29.9  0.3346   45.8  0.3039  155.4
 2.100  0.6792  120.8   1.015   29.4  0.3371   45.5  0.3054  155.0
 2.120  0.6801  120.3   1.009   29.0  0.3397   45.1  0.3069  154.6
 2.140  0.6811  119.9   1.002   28.5  0.3423   44.8  0.3083  154.1
 2.160  0.6821  119.4   0.996   28.0  0.3448   44.5  0.3098  153.7
 2.180  0.6832  118.9   0.989   27.5  0.3474   44.1  0.3114  153.3
 2.200  0.6843  118.4   0.983   27.0  0.3500   43.8  0.3129  152.9
 2.220  0.6844  117.9   0.978   26.6  0.3523   43.4  0.3152  152.4
 2.240  0.6846  117.4   0.973   26.1  0.3545   43.0  0.3174  152.0
 2.260  0.6848  116.9   0.968   25.7  0.3568   42.6  0.3197  151.5
 2.280  0.6851  116.4   0.963   25.3  0.3591   42.3  0.3220  151.1
 2.300  0.6854  115.9   0.958   24.8  0.3615   41.9  0.3244  150.6
 2.320  0.6858  115.5   0.953   24.4  0.3638   41.5  0.3267  150.2
 2.340  0.6862  115.0   0.948   23.9  0.3662   41.2  0.3291  149.8
 2.360  0.6867  114.5   0.943   23.4  0.3685   40.8  0.3315  149.3
 2.380  0.6872  114.0   0.939   23.0  0.3709   40.4  0.3339  148.9
 2.400  0.6878  113.5   0.934   22.5  0.3733   40.1  0.3363  148.5
 2.420  0.6890  113.0   0.929   22.1  0.3753   39.7  0.3377  148.1
 2.440  0.6903  112.5   0.923   21.8  0.3772   39.4  0.3391  147.7
 2.460  0.6917  112.0   0.918   21.4  0.3792   39.0  0.3406  147.3
 2.480  0.6931  111.6   0.913   21.0  0.3812   38.7  0.3421  146.9
 2.500  0.6945  111.1   0.908   20.6  0.3833   38.3  0.3435  146.5
 2.520  0.6960  110.6   0.903   20.2  0.3853   38.0  0.3450  146.1
 2.540  0.6976  110.1   0.898   19.8  0.3874   37.6  0.3466  145.7
 2.560  0.6992  109.6   0.893   19.4  0.3894   37.3  0.3481  145.3
 2.580  0.7008  109.2   0.888   19.0  0.3915   36.9  0.3496  144.9
 2.600  0.7025  108.7   0.883   18.6  0.3936   36.6  0.3512  144.5
 2.620  0.7028  108.3   0.879   18.3  0.3954   36.2  0.3536  144.1
 2.640  0.7032  107.9   0.876   17.9  0.3972   35.9  0.3560  143.6
 2.660  0.7036  107.5   0.872   17.5  0.3991   35.5  0.3584  143.2
 2.680  0.7040  107.1   0.869   17.2  0.4009   35.2  0.3609  142.8
 2.700  0.7045  106.6   0.866   16.8  0.4028   34.9  0.3634  142.3
 2.720  0.7050  106.2   0.862   16.5  0.4047   34.5  0.3658  141.9
 2.740  0.7056  105.8   0.859   16.1  0.4066   34.2  0.3684  141.5
 2.760  0.7061  105.4   0.856   15.7  0.4085   33.9  0.3709  141.1
 2.780  0.7067  105.0   0.852   15.4  0.4105   33.5  0.3734  140.7
 2.800  0.7074  104.6   0.849   15.0  0.4124   33.2  0.3760  140.3
 2.820  0.7083  104.2   0.845   14.6  0.4141   32.8  0.3777  139.9
 2.840  0.7093  103.8   0.841   14.3  0.4159   32.5  0.3795  139.5
 2.860  0.7103  103.4   0.837   13.9  0.4176   32.1  0.3812  139.1
 2.880  0.7113  102.9   0.833   13.6  0.4194   31.8  0.3830  138.7
 2.900  0.7123  102.5   0.829   13.2  0.4212   31.4  0.3848  138.3
 2.920  0.7134  102.1   0.825   12.8  0.4230   31.1  0.3866  137.9
 2.940  0.7146  101.7   0.821   12.4  0.4248   30.7  0.3885  137.5
 2.960  0.7157  101.3   0.818   12.1  0.4266   30.4  0.3903  137.2
 2.980  0.7170  100.9   0.814   11.7  0.4284   30.0  0.3922  136.8
 3.000  0.7182  100.5   0.810   11.3  0.4303   29.7  0.3941  136.4
 3.100  0.7211   98.8   0.794   10.0  0.4369   28.0  0.4046  134.4
 3.200  0.7247   97.1   0.779    8.5  0.4438   26.4  0.4156  132.4
 3.300  0.7289   95.4   0.763    7.1  0.4511   24.8  0.4270  130.6
 3.400  0.7337   93.7   0.749    5.6  0.4587   23.3  0.4389  128.8
 3.500  0.7391   92.1   0.735    4.0  0.4666   21.8  0.4511  127.2
 3.600  0.7425   90.5   0.723    2.9  0.4707   20.3  0.4613  125.3
 3.700  0.7464   89.0   0.712    1.8  0.4752   18.8  0.4719  123.4
 3.800  0.7508   87.5   0.701    0.6  0.4800   17.3  0.4831  121.6
 3.900  0.7557   86.0   0.690   -0.6  0.4851   15.8  0.4947  119.9
 4.000  0.7612   84.5   0.679   -1.8  0.4905   14.4  0.5067  118.3
 4.100  0.7619   83.3   0.671   -2.8  0.4926   13.0  0.5125  116.6
 4.200  0.7629   82.0   0.663   -3.9  0.4950   11.7  0.5188  115.0
 4.300  0.7643   80.8   0.655   -5.0  0.4976   10.3  0.5255  113.4
 4.400  0.7660   79.6   0.647   -6.1  0.5005    9.0  0.5325  111.8
 4.500  0.7681   78.4   0.640   -7.2  0.5037    7.7  0.5400  110.3
 4.600  0.7692   77.3   0.634   -8.0  0.5057    6.6  0.5446  108.8
 4.700  0.7706   76.2   0.627   -8.8  0.5079    5.4  0.5496  107.4
 4.800  0.7722   75.1   0.621   -9.7  0.5103    4.3  0.5549  106.0
 4.900  0.7742   74.0   0.615  -10.5  0.5128    3.2  0.5605  104.6
 5.000  0.7764   72.9   0.609  -11.4  0.5156    2.1  0.5665  103.2
 5.100  0.7739   71.8   0.604  -11.5  0.5175    1.6  0.5628  102.9
 5.200  0.7717   70.8   0.599  -11.7  0.5194    1.0  0.5591  102.7
 5.300  0.7697   69.7   0.593  -11.8  0.5213    0.5  0.5554  102.4
 5.400  0.7680   68.6   0.588  -12.0  0.5233   -0.1  0.5518  102.1
 5.500  0.7666   67.5   0.583  -12.1  0.5254   -0.6  0.5481  101.8
 5.600  0.7662   66.7   0.583  -13.1  0.5298   -1.9  0.5613  100.4
 5.700  0.7660   65.9   0.584  -14.0  0.5345   -3.3  0.5749   99.1
 5.800  0.7659   65.1   0.584  -15.0  0.5395   -4.6  0.5887   97.8
 5.900  0.7659   64.3   0.585  -15.9  0.5447   -5.8  0.6028   96.6
 6.000  0.7661   63.5   0.586  -16.9  0.5502   -7.1  0.6172   95.5
!
!  f       NFmin   Gammaopt  rn/50
! GHz       dB    MAG  ANG    -
!
! noise parameter not available yet for this operation point!
!
! (c) 2015  Infineon Technologies AG, Munich
