! Infineon Technologies  Discrete & RF Semiconductors
! BFR106
! VCE = 0.75 V,  IC =  70 mA
! Common Emitter S-Parameters:                            Nov 2015
# GHz  S  MA  R  50
!  f         S11            S21            S12            S22
! GHz     MAG   ANG      MAG   ANG      MAG   ANG      MAG   ANG
 0.010  0.3836 -121.0  50.775  147.8  0.0091   62.8  0.5342  -55.7
 0.015  0.4615 -133.6  43.391  139.7  0.0115   55.7  0.4914  -74.0
 0.020  0.5548 -142.2  37.196  128.7  0.0141   51.1  0.5042  -93.4
 0.025  0.5691 -146.3  33.839  126.8  0.0151   50.5  0.4763  -99.7
 0.030  0.5862 -150.2  30.528  124.5  0.0161   50.0  0.4548 -106.7
 0.035  0.6057 -153.8  27.280  121.6  0.0170   49.5  0.4407 -114.3
 0.040  0.6276 -157.2  24.120  117.9  0.0180   49.1  0.4348 -122.3
 0.045  0.6515 -160.4  21.088  113.2  0.0190   48.7  0.4373 -130.2
 0.050  0.6773 -163.3  18.247  106.9  0.0200   48.4  0.4482 -138.0
 0.055  0.6796 -164.4  17.355  106.3  0.0208   49.6  0.4441 -140.1
 0.060  0.6822 -165.5  16.465  105.7  0.0216   50.7  0.4407 -142.2
 0.065  0.6850 -166.6  15.577  104.9  0.0224   51.7  0.4379 -144.4
 0.070  0.6881 -167.7  14.692  104.1  0.0232   52.6  0.4357 -146.6
 0.075  0.6914 -168.7  13.811  103.2  0.0240   53.5  0.4341 -148.8
 0.080  0.6950 -169.8  12.934  102.1  0.0249   54.3  0.4332 -151.0
 0.085  0.6988 -170.8  12.061  100.9  0.0257   55.1  0.4329 -153.2
 0.090  0.7028 -171.9  11.195   99.5  0.0265   55.8  0.4333 -155.5
 0.095  0.7070 -172.9  10.337   97.9  0.0274   56.5  0.4344 -157.7
 0.100  0.7115 -173.9   9.488   96.0  0.0282   57.1  0.4361 -159.9
 0.105  0.7120 -174.4   9.176   95.7  0.0291   57.8  0.4361 -160.7
 0.110  0.7125 -174.9   8.864   95.3  0.0300   58.5  0.4362 -161.5
 0.115  0.7131 -175.4   8.553   94.9  0.0309   59.2  0.4364 -162.3
 0.120  0.7138 -175.9   8.242   94.5  0.0318   59.8  0.4367 -163.1
 0.125  0.7145 -176.4   7.932   94.0  0.0327   60.4  0.4370 -163.9
 0.130  0.7152 -176.9   7.623   93.5  0.0336   61.0  0.4375 -164.7
 0.135  0.7160 -177.4   7.313   92.9  0.0345   61.5  0.4380 -165.5
 0.140  0.7169 -177.9   7.005   92.4  0.0355   62.0  0.4386 -166.3
 0.145  0.7178 -178.4   6.698   91.7  0.0364   62.5  0.4393 -167.1
 0.150  0.7188 -178.9   6.391   91.0  0.0373   62.9  0.4401 -167.9
 0.155  0.7191 -179.2   6.235   90.7  0.0382   63.3  0.4392 -168.4
 0.160  0.7194 -179.5   6.079   90.4  0.0392   63.7  0.4384 -168.8
 0.165  0.7197 -179.8   5.924   90.1  0.0401   64.0  0.4375 -169.3
 0.170  0.7200  179.9   5.768   89.8  0.0411   64.4  0.4367 -169.7
 0.175  0.7203  179.6   5.613   89.5  0.0420   64.7  0.4359 -170.2
 0.180  0.7207  179.4   5.458   89.1  0.0430   65.0  0.4352 -170.6
 0.185  0.7211  179.1   5.303   88.8  0.0439   65.3  0.4345 -171.1
 0.190  0.7215  178.8   5.148   88.4  0.0449   65.6  0.4338 -171.6
 0.195  0.7219  178.5   4.994   87.9  0.0458   65.8  0.4331 -172.0
 0.200  0.7223  178.2   4.840   87.5  0.0468   66.1  0.4325 -172.5
 0.220  0.7201  177.2   4.445   86.5  0.0506   66.8  0.4333 -173.9
 0.240  0.7180  176.2   4.051   85.4  0.0545   67.3  0.4344 -175.4
 0.260  0.7181  175.3   3.732   84.3  0.0586   67.9  0.4355 -176.5
 0.280  0.7202  174.4   3.486   83.5  0.0629   68.4  0.4362 -177.4
 0.300  0.7224  173.6   3.241   82.5  0.0672   68.9  0.4371 -178.2
 0.320  0.7223  172.7   3.088   81.8  0.0711   69.0  0.4370 -179.0
 0.340  0.7223  171.8   2.936   81.1  0.0751   69.2  0.4370 -179.7
 0.360  0.7225  171.0   2.784   80.3  0.0790   69.3  0.4370  179.5
 0.380  0.7229  170.1   2.632   79.3  0.0830   69.4  0.4372  178.8
 0.400  0.7235  169.2   2.482   78.3  0.0869   69.5  0.4374  178.0
 0.420  0.7243  168.6   2.389   77.6  0.0908   69.4  0.4371  177.4
 0.440  0.7253  168.0   2.296   76.9  0.0947   69.2  0.4368  176.7
 0.450  0.7258  167.6   2.250   76.6  0.0966   69.2  0.4366  176.4
 0.460  0.7263  167.3   2.204   76.2  0.0986   69.1  0.4365  176.1
 0.480  0.7274  166.7   2.112   75.3  0.1025   69.0  0.4363  175.4
 0.500  0.7286  166.1   2.020   74.4  0.1064   68.9  0.4362  174.8
 0.520  0.7275  165.4   1.958   73.7  0.1105   68.7  0.4362  174.3
 0.540  0.7265  164.6   1.895   73.0  0.1146   68.5  0.4362  173.9
 0.560  0.7256  163.9   1.833   72.2  0.1186   68.3  0.4363  173.4
 0.580  0.7248  163.1   1.772   71.3  0.1227   68.1  0.4364  173.0
 0.600  0.7242  162.4   1.711   70.4  0.1268   67.9  0.4365  172.5
 0.620  0.7235  161.6   1.669   69.7  0.1306   67.6  0.4372  172.0
 0.640  0.7230  160.9   1.626   68.9  0.1345   67.3  0.4380  171.6
 0.660  0.7226  160.1   1.585   68.1  0.1383   67.0  0.4388  171.1
 0.680  0.7223  159.4   1.543   67.3  0.1422   66.7  0.4396  170.7
 0.700  0.7222  158.6   1.502   66.4  0.1460   66.5  0.4405  170.2
 0.720  0.7226  158.1   1.470   65.8  0.1499   66.1  0.4409  169.7
 0.740  0.7231  157.5   1.438   65.2  0.1538   65.7  0.4414  169.2
 0.760  0.7237  157.0   1.406   64.6  0.1577   65.4  0.4418  168.6
 0.780  0.7243  156.4   1.374   64.0  0.1617   65.0  0.4423  168.1
 0.800  0.7250  155.9   1.343   63.3  0.1656   64.7  0.4429  167.6
 0.820  0.7236  155.2   1.319   62.7  0.1694   64.3  0.4429  167.1
 0.840  0.7222  154.6   1.296   62.0  0.1731   64.0  0.4428  166.6
 0.860  0.7210  153.9   1.273   61.3  0.1769   63.6  0.4429  166.2
 0.880  0.7198  153.3   1.250   60.6  0.1807   63.3  0.4429  165.7
 0.900  0.7188  152.6   1.227   59.9  0.1845   63.0  0.4430  165.2
 0.920  0.7193  151.9   1.208   59.3  0.1882   62.6  0.4435  164.9
 0.940  0.7200  151.1   1.189   58.7  0.1919   62.3  0.4440  164.5
 0.960  0.7208  150.4   1.171   58.0  0.1956   61.9  0.4445  164.2
 0.980  0.7217  149.6   1.152   57.4  0.1994   61.6  0.4450  163.8
 1.000  0.7227  148.9   1.134   56.7  0.2031   61.3  0.4456  163.5
 1.020  0.7229  148.3   1.118   56.1  0.2067   60.9  0.4465  163.1
 1.040  0.7231  147.7   1.103   55.4  0.2103   60.5  0.4474  162.7
 1.060  0.7234  147.1   1.088   54.7  0.2139   60.1  0.4483  162.2
 1.080  0.7238  146.5   1.073   54.0  0.2176   59.8  0.4492  161.8
 1.100  0.7243  145.9   1.058   53.3  0.2212   59.4  0.4502  161.4
 1.120  0.7249  145.2   1.046   52.7  0.2245   59.0  0.4505  161.0
 1.140  0.7256  144.5   1.034   52.2  0.2279   58.6  0.4508  160.5
 1.160  0.7265  143.9   1.022   51.6  0.2312   58.2  0.4511  160.1
 1.180  0.7274  143.2   1.010   51.0  0.2346   57.8  0.4515  159.6
 1.200  0.7284  142.5   0.998   50.4  0.2380   57.4  0.4519  159.2
 1.220  0.7272  142.0   0.988   49.8  0.2416   57.0  0.4523  158.8
 1.240  0.7261  141.4   0.977   49.2  0.2451   56.5  0.4528  158.3
 1.260  0.7250  140.9   0.967   48.6  0.2487   56.1  0.4533  157.9
 1.280  0.7240  140.3   0.957   48.0  0.2523   55.7  0.4538  157.4
 1.300  0.7231  139.8   0.947   47.4  0.2559   55.3  0.4543  157.0
 1.320  0.7246  139.3   0.938   47.0  0.2592   54.9  0.4551  156.6
 1.340  0.7261  138.7   0.930   46.5  0.2625   54.5  0.4560  156.2
 1.360  0.7277  138.2   0.922   46.1  0.2658   54.1  0.4569  155.9
 1.380  0.7294  137.6   0.913   45.7  0.2691   53.7  0.4578  155.5
 1.400  0.7311  137.1   0.905   45.2  0.2724   53.3  0.4587  155.1
 1.420  0.7300  136.5   0.901   44.6  0.2756   52.9  0.4594  154.7
 1.440  0.7289  135.9   0.897   44.0  0.2788   52.5  0.4600  154.3
 1.460  0.7279  135.4   0.893   43.4  0.2820   52.1  0.4607  154.0
 1.480  0.7270  134.8   0.889   42.8  0.2852   51.8  0.4615  153.6
 1.500  0.7262  134.2   0.885   42.2  0.2884   51.4  0.4622  153.2
 1.520  0.7265  133.7   0.877   41.7  0.2915   51.0  0.4632  152.8
 1.540  0.7269  133.1   0.868   41.2  0.2946   50.6  0.4643  152.4
 1.560  0.7273  132.6   0.860   40.6  0.2977   50.2  0.4653  152.0
 1.580  0.7278  132.0   0.852   40.1  0.3009   49.8  0.4664  151.6
 1.600  0.7284  131.5   0.844   39.5  0.3040   49.4  0.4675  151.2
 1.620  0.7283  130.9   0.839   39.0  0.3068   49.0  0.4681  150.7
 1.640  0.7283  130.3   0.835   38.4  0.3095   48.6  0.4687  150.3
 1.660  0.7283  129.7   0.830   37.9  0.3123   48.2  0.4694  149.8
 1.680  0.7285  129.1   0.825   37.4  0.3151   47.9  0.4701  149.4
 1.700  0.7287  128.5   0.821   36.8  0.3179   47.5  0.4708  148.9
 1.720  0.7298  128.0   0.817   36.5  0.3207   47.1  0.4710  148.5
 1.740  0.7309  127.5   0.813   36.1  0.3235   46.6  0.4713  148.2
 1.760  0.7321  126.9   0.809   35.8  0.3263   46.2  0.4715  147.8
 1.780  0.7333  126.4   0.805   35.4  0.3291   45.8  0.4718  147.5
 1.800  0.7346  125.9   0.801   35.1  0.3320   45.4  0.4721  147.1
 1.820  0.7345  125.4   0.797   34.6  0.3346   45.0  0.4733  146.7
 1.840  0.7345  124.8   0.792   34.1  0.3373   44.6  0.4746  146.4
 1.860  0.7345  124.3   0.788   33.6  0.3400   44.2  0.4758  146.0
 1.880  0.7346  123.7   0.784   33.0  0.3427   43.8  0.4771  145.7
 1.900  0.7348  123.2   0.780   32.5  0.3454   43.4  0.4784  145.3
 1.920  0.7343  122.7   0.776   32.1  0.3480   43.0  0.4799  144.9
 1.940  0.7338  122.2   0.772   31.7  0.3506   42.6  0.4814  144.5
 1.960  0.7334  121.8   0.768   31.3  0.3533   42.2  0.4830  144.0
 1.980  0.7330  121.3   0.764   30.8  0.3559   41.8  0.4846  143.6
 2.000  0.7327  120.8   0.760   30.4  0.3586   41.4  0.4862  143.2
 2.020  0.7328  120.3   0.757   30.0  0.3610   41.0  0.4869  142.8
 2.040  0.7330  119.8   0.753   29.5  0.3634   40.6  0.4877  142.4
 2.060  0.7332  119.3   0.750   29.1  0.3658   40.2  0.4885  142.0
 2.080  0.7335  118.8   0.747   28.6  0.3682   39.8  0.4893  141.5
 2.100  0.7338  118.3   0.744   28.2  0.3707   39.4  0.4901  141.1
 2.120  0.7342  117.9   0.741   27.7  0.3732   39.1  0.4909  140.7
 2.140  0.7347  117.4   0.738   27.3  0.3757   38.7  0.4918  140.3
 2.160  0.7352  116.9   0.735   26.8  0.3782   38.3  0.4927  139.9
 2.180  0.7357  116.4   0.732   26.4  0.3807   38.0  0.4936  139.5
 2.200  0.7363  115.9   0.729   25.9  0.3832   37.6  0.4946  139.1
 2.220  0.7361  115.4   0.727   25.5  0.3853   37.2  0.4961  138.7
 2.240  0.7360  114.9   0.725   25.1  0.3874   36.8  0.4977  138.3
 2.260  0.7359  114.4   0.723   24.7  0.3895   36.4  0.4993  137.9
 2.280  0.7359  113.9   0.721   24.3  0.3916   36.0  0.5009  137.5
 2.300  0.7359  113.4   0.720   23.9  0.3937   35.6  0.5025  137.1
 2.320  0.7360  112.9   0.718   23.5  0.3959   35.3  0.5041  136.7
 2.340  0.7362  112.4   0.716   23.1  0.3981   34.9  0.5058  136.3
 2.360  0.7364  111.9   0.714   22.6  0.4003   34.5  0.5075  135.9
 2.380  0.7367  111.4   0.713   22.2  0.4025   34.2  0.5093  135.5
 2.400  0.7370  110.9   0.711   21.8  0.4047   33.8  0.5110  135.1
 2.420  0.7376  110.4   0.708   21.5  0.4065   33.4  0.5117  134.7
 2.440  0.7383  109.9   0.706   21.1  0.4083   33.1  0.5125  134.3
 2.460  0.7390  109.4   0.703   20.7  0.4101   32.7  0.5132  133.9
 2.480  0.7398  109.0   0.700   20.4  0.4120   32.3  0.5140  133.6
 2.500  0.7406  108.5   0.698   20.0  0.4138   32.0  0.5148  133.2
 2.520  0.7415  108.0   0.695   19.7  0.4157   31.6  0.5156  132.8
 2.540  0.7424  107.5   0.693   19.3  0.4176   31.2  0.5165  132.4
 2.560  0.7434  107.1   0.690   18.9  0.4195   30.9  0.5174  132.1
 2.580  0.7444  106.6   0.687   18.6  0.4215   30.5  0.5183  131.7
 2.600  0.7455  106.1   0.685   18.2  0.4234   30.2  0.5192  131.3
 2.620  0.7455  105.7   0.683   17.9  0.4249   29.8  0.5208  130.9
 2.640  0.7455  105.3   0.682   17.6  0.4264   29.5  0.5225  130.6
 2.660  0.7455  104.9   0.680   17.3  0.4279   29.1  0.5241  130.2
 2.680  0.7456  104.5   0.679   16.9  0.4294   28.8  0.5258  129.8
 2.700  0.7457  104.1   0.677   16.6  0.4310   28.4  0.5275  129.5
 2.720  0.7458  103.7   0.676   16.3  0.4326   28.1  0.5292  129.1
 2.740  0.7460  103.3   0.674   16.0  0.4342   27.7  0.5310  128.8
 2.760  0.7462  102.9   0.673   15.7  0.4358   27.4  0.5327  128.4
 2.780  0.7465  102.5   0.671   15.3  0.4374   27.0  0.5345  128.0
 2.800  0.7468  102.1   0.670   15.0  0.4390   26.7  0.5363  127.7
 2.820  0.7472  101.7   0.668   14.7  0.4405   26.3  0.5373  127.3
 2.840  0.7477  101.3   0.666   14.4  0.4420   26.0  0.5383  126.9
 2.860  0.7482  101.0   0.664   14.0  0.4435   25.6  0.5393  126.6
 2.880  0.7487  100.6   0.662   13.7  0.4451   25.3  0.5404  126.2
 2.900  0.7493  100.2   0.660   13.4  0.4466   24.9  0.5415  125.8
 2.920  0.7499   99.8   0.658   13.0  0.4482   24.6  0.5426  125.5
 2.940  0.7505   99.4   0.656   12.7  0.4498   24.2  0.5437  125.1
 2.960  0.7512   99.1   0.655   12.4  0.4514   23.9  0.5448  124.7
 2.980  0.7519   98.7   0.653   12.0  0.4531   23.5  0.5460  124.4
 3.000  0.7526   98.3   0.651   11.7  0.4547   23.2  0.5472  124.0
 3.100  0.7533   96.6   0.643   10.4  0.4596   21.6  0.5538  122.3
 3.200  0.7548   94.9   0.636    9.0  0.4649   20.0  0.5609  120.6
 3.300  0.7568   93.2   0.629    7.6  0.4705   18.5  0.5684  119.0
 3.400  0.7596   91.5   0.623    6.2  0.4764   17.0  0.5764  117.4
 3.500  0.7630   89.8   0.617    4.8  0.4827   15.5  0.5848  115.9
 3.600  0.7649   88.4   0.611    3.9  0.4853   14.0  0.5913  114.3
 3.700  0.7673   86.9   0.606    2.9  0.4881   12.6  0.5982  112.7
 3.800  0.7702   85.5   0.601    1.9  0.4913   11.2  0.6055  111.1
 3.900  0.7735   84.1   0.596    0.9  0.4947    9.8  0.6134  109.6
 4.000  0.7773   82.7   0.591   -0.1  0.4985    8.4  0.6216  108.1
 4.100  0.7767   81.5   0.587   -1.2  0.4995    7.2  0.6239  106.7
 4.200  0.7764   80.3   0.582   -2.3  0.5007    5.9  0.6265  105.2
 4.300  0.7765   79.1   0.578   -3.4  0.5021    4.7  0.6296  103.8
 4.400  0.7769   77.9   0.575   -4.5  0.5038    3.5  0.6330  102.4
 4.500  0.7777   76.7   0.571   -5.7  0.5057    2.3  0.6368  101.0
 4.600  0.7785   75.7   0.568   -6.5  0.5064    1.3  0.6380   99.7
 4.700  0.7795   74.6   0.566   -7.4  0.5073    0.2  0.6396   98.4
 4.800  0.7808   73.6   0.563   -8.2  0.5084   -0.8  0.6414   97.1
 4.900  0.7823   72.5   0.561   -9.0  0.5096   -1.9  0.6436   95.9
 5.000  0.7841   71.5   0.559   -9.9  0.5110   -2.9  0.6461   94.6
 5.100  0.7815   70.6   0.558  -10.1  0.5140   -3.4  0.6442   94.5
 5.200  0.7790   69.6   0.557  -10.3  0.5171   -3.9  0.6423   94.4
 5.300  0.7768   68.7   0.556  -10.6  0.5202   -4.4  0.6404   94.3
 5.400  0.7748   67.8   0.555  -10.8  0.5234   -4.9  0.6385   94.2
 5.500  0.7730   66.8   0.554  -11.0  0.5266   -5.4  0.6366   94.1
 5.600  0.7727   66.0   0.554  -12.0  0.5290   -6.6  0.6442   92.8
 5.700  0.7725   65.2   0.555  -12.9  0.5317   -7.8  0.6520   91.6
 5.800  0.7725   64.5   0.555  -13.9  0.5345   -9.0  0.6602   90.4
 5.900  0.7726   63.7   0.556  -14.8  0.5377  -10.2  0.6686   89.2
 6.000  0.7729   62.9   0.557  -15.8  0.5410  -11.4  0.6773   88.1
!
!  f       NFmin   Gammaopt  rn/50
! GHz       dB    MAG  ANG    -
!
! noise parameter not available yet for this operation point!
!
! (c) 2015  Infineon Technologies AG, Munich
