! Infineon Technologies  Discrete & RF Semiconductors
! BFR182
! VCE = 0.75 V,  IC =  10 mA
! Common Emitter S-Parameters:                            Nov 2015
# GHz  S  MA  R  50
!  f         S11            S21            S12            S22
! GHz     MAG   ANG      MAG   ANG      MAG   ANG      MAG   ANG
 0.010  0.6650   -5.7  23.241  175.9  0.0025   85.9  0.9524   -2.6
 0.015  0.6595   -8.3  22.999  173.8  0.0039   84.1  0.9489   -3.9
 0.020  0.6554  -10.9  22.790  171.6  0.0053   83.3  0.9459   -5.2
 0.025  0.6483  -13.5  22.613  169.7  0.0065   81.6  0.9393   -6.4
 0.030  0.6425  -16.2  22.461  167.9  0.0078   80.4  0.9331   -7.5
 0.035  0.6382  -18.9  22.333  165.9  0.0090   79.6  0.9273   -8.7
 0.040  0.6353  -21.7  22.230  164.0  0.0103   78.9  0.9219   -9.9
 0.045  0.6339  -24.4  22.153  162.1  0.0115   78.4  0.9169  -11.2
 0.050  0.6340  -27.2  22.101  160.1  0.0128   78.0  0.9123  -12.4
 0.055  0.6227  -29.3  21.757  158.6  0.0138   76.4  0.9016  -13.3
 0.060  0.6122  -31.4  21.427  157.1  0.0148   75.1  0.8911  -14.1
 0.065  0.6026  -33.7  21.112  155.6  0.0158   73.9  0.8808  -15.0
 0.070  0.5940  -35.9  20.814  154.0  0.0169   72.9  0.8707  -15.9
 0.075  0.5863  -38.3  20.532  152.3  0.0179   71.9  0.8609  -16.9
 0.080  0.5796  -40.7  20.267  150.7  0.0189   71.1  0.8513  -17.8
 0.085  0.5740  -43.2  20.020  148.9  0.0200   70.4  0.8419  -18.8
 0.090  0.5695  -45.7  19.792  147.2  0.0210   69.7  0.8328  -19.8
 0.095  0.5661  -48.2  19.584  145.3  0.0221   69.1  0.8240  -20.9
 0.100  0.5638  -50.8  19.395  143.5  0.0231   68.6  0.8154  -21.9
 0.105  0.5538  -52.5  19.056  142.4  0.0239   68.1  0.8052  -22.4
 0.110  0.5442  -54.2  18.724  141.2  0.0246   67.6  0.7951  -22.9
 0.115  0.5352  -56.0  18.400  140.1  0.0254   67.1  0.7850  -23.4
 0.120  0.5267  -57.8  18.084  138.8  0.0262   66.6  0.7750  -23.9
 0.125  0.5187  -59.7  17.777  137.5  0.0269   66.2  0.7651  -24.5
 0.130  0.5114  -61.7  17.479  136.2  0.0277   65.8  0.7552  -25.0
 0.135  0.5046  -63.7  17.191  134.9  0.0285   65.4  0.7454  -25.6
 0.140  0.4985  -65.7  16.913  133.5  0.0292   65.1  0.7357  -26.2
 0.145  0.4931  -67.8  16.645  132.0  0.0300   64.7  0.7261  -26.8
 0.150  0.4883  -70.0  16.388  130.5  0.0308   64.4  0.7165  -27.4
 0.155  0.4813  -71.5  16.129  129.7  0.0314   64.1  0.7084  -27.7
 0.160  0.4745  -73.0  15.874  128.9  0.0320   63.8  0.7002  -27.9
 0.165  0.4682  -74.6  15.623  128.0  0.0326   63.6  0.6921  -28.2
 0.170  0.4622  -76.2  15.374  127.1  0.0332   63.3  0.6840  -28.5
 0.175  0.4565  -77.8  15.130  126.2  0.0337   63.0  0.6760  -28.8
 0.180  0.4513  -79.5  14.890  125.2  0.0343   62.8  0.6679  -29.1
 0.185  0.4464  -81.2  14.654  124.2  0.0349   62.6  0.6599  -29.4
 0.190  0.4420  -83.0  14.423  123.2  0.0355   62.3  0.6519  -29.7
 0.195  0.4380  -84.8  14.196  122.2  0.0361   62.1  0.6439  -30.1
 0.200  0.4344  -86.6  13.974  121.1  0.0367   61.9  0.6359  -30.4
 0.220  0.4125  -91.5  13.126  118.5  0.0386   61.3  0.6104  -30.9
 0.240  0.3940  -96.9  12.308  115.5  0.0405   60.8  0.5850  -31.4
 0.260  0.3800 -101.8  11.595  113.0  0.0424   60.6  0.5638  -31.8
 0.280  0.3690 -106.0  10.969  111.0  0.0443   60.9  0.5467  -31.9
 0.300  0.3601 -110.4  10.359  108.7  0.0462   61.1  0.5297  -32.1
 0.320  0.3485 -113.8   9.910  107.4  0.0479   61.2  0.5182  -32.0
 0.340  0.3381 -117.4   9.466  106.0  0.0497   61.4  0.5068  -32.0
 0.360  0.3292 -121.3   9.028  104.4  0.0514   61.5  0.4953  -31.9
 0.380  0.3219 -125.3   8.598  102.7  0.0532   61.6  0.4839  -31.9
 0.400  0.3162 -129.5   8.177  100.8  0.0549   61.7  0.4724  -31.8
 0.420  0.3114 -132.2   7.864   99.7  0.0567   62.0  0.4646  -31.7
 0.440  0.3073 -134.9   7.555   98.5  0.0584   62.3  0.4568  -31.6
 0.450  0.3055 -136.3   7.401   97.8  0.0593   62.4  0.4529  -31.5
 0.460  0.3038 -137.7   7.249   97.2  0.0602   62.5  0.4490  -31.5
 0.480  0.3012 -140.6   6.947   95.8  0.0619   62.8  0.4412  -31.3
 0.500  0.2993 -143.5   6.650   94.2  0.0637   63.0  0.4334  -31.2
 0.520  0.2970 -145.6   6.448   93.3  0.0656   63.2  0.4288  -31.1
 0.540  0.2950 -147.6   6.247   92.4  0.0675   63.4  0.4241  -31.0
 0.560  0.2934 -149.7   6.048   91.3  0.0694   63.6  0.4195  -31.0
 0.580  0.2923 -151.9   5.851   90.3  0.0713   63.8  0.4148  -30.9
 0.600  0.2915 -154.0   5.656   89.1  0.0732   64.0  0.4102  -30.8
 0.620  0.2889 -155.7   5.507   88.3  0.0750   64.1  0.4074  -30.8
 0.640  0.2866 -157.5   5.360   87.5  0.0768   64.3  0.4046  -30.8
 0.660  0.2845 -159.3   5.213   86.6  0.0787   64.4  0.4017  -30.7
 0.680  0.2827 -161.1   5.068   85.7  0.0805   64.5  0.3989  -30.7
 0.700  0.2812 -162.9   4.924   84.7  0.0823   64.6  0.3961  -30.7
 0.720  0.2803 -164.6   4.804   84.0  0.0842   64.6  0.3939  -30.7
 0.740  0.2796 -166.4   4.685   83.3  0.0862   64.6  0.3917  -30.7
 0.760  0.2791 -168.2   4.567   82.5  0.0881   64.7  0.3896  -30.8
 0.780  0.2790 -169.9   4.450   81.7  0.0901   64.7  0.3874  -30.8
 0.800  0.2791 -171.7   4.334   80.8  0.0920   64.7  0.3852  -30.8
 0.820  0.2787 -173.1   4.241   80.1  0.0940   64.8  0.3835  -30.9
 0.840  0.2784 -174.4   4.148   79.4  0.0959   64.8  0.3818  -30.9
 0.860  0.2783 -175.8   4.057   78.7  0.0979   64.9  0.3801  -31.0
 0.880  0.2784 -177.1   3.965   77.9  0.0998   64.9  0.3784  -31.0
 0.900  0.2786 -178.5   3.875   77.1  0.1018   65.0  0.3767  -31.1
 0.920  0.2795  180.0   3.802   76.5  0.1037   65.0  0.3750  -31.2
 0.940  0.2805  178.5   3.730   75.9  0.1056   65.1  0.3733  -31.4
 0.960  0.2818  177.0   3.658   75.2  0.1074   65.1  0.3716  -31.5
 0.980  0.2833  175.5   3.587   74.5  0.1093   65.2  0.3699  -31.7
 1.000  0.2849  174.0   3.516   73.8  0.1112   65.2  0.3682  -31.8
 1.020  0.2854  172.8   3.457   73.2  0.1132   65.1  0.3668  -32.0
 1.040  0.2859  171.7   3.399   72.6  0.1152   65.0  0.3654  -32.2
 1.060  0.2866  170.5   3.341   72.0  0.1172   65.0  0.3640  -32.5
 1.080  0.2875  169.3   3.284   71.4  0.1192   64.9  0.3627  -32.7
 1.100  0.2884  168.2   3.227   70.7  0.1212   64.8  0.3613  -32.9
 1.120  0.2889  167.1   3.177   70.1  0.1232   64.8  0.3601  -33.1
 1.140  0.2895  165.9   3.128   69.5  0.1252   64.7  0.3589  -33.3
 1.160  0.2902  164.8   3.080   68.9  0.1272   64.7  0.3577  -33.4
 1.180  0.2911  163.7   3.031   68.3  0.1292   64.6  0.3565  -33.6
 1.200  0.2920  162.6   2.983   67.6  0.1312   64.6  0.3553  -33.8
 1.220  0.2916  161.8   2.939   67.1  0.1332   64.5  0.3544  -34.0
 1.240  0.2912  161.0   2.895   66.6  0.1352   64.4  0.3534  -34.3
 1.260  0.2909  160.1   2.851   66.0  0.1371   64.3  0.3525  -34.5
 1.280  0.2906  159.3   2.807   65.5  0.1391   64.2  0.3516  -34.8
 1.300  0.2904  158.5   2.764   64.9  0.1411   64.1  0.3507  -35.0
 1.320  0.2920  157.5   2.729   64.4  0.1431   64.0  0.3497  -35.3
 1.340  0.2938  156.5   2.693   63.9  0.1450   63.9  0.3486  -35.6
 1.360  0.2956  155.5   2.658   63.4  0.1470   63.7  0.3476  -35.9
 1.380  0.2975  154.5   2.624   62.8  0.1489   63.6  0.3466  -36.2
 1.400  0.2995  153.5   2.589   62.3  0.1509   63.5  0.3456  -36.5
 1.420  0.2996  152.9   2.561   61.8  0.1529   63.4  0.3449  -36.7
 1.440  0.2997  152.3   2.533   61.3  0.1549   63.2  0.3441  -37.0
 1.460  0.2998  151.7   2.506   60.8  0.1569   63.1  0.3434  -37.2
 1.480  0.3000  151.1   2.478   60.2  0.1589   62.9  0.3427  -37.5
 1.500  0.3002  150.5   2.451   59.7  0.1609   62.8  0.3420  -37.7
 1.520  0.3023  149.3   2.420   59.1  0.1629   62.7  0.3412  -38.0
 1.540  0.3045  148.2   2.390   58.6  0.1650   62.6  0.3405  -38.3
 1.560  0.3069  147.1   2.360   58.0  0.1670   62.5  0.3398  -38.6
 1.580  0.3093  146.0   2.330   57.4  0.1691   62.4  0.3390  -38.9
 1.600  0.3119  144.9   2.300   56.8  0.1711   62.3  0.3383  -39.2
 1.620  0.3135  144.2   2.275   56.3  0.1730   62.2  0.3372  -39.5
 1.640  0.3151  143.5   2.251   55.8  0.1750   62.0  0.3361  -39.8
 1.660  0.3167  142.8   2.226   55.2  0.1769   61.9  0.3350  -40.0
 1.680  0.3185  142.2   2.202   54.7  0.1789   61.7  0.3339  -40.3
 1.700  0.3202  141.5   2.178   54.1  0.1808   61.6  0.3328  -40.6
 1.720  0.3222  140.7   2.157   53.7  0.1829   61.4  0.3316  -41.0
 1.740  0.3243  139.9   2.136   53.2  0.1850   61.3  0.3305  -41.4
 1.760  0.3265  139.1   2.116   52.7  0.1870   61.1  0.3294  -41.8
 1.780  0.3287  138.4   2.095   52.3  0.1891   61.0  0.3283  -42.2
 1.800  0.3310  137.6   2.075   51.8  0.1912   60.8  0.3272  -42.6
 1.820  0.3323  137.1   2.056   51.3  0.1932   60.6  0.3259  -43.0
 1.840  0.3336  136.5   2.038   50.8  0.1953   60.4  0.3246  -43.4
 1.860  0.3350  136.0   2.020   50.3  0.1973   60.2  0.3234  -43.7
 1.880  0.3364  135.5   2.002   49.7  0.1994   60.1  0.3221  -44.1
 1.900  0.3378  135.0   1.984   49.2  0.2014   59.9  0.3209  -44.5
 1.920  0.3396  134.3   1.965   48.7  0.2034   59.7  0.3199  -44.9
 1.940  0.3414  133.6   1.946   48.3  0.2054   59.5  0.3188  -45.3
 1.960  0.3432  132.9   1.928   47.8  0.2075   59.3  0.3178  -45.6
 1.980  0.3451  132.3   1.909   47.3  0.2095   59.2  0.3168  -46.0
 2.000  0.3471  131.6   1.891   46.8  0.2115   59.0  0.3158  -46.4
 2.020  0.3482  131.0   1.877   46.4  0.2135   58.8  0.3145  -46.8
 2.040  0.3493  130.4   1.862   46.0  0.2156   58.6  0.3133  -47.2
 2.060  0.3505  129.8   1.848   45.5  0.2177   58.4  0.3121  -47.6
 2.080  0.3518  129.1   1.834   45.1  0.2197   58.2  0.3108  -48.0
 2.100  0.3530  128.5   1.820   44.6  0.2218   58.1  0.3096  -48.5
 2.120  0.3543  127.9   1.806   44.2  0.2238   57.9  0.3085  -48.9
 2.140  0.3557  127.4   1.793   43.7  0.2259   57.7  0.3073  -49.3
 2.160  0.3570  126.8   1.779   43.3  0.2280   57.5  0.3061  -49.7
 2.180  0.3584  126.2   1.765   42.8  0.2300   57.4  0.3050  -50.2
 2.200  0.3599  125.6   1.752   42.3  0.2321   57.2  0.3039  -50.6
 2.220  0.3621  125.0   1.740   41.8  0.2342   57.0  0.3022  -51.0
 2.240  0.3643  124.4   1.727   41.4  0.2362   56.8  0.3005  -51.4
 2.260  0.3665  123.8   1.715   40.9  0.2383   56.6  0.2988  -51.9
 2.280  0.3688  123.2   1.703   40.5  0.2403   56.4  0.2971  -52.3
 2.300  0.3712  122.6   1.692   40.0  0.2424   56.2  0.2954  -52.7
 2.320  0.3735  122.0   1.680   39.5  0.2445   56.0  0.2938  -53.2
 2.340  0.3760  121.5   1.668   39.0  0.2466   55.8  0.2922  -53.6
 2.360  0.3784  120.9   1.657   38.5  0.2486   55.7  0.2906  -54.1
 2.380  0.3809  120.3   1.645   38.0  0.2507   55.5  0.2890  -54.5
 2.400  0.3834  119.8   1.634   37.5  0.2528   55.3  0.2874  -55.0
 2.420  0.3853  119.3   1.624   37.1  0.2547   55.1  0.2859  -55.5
 2.440  0.3873  118.8   1.613   36.7  0.2567   54.8  0.2844  -55.9
 2.460  0.3892  118.2   1.603   36.4  0.2586   54.6  0.2830  -56.4
 2.480  0.3912  117.7   1.593   36.0  0.2606   54.4  0.2816  -56.9
 2.500  0.3933  117.2   1.583   35.6  0.2625   54.2  0.2802  -57.3
 2.520  0.3953  116.7   1.573   35.2  0.2645   53.9  0.2788  -57.8
 2.540  0.3974  116.2   1.563   34.8  0.2664   53.7  0.2774  -58.3
 2.560  0.3996  115.8   1.553   34.3  0.2684   53.5  0.2760  -58.8
 2.580  0.4017  115.3   1.544   33.9  0.2703   53.3  0.2747  -59.3
 2.600  0.4039  114.8   1.534   33.5  0.2723   53.1  0.2734  -59.8
 2.620  0.4056  114.3   1.525   33.1  0.2744   52.9  0.2716  -60.4
 2.640  0.4073  113.8   1.516   32.7  0.2766   52.7  0.2698  -60.9
 2.660  0.4090  113.3   1.506   32.3  0.2787   52.5  0.2681  -61.5
 2.680  0.4107  112.8   1.497   31.9  0.2808   52.3  0.2664  -62.1
 2.700  0.4125  112.3   1.489   31.5  0.2830   52.1  0.2647  -62.7
 2.720  0.4143  111.8   1.480   31.0  0.2851   51.9  0.2630  -63.3
 2.740  0.4162  111.3   1.471   30.6  0.2872   51.7  0.2614  -63.9
 2.760  0.4181  110.8   1.462   30.2  0.2894   51.5  0.2598  -64.5
 2.780  0.4200  110.4   1.454   29.7  0.2915   51.3  0.2582  -65.2
 2.800  0.4219  109.9   1.445   29.3  0.2937   51.1  0.2567  -65.8
 2.820  0.4238  109.5   1.437   28.9  0.2956   50.8  0.2549  -66.4
 2.840  0.4256  109.2   1.430   28.5  0.2976   50.6  0.2532  -67.0
 2.860  0.4275  108.8   1.422   28.1  0.2996   50.3  0.2514  -67.5
 2.880  0.4294  108.5   1.415   27.7  0.3015   50.1  0.2497  -68.1
 2.900  0.4313  108.1   1.408   27.4  0.3035   49.9  0.2480  -68.7
 2.920  0.4333  107.8   1.400   26.9  0.3055   49.6  0.2464  -69.4
 2.940  0.4352  107.4   1.393   26.5  0.3074   49.4  0.2448  -70.0
 2.960  0.4372  107.1   1.386   26.1  0.3094   49.2  0.2432  -70.6
 2.980  0.4392  106.7   1.379   25.7  0.3114   48.9  0.2416  -71.3
 3.000  0.4412  106.4   1.372   25.3  0.3134   48.7  0.2401  -71.9
 3.100  0.4522  104.4   1.336   23.6  0.3230   47.4  0.2296  -75.6
 3.200  0.4638  102.5   1.302   21.9  0.3327   46.2  0.2202  -79.6
 3.300  0.4759  100.7   1.269   20.1  0.3426   45.0  0.2120  -83.9
 3.400  0.4884   98.9   1.237   18.1  0.3526   43.9  0.2050  -88.6
 3.500  0.5013   97.3   1.207   16.1  0.3627   42.9  0.1995  -93.5
 3.600  0.5101   95.7   1.182   14.6  0.3715   41.5  0.1905  -98.7
 3.700  0.5193   94.2   1.157   13.1  0.3806   40.2  0.1833 -104.4
 3.800  0.5288   92.7   1.134   11.4  0.3899   38.9  0.1780 -110.5
 3.900  0.5387   91.3   1.112    9.8  0.3993   37.7  0.1749 -117.0
 4.000  0.5489   89.9   1.090    8.0  0.4089   36.5  0.1740 -123.5
 4.100  0.5570   88.5   1.069    6.6  0.4169   35.1  0.1704 -130.0
 4.200  0.5654   87.2   1.048    5.1  0.4251   33.7  0.1692 -136.7
 4.300  0.5741   85.9   1.028    3.6  0.4336   32.4  0.1702 -143.4
 4.400  0.5830   84.6   1.008    2.0  0.4423   31.1  0.1736 -150.0
 4.500  0.5923   83.4   0.990    0.4  0.4512   29.9  0.1791 -156.2
 4.600  0.5977   82.2   0.973   -0.8  0.4584   28.6  0.1819 -161.9
 4.700  0.6034   81.0   0.957   -2.1  0.4658   27.3  0.1864 -167.4
 4.800  0.6094   79.8   0.942   -3.4  0.4734   26.0  0.1925 -172.6
 4.900  0.6156   78.6   0.927   -4.7  0.4813   24.8  0.2001 -177.4
 5.000  0.6221   77.5   0.912   -6.1  0.4894   23.6  0.2090  178.1
 5.100  0.6275   76.4   0.897   -7.1  0.4955   22.2  0.2153  173.4
 5.200  0.6331   75.4   0.883   -8.2  0.5019   20.9  0.2231  168.9
 5.300  0.6390   74.3   0.869   -9.2  0.5085   19.5  0.2320  164.8
 5.400  0.6450   73.3   0.855  -10.4  0.5154   18.3  0.2421  161.0
 5.500  0.6513   72.3   0.842  -11.5  0.5226   17.0  0.2532  157.5
 5.600  0.6551   71.2   0.829  -12.5  0.5263   15.5  0.2576  153.5
 5.700  0.6591   70.1   0.816  -13.4  0.5304   14.1  0.2632  149.7
 5.800  0.6634   69.1   0.803  -14.5  0.5348   12.7  0.2699  146.0
 5.900  0.6679   68.0   0.790  -15.5  0.5396   11.3  0.2776  142.6
 6.000  0.6726   67.0   0.778  -16.6  0.5446    9.9  0.2863  139.3
!
!  f       NFmin   Gammaopt  rn/50
! GHz       dB    MAG  ANG    -
!
! noise parameter not available yet for this operation point!
!
! (c) 2015  Infineon Technologies AG, Munich
