! Infineon Technologies  Discrete & RF Semiconductors
! BFR35AP
! VCE =  12. V,  IC =  6.0 mA
! Common Emitter S-Parameters:                            Nov 2015
# GHz  S  MA  R  50
!  f         S11            S21            S12            S22
! GHz     MAG   ANG      MAG   ANG      MAG   ANG      MAG   ANG
 0.010  0.8522   -3.1  15.549  176.7  0.0021   79.7  0.9906   -1.2
 0.015  0.8504   -4.6  15.337  175.3  0.0032   80.9  0.9874   -1.9
 0.020  0.8492   -6.1  15.135  173.9  0.0044   81.5  0.9843   -2.6
 0.025  0.8461   -7.6  15.113  172.7  0.0054   81.8  0.9821   -3.2
 0.030  0.8435   -9.1  15.099  171.4  0.0065   81.9  0.9800   -3.9
 0.035  0.8416  -10.6  15.091  170.2  0.0075   82.1  0.9780   -4.5
 0.040  0.8402  -12.1  15.091  168.9  0.0085   82.2  0.9762   -5.1
 0.045  0.8395  -13.7  15.098  167.6  0.0096   82.2  0.9744   -5.8
 0.050  0.8393  -15.2  15.112  166.4  0.0106   82.3  0.9728   -6.4
 0.055  0.8309  -16.5  15.008  165.2  0.0116   81.1  0.9680   -6.9
 0.060  0.8230  -17.9  14.910  164.1  0.0125   80.0  0.9633   -7.5
 0.065  0.8155  -19.2  14.818  162.9  0.0135   79.1  0.9586   -8.0
 0.070  0.8085  -20.6  14.733  161.7  0.0145   78.3  0.9541   -8.6
 0.075  0.8020  -22.1  14.654  160.5  0.0154   77.6  0.9496   -9.1
 0.080  0.7960  -23.5  14.582  159.2  0.0164   77.0  0.9452   -9.7
 0.085  0.7905  -25.0  14.517  158.0  0.0174   76.5  0.9410  -10.3
 0.090  0.7855  -26.5  14.459  156.7  0.0183   76.0  0.9368  -10.8
 0.095  0.7811  -28.0  14.407  155.5  0.0193   75.6  0.9327  -11.4
 0.100  0.7772  -29.5  14.363  154.2  0.0203   75.2  0.9287  -12.0
 0.105  0.7689  -30.6  14.198  153.2  0.0211   74.3  0.9233  -12.4
 0.110  0.7608  -31.8  14.039  152.1  0.0219   73.5  0.9180  -12.8
 0.115  0.7531  -32.9  13.884  151.0  0.0227   72.7  0.9128  -13.2
 0.120  0.7457  -34.1  13.734  149.9  0.0235   72.0  0.9075  -13.7
 0.125  0.7386  -35.4  13.589  148.8  0.0244   71.3  0.9024  -14.1
 0.130  0.7318  -36.6  13.450  147.6  0.0252   70.7  0.8972  -14.5
 0.135  0.7255  -37.9  13.316  146.5  0.0260   70.1  0.8922  -15.0
 0.140  0.7194  -39.2  13.188  145.3  0.0268   69.6  0.8872  -15.4
 0.145  0.7138  -40.5  13.066  144.0  0.0277   69.1  0.8822  -15.8
 0.150  0.7085  -41.8  12.950  142.8  0.0285   68.6  0.8773  -16.3
 0.155  0.7004  -42.8  12.829  142.0  0.0291   68.2  0.8718  -16.6
 0.160  0.6924  -43.9  12.710  141.1  0.0298   67.9  0.8662  -16.9
 0.165  0.6847  -44.9  12.594  140.2  0.0304   67.6  0.8608  -17.1
 0.170  0.6773  -46.0  12.481  139.4  0.0311   67.2  0.8553  -17.4
 0.175  0.6701  -47.1  12.371  138.4  0.0317   66.9  0.8498  -17.7
 0.180  0.6632  -48.2  12.265  137.5  0.0324   66.7  0.8444  -18.0
 0.185  0.6565  -49.4  12.161  136.6  0.0330   66.4  0.8390  -18.3
 0.190  0.6501  -50.6  12.061  135.6  0.0337   66.1  0.8336  -18.6
 0.195  0.6439  -51.8  11.964  134.7  0.0343   65.8  0.8282  -18.9
 0.200  0.6381  -53.0  11.871  133.7  0.0350   65.6  0.8229  -19.2
 0.220  0.6088  -56.7  11.354  130.7  0.0370   64.1  0.8020  -20.0
 0.240  0.5824  -60.8  10.870  127.5  0.0391   62.8  0.7812  -20.8
 0.260  0.5582  -64.4  10.404  124.7  0.0411   61.9  0.7630  -21.4
 0.280  0.5348  -67.3   9.939  122.4  0.0432   61.4  0.7473  -21.9
 0.300  0.5130  -70.5   9.492  119.9  0.0452   60.9  0.7317  -22.4
 0.320  0.4920  -72.9   9.143  118.3  0.0468   60.7  0.7199  -22.6
 0.340  0.4719  -75.6   8.802  116.5  0.0484   60.5  0.7080  -22.8
 0.360  0.4529  -78.4   8.470  114.6  0.0501   60.3  0.6962  -23.0
 0.380  0.4351  -81.5   8.148  112.5  0.0517   60.1  0.6844  -23.2
 0.400  0.4187  -84.9   7.838  110.3  0.0533   59.9  0.6726  -23.4
 0.420  0.4022  -87.0   7.572  108.9  0.0546   59.9  0.6639  -23.5
 0.440  0.3863  -89.2   7.310  107.4  0.0559   59.8  0.6552  -23.6
 0.450  0.3785  -90.4   7.182  106.6  0.0565   59.8  0.6508  -23.6
 0.460  0.3710  -91.7   7.055  105.7  0.0572   59.8  0.6465  -23.6
 0.480  0.3564  -94.3   6.805  104.0  0.0585   59.7  0.6378  -23.7
 0.500  0.3427  -97.2   6.562  102.1  0.0598   59.7  0.6291  -23.8
 0.520  0.3339  -99.2   6.375  101.1  0.0613   59.8  0.6239  -23.8
 0.540  0.3255 -101.2   6.190   99.9  0.0628   60.0  0.6186  -23.9
 0.560  0.3175 -103.4   6.008   98.8  0.0643   60.1  0.6134  -23.9
 0.580  0.3101 -105.7   5.829   97.5  0.0658   60.2  0.6081  -24.0
 0.600  0.3031 -108.1   5.652   96.2  0.0673   60.3  0.6029  -24.0
 0.620  0.2948 -109.7   5.508   95.3  0.0687   60.4  0.5993  -24.1
 0.640  0.2868 -111.5   5.365   94.3  0.0701   60.4  0.5957  -24.1
 0.660  0.2791 -113.3   5.224   93.2  0.0716   60.5  0.5921  -24.2
 0.680  0.2717 -115.3   5.084   92.2  0.0730   60.5  0.5885  -24.2
 0.700  0.2646 -117.3   4.947   91.0  0.0744   60.6  0.5849  -24.3
 0.720  0.2587 -119.4   4.831   90.2  0.0759   60.6  0.5821  -24.4
 0.740  0.2531 -121.5   4.716   89.3  0.0774   60.7  0.5792  -24.5
 0.760  0.2480 -123.7   4.602   88.4  0.0789   60.7  0.5764  -24.6
 0.780  0.2432 -126.1   4.489   87.4  0.0804   60.8  0.5735  -24.7
 0.800  0.2388 -128.5   4.378   86.4  0.0819   60.8  0.5707  -24.8
 0.820  0.2336 -130.0   4.290   85.6  0.0835   60.9  0.5686  -24.9
 0.840  0.2286 -131.6   4.203   84.8  0.0851   61.0  0.5665  -25.0
 0.860  0.2237 -133.3   4.117   83.9  0.0866   61.1  0.5645  -25.0
 0.880  0.2190 -135.0   4.031   83.0  0.0882   61.2  0.5624  -25.1
 0.900  0.2146 -136.8   3.947   82.1  0.0898   61.3  0.5603  -25.2
 0.920  0.2106 -139.0   3.878   81.4  0.0912   61.4  0.5586  -25.3
 0.940  0.2069 -141.4   3.810   80.7  0.0927   61.5  0.5569  -25.5
 0.960  0.2036 -143.8   3.743   80.0  0.0941   61.6  0.5552  -25.6
 0.980  0.2007 -146.3   3.676   79.2  0.0956   61.7  0.5535  -25.8
 1.000  0.1981 -148.8   3.610   78.4  0.0970   61.8  0.5518  -25.9
 1.020  0.1961 -150.8   3.552   77.8  0.0985   61.8  0.5503  -26.1
 1.040  0.1944 -152.8   3.494   77.1  0.1001   61.9  0.5488  -26.3
 1.060  0.1929 -154.8   3.437   76.4  0.1016   61.9  0.5473  -26.5
 1.080  0.1917 -156.9   3.380   75.7  0.1032   62.0  0.5459  -26.7
 1.100  0.1907 -159.0   3.324   75.0  0.1047   62.0  0.5444  -26.9
 1.120  0.1900 -160.7   3.273   74.3  0.1063   62.0  0.5431  -27.1
 1.140  0.1894 -162.5   3.223   73.7  0.1079   62.1  0.5418  -27.2
 1.160  0.1890 -164.3   3.173   73.0  0.1094   62.1  0.5405  -27.4
 1.180  0.1888 -166.0   3.124   72.2  0.1110   62.2  0.5393  -27.5
 1.200  0.1888 -167.8   3.075   71.5  0.1126   62.2  0.5380  -27.7
 1.220  0.1878 -169.4   3.030   70.9  0.1142   62.1  0.5371  -27.9
 1.240  0.1870 -171.0   2.985   70.4  0.1158   62.1  0.5362  -28.1
 1.260  0.1864 -172.6   2.940   69.8  0.1175   62.0  0.5353  -28.3
 1.280  0.1859 -174.3   2.896   69.1  0.1191   62.0  0.5344  -28.5
 1.300  0.1855 -175.9   2.852   68.5  0.1207   61.9  0.5335  -28.7
 1.320  0.1845 -177.6   2.813   67.9  0.1222   61.9  0.5326  -28.9
 1.340  0.1836 -179.3   2.774   67.3  0.1237   61.9  0.5318  -29.2
 1.360  0.1829  179.0   2.736   66.8  0.1251   61.8  0.5309  -29.4
 1.380  0.1824  177.2   2.698   66.1  0.1266   61.8  0.5300  -29.7
 1.400  0.1820  175.5   2.660   65.5  0.1281   61.8  0.5292  -29.9
 1.420  0.1828  174.4   2.630   65.0  0.1297   61.7  0.5284  -30.1
 1.440  0.1837  173.3   2.601   64.5  0.1313   61.6  0.5277  -30.4
 1.460  0.1847  172.2   2.572   63.9  0.1330   61.6  0.5269  -30.6
 1.480  0.1857  171.1   2.543   63.4  0.1346   61.5  0.5261  -30.9
 1.500  0.1868  170.0   2.514   62.8  0.1362   61.4  0.5254  -31.1
 1.520  0.1881  168.2   2.484   62.2  0.1379   61.3  0.5243  -31.4
 1.540  0.1896  166.4   2.453   61.6  0.1396   61.3  0.5232  -31.6
 1.560  0.1913  164.7   2.424   60.9  0.1412   61.2  0.5221  -31.9
 1.580  0.1932  163.0   2.394   60.3  0.1429   61.2  0.5211  -32.1
 1.600  0.1952  161.3   2.365   59.6  0.1446   61.1  0.5200  -32.4
 1.620  0.1963  159.8   2.342   59.1  0.1462   61.1  0.5191  -32.7
 1.640  0.1975  158.4   2.318   58.6  0.1478   61.0  0.5183  -32.9
 1.660  0.1989  157.0   2.295   58.0  0.1495   61.0  0.5174  -33.2
 1.680  0.2003  155.6   2.273   57.5  0.1511   60.9  0.5166  -33.4
 1.700  0.2019  154.2   2.250   56.9  0.1527   60.9  0.5158  -33.7
 1.720  0.2024  153.1   2.230   56.4  0.1543   60.8  0.5150  -34.0
 1.740  0.2030  152.1   2.210   55.9  0.1560   60.7  0.5143  -34.3
 1.760  0.2036  151.0   2.191   55.4  0.1576   60.6  0.5135  -34.5
 1.780  0.2043  149.9   2.171   54.9  0.1593   60.5  0.5128  -34.8
 1.800  0.2051  148.9   2.152   54.4  0.1609   60.4  0.5121  -35.1
 1.820  0.2081  148.0   2.134   53.9  0.1626   60.3  0.5111  -35.4
 1.840  0.2110  147.2   2.115   53.3  0.1643   60.2  0.5101  -35.7
 1.860  0.2141  146.4   2.097   52.8  0.1659   60.2  0.5092  -36.1
 1.880  0.2172  145.6   2.080   52.3  0.1676   60.1  0.5082  -36.4
 1.900  0.2203  144.8   2.062   51.7  0.1693   60.0  0.5073  -36.7
 1.920  0.2211  143.8   2.043   51.2  0.1711   59.9  0.5061  -37.0
 1.940  0.2220  142.8   2.024   50.7  0.1729   59.8  0.5050  -37.3
 1.960  0.2230  141.8   2.005   50.2  0.1747   59.7  0.5038  -37.6
 1.980  0.2240  140.8   1.986   49.6  0.1765   59.6  0.5027  -37.9
 2.000  0.2251  139.8   1.968   49.1  0.1783   59.5  0.5016  -38.2
 2.020  0.2269  139.0   1.952   48.6  0.1800   59.4  0.5006  -38.5
 2.040  0.2287  138.1   1.936   48.2  0.1817   59.2  0.4996  -38.9
 2.060  0.2306  137.3   1.920   47.7  0.1834   59.1  0.4987  -39.2
 2.080  0.2325  136.5   1.905   47.2  0.1851   59.0  0.4978  -39.5
 2.100  0.2345  135.7   1.889   46.7  0.1868   58.8  0.4968  -39.8
 2.120  0.2365  135.0   1.874   46.3  0.1885   58.7  0.4959  -40.2
 2.140  0.2386  134.2   1.859   45.8  0.1902   58.6  0.4951  -40.5
 2.160  0.2407  133.5   1.844   45.2  0.1919   58.4  0.4942  -40.8
 2.180  0.2428  132.7   1.829   44.7  0.1936   58.3  0.4933  -41.2
 2.200  0.2450  132.0   1.814   44.2  0.1953   58.2  0.4925  -41.5
 2.220  0.2471  131.1   1.803   43.7  0.1971   58.1  0.4910  -41.9
 2.240  0.2493  130.2   1.791   43.3  0.1989   57.9  0.4896  -42.2
 2.260  0.2515  129.3   1.780   42.8  0.2007   57.8  0.4882  -42.6
 2.280  0.2538  128.5   1.769   42.3  0.2024   57.7  0.4868  -42.9
 2.300  0.2561  127.6   1.758   41.8  0.2042   57.5  0.4854  -43.3
 2.320  0.2585  126.8   1.747   41.3  0.2060   57.4  0.4840  -43.6
 2.340  0.2610  126.0   1.736   40.8  0.2078   57.3  0.4827  -44.0
 2.360  0.2635  125.2   1.726   40.3  0.2096   57.1  0.4814  -44.4
 2.380  0.2660  124.4   1.715   39.8  0.2114   57.0  0.4801  -44.7
 2.400  0.2686  123.6   1.705   39.3  0.2132   56.9  0.4788  -45.1
 2.420  0.2713  123.0   1.694   38.9  0.2150   56.7  0.4776  -45.5
 2.440  0.2740  122.4   1.683   38.5  0.2167   56.6  0.4764  -45.9
 2.460  0.2767  121.8   1.672   38.0  0.2185   56.4  0.4752  -46.3
 2.480  0.2794  121.2   1.661   37.6  0.2202   56.2  0.4741  -46.6
 2.500  0.2822  120.6   1.650   37.2  0.2220   56.1  0.4729  -47.0
 2.520  0.2850  120.0   1.639   36.7  0.2237   55.9  0.4718  -47.4
 2.540  0.2878  119.5   1.628   36.3  0.2255   55.8  0.4707  -47.8
 2.560  0.2907  119.0   1.618   35.8  0.2273   55.6  0.4697  -48.2
 2.580  0.2936  118.4   1.607   35.4  0.2290   55.4  0.4686  -48.6
 2.600  0.2965  117.9   1.597   34.9  0.2308   55.3  0.4676  -49.0
 2.620  0.2985  117.4   1.588   34.5  0.2327   55.1  0.4659  -49.4
 2.640  0.3006  116.8   1.580   34.1  0.2346   55.0  0.4643  -49.8
 2.660  0.3027  116.3   1.571   33.6  0.2365   54.8  0.4627  -50.2
 2.680  0.3048  115.8   1.563   33.2  0.2384   54.6  0.4611  -50.6
 2.700  0.3069  115.3   1.554   32.8  0.2403   54.5  0.4595  -51.0
 2.720  0.3091  114.8   1.546   32.3  0.2422   54.3  0.4579  -51.4
 2.740  0.3113  114.3   1.538   31.9  0.2441   54.2  0.4564  -51.8
 2.760  0.3135  113.8   1.530   31.4  0.2460   54.0  0.4549  -52.2
 2.780  0.3157  113.3   1.522   31.0  0.2479   53.8  0.4534  -52.6
 2.800  0.3180  112.8   1.514   30.5  0.2498   53.7  0.4519  -53.0
 2.820  0.3206  112.4   1.505   30.1  0.2516   53.5  0.4504  -53.5
 2.840  0.3233  112.0   1.497   29.7  0.2534   53.3  0.4490  -53.9
 2.860  0.3259  111.6   1.488   29.2  0.2551   53.1  0.4476  -54.4
 2.880  0.3286  111.2   1.479   28.8  0.2569   52.9  0.4462  -54.9
 2.900  0.3313  110.8   1.471   28.4  0.2587   52.8  0.4449  -55.4
 2.920  0.3340  110.4   1.463   27.9  0.2605   52.6  0.4435  -55.8
 2.940  0.3367  110.1   1.454   27.5  0.2623   52.4  0.4423  -56.3
 2.960  0.3395  109.7   1.446   27.0  0.2641   52.2  0.4410  -56.8
 2.980  0.3422  109.4   1.438   26.6  0.2659   52.1  0.4398  -57.3
 3.000  0.3450  109.0   1.430   26.1  0.2677   51.9  0.4386  -57.8
 3.100  0.3580  106.8   1.394   24.2  0.2768   50.7  0.4285  -60.3
 3.200  0.3715  104.8   1.359   22.2  0.2861   49.7  0.4192  -62.9
 3.300  0.3854  102.9   1.326   20.2  0.2954   48.6  0.4109  -65.7
 3.400  0.3997  101.1   1.295   18.0  0.3048   47.7  0.4035  -68.5
 3.500  0.4143   99.5   1.266   15.7  0.3143   46.8  0.3972  -71.5
 3.600  0.4257   97.8   1.239   14.0  0.3239   45.7  0.3867  -74.8
 3.700  0.4375   96.3   1.213   12.2  0.3337   44.6  0.3776  -78.3
 3.800  0.4496   94.8   1.188   10.3  0.3435   43.6  0.3699  -81.9
 3.900  0.4620   93.3   1.165    8.3  0.3535   42.6  0.3637  -85.6
 4.000  0.4746   92.0   1.143    6.3  0.3635   41.7  0.3592  -89.5
 4.100  0.4853   90.6   1.121    4.7  0.3733   40.3  0.3492  -93.5
 4.200  0.4964   89.2   1.100    3.1  0.3834   38.9  0.3409  -97.6
 4.300  0.5077   87.9   1.080    1.4  0.3936   37.7  0.3345 -102.0
 4.400  0.5192   86.7   1.061   -0.4  0.4041   36.4  0.3301 -106.5
 4.500  0.5310   85.5   1.043   -2.2  0.4147   35.3  0.3278 -111.1
 4.600  0.5402   84.3   1.023   -3.7  0.4236   33.8  0.3210 -115.8
 4.700  0.5496   83.1   1.005   -5.3  0.4328   32.4  0.3165 -120.6
 4.800  0.5593   81.9   0.986   -7.0  0.4423   31.0  0.3142 -125.5
 4.900  0.5692   80.8   0.969   -8.7  0.4520   29.7  0.3143 -130.5
 5.000  0.5793   79.7   0.953  -10.5  0.4619   28.4  0.3167 -135.4
 5.100  0.5894   78.3   0.928  -11.9  0.4664   26.6  0.3058 -139.9
 5.200  0.5998   77.0   0.903  -13.3  0.4713   24.9  0.2970 -144.7
 5.300  0.6105   75.8   0.878  -14.9  0.4766   23.2  0.2904 -149.8
 5.400  0.6215   74.6   0.855  -16.5  0.4824   21.6  0.2861 -155.0
 5.500  0.6328   73.4   0.832  -18.2  0.4885   20.0  0.2843 -160.4
 5.600  0.6328   72.3   0.823  -18.7  0.4989   19.1  0.3002 -164.1
 5.700  0.6330   71.1   0.813  -19.2  0.5095   18.3  0.3173 -167.5
 5.800  0.6334   70.0   0.804  -19.7  0.5202   17.4  0.3353 -170.5
 5.900  0.6341   68.8   0.795  -20.3  0.5309   16.7  0.3542 -173.2
 6.000  0.6351   67.7   0.786  -20.8  0.5418   15.9  0.3738 -175.6
!
!  f       NFmin   Gammaopt  rn/50
! GHz       dB    MAG  ANG    -
!
! noise parameter not available yet for this operation point!
!
! (c) 2015  Infineon Technologies AG, Munich
