! Infineon Technologies  Discrete & RF Semiconductors
! BFR35AP
! VCE = 0.75 V,  IC =  1.2 mA
! Common Emitter S-Parameters:                            Nov 2015
# GHz  S  MA  R  50
!  f         S11            S21            S12            S22
! GHz     MAG   ANG      MAG   ANG      MAG   ANG      MAG   ANG
 0.010  0.9437   -1.8   4.187  178.8  0.0045   88.7  0.9975   -0.9
 0.015  0.9434   -2.9   4.153  177.8  0.0067   87.7  0.9934   -1.4
 0.020  0.9434   -4.0   4.121  176.8  0.0089   87.2  0.9894   -2.0
 0.025  0.9419   -4.9   4.128  176.0  0.0113   85.9  0.9896   -2.5
 0.030  0.9406   -5.8   4.136  175.3  0.0136   85.0  0.9898   -3.0
 0.035  0.9396   -6.7   4.144  174.5  0.0160   84.4  0.9901   -3.5
 0.040  0.9388   -7.7   4.153  173.8  0.0184   83.9  0.9905   -3.9
 0.045  0.9383   -8.6   4.163  173.0  0.0207   83.6  0.9910   -4.4
 0.050  0.9380   -9.5   4.174  172.3  0.0231   83.3  0.9915   -4.9
 0.055  0.9350  -10.4   4.170  171.5  0.0253   82.4  0.9897   -5.4
 0.060  0.9323  -11.3   4.167  170.8  0.0276   81.6  0.9879   -5.9
 0.065  0.9298  -12.3   4.164  170.0  0.0298   80.9  0.9862   -6.4
 0.070  0.9276  -13.2   4.162  169.3  0.0320   80.3  0.9846   -6.8
 0.075  0.9256  -14.2   4.161  168.5  0.0343   79.9  0.9830   -7.3
 0.080  0.9239  -15.1   4.160  167.7  0.0365   79.4  0.9815   -7.8
 0.085  0.9224  -16.0   4.161  167.0  0.0388   79.0  0.9801   -8.3
 0.090  0.9212  -17.0   4.162  166.2  0.0410   78.7  0.9788   -8.8
 0.095  0.9202  -17.9   4.163  165.5  0.0433   78.4  0.9775   -9.3
 0.100  0.9195  -18.9   4.166  164.7  0.0455   78.1  0.9763   -9.8
 0.105  0.9157  -19.8   4.144  163.9  0.0476   77.3  0.9741  -10.3
 0.110  0.9122  -20.6   4.123  163.1  0.0497   76.6  0.9720  -10.7
 0.115  0.9089  -21.5   4.103  162.3  0.0517   75.9  0.9699  -11.2
 0.120  0.9057  -22.4   4.084  161.4  0.0538   75.3  0.9680  -11.6
 0.125  0.9028  -23.3   4.065  160.6  0.0559   74.8  0.9660  -12.1
 0.130  0.9001  -24.2   4.047  159.7  0.0580   74.3  0.9642  -12.5
 0.135  0.8977  -25.1   4.031  158.9  0.0601   73.8  0.9623  -13.0
 0.140  0.8954  -26.0   4.015  158.0  0.0623   73.3  0.9606  -13.5
 0.145  0.8934  -26.9   4.000  157.2  0.0644   72.9  0.9589  -13.9
 0.150  0.8916  -27.8   3.986  156.3  0.0665   72.5  0.9573  -14.4
 0.155  0.8884  -28.7   3.978  155.6  0.0684   71.9  0.9543  -14.8
 0.160  0.8854  -29.5   3.971  154.9  0.0702   71.2  0.9514  -15.2
 0.165  0.8826  -30.4   3.964  154.2  0.0721   70.7  0.9485  -15.7
 0.170  0.8800  -31.3   3.958  153.5  0.0740   70.1  0.9456  -16.1
 0.175  0.8776  -32.2   3.952  152.8  0.0759   69.6  0.9428  -16.5
 0.180  0.8755  -33.1   3.947  152.1  0.0778   69.1  0.9401  -16.9
 0.185  0.8735  -34.0   3.943  151.3  0.0797   68.6  0.9374  -17.4
 0.190  0.8718  -34.9   3.939  150.6  0.0817   68.1  0.9348  -17.8
 0.195  0.8703  -35.8   3.936  149.9  0.0836   67.7  0.9322  -18.3
 0.200  0.8690  -36.7   3.933  149.2  0.0855   67.3  0.9297  -18.7
 0.220  0.8516  -40.1   3.862  146.5  0.0921   65.1  0.9160  -20.3
 0.240  0.8373  -43.6   3.800  143.6  0.0988   63.2  0.9029  -21.9
 0.260  0.8237  -46.8   3.727  141.0  0.1053   61.4  0.8901  -23.3
 0.280  0.8097  -49.6   3.641  138.6  0.1114   59.8  0.8773  -24.7
 0.300  0.7978  -52.5   3.562  136.0  0.1177   58.3  0.8650  -26.0
 0.320  0.7777  -55.3   3.493  133.9  0.1223   56.6  0.8512  -27.1
 0.340  0.7595  -58.2   3.428  131.8  0.1270   55.0  0.8377  -28.2
 0.360  0.7435  -61.3   3.368  129.6  0.1317   53.5  0.8246  -29.4
 0.380  0.7296  -64.5   3.314  127.3  0.1366   52.2  0.8118  -30.6
 0.400  0.7181  -67.8   3.265  124.9  0.1415   50.9  0.7994  -31.8
 0.420  0.7011  -70.3   3.191  123.0  0.1447   49.5  0.7862  -32.7
 0.440  0.6855  -72.9   3.121  120.9  0.1480   48.3  0.7731  -33.6
 0.450  0.6783  -74.2   3.088  119.9  0.1496   47.6  0.7667  -34.1
 0.460  0.6714  -75.6   3.055  118.8  0.1513   47.0  0.7603  -34.5
 0.480  0.6589  -78.5   2.994  116.6  0.1547   45.8  0.7476  -35.5
 0.500  0.6480  -81.4   2.937  114.3  0.1582   44.7  0.7352  -36.5
 0.520  0.6361  -83.6   2.876  112.8  0.1606   43.7  0.7243  -37.2
 0.540  0.6252  -85.8   2.817  111.2  0.1630   42.8  0.7135  -37.9
 0.560  0.6153  -88.1   2.761  109.5  0.1654   41.9  0.7029  -38.7
 0.580  0.6064  -90.5   2.707  107.8  0.1679   41.0  0.6923  -39.4
 0.600  0.5986  -93.0   2.655  106.0  0.1704   40.1  0.6819  -40.2
 0.620  0.5874  -95.1   2.605  104.6  0.1723   39.3  0.6736  -40.7
 0.640  0.5771  -97.3   2.556  103.1  0.1742   38.5  0.6654  -41.3
 0.660  0.5676  -99.5   2.509  101.6  0.1761   37.8  0.6572  -41.8
 0.680  0.5590 -101.8   2.464  100.0  0.1781   37.0  0.6491  -42.4
 0.700  0.5513 -104.2   2.421   98.4  0.1801   36.3  0.6411  -43.0
 0.720  0.5427 -106.1   2.376   97.1  0.1814   35.7  0.6334  -43.5
 0.740  0.5347 -108.1   2.332   95.8  0.1827   35.2  0.6256  -43.9
 0.760  0.5273 -110.1   2.289   94.5  0.1840   34.6  0.6180  -44.4
 0.780  0.5206 -112.2   2.248   93.1  0.1853   34.0  0.6104  -44.9
 0.800  0.5146 -114.3   2.208   91.6  0.1867   33.5  0.6028  -45.4
 0.820  0.5056 -116.2   2.175   90.4  0.1877   33.1  0.5966  -45.8
 0.840  0.4972 -118.2   2.142   89.2  0.1887   32.6  0.5904  -46.3
 0.860  0.4894 -120.2   2.111   87.9  0.1897   32.2  0.5843  -46.7
 0.880  0.4823 -122.3   2.080   86.6  0.1908   31.7  0.5782  -47.1
 0.900  0.4758 -124.5   2.051   85.2  0.1918   31.3  0.5721  -47.6
 0.920  0.4699 -126.3   2.021   84.2  0.1922   31.0  0.5664  -48.0
 0.940  0.4644 -128.2   1.992   83.1  0.1926   30.7  0.5607  -48.4
 0.960  0.4594 -130.1   1.963   82.0  0.1930   30.3  0.5550  -48.8
 0.980  0.4550 -132.0   1.935   80.9  0.1934   30.0  0.5493  -49.3
 1.000  0.4511 -134.0   1.908   79.7  0.1938   29.7  0.5437  -49.7
 1.020  0.4468 -135.9   1.884   78.7  0.1944   29.5  0.5392  -50.1
 1.040  0.4430 -137.9   1.860   77.7  0.1949   29.2  0.5348  -50.6
 1.060  0.4397 -139.9   1.837   76.7  0.1955   29.0  0.5303  -51.0
 1.080  0.4369 -141.9   1.815   75.6  0.1961   28.7  0.5260  -51.4
 1.100  0.4347 -143.9   1.793   74.5  0.1967   28.5  0.5216  -51.9
 1.120  0.4319 -145.5   1.768   73.6  0.1972   28.3  0.5179  -52.3
 1.140  0.4295 -147.1   1.744   72.6  0.1977   28.1  0.5142  -52.7
 1.160  0.4274 -148.7   1.721   71.6  0.1981   27.8  0.5106  -53.1
 1.180  0.4256 -150.3   1.698   70.6  0.1986   27.6  0.5070  -53.6
 1.200  0.4242 -151.9   1.675   69.5  0.1991   27.4  0.5034  -54.0
 1.220  0.4216 -153.4   1.655   68.7  0.1996   27.3  0.5000  -54.3
 1.240  0.4192 -154.9   1.635   67.9  0.2001   27.2  0.4966  -54.7
 1.260  0.4172 -156.5   1.615   67.0  0.2006   27.2  0.4933  -55.0
 1.280  0.4154 -158.0   1.596   66.2  0.2011   27.1  0.4899  -55.4
 1.300  0.4140 -159.6   1.577   65.3  0.2016   27.0  0.4866  -55.7
 1.320  0.4117 -161.0   1.558   64.5  0.2020   26.9  0.4842  -56.2
 1.340  0.4096 -162.5   1.540   63.6  0.2024   26.8  0.4819  -56.6
 1.360  0.4078 -163.9   1.521   62.8  0.2027   26.6  0.4795  -57.1
 1.380  0.4063 -165.4   1.503   61.9  0.2031   26.5  0.4773  -57.5
 1.400  0.4050 -166.9   1.486   61.0  0.2035   26.4  0.4750  -58.0
 1.420  0.4042 -168.4   1.473   60.2  0.2037   26.5  0.4719  -58.4
 1.440  0.4038 -169.9   1.460   59.4  0.2040   26.6  0.4689  -58.7
 1.460  0.4035 -171.3   1.448   58.6  0.2042   26.6  0.4659  -59.1
 1.480  0.4036 -172.8   1.436   57.8  0.2045   26.7  0.4629  -59.4
 1.500  0.4039 -174.3   1.424   57.0  0.2047   26.8  0.4599  -59.8
 1.520  0.4041 -175.8   1.408   56.2  0.2054   26.8  0.4578  -60.2
 1.540  0.4046 -177.3   1.393   55.4  0.2061   26.8  0.4558  -60.6
 1.560  0.4054 -178.8   1.378   54.5  0.2067   26.8  0.4537  -61.0
 1.580  0.4065  179.8   1.363   53.7  0.2074   26.8  0.4517  -61.4
 1.600  0.4078  178.3   1.348   52.8  0.2081   26.8  0.4497  -61.8
 1.620  0.4067  176.9   1.338   52.1  0.2084   26.9  0.4469  -62.2
 1.640  0.4059  175.5   1.328   51.5  0.2087   27.0  0.4441  -62.7
 1.660  0.4054  174.1   1.319   50.8  0.2091   27.1  0.4413  -63.2
 1.680  0.4051  172.6   1.309   50.1  0.2094   27.2  0.4385  -63.6
 1.700  0.4050  171.2   1.300   49.4  0.2097   27.3  0.4358  -64.1
 1.720  0.4053  169.9   1.290   48.8  0.2108   27.4  0.4338  -64.5
 1.740  0.4058  168.6   1.281   48.1  0.2119   27.6  0.4318  -64.9
 1.760  0.4065  167.3   1.272   47.5  0.2130   27.7  0.4299  -65.3
 1.780  0.4074  166.0   1.263   46.9  0.2141   27.9  0.4279  -65.7
 1.800  0.4085  164.7   1.254   46.2  0.2152   28.0  0.4260  -66.1
 1.820  0.4096  163.6   1.245   45.5  0.2157   28.1  0.4238  -66.7
 1.840  0.4108  162.6   1.235   44.8  0.2162   28.3  0.4217  -67.3
 1.860  0.4122  161.6   1.226   44.1  0.2168   28.4  0.4196  -67.9
 1.880  0.4137  160.5   1.218   43.3  0.2173   28.6  0.4176  -68.6
 1.900  0.4153  159.5   1.209   42.6  0.2178   28.7  0.4156  -69.2
 1.920  0.4162  158.4   1.198   42.0  0.2191   28.8  0.4137  -69.6
 1.940  0.4172  157.3   1.188   41.3  0.2203   28.8  0.4118  -70.0
 1.960  0.4184  156.2   1.178   40.7  0.2216   28.9  0.4099  -70.4
 1.980  0.4198  155.1   1.168   40.0  0.2228   28.9  0.4080  -70.9
 2.000  0.4213  154.0   1.158   39.3  0.2241   29.0  0.4062  -71.3
 2.020  0.4220  153.0   1.150   38.7  0.2250   29.1  0.4049  -71.9
 2.040  0.4229  152.0   1.141   38.1  0.2259   29.1  0.4036  -72.5
 2.060  0.4238  151.1   1.133   37.6  0.2268   29.2  0.4024  -73.0
 2.080  0.4249  150.1   1.125   37.0  0.2277   29.2  0.4012  -73.6
 2.100  0.4262  149.1   1.117   36.4  0.2286   29.3  0.4000  -74.2
 2.120  0.4275  148.2   1.110   35.7  0.2295   29.3  0.3989  -74.8
 2.140  0.4289  147.2   1.102   35.1  0.2304   29.4  0.3978  -75.4
 2.160  0.4305  146.3   1.095   34.5  0.2313   29.4  0.3968  -76.0
 2.180  0.4322  145.3   1.087   33.8  0.2322   29.5  0.3958  -76.6
 2.200  0.4340  144.4   1.080   33.2  0.2331   29.5  0.3949  -77.2
 2.220  0.4356  143.4   1.074   32.7  0.2344   29.6  0.3925  -77.9
 2.240  0.4374  142.5   1.068   32.1  0.2357   29.8  0.3902  -78.5
 2.260  0.4393  141.5   1.062   31.6  0.2370   29.9  0.3880  -79.2
 2.280  0.4413  140.6   1.057   31.0  0.2383   30.0  0.3858  -79.9
 2.300  0.4434  139.6   1.051   30.4  0.2396   30.1  0.3837  -80.6
 2.320  0.4457  138.7   1.046   29.9  0.2409   30.2  0.3816  -81.2
 2.340  0.4480  137.8   1.040   29.3  0.2422   30.4  0.3795  -82.0
 2.360  0.4505  136.9   1.035   28.7  0.2435   30.5  0.3776  -82.7
 2.380  0.4531  136.0   1.030   28.1  0.2448   30.6  0.3757  -83.4
 2.400  0.4558  135.1   1.025   27.5  0.2461   30.7  0.3738  -84.1
 2.420  0.4577  134.2   1.019   27.0  0.2476   30.7  0.3726  -84.8
 2.440  0.4597  133.4   1.012   26.5  0.2490   30.7  0.3714  -85.4
 2.460  0.4619  132.6   1.006   26.0  0.2505   30.8  0.3703  -86.1
 2.480  0.4641  131.7   1.000   25.5  0.2520   30.8  0.3692  -86.8
 2.500  0.4664  130.9   0.994   25.0  0.2534   30.8  0.3682  -87.5
 2.520  0.4688  130.1   0.988   24.5  0.2549   30.8  0.3672  -88.1
 2.540  0.4713  129.3   0.982   24.0  0.2564   30.8  0.3663  -88.8
 2.560  0.4739  128.5   0.976   23.5  0.2579   30.9  0.3654  -89.5
 2.580  0.4766  127.7   0.971   22.9  0.2593   30.9  0.3646  -90.2
 2.600  0.4794  126.9   0.965   22.4  0.2608   30.9  0.3638  -90.9
 2.620  0.4809  126.1   0.960   22.0  0.2626   30.9  0.3620  -91.7
 2.640  0.4825  125.4   0.955   21.5  0.2644   30.9  0.3602  -92.5
 2.660  0.4841  124.6   0.950   21.1  0.2662   30.9  0.3585  -93.3
 2.680  0.4859  123.9   0.946   20.7  0.2680   30.9  0.3569  -94.1
 2.700  0.4877  123.1   0.941   20.2  0.2698   30.9  0.3553  -95.0
 2.720  0.4896  122.4   0.936   19.8  0.2717   30.9  0.3538  -95.8
 2.740  0.4916  121.7   0.931   19.3  0.2735   30.9  0.3524  -96.6
 2.760  0.4937  120.9   0.927   18.8  0.2753   30.9  0.3511  -97.5
 2.780  0.4959  120.2   0.922   18.4  0.2771   30.9  0.3499  -98.3
 2.800  0.4981  119.5   0.918   17.9  0.2789   30.9  0.3487  -99.2
 2.820  0.4999  118.9   0.913   17.5  0.2806   30.8  0.3476 -100.1
 2.840  0.5018  118.3   0.908   17.0  0.2822   30.8  0.3466 -101.0
 2.860  0.5038  117.6   0.904   16.5  0.2839   30.7  0.3457 -101.9
 2.880  0.5058  117.0   0.899   16.1  0.2855   30.7  0.3448 -102.8
 2.900  0.5079  116.4   0.894   15.6  0.2872   30.6  0.3441 -103.8
 2.920  0.5100  115.8   0.890   15.1  0.2889   30.6  0.3434 -104.7
 2.940  0.5121  115.2   0.885   14.7  0.2905   30.5  0.3429 -105.6
 2.960  0.5144  114.7   0.881   14.2  0.2922   30.5  0.3424 -106.5
 2.980  0.5167  114.1   0.876   13.7  0.2938   30.4  0.3420 -107.5
 3.000  0.5190  113.5   0.872   13.2  0.2955   30.4  0.3417 -108.4
 3.100  0.5280  110.6   0.850   11.5  0.3053   29.7  0.3345 -113.3
 3.200  0.5382  107.9   0.829    9.8  0.3152   29.1  0.3300 -118.4
 3.300  0.5496  105.2   0.809    7.9  0.3251   28.5  0.3281 -123.6
 3.400  0.5622  102.7   0.790    5.9  0.3350   27.9  0.3289 -128.8
 3.500  0.5758  100.3   0.772    3.9  0.3450   27.4  0.3324 -134.0
 3.600  0.5822   98.1   0.756    2.6  0.3548   26.4  0.3301 -139.7
 3.700  0.5895   96.0   0.740    1.3  0.3646   25.4  0.3312 -145.4
 3.800  0.5975   94.0   0.725   -0.1  0.3746   24.4  0.3355 -151.0
 3.900  0.6063   91.9   0.710   -1.6  0.3846   23.5  0.3429 -156.4
 4.000  0.6158   90.0   0.696   -3.1  0.3948   22.7  0.3532 -161.6
 4.100  0.6221   88.3   0.685   -4.1  0.4036   21.3  0.3555 -166.8
 4.200  0.6290   86.6   0.674   -5.2  0.4126   20.0  0.3608 -172.0
 4.300  0.6364   84.9   0.663   -6.3  0.4218   18.7  0.3689 -176.9
 4.400  0.6443   83.3   0.652   -7.4  0.4313   17.5  0.3795  178.4
 4.500  0.6527   81.7   0.642   -8.6  0.4409   16.3  0.3926  174.0
 4.600  0.6562   80.3   0.635   -9.4  0.4475   14.9  0.3977  169.6
 4.700  0.6601   78.9   0.627  -10.3  0.4543   13.5  0.4051  165.4
 4.800  0.6644   77.6   0.620  -11.2  0.4614   12.2  0.4146  161.3
 4.900  0.6690   76.2   0.613  -12.1  0.4687   10.9  0.4262  157.4
 5.000  0.6740   74.9   0.606  -13.0  0.4763    9.6  0.4395  153.8
 5.100  0.6780   73.6   0.595  -13.7  0.4777    8.1  0.4372  149.8
 5.200  0.6822   72.4   0.584  -14.5  0.4795    6.6  0.4370  145.8
 5.300  0.6868   71.2   0.573  -15.3  0.4816    5.1  0.4389  141.9
 5.400  0.6917   70.0   0.563  -16.1  0.4840    3.6  0.4429  137.9
 5.500  0.6969   68.8   0.552  -16.9  0.4868    2.1  0.4489  134.1
 5.600  0.6955   67.8   0.554  -17.0  0.4948    1.2  0.4632  133.2
 5.700  0.6943   66.8   0.556  -17.1  0.5029    0.4  0.4777  132.3
 5.800  0.6933   65.8   0.558  -17.1  0.5111   -0.4  0.4923  131.4
 5.900  0.6926   64.8   0.560  -17.2  0.5194   -1.2  0.5069  130.6
 6.000  0.6920   63.8   0.562  -17.3  0.5278   -1.9  0.5217  129.9
!
!  f       NFmin   Gammaopt  rn/50
! GHz       dB    MAG  ANG    -
!
! noise parameter not available yet for this operation point!
!
! (c) 2015  Infineon Technologies AG, Munich
