! Infineon Technologies  Discrete & RF Semiconductors
! BFR340F
! VCE =  5.0 V,  IC =  8.0 mA
! Common Emitter S-Parameters:                            Nov 2015
# GHz  S  MA  R  50
!  f         S11            S21            S12            S22
! GHz     MAG   ANG      MAG   ANG      MAG   ANG      MAG   ANG
 0.030  0.8431   -3.7  16.601  176.3  0.0035   86.4  0.9870   -2.0
 0.035  0.8436   -4.4  16.569  175.7  0.0040   86.3  0.9866   -2.3
 0.040  0.8442   -5.1  16.539  175.1  0.0046   86.2  0.9863   -2.6
 0.045  0.8401   -5.7  16.487  174.4  0.0052   86.5  0.9861   -3.0
 0.050  0.8361   -6.4  16.437  173.7  0.0059   86.7  0.9860   -3.5
 0.055  0.8389   -7.1  16.416  173.4  0.0064   86.8  0.9858   -3.8
 0.060  0.8419   -7.7  16.396  173.0  0.0070   86.8  0.9856   -4.2
 0.065  0.8394   -8.4  16.441  172.4  0.0075   85.7  0.9849   -4.6
 0.070  0.8371   -9.1  16.488  171.9  0.0081   84.7  0.9843   -5.0
 0.075  0.8377   -9.7  16.446  171.6  0.0086   84.5  0.9835   -5.3
 0.080  0.8384  -10.2  16.405  171.2  0.0092   84.3  0.9828   -5.7
 0.085  0.8363  -10.9  16.389  170.7  0.0097   84.0  0.9816   -6.1
 0.090  0.8344  -11.7  16.375  170.2  0.0103   83.7  0.9804   -6.5
 0.095  0.8342  -12.2  16.312  169.7  0.0108   83.4  0.9792   -6.8
 0.100  0.8340  -12.7  16.251  169.1  0.0114   83.1  0.9781   -7.2
 0.105  0.8333  -13.3  16.245  168.7  0.0120   83.0  0.9767   -7.5
 0.110  0.8328  -14.0  16.240  168.2  0.0126   83.0  0.9754   -7.9
 0.115  0.8305  -14.7  16.231  167.7  0.0131   82.6  0.9740   -8.2
 0.120  0.8283  -15.4  16.223  167.2  0.0136   82.3  0.9727   -8.6
 0.125  0.8269  -15.9  16.192  166.7  0.0142   81.8  0.9711   -8.9
 0.130  0.8256  -16.5  16.162  166.2  0.0148   81.3  0.9695   -9.3
 0.135  0.8233  -17.1  16.150  165.7  0.0153   81.1  0.9677   -9.6
 0.140  0.8211  -17.8  16.140  165.1  0.0158   80.9  0.9660  -10.0
 0.145  0.8194  -18.4  16.084  164.6  0.0163   80.5  0.9643  -10.3
 0.150  0.8179  -19.1  16.030  164.0  0.0169   80.2  0.9626  -10.7
 0.155  0.8156  -19.7  15.992  163.5  0.0174   79.8  0.9605  -11.0
 0.160  0.8133  -20.3  15.955  163.0  0.0179   79.5  0.9583  -11.3
 0.165  0.8111  -20.9  15.919  162.6  0.0185   79.2  0.9563  -11.6
 0.170  0.8090  -21.5  15.885  162.1  0.0190   78.8  0.9542  -12.0
 0.175  0.8070  -22.1  15.851  161.6  0.0195   78.6  0.9522  -12.3
 0.180  0.8051  -22.7  15.819  161.1  0.0200   78.3  0.9502  -12.6
 0.185  0.8033  -23.3  15.787  160.6  0.0205   78.0  0.9482  -12.9
 0.190  0.8016  -23.9  15.757  160.1  0.0211   77.8  0.9463  -13.2
 0.195  0.7999  -24.5  15.729  159.6  0.0216   77.5  0.9444  -13.6
 0.200  0.7984  -25.1  15.701  159.1  0.0221   77.3  0.9425  -13.9
 0.220  0.7882  -27.4  15.514  157.2  0.0241   76.0  0.9327  -15.1
 0.240  0.7793  -29.7  15.345  155.3  0.0260   75.0  0.9234  -16.4
 0.260  0.7696  -32.0  15.157  153.4  0.0279   74.0  0.9134  -17.5
 0.280  0.7589  -34.2  14.947  151.7  0.0296   73.0  0.9027  -18.7
 0.300  0.7493  -36.4  14.752  149.9  0.0314   72.2  0.8924  -19.8
 0.320  0.7381  -38.4  14.531  148.2  0.0331   71.3  0.8810  -20.8
 0.340  0.7278  -40.5  14.323  146.5  0.0348   70.4  0.8699  -21.9
 0.360  0.7170  -42.5  14.107  144.8  0.0363   69.6  0.8586  -22.8
 0.380  0.7056  -44.5  13.880  143.3  0.0378   68.8  0.8471  -23.7
 0.400  0.6951  -46.5  13.664  141.7  0.0393   68.1  0.8358  -24.6
 0.420  0.6834  -48.3  13.438  140.3  0.0407   67.4  0.8244  -25.4
 0.440  0.6724  -50.2  13.220  138.8  0.0421   66.7  0.8132  -26.2
 0.450  0.6672  -51.2  13.114  138.1  0.0428   66.4  0.8077  -26.6
 0.460  0.6613  -52.1  13.003  137.4  0.0435   66.1  0.8020  -26.9
 0.480  0.6501  -53.8  12.785  136.1  0.0448   65.5  0.7908  -27.7
 0.500  0.6394  -55.6  12.575  134.7  0.0461   64.9  0.7797  -28.4
 0.520  0.6279  -57.1  12.357  133.5  0.0472   64.4  0.7691  -29.0
 0.540  0.6170  -58.7  12.145  132.3  0.0483   63.9  0.7585  -29.6
 0.560  0.6065  -60.4  11.938  131.1  0.0494   63.4  0.7481  -30.1
 0.580  0.5965  -62.1  11.737  129.7  0.0506   62.9  0.7377  -30.8
 0.600  0.5871  -63.9  11.543  128.4  0.0517   62.5  0.7274  -31.4
 0.620  0.5770  -65.3  11.346  127.4  0.0527   62.2  0.7179  -31.8
 0.640  0.5673  -66.7  11.152  126.4  0.0537   61.8  0.7085  -32.2
 0.660  0.5580  -68.2  10.962  125.3  0.0547   61.5  0.6991  -32.7
 0.680  0.5491  -69.7  10.776  124.2  0.0557   61.2  0.6897  -33.1
 0.700  0.5405  -71.3  10.594  123.1  0.0567   60.9  0.6804  -33.6
 0.720  0.5317  -72.6  10.419  122.2  0.0576   60.7  0.6721  -33.9
 0.740  0.5231  -73.9  10.247  121.4  0.0585   60.4  0.6639  -34.3
 0.760  0.5148  -75.2  10.078  120.4  0.0593   60.2  0.6557  -34.7
 0.780  0.5069  -76.7   9.911  119.5  0.0602   60.0  0.6475  -35.0
 0.800  0.4992  -78.1   9.747  118.5  0.0611   59.8  0.6394  -35.4
 0.820  0.4915  -79.3   9.596  117.7  0.0619   59.6  0.6322  -35.7
 0.840  0.4840  -80.5   9.447  117.0  0.0627   59.5  0.6250  -35.9
 0.860  0.4767  -81.8   9.299  116.2  0.0635   59.3  0.6178  -36.2
 0.880  0.4697  -83.1   9.154  115.4  0.0643   59.2  0.6106  -36.5
 0.900  0.4629  -84.4   9.010  114.5  0.0651   59.0  0.6034  -36.8
 0.920  0.4562  -85.5   8.876  113.8  0.0659   58.9  0.5971  -37.0
 0.940  0.4496  -86.7   8.743  113.1  0.0666   58.8  0.5909  -37.2
 0.960  0.4432  -87.8   8.612  112.4  0.0674   58.8  0.5847  -37.4
 0.980  0.4371  -89.1   8.482  111.7  0.0681   58.7  0.5784  -37.6
 1.000  0.4311  -90.3   8.353  110.9  0.0689   58.6  0.5722  -37.8
 1.020  0.4255  -91.3   8.234  110.3  0.0696   58.6  0.5669  -38.0
 1.040  0.4201  -92.3   8.116  109.7  0.0704   58.5  0.5616  -38.1
 1.060  0.4148  -93.4   7.999  109.0  0.0711   58.5  0.5563  -38.3
 1.080  0.4096  -94.5   7.883  108.4  0.0719   58.4  0.5511  -38.5
 1.100  0.4046  -95.6   7.768  107.7  0.0726   58.4  0.5458  -38.7
 1.120  0.3997  -96.6   7.664  107.1  0.0733   58.4  0.5411  -38.8
 1.140  0.3949  -97.6   7.560  106.5  0.0740   58.4  0.5363  -39.0
 1.160  0.3902  -98.7   7.458  105.9  0.0747   58.4  0.5316  -39.1
 1.180  0.3857  -99.8   7.356  105.3  0.0754   58.4  0.5268  -39.3
 1.200  0.3813 -100.9   7.255  104.7  0.0761   58.4  0.5221  -39.4
 1.220  0.3772 -101.8   7.162  104.2  0.0768   58.4  0.5182  -39.5
 1.240  0.3731 -102.8   7.070  103.7  0.0775   58.4  0.5143  -39.6
 1.260  0.3692 -103.7   6.978  103.2  0.0781   58.4  0.5105  -39.8
 1.280  0.3653 -104.7   6.887  102.6  0.0788   58.4  0.5066  -39.9
 1.300  0.3616 -105.7   6.797  102.1  0.0795   58.4  0.5027  -40.0
 1.320  0.3580 -106.6   6.714  101.6  0.0802   58.4  0.4991  -40.1
 1.340  0.3545 -107.6   6.632  101.2  0.0809   58.5  0.4954  -40.2
 1.360  0.3511 -108.6   6.550  100.7  0.0815   58.5  0.4918  -40.3
 1.380  0.3479 -109.6   6.468  100.2  0.0822   58.6  0.4881  -40.4
 1.400  0.3447 -110.6   6.387   99.7  0.0829   58.6  0.4845  -40.5
 1.420  0.3415 -111.5   6.314   99.3  0.0836   58.6  0.4816  -40.6
 1.440  0.3383 -112.4   6.242   98.8  0.0843   58.7  0.4788  -40.7
 1.460  0.3352 -113.3   6.170   98.4  0.0849   58.7  0.4759  -40.7
 1.480  0.3322 -114.2   6.099   97.9  0.0856   58.8  0.4731  -40.8
 1.500  0.3293 -115.1   6.028   97.4  0.0863   58.8  0.4702  -40.9
 1.520  0.3266 -116.0   5.962   97.0  0.0870   58.8  0.4675  -41.0
 1.540  0.3239 -116.9   5.896   96.5  0.0877   58.9  0.4647  -41.1
 1.560  0.3214 -117.8   5.830   96.1  0.0883   58.9  0.4620  -41.2
 1.580  0.3189 -118.7   5.765   95.7  0.0890   59.0  0.4592  -41.3
 1.600  0.3165 -119.6   5.700   95.2  0.0897   59.0  0.4565  -41.4
 1.620  0.3142 -120.4   5.641   94.8  0.0904   59.1  0.4543  -41.5
 1.640  0.3120 -121.2   5.582   94.5  0.0911   59.1  0.4521  -41.6
 1.660  0.3098 -122.0   5.523   94.1  0.0917   59.2  0.4500  -41.6
 1.680  0.3077 -122.8   5.465   93.7  0.0924   59.2  0.4478  -41.7
 1.700  0.3056 -123.6   5.407   93.3  0.0931   59.3  0.4456  -41.8
 1.720  0.3039 -124.3   5.353   93.0  0.0938   59.4  0.4437  -41.9
 1.740  0.3023 -125.0   5.299   92.6  0.0944   59.4  0.4418  -41.9
 1.760  0.3007 -125.7   5.246   92.2  0.0951   59.5  0.4398  -42.0
 1.780  0.2992 -126.5   5.192   91.9  0.0957   59.5  0.4379  -42.0
 1.800  0.2977 -127.2   5.139   91.5  0.0964   59.6  0.4360  -42.1
 1.820  0.2959 -127.9   5.091   91.2  0.0971   59.7  0.4342  -42.2
 1.840  0.2941 -128.7   5.044   90.8  0.0978   59.7  0.4324  -42.3
 1.860  0.2924 -129.5   4.997   90.4  0.0985   59.8  0.4306  -42.4
 1.880  0.2907 -130.2   4.950   90.1  0.0992   59.8  0.4288  -42.5
 1.900  0.2891 -131.0   4.903   89.7  0.0999   59.9  0.4270  -42.6
 1.920  0.2876 -131.7   4.859   89.4  0.1006   60.0  0.4257  -42.7
 1.940  0.2861 -132.3   4.815   89.0  0.1013   60.0  0.4243  -42.7
 1.960  0.2846 -133.0   4.771   88.7  0.1019   60.1  0.4230  -42.8
 1.980  0.2832 -133.7   4.727   88.4  0.1026   60.1  0.4216  -42.8
 2.000  0.2818 -134.4   4.684   88.0  0.1033   60.2  0.4203  -42.9
 2.020  0.2805 -135.1   4.645   87.7  0.1040   60.3  0.4191  -43.0
 2.040  0.2793 -135.7   4.606   87.4  0.1047   60.3  0.4178  -43.1
 2.060  0.2781 -136.4   4.566   87.1  0.1054   60.4  0.4166  -43.2
 2.080  0.2769 -137.1   4.528   86.8  0.1061   60.4  0.4154  -43.3
 2.100  0.2757 -137.8   4.489   86.5  0.1067   60.5  0.4141  -43.3
 2.120  0.2747 -138.5   4.450   86.1  0.1074   60.6  0.4129  -43.4
 2.140  0.2736 -139.2   4.412   85.8  0.1081   60.6  0.4117  -43.5
 2.160  0.2726 -139.9   4.373   85.5  0.1088   60.7  0.4105  -43.6
 2.180  0.2716 -140.6   4.335   85.1  0.1095   60.7  0.4092  -43.7
 2.200  0.2707 -141.3   4.297   84.8  0.1102   60.8  0.4080  -43.8
 2.220  0.2698 -141.9   4.265   84.5  0.1109   60.9  0.4070  -43.9
 2.240  0.2689 -142.5   4.233   84.3  0.1116   60.9  0.4060  -44.0
 2.260  0.2681 -143.1   4.201   84.0  0.1123   61.0  0.4050  -44.1
 2.280  0.2673 -143.7   4.169   83.7  0.1130   61.0  0.4040  -44.2
 2.300  0.2665 -144.3   4.137   83.4  0.1137   61.1  0.4030  -44.2
 2.320  0.2658 -144.9   4.106   83.1  0.1145   61.1  0.4020  -44.3
 2.340  0.2651 -145.5   4.074   82.8  0.1152   61.2  0.4011  -44.4
 2.360  0.2644 -146.2   4.043   82.5  0.1159   61.2  0.4001  -44.5
 2.380  0.2637 -146.8   4.011   82.2  0.1166   61.3  0.3991  -44.6
 2.400  0.2631 -147.4   3.980   81.9  0.1173   61.3  0.3981  -44.7
 2.420  0.2624 -148.0   3.952   81.6  0.1180   61.3  0.3973  -44.8
 2.440  0.2617 -148.6   3.923   81.4  0.1187   61.4  0.3965  -44.9
 2.460  0.2610 -149.1   3.895   81.1  0.1195   61.4  0.3958  -45.0
 2.480  0.2604 -149.7   3.867   80.9  0.1202   61.5  0.3950  -45.1
 2.500  0.2598 -150.3   3.839   80.6  0.1209   61.5  0.3942  -45.2
 2.520  0.2592 -150.9   3.811   80.3  0.1216   61.5  0.3935  -45.4
 2.540  0.2587 -151.5   3.783   80.1  0.1223   61.6  0.3927  -45.5
 2.560  0.2582 -152.1   3.755   79.8  0.1231   61.6  0.3919  -45.6
 2.580  0.2577 -152.7   3.728   79.5  0.1238   61.7  0.3912  -45.7
 2.600  0.2572 -153.3   3.700   79.2  0.1245   61.7  0.3904  -45.8
 2.620  0.2567 -153.8   3.676   79.0  0.1252   61.7  0.3899  -45.9
 2.640  0.2562 -154.3   3.652   78.7  0.1260   61.8  0.3893  -46.0
 2.660  0.2558 -154.8   3.628   78.5  0.1267   61.8  0.3888  -46.2
 2.680  0.2553 -155.3   3.604   78.2  0.1274   61.9  0.3883  -46.3
 2.700  0.2549 -155.8   3.580   77.9  0.1281   61.9  0.3878  -46.4
 2.720  0.2545 -156.3   3.556   77.7  0.1289   61.9  0.3873  -46.5
 2.740  0.2541 -156.8   3.533   77.4  0.1296   62.0  0.3867  -46.6
 2.760  0.2538 -157.3   3.509   77.1  0.1303   62.0  0.3862  -46.8
 2.780  0.2534 -157.8   3.485   76.9  0.1311   62.1  0.3857  -46.9
 2.800  0.2531 -158.3   3.462   76.6  0.1318   62.1  0.3852  -47.0
 2.820  0.2527 -158.8   3.441   76.4  0.1325   62.1  0.3849  -47.1
 2.840  0.2523 -159.2   3.420   76.1  0.1333   62.2  0.3845  -47.2
 2.860  0.2519 -159.7   3.399   75.9  0.1340   62.2  0.3842  -47.4
 2.880  0.2515 -160.2   3.378   75.7  0.1347   62.2  0.3839  -47.5
 2.900  0.2512 -160.6   3.357   75.4  0.1354   62.3  0.3836  -47.6
 2.920  0.2509 -161.1   3.336   75.2  0.1362   62.3  0.3833  -47.7
 2.940  0.2505 -161.6   3.315   75.0  0.1369   62.3  0.3829  -47.8
 2.960  0.2502 -162.1   3.294   74.7  0.1376   62.3  0.3826  -48.0
 2.980  0.2500 -162.5   3.274   74.5  0.1384   62.4  0.3823  -48.1
 3.000  0.2497 -163.0   3.253   74.2  0.1391   62.4  0.3820  -48.2
 3.100  0.2473 -164.9   3.167   73.2  0.1429   62.5  0.3820  -48.7
 3.200  0.2452 -166.9   3.083   72.2  0.1467   62.6  0.3820  -49.2
 3.300  0.2434 -168.9   2.999   71.1  0.1504   62.7  0.3821  -49.7
 3.400  0.2419 -170.9   2.917   69.9  0.1542   62.8  0.3822  -50.2
 3.500  0.2407 -172.9   2.836   68.7  0.1580   62.9  0.3823  -50.7
 3.600  0.2389 -174.7   2.773   67.8  0.1619   63.0  0.3828  -51.1
 3.700  0.2374 -176.4   2.712   66.8  0.1659   63.0  0.3834  -51.6
 3.800  0.2361 -178.2   2.651   65.8  0.1698   63.1  0.3840  -52.0
 3.900  0.2350  179.9   2.590   64.8  0.1738   63.1  0.3846  -52.5
 4.000  0.2342  178.1   2.531   63.7  0.1777   63.2  0.3852  -52.9
 4.100  0.2345  176.3   2.484   62.8  0.1818   63.2  0.3843  -53.5
 4.200  0.2349  174.6   2.437   61.9  0.1859   63.2  0.3834  -54.2
 4.300  0.2356  172.8   2.390   61.0  0.1900   63.1  0.3826  -54.8
 4.400  0.2366  171.1   2.345   60.0  0.1941   63.1  0.3818  -55.5
 4.500  0.2377  169.4   2.300   59.0  0.1982   63.1  0.3811  -56.1
 4.600  0.2390  167.5   2.264   58.1  0.2025   63.0  0.3793  -56.9
 4.700  0.2406  165.7   2.228   57.2  0.2067   62.9  0.3777  -57.8
 4.800  0.2424  163.9   2.193   56.3  0.2110   62.9  0.3761  -58.6
 4.900  0.2445  162.1   2.158   55.4  0.2152   62.8  0.3745  -59.4
 5.000  0.2468  160.4   2.124   54.4  0.2195   62.7  0.3731  -60.3
 5.100  0.2484  158.5   2.094   53.6  0.2239   62.6  0.3714  -61.0
 5.200  0.2503  156.7   2.064   52.7  0.2283   62.4  0.3697  -61.8
 5.300  0.2524  154.9   2.034   51.8  0.2327   62.3  0.3681  -62.5
 5.400  0.2547  153.1   2.005   50.9  0.2371   62.2  0.3665  -63.2
 5.500  0.2573  151.4   1.977   49.9  0.2415   62.1  0.3650  -64.0
 5.600  0.2596  149.8   1.952   49.1  0.2463   61.9  0.3628  -65.0
 5.700  0.2620  148.3   1.927   48.3  0.2511   61.7  0.3608  -65.9
 5.800  0.2647  146.7   1.902   47.4  0.2560   61.5  0.3588  -66.9
 5.900  0.2675  145.3   1.878   46.6  0.2608   61.4  0.3569  -67.9
 6.000  0.2705  143.8   1.854   45.7  0.2656   61.2  0.3552  -68.9
!
!  f       NFmin   Gammaopt  rn/50
! GHz       dB    MAG  ANG    -
 0.450      1.32  0.34    1   0.29
 0.900      1.37  0.33   10   0.32
 1.900      1.68  0.20    6   0.30
 2.400      1.87  0.15   18   0.30
!
! (c) 2015  Infineon Technologies AG, Munich
