! Infineon Technologies  Discrete & RF Semiconductors
! BFR340F
! VCE =  5.0 V,  IC =  3.0 mA
! Common Emitter S-Parameters:                            Nov 2015
# GHz  S  MA  R  50
!  f         S11            S21            S12            S22
! GHz     MAG   ANG      MAG   ANG      MAG   ANG      MAG   ANG
 0.030  0.9288   -2.0   8.766  177.9  0.0036   88.6  0.9946   -1.3
 0.035  0.9292   -2.5   8.756  177.5  0.0042   88.0  0.9943   -1.4
 0.040  0.9297   -2.9   8.747  177.0  0.0048   87.5  0.9940   -1.6
 0.045  0.9260   -3.2   8.724  176.5  0.0054   86.7  0.9940   -1.9
 0.050  0.9224   -3.5   8.702  176.0  0.0060   86.1  0.9941   -2.2
 0.055  0.9245   -4.0   8.696  175.9  0.0066   86.7  0.9942   -2.4
 0.060  0.9267   -4.4   8.690  175.7  0.0072   87.2  0.9944   -2.6
 0.065  0.9270   -4.7   8.725  175.3  0.0078   86.9  0.9943   -2.8
 0.070  0.9273   -5.0   8.760  175.0  0.0085   86.6  0.9943   -3.1
 0.075  0.9258   -5.4   8.740  174.9  0.0091   86.4  0.9941   -3.3
 0.080  0.9243   -5.8   8.721  174.8  0.0097   86.3  0.9940   -3.6
 0.085  0.9250   -6.2   8.722  174.5  0.0103   86.0  0.9934   -3.8
 0.090  0.9258   -6.5   8.723  174.2  0.0109   85.8  0.9929   -4.0
 0.095  0.9260   -6.8   8.698  173.9  0.0114   85.7  0.9925   -4.2
 0.100  0.9263   -7.0   8.673  173.5  0.0120   85.6  0.9922   -4.5
 0.105  0.9251   -7.3   8.677  173.2  0.0126   85.5  0.9917   -4.7
 0.110  0.9240   -7.7   8.682  173.0  0.0132   85.4  0.9913   -4.9
 0.115  0.9237   -8.1   8.690  172.7  0.0138   85.3  0.9907   -5.1
 0.120  0.9234   -8.5   8.699  172.4  0.0145   85.2  0.9902   -5.4
 0.125  0.9230   -8.8   8.693  172.2  0.0150   85.0  0.9897   -5.6
 0.130  0.9227   -9.1   8.688  171.9  0.0156   84.8  0.9892   -5.8
 0.135  0.9215   -9.4   8.693  171.5  0.0162   84.5  0.9886   -6.0
 0.140  0.9204   -9.8   8.698  171.2  0.0168   84.2  0.9881   -6.3
 0.145  0.9197  -10.2   8.681  170.8  0.0174   84.0  0.9876   -6.5
 0.150  0.9190  -10.6   8.664  170.4  0.0180   83.8  0.9871   -6.7
 0.155  0.9182  -10.9   8.659  170.1  0.0186   83.5  0.9864   -6.9
 0.160  0.9175  -11.3   8.654  169.8  0.0192   83.3  0.9856   -7.1
 0.165  0.9167  -11.6   8.650  169.5  0.0197   83.1  0.9849   -7.4
 0.170  0.9161  -12.0   8.645  169.2  0.0203   82.9  0.9842   -7.6
 0.175  0.9154  -12.3   8.641  169.0  0.0209   82.7  0.9835   -7.8
 0.180  0.9148  -12.6   8.637  168.7  0.0215   82.5  0.9828   -8.0
 0.185  0.9142  -13.0   8.634  168.4  0.0221   82.3  0.9822   -8.2
 0.190  0.9136  -13.3   8.630  168.1  0.0226   82.1  0.9815   -8.5
 0.195  0.9131  -13.7   8.627  167.8  0.0232   82.0  0.9809   -8.7
 0.200  0.9126  -14.0   8.624  167.5  0.0238   81.8  0.9803   -8.9
 0.220  0.9084  -15.4   8.593  166.3  0.0260   81.0  0.9768   -9.8
 0.240  0.9047  -16.8   8.567  165.0  0.0283   80.3  0.9735  -10.7
 0.260  0.9007  -18.1   8.533  163.8  0.0305   79.6  0.9699  -11.5
 0.280  0.8963  -19.4   8.491  162.7  0.0328   78.8  0.9657  -12.4
 0.300  0.8923  -20.7   8.452  161.5  0.0350   78.1  0.9618  -13.2
 0.320  0.8875  -22.0   8.411  160.3  0.0372   77.3  0.9571  -14.0
 0.340  0.8832  -23.4   8.373  159.2  0.0393   76.5  0.9527  -14.8
 0.360  0.8780  -24.7   8.328  158.0  0.0414   75.8  0.9478  -15.6
 0.380  0.8721  -26.0   8.278  156.9  0.0435   75.1  0.9424  -16.4
 0.400  0.8665  -27.3   8.230  155.8  0.0455   74.5  0.9373  -17.2
 0.420  0.8602  -28.5   8.175  154.7  0.0475   73.8  0.9319  -17.9
 0.440  0.8542  -29.8   8.124  153.5  0.0495   73.2  0.9267  -18.6
 0.450  0.8514  -30.4   8.100  152.9  0.0505   72.9  0.9242  -19.0
 0.460  0.8482  -31.0   8.072  152.4  0.0514   72.5  0.9211  -19.4
 0.480  0.8421  -32.2   8.019  151.4  0.0533   71.8  0.9151  -20.1
 0.500  0.8364  -33.5   7.969  150.3  0.0552   71.2  0.9092  -20.9
 0.520  0.8288  -34.7   7.906  149.3  0.0570   70.5  0.9028  -21.6
 0.540  0.8217  -35.9   7.846  148.2  0.0587   69.8  0.8965  -22.3
 0.560  0.8148  -37.1   7.789  147.1  0.0605   69.2  0.8903  -23.0
 0.580  0.8084  -38.3   7.735  146.0  0.0623   68.6  0.8843  -23.7
 0.600  0.8023  -39.6   7.683  144.9  0.0641   68.1  0.8784  -24.4
 0.620  0.7946  -40.7   7.617  144.0  0.0657   67.5  0.8717  -25.0
 0.640  0.7872  -41.8   7.554  143.0  0.0673   66.9  0.8651  -25.6
 0.660  0.7800  -42.9   7.492  142.0  0.0689   66.4  0.8587  -26.2
 0.680  0.7732  -44.0   7.433  141.0  0.0705   65.9  0.8523  -26.9
 0.700  0.7667  -45.2   7.376  140.0  0.0721   65.4  0.8460  -27.5
 0.720  0.7590  -46.2   7.308  139.1  0.0735   64.9  0.8393  -28.0
 0.740  0.7516  -47.3   7.241  138.2  0.0750   64.4  0.8327  -28.6
 0.760  0.7444  -48.4   7.177  137.3  0.0764   64.0  0.8261  -29.2
 0.780  0.7375  -49.5   7.114  136.4  0.0779   63.5  0.8197  -29.7
 0.800  0.7309  -50.6   7.053  135.4  0.0793   63.1  0.8133  -30.3
 0.820  0.7236  -51.6   6.990  134.6  0.0806   62.6  0.8067  -30.8
 0.840  0.7165  -52.5   6.928  133.7  0.0818   62.2  0.8001  -31.3
 0.860  0.7096  -53.5   6.868  132.9  0.0831   61.7  0.7936  -31.8
 0.880  0.7029  -54.6   6.809  132.0  0.0844   61.3  0.7872  -32.4
 0.900  0.6965  -55.6   6.752  131.1  0.0857   60.9  0.7808  -32.9
 0.920  0.6892  -56.5   6.689  130.3  0.0869   60.5  0.7745  -33.3
 0.940  0.6821  -57.5   6.628  129.5  0.0880   60.2  0.7683  -33.8
 0.960  0.6751  -58.5   6.568  128.7  0.0892   59.8  0.7622  -34.3
 0.980  0.6684  -59.5   6.509  127.9  0.0904   59.4  0.7561  -34.7
 1.000  0.6619  -60.5   6.452  127.1  0.0916   59.1  0.7500  -35.2
 1.020  0.6551  -61.4   6.390  126.4  0.0926   58.8  0.7440  -35.6
 1.040  0.6484  -62.2   6.330  125.7  0.0936   58.4  0.7381  -36.0
 1.060  0.6419  -63.1   6.270  124.9  0.0947   58.1  0.7322  -36.4
 1.080  0.6356  -64.1   6.211  124.2  0.0957   57.8  0.7263  -36.8
 1.100  0.6294  -65.0   6.154  123.4  0.0967   57.5  0.7205  -37.2
 1.120  0.6227  -65.9   6.098  122.7  0.0977   57.2  0.7148  -37.5
 1.140  0.6162  -66.7   6.042  122.0  0.0986   56.9  0.7091  -37.9
 1.160  0.6099  -67.6   5.987  121.3  0.0996   56.6  0.7035  -38.3
 1.180  0.6037  -68.6   5.934  120.5  0.1005   56.4  0.6979  -38.6
 1.200  0.5976  -69.5   5.881  119.8  0.1015   56.1  0.6923  -39.0
 1.220  0.5918  -70.3   5.826  119.2  0.1023   55.9  0.6872  -39.3
 1.240  0.5860  -71.1   5.771  118.6  0.1032   55.6  0.6820  -39.7
 1.260  0.5804  -71.9   5.718  118.0  0.1040   55.4  0.6769  -40.0
 1.280  0.5749  -72.7   5.664  117.3  0.1049   55.1  0.6719  -40.3
 1.300  0.5695  -73.5   5.612  116.7  0.1057   54.9  0.6668  -40.7
 1.320  0.5638  -74.3   5.561  116.1  0.1065   54.7  0.6618  -41.0
 1.340  0.5581  -75.1   5.510  115.5  0.1073   54.5  0.6567  -41.3
 1.360  0.5526  -76.0   5.461  114.9  0.1081   54.3  0.6517  -41.6
 1.380  0.5473  -76.8   5.411  114.2  0.1089   54.1  0.6468  -41.9
 1.400  0.5420  -77.7   5.363  113.6  0.1097   53.9  0.6418  -42.2
 1.420  0.5366  -78.4   5.316  113.0  0.1104   53.7  0.6375  -42.5
 1.440  0.5313  -79.1   5.269  112.5  0.1111   53.6  0.6333  -42.7
 1.460  0.5260  -79.9   5.223  111.9  0.1119   53.4  0.6290  -43.0
 1.480  0.5209  -80.6   5.177  111.3  0.1126   53.3  0.6248  -43.3
 1.500  0.5158  -81.4   5.132  110.7  0.1133   53.1  0.6206  -43.6
 1.520  0.5108  -82.1   5.087  110.2  0.1140   53.0  0.6164  -43.8
 1.540  0.5058  -82.9   5.043  109.6  0.1147   52.8  0.6121  -44.1
 1.560  0.5010  -83.6   4.999  109.1  0.1153   52.7  0.6079  -44.3
 1.580  0.4962  -84.4   4.956  108.6  0.1160   52.5  0.6037  -44.6
 1.600  0.4915  -85.2   4.913  108.0  0.1167   52.4  0.5995  -44.8
 1.620  0.4871  -85.9   4.871  107.5  0.1173   52.3  0.5959  -45.0
 1.640  0.4829  -86.5   4.830  107.0  0.1180   52.2  0.5923  -45.3
 1.660  0.4786  -87.2   4.789  106.5  0.1186   52.0  0.5887  -45.5
 1.680  0.4745  -87.9   4.749  106.0  0.1193   51.9  0.5852  -45.8
 1.700  0.4704  -88.6   4.709  105.5  0.1199   51.8  0.5816  -46.0
 1.720  0.4667  -89.2   4.670  105.1  0.1205   51.7  0.5782  -46.2
 1.740  0.4630  -89.9   4.631  104.6  0.1211   51.6  0.5749  -46.4
 1.760  0.4594  -90.5   4.592  104.1  0.1216   51.6  0.5715  -46.5
 1.780  0.4559  -91.2   4.554  103.7  0.1222   51.5  0.5681  -46.7
 1.800  0.4524  -91.9   4.516  103.2  0.1228   51.4  0.5648  -46.9
 1.820  0.4486  -92.6   4.481  102.8  0.1234   51.3  0.5617  -47.1
 1.840  0.4448  -93.2   4.446  102.3  0.1240   51.2  0.5586  -47.3
 1.860  0.4411  -93.9   4.411  101.9  0.1246   51.2  0.5555  -47.6
 1.880  0.4375  -94.6   4.377  101.5  0.1252   51.1  0.5525  -47.8
 1.900  0.4339  -95.3   4.343  101.0  0.1258   51.0  0.5494  -48.0
 1.920  0.4306  -95.9   4.310  100.6  0.1264   51.0  0.5468  -48.1
 1.940  0.4274  -96.4   4.276  100.1  0.1270   50.9  0.5442  -48.3
 1.960  0.4242  -97.0   4.243   99.7  0.1275   50.9  0.5416  -48.4
 1.980  0.4210  -97.6   4.210   99.3  0.1281   50.8  0.5390  -48.6
 2.000  0.4179  -98.2   4.178   98.8  0.1287   50.8  0.5364  -48.7
 2.020  0.4146  -98.8   4.147   98.4  0.1292   50.8  0.5339  -48.9
 2.040  0.4114  -99.4   4.116   98.0  0.1298   50.7  0.5315  -49.0
 2.060  0.4082 -100.0   4.086   97.7  0.1303   50.7  0.5291  -49.2
 2.080  0.4051 -100.6   4.056   97.3  0.1308   50.7  0.5266  -49.4
 2.100  0.4020 -101.2   4.026   96.9  0.1313   50.6  0.5242  -49.5
 2.120  0.3990 -101.9   3.996   96.5  0.1319   50.6  0.5218  -49.7
 2.140  0.3960 -102.5   3.966   96.1  0.1324   50.6  0.5193  -49.9
 2.160  0.3930 -103.2   3.936   95.6  0.1329   50.6  0.5169  -50.0
 2.180  0.3901 -103.8   3.907   95.2  0.1335   50.5  0.5145  -50.2
 2.200  0.3873 -104.5   3.878   94.8  0.1340   50.5  0.5121  -50.4
 2.220  0.3847 -105.0   3.852   94.5  0.1345   50.5  0.5101  -50.5
 2.240  0.3822 -105.6   3.827   94.1  0.1351   50.5  0.5080  -50.7
 2.260  0.3796 -106.2   3.801   93.7  0.1356   50.5  0.5060  -50.8
 2.280  0.3772 -106.7   3.776   93.4  0.1362   50.5  0.5039  -50.9
 2.300  0.3747 -107.3   3.751   93.0  0.1367   50.4  0.5019  -51.1
 2.320  0.3723 -107.9   3.726   92.6  0.1372   50.4  0.4999  -51.2
 2.340  0.3700 -108.5   3.701   92.3  0.1378   50.4  0.4979  -51.4
 2.360  0.3676 -109.1   3.676   91.9  0.1383   50.4  0.4958  -51.5
 2.380  0.3653 -109.7   3.651   91.5  0.1389   50.4  0.4938  -51.7
 2.400  0.3631 -110.3   3.627   91.1  0.1394   50.4  0.4918  -51.8
 2.420  0.3609 -110.8   3.603   90.8  0.1399   50.4  0.4901  -51.9
 2.440  0.3587 -111.4   3.580   90.5  0.1405   50.4  0.4884  -52.1
 2.460  0.3565 -112.0   3.557   90.2  0.1410   50.4  0.4867  -52.2
 2.480  0.3544 -112.5   3.534   89.8  0.1415   50.4  0.4850  -52.4
 2.500  0.3523 -113.1   3.511   89.5  0.1421   50.4  0.4833  -52.5
 2.520  0.3502 -113.7   3.488   89.2  0.1426   50.4  0.4816  -52.7
 2.540  0.3482 -114.3   3.465   88.8  0.1431   50.4  0.4799  -52.8
 2.560  0.3462 -114.9   3.442   88.5  0.1436   50.4  0.4782  -53.0
 2.580  0.3443 -115.5   3.419   88.1  0.1442   50.4  0.4765  -53.1
 2.600  0.3424 -116.1   3.397   87.8  0.1447   50.4  0.4748  -53.3
 2.620  0.3406 -116.6   3.377   87.5  0.1452   50.4  0.4735  -53.4
 2.640  0.3387 -117.1   3.356   87.2  0.1457   50.4  0.4721  -53.6
 2.660  0.3370 -117.6   3.336   86.9  0.1463   50.4  0.4708  -53.7
 2.680  0.3352 -118.1   3.316   86.6  0.1468   50.4  0.4695  -53.9
 2.700  0.3335 -118.6   3.296   86.2  0.1473   50.5  0.4682  -54.0
 2.720  0.3317 -119.2   3.276   85.9  0.1478   50.5  0.4668  -54.1
 2.740  0.3301 -119.7   3.257   85.6  0.1483   50.5  0.4655  -54.3
 2.760  0.3284 -120.2   3.237   85.3  0.1489   50.5  0.4642  -54.4
 2.780  0.3268 -120.8   3.217   84.9  0.1494   50.5  0.4629  -54.6
 2.800  0.3252 -121.3   3.198   84.6  0.1499   50.5  0.4616  -54.7
 2.820  0.3236 -121.8   3.180   84.3  0.1504   50.5  0.4605  -54.8
 2.840  0.3220 -122.3   3.162   84.0  0.1509   50.6  0.4595  -54.9
 2.860  0.3204 -122.8   3.144   83.8  0.1514   50.6  0.4584  -55.1
 2.880  0.3189 -123.3   3.127   83.5  0.1519   50.6  0.4574  -55.2
 2.900  0.3173 -123.8   3.109   83.2  0.1524   50.7  0.4563  -55.3
 2.920  0.3158 -124.3   3.091   82.9  0.1530   50.7  0.4553  -55.4
 2.940  0.3144 -124.8   3.074   82.6  0.1535   50.7  0.4542  -55.5
 2.960  0.3129 -125.3   3.057   82.3  0.1540   50.7  0.4532  -55.7
 2.980  0.3115 -125.9   3.039   82.0  0.1545   50.8  0.4521  -55.8
 3.000  0.3101 -126.4   3.022   81.7  0.1550   50.8  0.4511  -55.9
 3.100  0.3032 -128.4   2.947   80.5  0.1577   51.0  0.4481  -56.4
 3.200  0.2966 -130.5   2.873   79.3  0.1604   51.1  0.4451  -56.8
 3.300  0.2905 -132.7   2.801   78.0  0.1632   51.3  0.4421  -57.3
 3.400  0.2848 -134.9   2.730   76.6  0.1659   51.5  0.4392  -57.8
 3.500  0.2796 -137.3   2.661   75.2  0.1686   51.6  0.4363  -58.3
 3.600  0.2744 -139.2   2.606   74.1  0.1715   51.8  0.4344  -58.7
 3.700  0.2696 -141.3   2.552   73.0  0.1744   52.0  0.4325  -59.1
 3.800  0.2651 -143.3   2.499   71.9  0.1774   52.2  0.4307  -59.4
 3.900  0.2610 -145.5   2.447   70.7  0.1803   52.4  0.4288  -59.8
 4.000  0.2572 -147.7   2.396   69.4  0.1832   52.6  0.4270  -60.2
 4.100  0.2542 -149.8   2.354   68.4  0.1864   52.8  0.4243  -60.7
 4.200  0.2516 -152.0   2.312   67.4  0.1896   52.9  0.4217  -61.3
 4.300  0.2493 -154.2   2.272   66.3  0.1929   53.1  0.4191  -61.9
 4.400  0.2474 -156.5   2.232   65.2  0.1961   53.3  0.4165  -62.4
 4.500  0.2459 -158.8   2.193   64.0  0.1993   53.4  0.4140  -63.0
 4.600  0.2441 -161.1   2.161   63.0  0.2027   53.5  0.4110  -63.7
 4.700  0.2427 -163.5   2.129   62.0  0.2061   53.6  0.4081  -64.4
 4.800  0.2417 -165.8   2.098   60.9  0.2095   53.6  0.4052  -65.2
 4.900  0.2411 -168.2   2.068   59.8  0.2129   53.7  0.4024  -65.9
 5.000  0.2409 -170.6   2.038   58.7  0.2163   53.8  0.3997  -66.7
 5.100  0.2399 -173.0   2.010   57.8  0.2199   53.9  0.3970  -67.4
 5.200  0.2393 -175.4   1.983   56.8  0.2235   53.9  0.3943  -68.0
 5.300  0.2391 -177.8   1.957   55.8  0.2272   54.0  0.3917  -68.7
 5.400  0.2393  179.8   1.931   54.8  0.2308   54.0  0.3891  -69.4
 5.500  0.2400  177.4   1.906   53.7  0.2344   54.1  0.3866  -70.1
 5.600  0.2406  175.1   1.883   52.8  0.2385   54.1  0.3837  -71.0
 5.700  0.2415  172.9   1.861   51.9  0.2426   54.1  0.3809  -71.8
 5.800  0.2428  170.7   1.839   51.0  0.2468   54.2  0.3782  -72.7
 5.900  0.2445  168.5   1.818   50.1  0.2509   54.2  0.3756  -73.6
 6.000  0.2465  166.3   1.797   49.1  0.2550   54.2  0.3731  -74.5
!
!  f       NFmin   Gammaopt  rn/50
! GHz       dB    MAG  ANG    -
 0.450      0.90  0.62    3   0.38
 0.900      0.90  0.59   12   0.41
 1.900      1.18  0.46   23   0.37
 2.400      1.27  0.43   32   0.35
!
! (c) 2015  Infineon Technologies AG, Munich
