! Infineon Technologies  Discrete & RF Semiconductors
! BFR35AP
! VCE = 0.50 V,  IC =  5.0 mA
! Common Emitter S-Parameters:                            Nov 2015
# GHz  S  MA  R  50
!  f         S11            S21            S12            S22
! GHz     MAG   ANG      MAG   ANG      MAG   ANG      MAG   ANG
 0.010  0.8018   -5.3  14.116  176.4  0.0049   86.4  0.9746   -3.1
 0.015  0.7988   -7.7  13.966  174.4  0.0077   85.1  0.9677   -4.6
 0.020  0.7973  -10.2  13.834  172.3  0.0106   84.5  0.9615   -6.1
 0.025  0.7900  -12.7  13.768  170.5  0.0131   82.0  0.9553   -7.6
 0.030  0.7842  -15.2  13.716  168.7  0.0155   80.3  0.9497   -9.0
 0.035  0.7799  -17.7  13.678  166.9  0.0180   79.1  0.9448  -10.5
 0.040  0.7772  -20.3  13.652  165.1  0.0205   78.1  0.9406  -12.0
 0.045  0.7760  -22.9  13.641  163.3  0.0230   77.4  0.9369  -13.6
 0.050  0.7765  -25.5  13.643  161.5  0.0255   76.8  0.9340  -15.1
 0.055  0.7633  -27.6  13.461  160.1  0.0274   75.0  0.9223  -16.2
 0.060  0.7512  -29.7  13.287  158.6  0.0294   73.4  0.9110  -17.4
 0.065  0.7401  -31.9  13.123  157.1  0.0314   72.0  0.9000  -18.6
 0.070  0.7302  -34.1  12.968  155.5  0.0334   70.8  0.8895  -19.8
 0.075  0.7214  -36.5  12.823  153.9  0.0354   69.7  0.8793  -21.1
 0.080  0.7138  -38.8  12.688  152.3  0.0375   68.7  0.8696  -22.4
 0.085  0.7075  -41.2  12.563  150.7  0.0395   67.8  0.8604  -23.7
 0.090  0.7025  -43.7  12.449  149.0  0.0416   67.1  0.8516  -25.0
 0.095  0.6987  -46.2  12.346  147.2  0.0436   66.3  0.8433  -26.4
 0.100  0.6963  -48.7  12.254  145.5  0.0457   65.7  0.8355  -27.8
 0.105  0.6854  -50.4  12.058  144.3  0.0472   64.7  0.8243  -28.6
 0.110  0.6751  -52.1  11.868  143.2  0.0486   63.8  0.8133  -29.4
 0.115  0.6655  -53.9  11.683  141.9  0.0501   62.9  0.8025  -30.3
 0.120  0.6565  -55.7  11.503  140.7  0.0516   62.0  0.7918  -31.2
 0.125  0.6482  -57.6  11.329  139.3  0.0531   61.2  0.7814  -32.0
 0.130  0.6406  -59.6  11.161  138.0  0.0546   60.5  0.7711  -33.0
 0.135  0.6338  -61.5  11.000  136.6  0.0561   59.8  0.7611  -33.9
 0.140  0.6277  -63.6  10.845  135.2  0.0576   59.1  0.7512  -34.9
 0.145  0.6224  -65.6  10.698  133.7  0.0592   58.5  0.7416  -35.9
 0.150  0.6180  -67.7  10.557  132.2  0.0607   57.9  0.7322  -36.9
 0.155  0.6097  -69.2  10.404  131.3  0.0617   57.4  0.7221  -37.5
 0.160  0.6018  -70.7  10.253  130.4  0.0626   56.8  0.7120  -38.0
 0.165  0.5944  -72.3  10.105  129.5  0.0636   56.3  0.7021  -38.6
 0.170  0.5874  -73.9   9.959  128.6  0.0646   55.8  0.6922  -39.2
 0.175  0.5808  -75.5   9.816  127.6  0.0655   55.3  0.6824  -39.8
 0.180  0.5748  -77.2   9.677  126.6  0.0665   54.9  0.6726  -40.5
 0.185  0.5693  -78.9   9.540  125.6  0.0675   54.4  0.6630  -41.1
 0.190  0.5642  -80.6   9.406  124.5  0.0685   53.9  0.6534  -41.8
 0.195  0.5598  -82.4   9.276  123.4  0.0695   53.5  0.6440  -42.5
 0.200  0.5558  -84.2   9.149  122.3  0.0705   53.1  0.6346  -43.2
 0.220  0.5339  -89.3   8.624  119.5  0.0734   51.8  0.6018  -44.9
 0.240  0.5165  -94.8   8.122  116.3  0.0764   50.7  0.5696  -46.7
 0.260  0.5009  -99.7   7.677  113.4  0.0793   49.8  0.5426  -48.2
 0.280  0.4852 -104.0   7.277  111.2  0.0820   49.1  0.5206  -49.2
 0.300  0.4725 -108.6   6.889  108.6  0.0847   48.5  0.4987  -50.3
 0.320  0.4586 -112.0   6.598  107.1  0.0868   48.2  0.4812  -50.9
 0.340  0.4465 -115.7   6.312  105.4  0.0889   47.9  0.4637  -51.5
 0.360  0.4363 -119.5   6.032  103.5  0.0910   47.6  0.4462  -52.2
 0.380  0.4281 -123.5   5.759  101.5  0.0931   47.3  0.4289  -52.9
 0.400  0.4220 -127.6   5.494   99.3  0.0952   47.0  0.4116  -53.7
 0.420  0.4146 -130.3   5.290   98.0  0.0970   47.1  0.3992  -54.1
 0.440  0.4082 -133.1   5.088   96.7  0.0988   47.2  0.3869  -54.4
 0.450  0.4053 -134.5   4.989   95.9  0.0996   47.2  0.3807  -54.6
 0.460  0.4027 -136.0   4.890   95.2  0.1005   47.2  0.3746  -54.8
 0.480  0.3983 -138.9   4.696   93.6  0.1023   47.3  0.3623  -55.2
 0.500  0.3950 -141.9   4.505   91.8  0.1041   47.4  0.3500  -55.7
 0.520  0.3912 -143.9   4.369   90.8  0.1062   47.5  0.3425  -55.9
 0.540  0.3880 -146.0   4.234   89.7  0.1082   47.7  0.3351  -56.1
 0.560  0.3852 -148.1   4.101   88.5  0.1103   47.8  0.3276  -56.4
 0.580  0.3830 -150.2   3.969   87.2  0.1123   47.9  0.3201  -56.6
 0.600  0.3813 -152.4   3.840   85.9  0.1144   48.0  0.3127  -56.9
 0.620  0.3790 -154.4   3.740   84.9  0.1164   48.0  0.3077  -57.1
 0.640  0.3772 -156.5   3.642   83.9  0.1184   48.1  0.3027  -57.3
 0.660  0.3759 -158.5   3.545   82.8  0.1205   48.1  0.2977  -57.5
 0.680  0.3750 -160.6   3.449   81.7  0.1225   48.2  0.2927  -57.7
 0.700  0.3747 -162.7   3.354   80.5  0.1245   48.2  0.2877  -57.9
 0.720  0.3736 -164.4   3.274   79.7  0.1266   48.3  0.2835  -58.1
 0.740  0.3729 -166.1   3.194   78.8  0.1288   48.4  0.2792  -58.3
 0.760  0.3725 -167.9   3.116   77.9  0.1309   48.5  0.2750  -58.5
 0.780  0.3724 -169.6   3.038   76.9  0.1331   48.6  0.2708  -58.8
 0.800  0.3727 -171.3   2.961   75.9  0.1352   48.7  0.2666  -59.0
 0.820  0.3707 -172.7   2.900   75.1  0.1374   48.8  0.2630  -59.2
 0.840  0.3690 -174.2   2.840   74.2  0.1396   48.8  0.2595  -59.4
 0.860  0.3675 -175.6   2.780   73.3  0.1418   48.9  0.2559  -59.6
 0.880  0.3663 -177.1   2.721   72.4  0.1440   48.9  0.2524  -59.9
 0.900  0.3653 -178.6   2.663   71.4  0.1462   49.0  0.2488  -60.1
 0.920  0.3654  180.0   2.616   70.7  0.1483   49.1  0.2460  -60.4
 0.940  0.3657  178.5   2.569   69.9  0.1504   49.1  0.2433  -60.7
 0.960  0.3662  177.1   2.522   69.1  0.1524   49.2  0.2405  -61.0
 0.980  0.3670  175.7   2.476   68.3  0.1545   49.2  0.2377  -61.4
 1.000  0.3680  174.3   2.431   67.5  0.1566   49.3  0.2350  -61.7
 1.020  0.3692  173.0   2.393   66.8  0.1588   49.3  0.2328  -62.1
 1.040  0.3707  171.7   2.355   66.0  0.1609   49.3  0.2305  -62.6
 1.060  0.3723  170.4   2.317   65.2  0.1631   49.2  0.2283  -63.0
 1.080  0.3741  169.2   2.280   64.4  0.1652   49.2  0.2261  -63.4
 1.100  0.3761  167.9   2.243   63.6  0.1674   49.2  0.2239  -63.9
 1.120  0.3762  166.9   2.209   62.9  0.1697   49.2  0.2218  -64.3
 1.140  0.3763  165.9   2.175   62.2  0.1720   49.1  0.2196  -64.6
 1.160  0.3766  164.8   2.142   61.5  0.1742   49.1  0.2175  -65.0
 1.180  0.3771  163.8   2.109   60.8  0.1765   49.0  0.2154  -65.4
 1.200  0.3776  162.8   2.076   60.0  0.1788   49.0  0.2133  -65.8
 1.220  0.3780  161.7   2.047   59.4  0.1810   48.9  0.2116  -66.2
 1.240  0.3785  160.7   2.019   58.7  0.1833   48.8  0.2099  -66.6
 1.260  0.3791  159.6   1.991   58.1  0.1855   48.7  0.2082  -67.0
 1.280  0.3798  158.6   1.963   57.4  0.1878   48.6  0.2065  -67.4
 1.300  0.3807  157.5   1.935   56.7  0.1900   48.5  0.2048  -67.8
 1.320  0.3808  156.6   1.910   56.1  0.1921   48.4  0.2037  -68.3
 1.340  0.3810  155.7   1.884   55.4  0.1942   48.3  0.2026  -68.9
 1.360  0.3813  154.9   1.859   54.8  0.1964   48.1  0.2016  -69.4
 1.380  0.3817  154.0   1.834   54.1  0.1985   48.0  0.2005  -69.9
 1.400  0.3822  153.1   1.810   53.4  0.2006   47.9  0.1995  -70.5
 1.420  0.3829  152.4   1.792   52.8  0.2029   47.8  0.1982  -71.0
 1.440  0.3837  151.6   1.775   52.2  0.2051   47.7  0.1969  -71.4
 1.460  0.3845  150.9   1.758   51.5  0.2074   47.5  0.1956  -71.9
 1.480  0.3854  150.1   1.741   50.9  0.2096   47.4  0.1943  -72.4
 1.500  0.3864  149.4   1.724   50.2  0.2119   47.3  0.1930  -72.9
 1.520  0.3892  148.4   1.704   49.6  0.2141   47.2  0.1914  -73.5
 1.540  0.3921  147.4   1.683   48.9  0.2163   47.0  0.1899  -74.1
 1.560  0.3951  146.5   1.663   48.2  0.2186   46.9  0.1884  -74.7
 1.580  0.3982  145.5   1.644   47.5  0.2208   46.7  0.1869  -75.4
 1.600  0.4014  144.6   1.624   46.8  0.2230   46.6  0.1854  -76.0
 1.620  0.4028  143.7   1.608   46.2  0.2251   46.5  0.1837  -76.6
 1.640  0.4043  142.8   1.593   45.6  0.2273   46.3  0.1820  -77.2
 1.660  0.4059  141.9   1.577   45.0  0.2294   46.2  0.1804  -77.8
 1.680  0.4075  141.1   1.562   44.3  0.2316   46.0  0.1787  -78.5
 1.700  0.4093  140.2   1.547   43.7  0.2337   45.9  0.1771  -79.1
 1.720  0.4100  139.4   1.534   43.2  0.2361   45.7  0.1762  -79.8
 1.740  0.4107  138.7   1.521   42.7  0.2385   45.5  0.1753  -80.5
 1.760  0.4115  137.9   1.508   42.2  0.2410   45.3  0.1744  -81.2
 1.780  0.4124  137.2   1.496   41.6  0.2434   45.2  0.1735  -82.0
 1.800  0.4134  136.4   1.483   41.1  0.2458   45.0  0.1727  -82.7
 1.820  0.4157  135.8   1.471   40.5  0.2479   44.8  0.1713  -83.6
 1.840  0.4180  135.2   1.459   40.0  0.2500   44.7  0.1700  -84.6
 1.860  0.4203  134.6   1.447   39.4  0.2522   44.5  0.1687  -85.5
 1.880  0.4227  134.0   1.435   38.8  0.2543   44.4  0.1675  -86.5
 1.900  0.4252  133.4   1.423   38.2  0.2564   44.2  0.1663  -87.5
 1.920  0.4265  132.7   1.410   37.7  0.2587   44.0  0.1649  -88.3
 1.940  0.4279  132.1   1.397   37.1  0.2610   43.7  0.1636  -89.2
 1.960  0.4293  131.4   1.384   36.6  0.2633   43.5  0.1623  -90.0
 1.980  0.4308  130.8   1.372   36.0  0.2657   43.3  0.1610  -90.9
 2.000  0.4324  130.1   1.359   35.4  0.2680   43.1  0.1598  -91.8
 2.020  0.4336  129.4   1.349   34.9  0.2701   42.9  0.1589  -92.7
 2.040  0.4348  128.7   1.340   34.4  0.2722   42.6  0.1579  -93.6
 2.060  0.4361  128.1   1.330   33.9  0.2743   42.4  0.1571  -94.5
 2.080  0.4375  127.4   1.320   33.4  0.2764   42.2  0.1563  -95.4
 2.100  0.4389  126.7   1.311   32.8  0.2785   42.0  0.1555  -96.4
 2.120  0.4404  126.1   1.302   32.3  0.2807   41.7  0.1547  -97.3
 2.140  0.4419  125.4   1.293   31.8  0.2828   41.5  0.1540  -98.3
 2.160  0.4435  124.8   1.284   31.2  0.2849   41.3  0.1534  -99.2
 2.180  0.4452  124.1   1.275   30.7  0.2871   41.1  0.1528 -100.2
 2.200  0.4469  123.5   1.266   30.1  0.2892   40.9  0.1522 -101.2
 2.220  0.4489  122.9   1.258   29.6  0.2913   40.7  0.1507 -102.4
 2.240  0.4509  122.3   1.250   29.1  0.2934   40.4  0.1493 -103.6
 2.260  0.4530  121.7   1.242   28.6  0.2955   40.2  0.1480 -104.9
 2.280  0.4551  121.1   1.235   28.1  0.2977   39.9  0.1467 -106.2
 2.300  0.4572  120.5   1.227   27.6  0.2998   39.7  0.1455 -107.5
 2.320  0.4595  119.9   1.220   27.1  0.3019   39.5  0.1444 -108.8
 2.340  0.4617  119.3   1.212   26.5  0.3041   39.3  0.1434 -110.2
 2.360  0.4640  118.7   1.205   26.0  0.3062   39.0  0.1425 -111.5
 2.380  0.4664  118.2   1.198   25.4  0.3083   38.8  0.1416 -112.9
 2.400  0.4688  117.6   1.191   24.9  0.3105   38.6  0.1408 -114.3
 2.420  0.4708  117.0   1.183   24.5  0.3124   38.3  0.1404 -115.5
 2.440  0.4729  116.4   1.176   24.0  0.3144   38.1  0.1400 -116.7
 2.460  0.4750  115.9   1.168   23.6  0.3163   37.8  0.1397 -117.9
 2.480  0.4772  115.3   1.161   23.1  0.3183   37.6  0.1395 -119.1
 2.500  0.4794  114.7   1.154   22.7  0.3202   37.4  0.1393 -120.3
 2.520  0.4817  114.2   1.146   22.2  0.3222   37.1  0.1392 -121.5
 2.540  0.4840  113.6   1.139   21.7  0.3242   36.9  0.1392 -122.8
 2.560  0.4864  113.1   1.132   21.3  0.3261   36.7  0.1392 -124.0
 2.580  0.4888  112.5   1.125   20.8  0.3281   36.4  0.1393 -125.2
 2.600  0.4912  112.0   1.118   20.3  0.3301   36.2  0.1394 -126.4
 2.620  0.4930  111.5   1.112   19.9  0.3321   35.9  0.1390 -128.0
 2.640  0.4948  110.9   1.106   19.5  0.3342   35.7  0.1387 -129.6
 2.660  0.4966  110.4   1.101   19.1  0.3363   35.4  0.1385 -131.1
 2.680  0.4985  109.9   1.095   18.6  0.3383   35.1  0.1384 -132.7
 2.700  0.5005  109.4   1.089   18.2  0.3404   34.9  0.1384 -134.3
 2.720  0.5024  108.9   1.084   17.8  0.3425   34.6  0.1385 -135.9
 2.740  0.5044  108.4   1.078   17.3  0.3446   34.3  0.1388 -137.5
 2.760  0.5065  107.9   1.073   16.9  0.3467   34.1  0.1391 -139.1
 2.780  0.5086  107.4   1.067   16.5  0.3488   33.8  0.1396 -140.6
 2.800  0.5107  106.9   1.062   16.0  0.3509   33.6  0.1401 -142.2
 2.820  0.5126  106.5   1.056   15.6  0.3527   33.3  0.1406 -143.6
 2.840  0.5145  106.1   1.050   15.1  0.3545   33.0  0.1412 -145.0
 2.860  0.5164  105.7   1.045   14.7  0.3562   32.7  0.1419 -146.4
 2.880  0.5183  105.3   1.039   14.3  0.3580   32.4  0.1426 -147.7
 2.900  0.5203  104.9   1.033   13.8  0.3598   32.2  0.1435 -149.1
 2.920  0.5223  104.5   1.028   13.4  0.3617   31.9  0.1444 -150.4
 2.940  0.5243  104.1   1.022   12.9  0.3635   31.6  0.1454 -151.8
 2.960  0.5263  103.7   1.017   12.4  0.3653   31.3  0.1464 -153.1
 2.980  0.5284  103.3   1.011   12.0  0.3672   31.1  0.1476 -154.3
 3.000  0.5305  102.9   1.006   11.5  0.3690   30.8  0.1488 -155.6
 3.100  0.5397  100.8   0.981    9.9  0.3766   29.3  0.1534 -162.9
 3.200  0.5495   98.8   0.957    8.1  0.3845   27.9  0.1602 -169.7
 3.300  0.5601   96.8   0.934    6.3  0.3925   26.6  0.1691 -175.8
 3.400  0.5712   94.9   0.911    4.4  0.4008   25.2  0.1798  178.7
 3.500  0.5830   93.1   0.890    2.4  0.4093   24.0  0.1919  173.9
 3.600  0.5891   91.4   0.871    1.0  0.4156   22.6  0.2024  168.8
 3.700  0.5957   89.7   0.853   -0.5  0.4220   21.3  0.2144  164.2
 3.800  0.6027   88.1   0.836   -2.1  0.4287   20.0  0.2276  160.2
 3.900  0.6103   86.5   0.819   -3.7  0.4357   18.7  0.2418  156.6
 4.000  0.6183   85.0   0.803   -5.4  0.4428   17.5  0.2568  153.4
 4.100  0.6248   83.6   0.788   -6.6  0.4480   16.1  0.2678  149.8
 4.200  0.6316   82.2   0.773   -7.8  0.4535   14.7  0.2798  146.4
 4.300  0.6388   80.8   0.759   -9.1  0.4592   13.4  0.2927  143.3
 4.400  0.6463   79.5   0.745  -10.4  0.4652   12.1  0.3063  140.6
 4.500  0.6542   78.2   0.732  -11.8  0.4714   10.8  0.3206  138.0
 4.600  0.6584   77.0   0.721  -12.8  0.4751    9.5  0.3303  135.3
 4.700  0.6630   75.9   0.710  -13.8  0.4791    8.2  0.3407  132.8
 4.800  0.6678   74.7   0.699  -14.9  0.4832    7.0  0.3517  130.5
 4.900  0.6728   73.6   0.689  -16.0  0.4877    5.7  0.3632  128.3
 5.000  0.6781   72.5   0.679  -17.1  0.4923    4.5  0.3753  126.2
 5.100  0.6827   71.4   0.666  -17.9  0.4924    3.2  0.3794  123.4
 5.200  0.6876   70.3   0.653  -18.8  0.4927    1.9  0.3844  120.6
 5.300  0.6927   69.2   0.640  -19.7  0.4932    0.6  0.3903  118.0
 5.400  0.6981   68.1   0.627  -20.7  0.4940   -0.7  0.3970  115.4
 5.500  0.7037   67.0   0.615  -21.7  0.4951   -2.0  0.4045  112.9
 5.600  0.7019   66.0   0.613  -21.9  0.5014   -2.8  0.4167  113.0
 5.700  0.7003   65.1   0.610  -22.2  0.5078   -3.5  0.4289  113.2
 5.800  0.6989   64.1   0.608  -22.4  0.5142   -4.2  0.4412  113.3
 5.900  0.6978   63.1   0.605  -22.7  0.5208   -4.9  0.4534  113.4
 6.000  0.6968   62.1   0.603  -22.9  0.5274   -5.6  0.4656  113.5
!
!  f       NFmin   Gammaopt  rn/50
! GHz       dB    MAG  ANG    -
!
! noise parameter not available yet for this operation point!
!
! (c) 2015  Infineon Technologies AG, Munich
