! Infineon Technologies  Discrete & RF Semiconductors
! BFR340F
! VCE =  1.0 V,  IC =  8.0 mA
! Common Emitter S-Parameters:                            Nov 2015
# GHz  S  MA  R  50
!  f         S11            S21            S12            S22
! GHz     MAG   ANG      MAG   ANG      MAG   ANG      MAG   ANG
 0.030  0.8156   -6.3  15.056  175.9  0.0043   84.7  0.9498   -2.4
 0.035  0.8154   -7.4  15.037  175.0  0.0050   84.6  0.9492   -2.8
 0.040  0.8156   -8.5  15.021  174.1  0.0057   84.5  0.9487   -3.3
 0.045  0.8135   -9.4  14.973  173.2  0.0065   84.2  0.9479   -3.7
 0.050  0.8116  -10.4  14.929  172.2  0.0073   84.0  0.9471   -4.2
 0.055  0.8109  -11.5  14.902  171.6  0.0078   83.8  0.9460   -4.6
 0.060  0.8104  -12.6  14.876  170.9  0.0084   83.7  0.9450   -5.1
 0.065  0.8081  -13.7  14.908  170.0  0.0090   82.9  0.9435   -5.5
 0.070  0.8061  -14.8  14.943  169.2  0.0097   82.2  0.9421   -5.9
 0.075  0.8056  -15.7  14.890  168.7  0.0104   81.7  0.9406   -6.3
 0.080  0.8052  -16.6  14.839  168.1  0.0112   81.2  0.9391   -6.8
 0.085  0.8034  -17.8  14.808  167.4  0.0119   80.7  0.9372   -7.2
 0.090  0.8019  -19.0  14.780  166.6  0.0126   80.3  0.9353   -7.6
 0.095  0.8002  -19.9  14.704  165.9  0.0132   79.9  0.9335   -8.0
 0.100  0.7988  -20.9  14.631  165.1  0.0138   79.5  0.9317   -8.4
 0.105  0.7968  -21.8  14.604  164.4  0.0144   78.9  0.9294   -8.8
 0.110  0.7951  -22.8  14.579  163.7  0.0151   78.3  0.9271   -9.2
 0.115  0.7924  -23.8  14.545  163.0  0.0157   77.9  0.9248   -9.6
 0.120  0.7899  -24.9  14.514  162.2  0.0164   77.6  0.9226  -10.0
 0.125  0.7872  -25.8  14.461  161.6  0.0170   77.1  0.9199  -10.4
 0.130  0.7848  -26.8  14.409  160.9  0.0177   76.7  0.9173  -10.8
 0.135  0.7813  -27.7  14.371  160.1  0.0183   76.2  0.9146  -11.2
 0.140  0.7780  -28.7  14.336  159.3  0.0190   75.8  0.9120  -11.6
 0.145  0.7760  -29.7  14.258  158.6  0.0195   75.3  0.9091  -11.9
 0.150  0.7742  -30.8  14.182  157.8  0.0201   74.9  0.9063  -12.3
 0.155  0.7705  -31.7  14.116  157.2  0.0207   74.4  0.9031  -12.6
 0.160  0.7670  -32.6  14.051  156.6  0.0212   73.9  0.8999  -12.9
 0.165  0.7637  -33.5  13.988  155.9  0.0218   73.4  0.8967  -13.3
 0.170  0.7606  -34.4  13.926  155.3  0.0223   73.0  0.8936  -13.6
 0.175  0.7577  -35.4  13.866  154.7  0.0229   72.6  0.8905  -13.9
 0.180  0.7550  -36.3  13.808  154.0  0.0234   72.2  0.8874  -14.3
 0.185  0.7525  -37.2  13.752  153.4  0.0240   71.8  0.8844  -14.6
 0.190  0.7502  -38.2  13.698  152.7  0.0246   71.5  0.8813  -14.9
 0.195  0.7481  -39.1  13.645  152.1  0.0251   71.1  0.8784  -15.3
 0.200  0.7462  -40.1  13.594  151.4  0.0257   70.8  0.8754  -15.6
 0.220  0.7310  -43.5  13.300  149.0  0.0276   69.2  0.8617  -16.7
 0.240  0.7186  -47.1  13.031  146.6  0.0296   67.7  0.8484  -17.9
 0.260  0.7057  -50.4  12.751  144.3  0.0315   66.4  0.8349  -19.0
 0.280  0.6919  -53.6  12.455  142.1  0.0332   65.1  0.8210  -19.9
 0.300  0.6803  -56.9  12.177  139.9  0.0349   64.0  0.8073  -20.9
 0.320  0.6671  -59.8  11.883  138.0  0.0364   62.9  0.7938  -21.6
 0.340  0.6558  -62.8  11.602  136.0  0.0379   62.0  0.7804  -22.4
 0.360  0.6440  -65.7  11.324  134.2  0.0392   61.1  0.7675  -23.1
 0.380  0.6315  -68.4  11.044  132.4  0.0405   60.3  0.7551  -23.7
 0.400  0.6205  -71.2  10.776  130.6  0.0418   59.5  0.7427  -24.3
 0.420  0.6084  -73.7  10.513  129.1  0.0430   58.8  0.7311  -24.8
 0.440  0.5976  -76.4  10.257  127.4  0.0441   58.1  0.7196  -25.3
 0.450  0.5927  -77.7  10.133  126.6  0.0447   57.8  0.7139  -25.6
 0.460  0.5872  -78.9  10.011  125.9  0.0452   57.5  0.7085  -25.8
 0.480  0.5769  -81.2   9.772  124.6  0.0462   56.9  0.6977  -26.2
 0.500  0.5676  -83.7   9.539  123.1  0.0472   56.4  0.6870  -26.6
 0.520  0.5578  -85.7   9.319  122.0  0.0480   56.0  0.6780  -26.8
 0.540  0.5487  -87.8   9.103  120.8  0.0489   55.6  0.6690  -27.1
 0.560  0.5404  -90.0   8.892  119.5  0.0497   55.3  0.6600  -27.4
 0.580  0.5329  -92.2   8.684  118.2  0.0506   54.9  0.6510  -27.6
 0.600  0.5262  -94.5   8.482  116.8  0.0514   54.6  0.6420  -27.9
 0.620  0.5183  -96.3   8.299  115.8  0.0521   54.4  0.6347  -28.1
 0.640  0.5108  -98.1   8.119  114.9  0.0529   54.2  0.6274  -28.2
 0.660  0.5039  -99.9   7.942  113.8  0.0536   54.0  0.6201  -28.4
 0.680  0.4975 -101.8   7.767  112.7  0.0544   53.8  0.6129  -28.6
 0.700  0.4917 -103.8   7.595  111.6  0.0551   53.6  0.6056  -28.8
 0.720  0.4858 -105.4   7.444  110.8  0.0557   53.5  0.5999  -28.9
 0.740  0.4802 -107.0   7.294  109.9  0.0564   53.5  0.5941  -29.0
 0.760  0.4750 -108.7   7.145  109.1  0.0570   53.4  0.5884  -29.1
 0.780  0.4702 -110.4   6.999  108.2  0.0577   53.4  0.5826  -29.2
 0.800  0.4659 -112.1   6.854  107.2  0.0583   53.3  0.5769  -29.3
 0.820  0.4614 -113.5   6.729  106.5  0.0589   53.3  0.5722  -29.4
 0.840  0.4572 -115.0   6.605  105.8  0.0595   53.3  0.5675  -29.5
 0.860  0.4532 -116.5   6.483  105.0  0.0602   53.2  0.5629  -29.5
 0.880  0.4496 -118.0   6.361  104.2  0.0608   53.2  0.5582  -29.6
 0.900  0.4463 -119.5   6.241  103.4  0.0614   53.2  0.5535  -29.7
 0.920  0.4426 -120.8   6.134  102.8  0.0620   53.3  0.5497  -29.8
 0.940  0.4391 -122.1   6.029  102.1  0.0626   53.4  0.5460  -29.8
 0.960  0.4358 -123.4   5.923  101.4  0.0631   53.4  0.5422  -29.9
 0.980  0.4328 -124.7   5.819  100.7  0.0637   53.5  0.5385  -29.9
 1.000  0.4300 -126.1   5.716  100.0  0.0643   53.6  0.5347  -30.0
 1.020  0.4273 -127.2   5.625   99.4  0.0649   53.7  0.5317  -30.1
 1.040  0.4248 -128.4   5.534   98.9  0.0655   53.8  0.5287  -30.1
 1.060  0.4225 -129.5   5.444   98.3  0.0661   53.9  0.5256  -30.2
 1.080  0.4204 -130.7   5.354   97.6  0.0667   54.0  0.5226  -30.2
 1.100  0.4184 -131.9   5.265   97.0  0.0673   54.1  0.5196  -30.3
 1.120  0.4162 -133.0   5.187   96.5  0.0679   54.2  0.5170  -30.4
 1.140  0.4141 -134.1   5.109   96.0  0.0684   54.4  0.5143  -30.4
 1.160  0.4122 -135.2   5.032   95.4  0.0690   54.5  0.5117  -30.5
 1.180  0.4104 -136.3   4.955   94.9  0.0695   54.7  0.5090  -30.5
 1.200  0.4088 -137.4   4.879   94.3  0.0701   54.8  0.5064  -30.6
 1.220  0.4072 -138.3   4.811   93.8  0.0707   54.9  0.5044  -30.7
 1.240  0.4058 -139.3   4.744   93.3  0.0713   55.0  0.5023  -30.8
 1.260  0.4044 -140.3   4.678   92.8  0.0718   55.2  0.5003  -30.8
 1.280  0.4032 -141.2   4.611   92.3  0.0724   55.3  0.4982  -30.9
 1.300  0.4021 -142.2   4.545   91.8  0.0730   55.4  0.4962  -31.0
 1.320  0.4010 -143.1   4.485   91.3  0.0736   55.5  0.4943  -31.1
 1.340  0.4000 -143.9   4.426   90.9  0.0742   55.7  0.4924  -31.2
 1.360  0.3991 -144.8   4.367   90.4  0.0747   55.8  0.4906  -31.2
 1.380  0.3983 -145.7   4.308   89.9  0.0753   56.0  0.4887  -31.3
 1.400  0.3976 -146.6   4.250   89.4  0.0759   56.1  0.4868  -31.4
 1.420  0.3965 -147.4   4.199   89.0  0.0765   56.2  0.4854  -31.5
 1.440  0.3955 -148.3   4.147   88.6  0.0771   56.4  0.4840  -31.6
 1.460  0.3945 -149.1   4.096   88.1  0.0777   56.5  0.4826  -31.7
 1.480  0.3937 -150.0   4.046   87.7  0.0783   56.7  0.4812  -31.8
 1.500  0.3929 -150.8   3.995   87.2  0.0789   56.8  0.4798  -31.9
 1.520  0.3923 -151.6   3.949   86.8  0.0795   57.0  0.4785  -32.0
 1.540  0.3919 -152.3   3.903   86.4  0.0801   57.1  0.4772  -32.1
 1.560  0.3914 -153.1   3.857   86.0  0.0807   57.3  0.4758  -32.3
 1.580  0.3911 -153.8   3.811   85.5  0.0813   57.4  0.4745  -32.4
 1.600  0.3908 -154.6   3.766   85.1  0.0819   57.6  0.4732  -32.5
 1.620  0.3901 -155.3   3.725   84.7  0.0825   57.7  0.4722  -32.6
 1.640  0.3895 -155.9   3.685   84.4  0.0831   57.9  0.4712  -32.7
 1.660  0.3890 -156.6   3.644   84.0  0.0838   58.0  0.4702  -32.8
 1.680  0.3885 -157.2   3.604   83.6  0.0844   58.2  0.4692  -32.9
 1.700  0.3880 -157.9   3.564   83.2  0.0850   58.3  0.4682  -33.0
 1.720  0.3877 -158.5   3.527   82.9  0.0856   58.4  0.4674  -33.1
 1.740  0.3874 -159.1   3.490   82.5  0.0862   58.6  0.4665  -33.2
 1.760  0.3872 -159.7   3.453   82.1  0.0869   58.7  0.4657  -33.4
 1.780  0.3870 -160.3   3.417   81.8  0.0875   58.9  0.4648  -33.5
 1.800  0.3868 -160.9   3.380   81.4  0.0881   59.0  0.4640  -33.6
 1.820  0.3865 -161.5   3.348   81.1  0.0887   59.1  0.4632  -33.7
 1.840  0.3863 -162.1   3.315   80.7  0.0894   59.3  0.4624  -33.9
 1.860  0.3861 -162.8   3.283   80.3  0.0900   59.4  0.4615  -34.0
 1.880  0.3860 -163.4   3.251   80.0  0.0907   59.6  0.4607  -34.2
 1.900  0.3859 -164.0   3.219   79.6  0.0913   59.7  0.4599  -34.3
 1.920  0.3855 -164.5   3.189   79.3  0.0919   59.8  0.4595  -34.4
 1.940  0.3852 -165.0   3.160   78.9  0.0926   60.0  0.4590  -34.6
 1.960  0.3849 -165.5   3.130   78.5  0.0932   60.1  0.4586  -34.7
 1.980  0.3846 -166.0   3.101   78.2  0.0939   60.3  0.4581  -34.9
 2.000  0.3844 -166.5   3.072   77.8  0.0945   60.4  0.4577  -35.0
 2.020  0.3842 -167.0   3.046   77.5  0.0952   60.5  0.4572  -35.1
 2.040  0.3841 -167.5   3.019   77.2  0.0958   60.7  0.4567  -35.3
 2.060  0.3840 -168.1   2.993   76.9  0.0965   60.8  0.4562  -35.4
 2.080  0.3839 -168.6   2.967   76.6  0.0971   60.9  0.4557  -35.6
 2.100  0.3839 -169.1   2.941   76.3  0.0978   61.0  0.4553  -35.7
 2.120  0.3838 -169.6   2.915   75.9  0.0985   61.1  0.4548  -35.9
 2.140  0.3839 -170.1   2.889   75.6  0.0991   61.3  0.4543  -36.0
 2.160  0.3839 -170.7   2.863   75.3  0.0998   61.4  0.4538  -36.2
 2.180  0.3840 -171.2   2.838   74.9  0.1004   61.5  0.4534  -36.3
 2.200  0.3841 -171.7   2.812   74.6  0.1011   61.6  0.4529  -36.5
 2.220  0.3842 -172.1   2.790   74.3  0.1018   61.7  0.4525  -36.7
 2.240  0.3842 -172.6   2.769   74.0  0.1025   61.9  0.4522  -36.8
 2.260  0.3844 -173.0   2.748   73.7  0.1032   62.0  0.4518  -37.0
 2.280  0.3845 -173.4   2.726   73.4  0.1039   62.1  0.4514  -37.1
 2.300  0.3846 -173.9   2.705   73.1  0.1045   62.2  0.4511  -37.3
 2.320  0.3848 -174.3   2.684   72.8  0.1052   62.3  0.4507  -37.5
 2.340  0.3850 -174.7   2.663   72.5  0.1059   62.5  0.4503  -37.6
 2.360  0.3852 -175.1   2.642   72.2  0.1066   62.6  0.4500  -37.8
 2.380  0.3854 -175.6   2.621   71.8  0.1073   62.7  0.4496  -37.9
 2.400  0.3857 -176.0   2.600   71.5  0.1080   62.8  0.4493  -38.1
 2.420  0.3857 -176.4   2.581   71.2  0.1087   62.9  0.4490  -38.3
 2.440  0.3858 -176.9   2.563   71.0  0.1094   63.0  0.4487  -38.5
 2.460  0.3859 -177.3   2.544   70.7  0.1101   63.1  0.4485  -38.6
 2.480  0.3860 -177.7   2.526   70.4  0.1108   63.2  0.4482  -38.8
 2.500  0.3861 -178.2   2.507   70.1  0.1115   63.3  0.4479  -39.0
 2.520  0.3863 -178.6   2.489   69.8  0.1123   63.4  0.4477  -39.2
 2.540  0.3865 -179.0   2.471   69.5  0.1130   63.5  0.4474  -39.4
 2.560  0.3866 -179.4   2.452   69.2  0.1137   63.6  0.4472  -39.5
 2.580  0.3869 -179.9   2.434   68.9  0.1144   63.7  0.4469  -39.7
 2.600  0.3871  179.7   2.416   68.6  0.1151   63.8  0.4467  -39.9
 2.620  0.3871  179.3   2.400   68.3  0.1158   63.9  0.4466  -40.1
 2.640  0.3872  179.0   2.384   68.1  0.1166   64.0  0.4465  -40.3
 2.660  0.3872  178.6   2.368   67.8  0.1173   64.1  0.4463  -40.5
 2.680  0.3873  178.3   2.353   67.5  0.1180   64.1  0.4462  -40.7
 2.700  0.3874  177.9   2.337   67.2  0.1187   64.2  0.4461  -40.8
 2.720  0.3875  177.5   2.321   67.0  0.1195   64.3  0.4460  -41.0
 2.740  0.3876  177.2   2.306   66.7  0.1202   64.4  0.4459  -41.2
 2.760  0.3877  176.8   2.290   66.4  0.1209   64.4  0.4459  -41.4
 2.780  0.3878  176.5   2.274   66.1  0.1217   64.5  0.4458  -41.6
 2.800  0.3880  176.1   2.259   65.8  0.1224   64.6  0.4457  -41.8
 2.820  0.3882  175.8   2.245   65.6  0.1232   64.7  0.4458  -42.0
 2.840  0.3884  175.4   2.231   65.3  0.1239   64.8  0.4458  -42.2
 2.860  0.3886  175.1   2.217   65.1  0.1247   64.9  0.4459  -42.3
 2.880  0.3888  174.7   2.204   64.8  0.1254   64.9  0.4459  -42.5
 2.900  0.3890  174.4   2.190   64.5  0.1262   65.0  0.4460  -42.7
 2.920  0.3893  174.1   2.176   64.3  0.1270   65.1  0.4461  -42.9
 2.940  0.3895  173.7   2.163   64.0  0.1277   65.2  0.4461  -43.1
 2.960  0.3898  173.4   2.149   63.7  0.1285   65.2  0.4462  -43.2
 2.980  0.3901  173.0   2.135   63.5  0.1292   65.3  0.4463  -43.4
 3.000  0.3904  172.7   2.122   63.2  0.1300   65.4  0.4464  -43.6
 3.100  0.3899  171.1   2.066   62.1  0.1340   65.7  0.4475  -44.5
 3.200  0.3898  169.6   2.010   61.0  0.1379   66.0  0.4486  -45.4
 3.300  0.3899  168.0   1.956   59.8  0.1419   66.3  0.4499  -46.3
 3.400  0.3903  166.5   1.902   58.5  0.1459   66.6  0.4513  -47.1
 3.500  0.3910  164.9   1.849   57.2  0.1499   66.8  0.4528  -48.0
 3.600  0.3906  163.4   1.808   56.2  0.1542   67.0  0.4540  -48.8
 3.700  0.3905  161.9   1.768   55.2  0.1584   67.1  0.4553  -49.6
 3.800  0.3907  160.5   1.729   54.1  0.1627   67.3  0.4567  -50.4
 3.900  0.3911  159.0   1.690   53.0  0.1669   67.5  0.4582  -51.1
 4.000  0.3918  157.5   1.652   51.8  0.1712   67.6  0.4597  -51.9
 4.100  0.3929  156.1   1.621   50.9  0.1758   67.7  0.4594  -52.8
 4.200  0.3943  154.7   1.590   49.9  0.1804   67.8  0.4592  -53.8
 4.300  0.3958  153.3   1.560   48.9  0.1849   67.9  0.4591  -54.7
 4.400  0.3977  151.9   1.530   47.8  0.1895   67.9  0.4591  -55.7
 4.500  0.3997  150.5   1.501   46.7  0.1941   68.0  0.4593  -56.6
 4.600  0.4017  149.0   1.477   45.8  0.1989   68.0  0.4582  -57.7
 4.700  0.4040  147.6   1.453   44.8  0.2038   68.0  0.4573  -58.7
 4.800  0.4065  146.2   1.430   43.8  0.2086   67.9  0.4565  -59.8
 4.900  0.4093  144.8   1.407   42.8  0.2135   67.9  0.4559  -60.9
 5.000  0.4123  143.4   1.385   41.7  0.2183   67.9  0.4555  -62.0
 5.100  0.4144  141.9   1.365   40.8  0.2235   67.8  0.4543  -63.1
 5.200  0.4167  140.5   1.344   39.9  0.2288   67.6  0.4532  -64.1
 5.300  0.4193  139.0   1.325   39.0  0.2340   67.5  0.4522  -65.2
 5.400  0.4222  137.6   1.305   38.1  0.2393   67.4  0.4514  -66.2
 5.500  0.4253  136.2   1.286   37.1  0.2445   67.3  0.4508  -67.3
 5.600  0.4282  134.8   1.269   36.3  0.2503   67.1  0.4488  -68.5
 5.700  0.4313  133.4   1.252   35.4  0.2561   66.9  0.4470  -69.8
 5.800  0.4347  132.1   1.235   34.5  0.2619   66.7  0.4454  -71.1
 5.900  0.4383  130.7   1.219   33.6  0.2677   66.5  0.4440  -72.3
 6.000  0.4421  129.4   1.203   32.7  0.2735   66.3  0.4429  -73.6
!
!  f       NFmin   Gammaopt  rn/50
! GHz       dB    MAG  ANG    -
 0.450      1.32  0.34    1   0.29
 0.900      1.37  0.33   10   0.32
 1.900      1.68  0.20    6   0.30
 2.400      1.87  0.15   18   0.30
!
! (c) 2015  Infineon Technologies AG, Munich
