! Infineon Technologies  Discrete & RF Semiconductors
! BFR35AP
! VCE =  5.0 V,  IC =  10 mA
! Common Emitter S-Parameters:                            Nov 2015
# GHz  S  MA  R  50
!  f         S11            S21            S12            S22
! GHz     MAG   ANG      MAG   ANG      MAG   ANG      MAG   ANG
 0.010  0.7281   -4.9  22.781  175.8  0.0021   88.9  0.9850   -2.0
 0.015  0.7218   -7.2  22.542  173.8  0.0036   85.1  0.9788   -3.2
 0.020  0.7167   -9.5  22.330  171.8  0.0052   83.5  0.9730   -4.4
 0.025  0.7112  -11.7  22.169  170.0  0.0063   82.3  0.9681   -5.4
 0.030  0.7067  -13.9  22.028  168.3  0.0074   81.4  0.9635   -6.4
 0.035  0.7032  -16.1  21.909  166.5  0.0085   80.8  0.9592   -7.4
 0.040  0.7009  -18.4  21.811  164.7  0.0096   80.3  0.9552   -8.4
 0.045  0.6996  -20.6  21.736  162.8  0.0107   79.9  0.9515   -9.5
 0.050  0.6994  -22.9  21.683  161.0  0.0118   79.6  0.9481  -10.5
 0.055  0.6870  -24.7  21.379  159.6  0.0127   78.1  0.9387  -11.2
 0.060  0.6753  -26.6  21.088  158.1  0.0137   76.9  0.9295  -12.0
 0.065  0.6643  -28.6  20.812  156.6  0.0147   75.8  0.9204  -12.8
 0.070  0.6541  -30.6  20.550  155.0  0.0156   74.8  0.9115  -13.6
 0.075  0.6448  -32.6  20.305  153.4  0.0166   74.0  0.9028  -14.4
 0.080  0.6364  -34.8  20.075  151.8  0.0176   73.2  0.8943  -15.2
 0.085  0.6288  -37.0  19.862  150.1  0.0186   72.6  0.8859  -16.0
 0.090  0.6222  -39.2  19.667  148.4  0.0195   71.9  0.8777  -16.9
 0.095  0.6166  -41.5  19.489  146.7  0.0205   71.4  0.8698  -17.7
 0.100  0.6119  -43.8  19.329  144.9  0.0215   70.9  0.8620  -18.6
 0.105  0.6016  -45.2  19.005  143.8  0.0222   70.3  0.8528  -19.0
 0.110  0.5916  -46.6  18.689  142.6  0.0230   69.7  0.8436  -19.5
 0.115  0.5821  -48.1  18.380  141.5  0.0237   69.1  0.8344  -19.9
 0.120  0.5729  -49.7  18.079  140.2  0.0244   68.6  0.8253  -20.4
 0.125  0.5642  -51.3  17.787  139.0  0.0252   68.1  0.8163  -20.9
 0.130  0.5559  -52.9  17.504  137.7  0.0259   67.6  0.8073  -21.4
 0.135  0.5481  -54.6  17.230  136.3  0.0267   67.2  0.7984  -21.8
 0.140  0.5408  -56.3  16.966  134.9  0.0274   66.8  0.7895  -22.4
 0.145  0.5340  -58.1  16.713  133.5  0.0282   66.4  0.7807  -22.9
 0.150  0.5277  -59.9  16.470  132.0  0.0289   66.0  0.7720  -23.4
 0.155  0.5190  -61.1  16.222  131.2  0.0295   65.8  0.7645  -23.6
 0.160  0.5105  -62.3  15.978  130.3  0.0300   65.6  0.7570  -23.8
 0.165  0.5022  -63.6  15.738  129.5  0.0306   65.4  0.7496  -24.1
 0.170  0.4942  -64.9  15.501  128.6  0.0311   65.2  0.7421  -24.3
 0.175  0.4865  -66.3  15.268  127.7  0.0317   65.0  0.7347  -24.5
 0.180  0.4791  -67.7  15.039  126.7  0.0323   64.8  0.7273  -24.8
 0.185  0.4720  -69.2  14.814  125.7  0.0328   64.7  0.7199  -25.0
 0.190  0.4651  -70.7  14.594  124.7  0.0334   64.5  0.7125  -25.3
 0.195  0.4586  -72.2  14.379  123.7  0.0339   64.4  0.7051  -25.5
 0.200  0.4525  -73.8  14.168  122.6  0.0345   64.2  0.6977  -25.8
 0.220  0.4274  -78.1  13.342  119.9  0.0364   63.4  0.6736  -26.2
 0.240  0.4050  -82.9  12.549  116.9  0.0383   62.6  0.6495  -26.6
 0.260  0.3861  -87.2  11.845  114.2  0.0401   62.3  0.6291  -26.9
 0.280  0.3698  -91.0  11.214  112.1  0.0419   62.4  0.6124  -27.0
 0.300  0.3551  -95.0  10.599  109.7  0.0437   62.5  0.5957  -27.2
 0.320  0.3400  -97.8  10.142  108.4  0.0455   62.6  0.5849  -27.2
 0.340  0.3259 -100.9   9.691  106.9  0.0472   62.7  0.5740  -27.1
 0.360  0.3127 -104.2   9.247  105.3  0.0490   62.8  0.5632  -27.1
 0.380  0.3007 -107.8   8.811  103.5  0.0507   62.8  0.5523  -27.0
 0.400  0.2900 -111.7   8.384  101.6  0.0525   62.9  0.5415  -27.0
 0.420  0.2810 -114.4   8.071  100.4  0.0542   63.1  0.5345  -26.9
 0.440  0.2726 -117.2   7.761   99.2  0.0558   63.3  0.5275  -26.8
 0.450  0.2687 -118.7   7.608   98.5  0.0566   63.4  0.5239  -26.8
 0.460  0.2649 -120.3   7.455   97.9  0.0575   63.5  0.5204  -26.8
 0.480  0.2580 -123.4   7.154   96.4  0.0591   63.6  0.5134  -26.7
 0.500  0.2520 -126.8   6.858   94.8  0.0608   63.8  0.5064  -26.6
 0.520  0.2474 -129.0   6.649   93.9  0.0626   64.0  0.5022  -26.5
 0.540  0.2432 -131.2   6.443   92.9  0.0645   64.1  0.4981  -26.5
 0.560  0.2394 -133.5   6.238   91.9  0.0663   64.3  0.4939  -26.4
 0.580  0.2360 -135.9   6.035   90.8  0.0682   64.5  0.4898  -26.4
 0.600  0.2330 -138.4   5.835   89.6  0.0700   64.6  0.4856  -26.3
 0.620  0.2294 -140.5   5.680   88.8  0.0718   64.8  0.4829  -26.3
 0.640  0.2261 -142.7   5.525   87.9  0.0736   64.9  0.4802  -26.3
 0.660  0.2231 -144.9   5.373   87.1  0.0754   65.1  0.4775  -26.3
 0.680  0.2205 -147.2   5.221   86.1  0.0772   65.3  0.4748  -26.3
 0.700  0.2182 -149.5   5.071   85.1  0.0790   65.4  0.4721  -26.3
 0.720  0.2160 -151.6   4.948   84.4  0.0809   65.4  0.4699  -26.4
 0.740  0.2141 -153.7   4.827   83.6  0.0828   65.3  0.4677  -26.5
 0.760  0.2125 -155.9   4.706   82.8  0.0846   65.3  0.4654  -26.5
 0.780  0.2113 -158.1   4.586   81.9  0.0865   65.2  0.4632  -26.6
 0.800  0.2103 -160.3   4.467   81.0  0.0884   65.2  0.4610  -26.7
 0.820  0.2085 -162.0   4.372   80.3  0.0903   65.2  0.4593  -26.8
 0.840  0.2070 -163.8   4.277   79.6  0.0923   65.2  0.4576  -26.9
 0.860  0.2056 -165.6   4.183   78.8  0.0942   65.2  0.4559  -27.1
 0.880  0.2044 -167.5   4.089   78.0  0.0962   65.2  0.4542  -27.2
 0.900  0.2035 -169.3   3.997   77.2  0.0981   65.2  0.4525  -27.3
 0.920  0.2032 -171.2   3.925   76.6  0.1000   65.2  0.4514  -27.4
 0.940  0.2032 -173.0   3.854   76.0  0.1018   65.2  0.4502  -27.6
 0.960  0.2033 -174.9   3.783   75.3  0.1037   65.1  0.4491  -27.7
 0.980  0.2037 -176.7   3.713   74.6  0.1055   65.1  0.4479  -27.9
 1.000  0.2043 -178.6   3.643   73.9  0.1074   65.1  0.4468  -28.0
 1.020  0.2046 -179.9   3.582   73.3  0.1093   65.0  0.4456  -28.2
 1.040  0.2049  178.8   3.522   72.7  0.1111   65.0  0.4443  -28.5
 1.060  0.2054  177.5   3.462   72.1  0.1130   64.9  0.4431  -28.7
 1.080  0.2060  176.2   3.402   71.5  0.1148   64.9  0.4419  -29.0
 1.100  0.2067  174.9   3.343   70.8  0.1167   64.8  0.4407  -29.2
 1.120  0.2080  173.2   3.293   70.2  0.1186   64.8  0.4395  -29.4
 1.140  0.2094  171.6   3.243   69.5  0.1205   64.7  0.4382  -29.6
 1.160  0.2110  170.0   3.194   68.9  0.1225   64.7  0.4370  -29.7
 1.180  0.2128  168.4   3.145   68.2  0.1244   64.6  0.4357  -29.9
 1.200  0.2147  166.8   3.096   67.5  0.1263   64.6  0.4345  -30.1
 1.220  0.2148  165.7   3.049   67.0  0.1282   64.5  0.4336  -30.3
 1.240  0.2151  164.5   3.002   66.4  0.1301   64.3  0.4326  -30.6
 1.260  0.2154  163.4   2.955   65.9  0.1319   64.2  0.4317  -30.8
 1.280  0.2158  162.2   2.909   65.3  0.1338   64.0  0.4308  -31.1
 1.300  0.2163  161.1   2.863   64.7  0.1357   63.9  0.4299  -31.3
 1.320  0.2172  159.9   2.825   64.2  0.1376   63.8  0.4293  -31.6
 1.340  0.2182  158.8   2.787   63.6  0.1394   63.7  0.4286  -31.9
 1.360  0.2193  157.6   2.749   63.1  0.1413   63.5  0.4280  -32.1
 1.380  0.2204  156.5   2.711   62.5  0.1431   63.4  0.4274  -32.4
 1.400  0.2217  155.4   2.674   61.9  0.1450   63.3  0.4268  -32.7
 1.420  0.2218  154.7   2.645   61.4  0.1469   63.2  0.4258  -33.0
 1.440  0.2219  154.1   2.615   60.9  0.1489   63.0  0.4248  -33.3
 1.460  0.2220  153.4   2.586   60.4  0.1508   62.9  0.4238  -33.5
 1.480  0.2221  152.8   2.558   59.8  0.1528   62.7  0.4228  -33.8
 1.500  0.2223  152.1   2.529   59.3  0.1547   62.6  0.4218  -34.1
 1.520  0.2247  150.7   2.497   58.7  0.1566   62.4  0.4205  -34.4
 1.540  0.2271  149.4   2.465   58.2  0.1585   62.3  0.4192  -34.7
 1.560  0.2297  148.1   2.434   57.6  0.1605   62.1  0.4179  -35.0
 1.580  0.2325  146.8   2.403   57.0  0.1624   62.0  0.4167  -35.3
 1.600  0.2353  145.6   2.372   56.4  0.1643   61.8  0.4154  -35.6
 1.620  0.2366  144.6   2.348   55.9  0.1662   61.7  0.4146  -35.9
 1.640  0.2380  143.6   2.324   55.4  0.1682   61.5  0.4137  -36.2
 1.660  0.2394  142.7   2.300   54.8  0.1701   61.4  0.4129  -36.5
 1.680  0.2409  141.7   2.276   54.3  0.1721   61.2  0.4121  -36.8
 1.700  0.2425  140.8   2.253   53.7  0.1740   61.1  0.4113  -37.1
 1.720  0.2441  140.1   2.232   53.3  0.1759   60.9  0.4105  -37.4
 1.740  0.2457  139.3   2.211   52.8  0.1779   60.7  0.4097  -37.8
 1.760  0.2474  138.6   2.190   52.3  0.1798   60.5  0.4089  -38.1
 1.780  0.2491  137.9   2.169   51.9  0.1818   60.4  0.4081  -38.5
 1.800  0.2508  137.2   2.148   51.4  0.1837   60.2  0.4073  -38.8
 1.820  0.2530  136.6   2.130   50.9  0.1857   60.0  0.4061  -39.2
 1.840  0.2552  136.1   2.112   50.3  0.1877   59.9  0.4049  -39.6
 1.860  0.2574  135.5   2.094   49.8  0.1896   59.7  0.4037  -40.0
 1.880  0.2597  134.9   2.076   49.3  0.1916   59.6  0.4025  -40.4
 1.900  0.2620  134.4   2.059   48.7  0.1936   59.4  0.4014  -40.8
 1.920  0.2637  133.7   2.040   48.2  0.1956   59.2  0.4000  -41.1
 1.940  0.2654  133.0   2.021   47.8  0.1975   59.0  0.3985  -41.5
 1.960  0.2672  132.3   2.002   47.3  0.1995   58.8  0.3971  -41.8
 1.980  0.2690  131.7   1.983   46.8  0.2014   58.7  0.3957  -42.2
 2.000  0.2709  131.0   1.964   46.3  0.2034   58.5  0.3943  -42.5
 2.020  0.2728  130.3   1.948   45.9  0.2053   58.3  0.3931  -42.9
 2.040  0.2747  129.7   1.932   45.4  0.2072   58.1  0.3918  -43.2
 2.060  0.2767  129.1   1.917   44.9  0.2091   57.9  0.3906  -43.6
 2.080  0.2787  128.5   1.901   44.5  0.2110   57.7  0.3895  -44.0
 2.100  0.2807  127.8   1.886   44.0  0.2129   57.5  0.3883  -44.4
 2.120  0.2828  127.2   1.871   43.5  0.2148   57.3  0.3871  -44.8
 2.140  0.2849  126.6   1.855   43.0  0.2167   57.1  0.3860  -45.1
 2.160  0.2870  126.0   1.841   42.5  0.2187   56.9  0.3849  -45.5
 2.180  0.2891  125.5   1.826   42.0  0.2206   56.7  0.3838  -45.9
 2.200  0.2913  124.9   1.811   41.5  0.2225   56.5  0.3827  -46.3
 2.220  0.2933  124.2   1.799   41.0  0.2244   56.3  0.3810  -46.7
 2.240  0.2954  123.5   1.787   40.6  0.2264   56.1  0.3794  -47.1
 2.260  0.2976  122.8   1.776   40.1  0.2283   55.9  0.3777  -47.5
 2.280  0.2997  122.1   1.764   39.6  0.2303   55.7  0.3761  -47.9
 2.300  0.3020  121.4   1.753   39.1  0.2322   55.5  0.3745  -48.4
 2.320  0.3042  120.7   1.742   38.6  0.2342   55.3  0.3729  -48.8
 2.340  0.3065  120.0   1.731   38.1  0.2361   55.1  0.3714  -49.2
 2.360  0.3089  119.4   1.720   37.6  0.2381   55.0  0.3698  -49.6
 2.380  0.3113  118.7   1.709   37.1  0.2400   54.8  0.3683  -50.1
 2.400  0.3137  118.1   1.698   36.6  0.2420   54.6  0.3668  -50.5
 2.420  0.3163  117.6   1.687   36.2  0.2439   54.4  0.3653  -50.9
 2.440  0.3189  117.2   1.676   35.8  0.2459   54.1  0.3637  -51.4
 2.460  0.3215  116.7   1.665   35.4  0.2478   53.9  0.3622  -51.8
 2.480  0.3241  116.3   1.654   34.9  0.2498   53.7  0.3608  -52.3
 2.500  0.3268  115.9   1.643   34.5  0.2517   53.5  0.3593  -52.7
 2.520  0.3294  115.4   1.633   34.1  0.2537   53.2  0.3579  -53.2
 2.540  0.3321  115.0   1.622   33.6  0.2556   53.0  0.3565  -53.6
 2.560  0.3348  114.6   1.612   33.2  0.2576   52.8  0.3551  -54.1
 2.580  0.3376  114.2   1.601   32.8  0.2595   52.6  0.3537  -54.5
 2.600  0.3403  113.8   1.591   32.3  0.2615   52.4  0.3524  -55.0
 2.620  0.3422  113.3   1.582   31.9  0.2635   52.2  0.3505  -55.5
 2.640  0.3441  112.8   1.573   31.5  0.2654   52.0  0.3485  -56.0
 2.660  0.3461  112.3   1.564   31.1  0.2674   51.7  0.3466  -56.4
 2.680  0.3480  111.8   1.556   30.7  0.2693   51.5  0.3448  -56.9
 2.700  0.3500  111.3   1.547   30.3  0.2713   51.3  0.3429  -57.4
 2.720  0.3521  110.8   1.538   29.8  0.2733   51.1  0.3411  -57.9
 2.740  0.3541  110.3   1.530   29.4  0.2753   50.9  0.3393  -58.4
 2.760  0.3562  109.8   1.522   29.0  0.2772   50.7  0.3375  -59.0
 2.780  0.3583  109.4   1.513   28.5  0.2792   50.5  0.3358  -59.5
 2.800  0.3604  108.9   1.505   28.1  0.2812   50.3  0.3341  -60.0
 2.820  0.3630  108.5   1.496   27.7  0.2831   50.0  0.3324  -60.6
 2.840  0.3657  108.2   1.488   27.2  0.2850   49.8  0.3306  -61.1
 2.860  0.3683  107.8   1.480   26.7  0.2869   49.5  0.3290  -61.7
 2.880  0.3710  107.4   1.471   26.3  0.2888   49.3  0.3273  -62.3
 2.900  0.3737  107.1   1.463   25.8  0.2907   49.1  0.3257  -62.8
 2.920  0.3764  106.7   1.455   25.3  0.2927   48.8  0.3241  -63.4
 2.940  0.3791  106.4   1.447   24.9  0.2946   48.6  0.3225  -64.0
 2.960  0.3818  106.1   1.439   24.4  0.2965   48.4  0.3210  -64.6
 2.980  0.3845  105.7   1.432   23.9  0.2985   48.1  0.3195  -65.2
 3.000  0.3873  105.4   1.424   23.4  0.3004   47.9  0.3181  -65.8
 3.100  0.3998  103.5   1.387   21.7  0.3094   46.5  0.3064  -68.9
 3.200  0.4126  101.8   1.352   19.8  0.3185   45.2  0.2957  -72.2
 3.300  0.4258  100.2   1.319   17.9  0.3277   44.0  0.2861  -75.7
 3.400  0.4394   98.6   1.286   15.8  0.3372   42.9  0.2776  -79.5
 3.500  0.4532   97.2   1.256   13.7  0.3467   41.8  0.2704  -83.5
 3.600  0.4641   95.6   1.229   12.0  0.3556   40.5  0.2600  -87.8
 3.700  0.4753   94.0   1.203   10.3  0.3646   39.2  0.2511  -92.5
 3.800  0.4869   92.5   1.178    8.5  0.3738   38.0  0.2441  -97.4
 3.900  0.4988   91.1   1.154    6.6  0.3832   36.9  0.2389 -102.6
 4.000  0.5110   89.7   1.132    4.6  0.3927   35.8  0.2358 -108.0
 4.100  0.5212   88.4   1.109    3.0  0.4012   34.3  0.2284 -113.4
 4.200  0.5316   87.2   1.086    1.4  0.4100   32.9  0.2232 -119.1
 4.300  0.5422   86.0   1.064   -0.4  0.4190   31.6  0.2202 -125.0
 4.400  0.5531   84.8   1.044   -2.1  0.4283   30.3  0.2196 -130.9
 4.500  0.5642   83.7   1.024   -4.0  0.4377   29.1  0.2214 -136.9
 4.600  0.5717   82.5   1.005   -5.4  0.4449   27.6  0.2200 -142.7
 4.700  0.5794   81.4   0.987   -6.8  0.4525   26.1  0.2209 -148.5
 4.800  0.5874   80.3   0.970   -8.3  0.4603   24.7  0.2241 -154.3
 4.900  0.5955   79.2   0.953   -9.9  0.4684   23.3  0.2294 -159.8
 5.000  0.6039   78.2   0.937  -11.5  0.4768   22.0  0.2367 -165.0
 5.100  0.6128   76.9   0.913  -12.8  0.4796   20.4  0.2323 -170.3
 5.200  0.6221   75.6   0.889  -14.1  0.4828   18.8  0.2301 -175.8
 5.300  0.6317   74.3   0.866  -15.5  0.4863   17.2  0.2299  178.6
 5.400  0.6415   73.1   0.844  -17.0  0.4902   15.6  0.2319  173.2
 5.500  0.6517   71.9   0.822  -18.6  0.4945   14.1  0.2360  167.8
 5.600  0.6509   70.9   0.815  -19.1  0.5036   13.2  0.2545  165.8
 5.700  0.6503   69.9   0.809  -19.5  0.5128   12.4  0.2734  164.1
 5.800  0.6499   68.8   0.803  -20.0  0.5220   11.6  0.2924  162.6
 5.900  0.6498   67.8   0.796  -20.5  0.5314   10.8  0.3116  161.3
 6.000  0.6498   66.8   0.790  -21.0  0.5409   10.1  0.3309  160.2
!
!  f       NFmin   Gammaopt  rn/50
! GHz       dB    MAG  ANG    -
!
! noise parameter not available yet for this operation point!
!
! (c) 2015  Infineon Technologies AG, Munich
