! Infineon Technologies  Discrete & RF Semiconductors
! BFR35AP
! VCE =  2.5 V,  IC =  10 mA
! Common Emitter S-Parameters:                            Nov 2015
# GHz  S  MA  R  50
!  f         S11            S21            S12            S22
! GHz     MAG   ANG      MAG   ANG      MAG   ANG      MAG   ANG
 0.010  0.6912   -5.6  23.019  175.7  0.0028   86.2  0.9815   -2.6
 0.015  0.6873   -8.2  22.838  173.5  0.0041   85.9  0.9742   -3.9
 0.020  0.6849  -10.8  22.690  171.3  0.0055   85.8  0.9675   -5.2
 0.025  0.6776  -13.3  22.487  169.4  0.0068   83.1  0.9609   -6.4
 0.030  0.6717  -15.8  22.308  167.5  0.0081   81.3  0.9548   -7.6
 0.035  0.6671  -18.4  22.156  165.5  0.0094   80.0  0.9491   -8.9
 0.040  0.6639  -21.0  22.029  163.5  0.0107   79.0  0.9439  -10.1
 0.045  0.6620  -23.7  21.930  161.5  0.0120   78.2  0.9391  -11.4
 0.050  0.6616  -26.3  21.857  159.5  0.0133   77.6  0.9348  -12.7
 0.055  0.6484  -28.3  21.510  158.0  0.0144   76.2  0.9233  -13.6
 0.060  0.6360  -30.4  21.178  156.5  0.0154   75.0  0.9120  -14.4
 0.065  0.6246  -32.6  20.861  154.9  0.0165   73.9  0.9009  -15.3
 0.070  0.6140  -34.8  20.560  153.3  0.0176   73.0  0.8901  -16.2
 0.075  0.6044  -37.1  20.276  151.7  0.0187   72.2  0.8794  -17.2
 0.080  0.5959  -39.5  20.009  150.0  0.0197   71.5  0.8690  -18.1
 0.085  0.5884  -42.0  19.761  148.2  0.0208   70.8  0.8589  -19.1
 0.090  0.5821  -44.5  19.531  146.4  0.0219   70.2  0.8490  -20.1
 0.095  0.5768  -47.1  19.322  144.6  0.0230   69.7  0.8394  -21.1
 0.100  0.5728  -49.7  19.132  142.7  0.0241   69.2  0.8301  -22.2
 0.105  0.5624  -51.2  18.783  141.6  0.0249   68.5  0.8197  -22.7
 0.110  0.5523  -52.8  18.442  140.4  0.0257   67.9  0.8093  -23.2
 0.115  0.5428  -54.5  18.109  139.2  0.0266   67.3  0.7990  -23.8
 0.120  0.5337  -56.2  17.784  137.9  0.0274   66.7  0.7888  -24.3
 0.125  0.5250  -58.0  17.468  136.6  0.0282   66.2  0.7786  -24.9
 0.130  0.5170  -59.8  17.161  135.3  0.0291   65.7  0.7686  -25.4
 0.135  0.5094  -61.7  16.864  133.9  0.0299   65.3  0.7586  -26.0
 0.140  0.5024  -63.7  16.578  132.4  0.0307   64.8  0.7487  -26.6
 0.145  0.4961  -65.7  16.302  130.9  0.0316   64.4  0.7388  -27.3
 0.150  0.4903  -67.7  16.038  129.4  0.0324   64.0  0.7291  -27.9
 0.155  0.4829  -69.1  15.783  128.6  0.0329   63.8  0.7207  -28.1
 0.160  0.4758  -70.5  15.531  127.8  0.0335   63.6  0.7123  -28.4
 0.165  0.4689  -71.9  15.283  126.9  0.0340   63.4  0.7039  -28.6
 0.170  0.4624  -73.4  15.038  126.0  0.0346   63.2  0.6955  -28.9
 0.175  0.4562  -74.9  14.797  125.1  0.0351   63.0  0.6872  -29.2
 0.180  0.4503  -76.5  14.560  124.1  0.0357   62.8  0.6788  -29.4
 0.185  0.4448  -78.1  14.328  123.1  0.0362   62.6  0.6705  -29.7
 0.190  0.4396  -79.7  14.099  122.1  0.0368   62.4  0.6622  -30.0
 0.195  0.4348  -81.4  13.875  121.1  0.0373   62.3  0.6539  -30.3
 0.200  0.4304  -83.1  13.656  120.0  0.0379   62.1  0.6456  -30.6
 0.220  0.4072  -88.1  12.821  117.4  0.0401   61.6  0.6199  -31.1
 0.240  0.3876  -93.7  12.015  114.4  0.0423   61.2  0.5942  -31.6
 0.260  0.3717  -98.6  11.309  111.9  0.0444   61.0  0.5725  -32.0
 0.280  0.3579 -102.5  10.686  109.8  0.0465   61.1  0.5547  -32.1
 0.300  0.3460 -106.7  10.078  107.5  0.0486   61.2  0.5369  -32.3
 0.320  0.3338 -109.7   9.637  106.2  0.0505   61.3  0.5253  -32.2
 0.340  0.3226 -112.9   9.201  104.8  0.0524   61.4  0.5136  -32.2
 0.360  0.3124 -116.3   8.771  103.2  0.0542   61.5  0.5020  -32.1
 0.380  0.3035 -120.0   8.349  101.5  0.0561   61.6  0.4903  -32.0
 0.400  0.2958 -123.8   7.935   99.6  0.0580   61.7  0.4787  -31.9
 0.420  0.2894 -126.6   7.634   98.5  0.0598   61.9  0.4711  -31.8
 0.440  0.2837 -129.5   7.336   97.2  0.0615   62.2  0.4635  -31.7
 0.450  0.2812 -131.0   7.189   96.6  0.0624   62.3  0.4597  -31.6
 0.460  0.2788 -132.5   7.042   95.9  0.0633   62.4  0.4559  -31.6
 0.480  0.2747 -135.6   6.752   94.5  0.0650   62.6  0.4483  -31.4
 0.500  0.2714 -138.8   6.467   92.9  0.0668   62.8  0.4407  -31.3
 0.520  0.2674 -141.1   6.268   92.0  0.0689   63.0  0.4363  -31.2
 0.540  0.2639 -143.5   6.070   91.0  0.0710   63.1  0.4318  -31.2
 0.560  0.2609 -145.9   5.874   90.0  0.0730   63.3  0.4274  -31.1
 0.580  0.2583 -148.4   5.680   88.9  0.0751   63.5  0.4229  -31.1
 0.600  0.2562 -150.9   5.489   87.7  0.0772   63.6  0.4185  -31.0
 0.620  0.2539 -152.8   5.342   86.9  0.0792   63.7  0.4157  -31.0
 0.640  0.2520 -154.8   5.196   86.1  0.0811   63.8  0.4128  -31.0
 0.660  0.2503 -156.8   5.052   85.2  0.0831   63.9  0.4100  -31.1
 0.680  0.2490 -158.8   4.909   84.2  0.0850   63.9  0.4071  -31.1
 0.700  0.2479 -160.8   4.767   83.2  0.0870   64.0  0.4043  -31.1
 0.720  0.2473 -162.5   4.650   82.5  0.0891   64.0  0.4019  -31.2
 0.740  0.2470 -164.2   4.534   81.7  0.0911   64.0  0.3995  -31.2
 0.760  0.2468 -166.0   4.419   80.9  0.0932   63.9  0.3970  -31.3
 0.780  0.2469 -167.7   4.305   80.1  0.0952   63.9  0.3946  -31.3
 0.800  0.2472 -169.4   4.192   79.2  0.0973   63.9  0.3922  -31.4
 0.820  0.2459 -171.0   4.104   78.5  0.0994   63.9  0.3903  -31.5
 0.840  0.2448 -172.7   4.017   77.8  0.1016   63.9  0.3885  -31.6
 0.860  0.2439 -174.3   3.931   77.1  0.1037   63.8  0.3866  -31.7
 0.880  0.2433 -176.0   3.845   76.3  0.1059   63.8  0.3848  -31.8
 0.900  0.2428 -177.7   3.760   75.5  0.1080   63.8  0.3829  -31.9
 0.920  0.2427 -179.2   3.690   74.9  0.1100   63.8  0.3815  -32.1
 0.940  0.2428  179.2   3.621   74.2  0.1120   63.8  0.3800  -32.2
 0.960  0.2431  177.7   3.553   73.5  0.1140   63.7  0.3786  -32.4
 0.980  0.2436  176.1   3.485   72.8  0.1160   63.7  0.3771  -32.5
 1.000  0.2442  174.6   3.417   72.1  0.1180   63.7  0.3757  -32.7
 1.020  0.2454  173.2   3.361   71.5  0.1201   63.6  0.3744  -33.0
 1.040  0.2468  171.9   3.305   70.9  0.1223   63.5  0.3732  -33.2
 1.060  0.2483  170.6   3.250   70.2  0.1244   63.4  0.3720  -33.5
 1.080  0.2499  169.3   3.195   69.6  0.1266   63.3  0.3707  -33.7
 1.100  0.2517  168.0   3.141   68.9  0.1287   63.2  0.3695  -34.0
 1.120  0.2525  166.7   3.093   68.3  0.1308   63.1  0.3681  -34.2
 1.140  0.2535  165.4   3.045   67.6  0.1328   63.0  0.3668  -34.4
 1.160  0.2546  164.1   2.998   67.0  0.1349   62.9  0.3654  -34.6
 1.180  0.2558  162.8   2.951   66.3  0.1369   62.8  0.3641  -34.8
 1.200  0.2572  161.5   2.904   65.6  0.1390   62.7  0.3627  -35.0
 1.220  0.2569  160.7   2.860   65.1  0.1412   62.6  0.3616  -35.3
 1.240  0.2567  159.9   2.816   64.5  0.1433   62.4  0.3606  -35.5
 1.260  0.2566  159.0   2.772   64.0  0.1455   62.3  0.3595  -35.8
 1.280  0.2565  158.2   2.728   63.4  0.1476   62.1  0.3584  -36.0
 1.300  0.2564  157.4   2.685   62.8  0.1498   62.0  0.3574  -36.3
 1.320  0.2579  156.4   2.649   62.3  0.1517   61.9  0.3565  -36.6
 1.340  0.2595  155.4   2.614   61.7  0.1537   61.8  0.3556  -36.9
 1.360  0.2612  154.4   2.579   61.1  0.1556   61.6  0.3547  -37.2
 1.380  0.2630  153.4   2.544   60.5  0.1576   61.5  0.3538  -37.5
 1.400  0.2648  152.4   2.509   59.9  0.1595   61.4  0.3529  -37.8
 1.420  0.2650  151.5   2.482   59.4  0.1616   61.2  0.3519  -38.1
 1.440  0.2652  150.6   2.455   58.9  0.1638   61.0  0.3509  -38.4
 1.460  0.2655  149.8   2.429   58.3  0.1659   60.8  0.3499  -38.8
 1.480  0.2658  148.9   2.402   57.8  0.1681   60.6  0.3489  -39.1
 1.500  0.2662  148.0   2.376   57.2  0.1702   60.4  0.3479  -39.4
 1.520  0.2691  147.1   2.347   56.6  0.1723   60.2  0.3465  -39.7
 1.540  0.2720  146.3   2.318   56.0  0.1744   60.0  0.3451  -40.1
 1.560  0.2750  145.5   2.289   55.4  0.1764   59.8  0.3437  -40.4
 1.580  0.2780  144.7   2.260   54.8  0.1785   59.7  0.3423  -40.8
 1.600  0.2811  143.9   2.232   54.2  0.1806   59.5  0.3409  -41.1
 1.620  0.2829  143.1   2.209   53.7  0.1826   59.3  0.3397  -41.4
 1.640  0.2847  142.3   2.187   53.2  0.1846   59.2  0.3386  -41.7
 1.660  0.2866  141.5   2.164   52.6  0.1866   59.0  0.3374  -42.1
 1.680  0.2886  140.7   2.142   52.1  0.1886   58.9  0.3363  -42.4
 1.700  0.2906  139.9   2.120   51.5  0.1906   58.7  0.3352  -42.7
 1.720  0.2917  139.0   2.101   51.0  0.1928   58.5  0.3344  -43.1
 1.740  0.2928  138.1   2.082   50.6  0.1949   58.3  0.3335  -43.5
 1.760  0.2940  137.2   2.063   50.1  0.1971   58.1  0.3327  -44.0
 1.780  0.2953  136.3   2.044   49.6  0.1992   57.9  0.3320  -44.4
 1.800  0.2967  135.4   2.025   49.1  0.2014   57.7  0.3312  -44.8
 1.820  0.2990  134.8   2.007   48.6  0.2035   57.5  0.3298  -45.2
 1.840  0.3013  134.3   1.990   48.0  0.2056   57.3  0.3283  -45.7
 1.860  0.3036  133.7   1.973   47.5  0.2077   57.1  0.3269  -46.1
 1.880  0.3059  133.1   1.956   47.0  0.2098   56.9  0.3256  -46.6
 1.900  0.3083  132.6   1.939   46.4  0.2119   56.7  0.3242  -47.0
 1.920  0.3100  132.0   1.921   45.9  0.2140   56.5  0.3226  -47.4
 1.940  0.3118  131.4   1.903   45.4  0.2160   56.2  0.3211  -47.7
 1.960  0.3135  130.8   1.885   44.9  0.2181   56.0  0.3195  -48.1
 1.980  0.3154  130.3   1.868   44.4  0.2201   55.8  0.3180  -48.5
 2.000  0.3172  129.7   1.850   43.9  0.2222   55.6  0.3165  -48.9
 2.020  0.3187  129.1   1.835   43.4  0.2243   55.4  0.3151  -49.3
 2.040  0.3202  128.5   1.820   43.0  0.2263   55.1  0.3137  -49.8
 2.060  0.3218  127.9   1.806   42.5  0.2284   54.9  0.3124  -50.2
 2.080  0.3234  127.3   1.791   42.0  0.2305   54.7  0.3110  -50.7
 2.100  0.3250  126.7   1.777   41.5  0.2326   54.5  0.3097  -51.2
 2.120  0.3267  126.1   1.763   41.0  0.2346   54.3  0.3084  -51.6
 2.140  0.3284  125.5   1.748   40.5  0.2367   54.1  0.3071  -52.1
 2.160  0.3301  124.9   1.734   40.0  0.2388   53.9  0.3059  -52.5
 2.180  0.3319  124.4   1.721   39.4  0.2409   53.7  0.3046  -53.0
 2.200  0.3337  123.8   1.707   38.9  0.2430   53.5  0.3034  -53.5
 2.220  0.3359  123.1   1.696   38.4  0.2451   53.3  0.3016  -54.0
 2.240  0.3381  122.5   1.685   38.0  0.2471   53.0  0.2998  -54.5
 2.260  0.3403  121.8   1.674   37.5  0.2492   52.8  0.2980  -54.9
 2.280  0.3426  121.2   1.664   37.1  0.2512   52.5  0.2963  -55.4
 2.300  0.3450  120.5   1.653   36.6  0.2533   52.3  0.2945  -55.9
 2.320  0.3474  119.9   1.643   36.1  0.2554   52.1  0.2928  -56.4
 2.340  0.3498  119.3   1.632   35.6  0.2574   51.9  0.2911  -56.9
 2.360  0.3523  118.7   1.622   35.1  0.2595   51.6  0.2895  -57.5
 2.380  0.3548  118.1   1.612   34.6  0.2616   51.4  0.2878  -58.0
 2.400  0.3573  117.5   1.602   34.1  0.2637   51.2  0.2862  -58.5
 2.420  0.3595  117.0   1.591   33.7  0.2657   50.9  0.2846  -59.0
 2.440  0.3617  116.5   1.580   33.2  0.2677   50.7  0.2830  -59.6
 2.460  0.3640  116.0   1.570   32.8  0.2696   50.4  0.2814  -60.1
 2.480  0.3662  115.5   1.559   32.4  0.2716   50.2  0.2798  -60.7
 2.500  0.3685  115.0   1.549   31.9  0.2736   50.0  0.2783  -61.2
 2.520  0.3709  114.5   1.538   31.5  0.2756   49.7  0.2768  -61.8
 2.540  0.3732  114.1   1.528   31.0  0.2777   49.5  0.2753  -62.4
 2.560  0.3756  113.6   1.518   30.5  0.2797   49.3  0.2738  -62.9
 2.580  0.3780  113.2   1.508   30.1  0.2817   49.0  0.2724  -63.5
 2.600  0.3804  112.7   1.498   29.6  0.2837   48.8  0.2710  -64.1
 2.620  0.3825  112.2   1.490   29.2  0.2857   48.5  0.2689  -64.7
 2.640  0.3846  111.7   1.481   28.8  0.2877   48.3  0.2668  -65.3
 2.660  0.3867  111.2   1.473   28.4  0.2898   48.0  0.2647  -65.9
 2.680  0.3888  110.7   1.465   27.9  0.2918   47.8  0.2627  -66.6
 2.700  0.3910  110.2   1.456   27.5  0.2938   47.5  0.2607  -67.2
 2.720  0.3932  109.8   1.448   27.1  0.2959   47.3  0.2588  -67.9
 2.740  0.3954  109.3   1.440   26.6  0.2979   47.0  0.2569  -68.5
 2.760  0.3977  108.8   1.433   26.2  0.3000   46.8  0.2550  -69.2
 2.780  0.4000  108.4   1.425   25.8  0.3020   46.5  0.2531  -69.9
 2.800  0.4023  107.9   1.417   25.3  0.3041   46.3  0.2513  -70.6
 2.820  0.4048  107.5   1.409   24.9  0.3060   46.0  0.2495  -71.3
 2.840  0.4074  107.2   1.401   24.4  0.3079   45.8  0.2478  -72.0
 2.860  0.4100  106.8   1.393   24.0  0.3098   45.5  0.2461  -72.7
 2.880  0.4126  106.5   1.385   23.6  0.3117   45.2  0.2444  -73.5
 2.900  0.4152  106.1   1.377   23.1  0.3137   45.0  0.2428  -74.2
 2.920  0.4178  105.8   1.370   22.7  0.3156   44.7  0.2413  -75.0
 2.940  0.4204  105.5   1.362   22.2  0.3175   44.4  0.2397  -75.7
 2.960  0.4231  105.1   1.355   21.7  0.3195   44.2  0.2382  -76.5
 2.980  0.4257  104.8   1.347   21.3  0.3214   43.9  0.2368  -77.3
 3.000  0.4284  104.5   1.340   20.8  0.3234   43.7  0.2354  -78.1
 3.100  0.4403  102.5   1.305   19.1  0.3322   42.2  0.2242  -82.2
 3.200  0.4527  100.7   1.272   17.2  0.3412   40.8  0.2143  -86.7
 3.300  0.4656   98.9   1.240   15.3  0.3503   39.5  0.2059  -91.6
 3.400  0.4789   97.3   1.209   13.2  0.3597   38.3  0.1990  -96.9
 3.500  0.4925   95.7   1.180   11.1  0.3692   37.1  0.1940 -102.5
 3.600  0.5021   94.0   1.154    9.5  0.3775   35.7  0.1864 -108.6
 3.700  0.5122   92.4   1.130    7.8  0.3861   34.3  0.1811 -115.2
 3.800  0.5226   90.9   1.106    6.0  0.3948   33.0  0.1782 -122.0
 3.900  0.5334   89.4   1.083    4.1  0.4038   31.8  0.1780 -129.0
 4.000  0.5445   88.0   1.062    2.2  0.4129   30.6  0.1804 -135.9
 4.100  0.5530   86.7   1.040    0.7  0.4204   29.1  0.1793 -142.7
 4.200  0.5618   85.4   1.020   -0.8  0.4281   27.7  0.1808 -149.5
 4.300  0.5709   84.1   1.000   -2.4  0.4361   26.3  0.1847 -156.2
 4.400  0.5802   82.9   0.980   -4.1  0.4443   25.0  0.1910 -162.4
 4.500  0.5898   81.7   0.962   -5.8  0.4528   23.7  0.1994 -168.2
 4.600  0.5977   80.5   0.945   -7.1  0.4590   22.2  0.2044 -173.9
 4.700  0.6060   79.3   0.928   -8.5  0.4654   20.8  0.2113 -179.3
 4.800  0.6144   78.2   0.912  -10.0  0.4722   19.4  0.2199  175.7
 4.900  0.6231   77.1   0.897  -11.5  0.4792   18.0  0.2301  171.1
 5.000  0.6320   76.0   0.882  -13.0  0.4865   16.7  0.2416  166.9
 5.100  0.6384   74.7   0.860  -14.2  0.4881   15.2  0.2423  162.1
 5.200  0.6451   73.5   0.839  -15.4  0.4901   13.6  0.2447  157.4
 5.300  0.6520   72.3   0.818  -16.7  0.4925   12.1  0.2487  152.8
 5.400  0.6593   71.1   0.797  -18.1  0.4952   10.6  0.2543  148.3
 5.500  0.6668   70.0   0.777  -19.5  0.4982    9.1  0.2613  144.1
 5.600  0.6664   69.0   0.771  -20.0  0.5065    8.2  0.2791  143.6
 5.700  0.6662   68.0   0.766  -20.5  0.5150    7.4  0.2970  143.1
 5.800  0.6662   66.9   0.761  -21.0  0.5235    6.6  0.3149  142.7
 5.900  0.6665   65.9   0.755  -21.5  0.5322    5.8  0.3328  142.3
 6.000  0.6669   64.9   0.750  -22.0  0.5409    5.1  0.3507  142.0
!
!  f       NFmin   Gammaopt  rn/50
! GHz       dB    MAG  ANG    -
!
! noise parameter not available yet for this operation point!
!
! (c) 2015  Infineon Technologies AG, Munich
