! Infineon Technologies  Discrete & RF Semiconductors
! BFR340F
! VCE =  2.0 V,  IC =  7.0 mA
! Common Emitter S-Parameters:                            Nov 2015
# GHz  S  MA  R  50
!  f         S11            S21            S12            S22
! GHz     MAG   ANG      MAG   ANG      MAG   ANG      MAG   ANG
 0.030  0.8474   -4.1  15.228  176.9  0.0038   87.7  0.9832   -2.0
 0.035  0.8474   -4.9  15.216  176.2  0.0043   87.2  0.9829   -2.3
 0.040  0.8475   -5.6  15.206  175.5  0.0049   86.8  0.9826   -2.7
 0.045  0.8427   -6.3  15.166  174.8  0.0054   86.0  0.9820   -3.1
 0.050  0.8380   -7.1  15.129  174.0  0.0060   85.3  0.9815   -3.5
 0.055  0.8415   -7.8  15.115  173.6  0.0065   85.5  0.9810   -3.8
 0.060  0.8451   -8.4  15.101  173.2  0.0071   85.7  0.9806   -4.2
 0.065  0.8429   -9.1  15.147  172.5  0.0078   85.6  0.9801   -4.6
 0.070  0.8409   -9.8  15.194  171.9  0.0085   85.6  0.9796   -5.0
 0.075  0.8411  -10.5  15.153  171.6  0.0091   84.9  0.9786   -5.3
 0.080  0.8415  -11.1  15.113  171.2  0.0098   84.3  0.9776   -5.7
 0.085  0.8398  -11.9  15.103  170.6  0.0103   84.0  0.9763   -6.0
 0.090  0.8383  -12.8  15.094  170.0  0.0109   83.8  0.9751   -6.4
 0.095  0.8370  -13.3  15.033  169.5  0.0115   83.3  0.9741   -6.7
 0.100  0.8357  -13.8  14.974  168.9  0.0121   82.9  0.9732   -7.1
 0.105  0.8355  -14.4  14.969  168.4  0.0126   82.4  0.9718   -7.4
 0.110  0.8354  -15.1  14.966  167.9  0.0131   82.0  0.9704   -7.8
 0.115  0.8327  -15.9  14.953  167.4  0.0137   81.7  0.9689   -8.1
 0.120  0.8302  -16.7  14.942  166.8  0.0143   81.4  0.9675   -8.5
 0.125  0.8279  -17.3  14.910  166.3  0.0149   81.0  0.9658   -8.8
 0.130  0.8258  -18.0  14.879  165.8  0.0155   80.7  0.9642   -9.2
 0.135  0.8240  -18.6  14.867  165.2  0.0161   80.3  0.9625   -9.5
 0.140  0.8223  -19.3  14.857  164.6  0.0167   80.0  0.9608   -9.9
 0.145  0.8206  -20.0  14.801  164.0  0.0172   79.7  0.9590  -10.2
 0.150  0.8190  -20.7  14.747  163.4  0.0177   79.5  0.9572  -10.5
 0.155  0.8166  -21.3  14.709  162.9  0.0182   79.1  0.9550  -10.8
 0.160  0.8143  -22.0  14.672  162.4  0.0188   78.7  0.9528  -11.1
 0.165  0.8121  -22.6  14.636  161.9  0.0193   78.3  0.9506  -11.4
 0.170  0.8100  -23.3  14.601  161.4  0.0199   78.0  0.9485  -11.8
 0.175  0.8080  -23.9  14.568  160.9  0.0204   77.6  0.9464  -12.1
 0.180  0.8061  -24.6  14.535  160.4  0.0209   77.3  0.9443  -12.4
 0.185  0.8043  -25.2  14.504  159.9  0.0215   77.0  0.9423  -12.7
 0.190  0.8026  -25.9  14.474  159.3  0.0220   76.7  0.9402  -13.0
 0.195  0.8011  -26.5  14.445  158.8  0.0226   76.5  0.9383  -13.4
 0.200  0.7996  -27.2  14.417  158.3  0.0231   76.2  0.9363  -13.7
 0.220  0.7883  -29.6  14.231  156.4  0.0251   74.9  0.9264  -14.9
 0.240  0.7785  -32.1  14.062  154.4  0.0271   73.9  0.9169  -16.1
 0.260  0.7684  -34.5  13.877  152.5  0.0290   72.8  0.9068  -17.2
 0.280  0.7577  -36.9  13.675  150.6  0.0309   71.7  0.8959  -18.2
 0.300  0.7484  -39.3  13.487  148.7  0.0327   70.7  0.8853  -19.3
 0.320  0.7369  -41.5  13.272  147.0  0.0344   69.8  0.8739  -20.3
 0.340  0.7265  -43.8  13.069  145.3  0.0361   68.9  0.8627  -21.3
 0.360  0.7156  -46.0  12.860  143.6  0.0376   68.1  0.8514  -22.2
 0.380  0.7040  -48.1  12.644  142.0  0.0391   67.3  0.8400  -23.0
 0.400  0.6934  -50.2  12.437  140.4  0.0406   66.5  0.8287  -23.8
 0.420  0.6815  -52.2  12.219  139.0  0.0420   65.7  0.8176  -24.5
 0.440  0.6704  -54.2  12.010  137.5  0.0435   65.0  0.8065  -25.3
 0.450  0.6652  -55.3  11.908  136.7  0.0442   64.7  0.8011  -25.7
 0.460  0.6594  -56.2  11.802  136.0  0.0448   64.4  0.7955  -26.0
 0.480  0.6484  -58.1  11.596  134.6  0.0461   63.7  0.7845  -26.7
 0.500  0.6380  -60.0  11.397  133.2  0.0474   63.1  0.7736  -27.4
 0.520  0.6265  -61.7  11.194  132.0  0.0485   62.6  0.7634  -27.9
 0.540  0.6156  -63.4  10.996  130.8  0.0496   62.1  0.7532  -28.4
 0.560  0.6053  -65.2  10.803  129.6  0.0507   61.6  0.7431  -28.9
 0.580  0.5956  -67.1  10.615  128.3  0.0518   61.1  0.7330  -29.5
 0.600  0.5865  -69.0  10.433  126.9  0.0529   60.7  0.7230  -30.0
 0.620  0.5767  -70.5  10.249  125.9  0.0539   60.3  0.7140  -30.4
 0.640  0.5673  -72.0  10.069  124.9  0.0548   60.0  0.7050  -30.8
 0.660  0.5583  -73.6   9.892  123.8  0.0558   59.6  0.6960  -31.2
 0.680  0.5497  -75.2   9.719  122.7  0.0567   59.3  0.6871  -31.6
 0.700  0.5416  -76.9   9.550  121.5  0.0577   59.0  0.6782  -32.0
 0.720  0.5330  -78.3   9.388  120.6  0.0585   58.8  0.6704  -32.3
 0.740  0.5247  -79.7   9.228  119.8  0.0594   58.5  0.6626  -32.6
 0.760  0.5168  -81.1   9.071  118.8  0.0602   58.3  0.6549  -32.9
 0.780  0.5091  -82.7   8.916  117.9  0.0611   58.1  0.6471  -33.2
 0.800  0.5019  -84.2   8.763  116.9  0.0619   57.9  0.6394  -33.5
 0.820  0.4947  -85.5   8.624  116.1  0.0627   57.7  0.6327  -33.7
 0.840  0.4878  -86.8   8.487  115.3  0.0634   57.6  0.6260  -33.9
 0.860  0.4812  -88.2   8.352  114.5  0.0642   57.4  0.6193  -34.1
 0.880  0.4749  -89.6   8.219  113.7  0.0649   57.3  0.6127  -34.4
 0.900  0.4688  -91.0   8.087  112.8  0.0657   57.1  0.6060  -34.6
 0.920  0.4624  -92.2   7.965  112.1  0.0664   57.0  0.6002  -34.8
 0.940  0.4562  -93.4   7.844  111.4  0.0671   56.9  0.5945  -34.9
 0.960  0.4503  -94.7   7.724  110.7  0.0679   56.9  0.5887  -35.1
 0.980  0.4445  -96.0   7.605  110.0  0.0686   56.8  0.5829  -35.3
 1.000  0.4390  -97.3   7.488  109.2  0.0693   56.7  0.5772  -35.5
 1.020  0.4338  -98.4   7.379  108.6  0.0700   56.7  0.5724  -35.6
 1.040  0.4287  -99.5   7.271  107.9  0.0707   56.6  0.5675  -35.8
 1.060  0.4239 -100.6   7.164  107.3  0.0713   56.6  0.5627  -35.9
 1.080  0.4191 -101.8   7.058  106.6  0.0720   56.5  0.5579  -36.1
 1.100  0.4146 -103.0   6.953  105.9  0.0727   56.5  0.5531  -36.2
 1.120  0.4102 -104.1   6.859  105.4  0.0733   56.5  0.5488  -36.3
 1.140  0.4060 -105.1   6.766  104.8  0.0740   56.5  0.5445  -36.4
 1.160  0.4019 -106.2   6.673  104.2  0.0746   56.5  0.5401  -36.6
 1.180  0.3980 -107.4   6.581  103.6  0.0753   56.5  0.5358  -36.7
 1.200  0.3942 -108.5   6.490  103.0  0.0759   56.5  0.5315  -36.8
 1.220  0.3904 -109.5   6.406  102.5  0.0765   56.5  0.5280  -36.9
 1.240  0.3868 -110.5   6.322  102.0  0.0772   56.6  0.5245  -37.0
 1.260  0.3832 -111.5   6.239  101.4  0.0778   56.6  0.5210  -37.1
 1.280  0.3798 -112.5   6.157  100.9  0.0785   56.7  0.5175  -37.2
 1.300  0.3765 -113.6   6.075  100.3  0.0791   56.7  0.5140  -37.3
 1.320  0.3735 -114.6   6.000   99.8  0.0797   56.7  0.5108  -37.4
 1.340  0.3706 -115.6   5.925   99.3  0.0804   56.8  0.5075  -37.5
 1.360  0.3678 -116.6   5.851   98.8  0.0810   56.8  0.5043  -37.6
 1.380  0.3651 -117.6   5.777   98.3  0.0817   56.9  0.5010  -37.7
 1.400  0.3625 -118.6   5.704   97.8  0.0823   56.9  0.4978  -37.8
 1.420  0.3596 -119.5   5.639   97.4  0.0829   57.0  0.4953  -37.9
 1.440  0.3569 -120.4   5.574   96.9  0.0836   57.0  0.4927  -38.0
 1.460  0.3542 -121.3   5.510   96.5  0.0842   57.1  0.4902  -38.0
 1.480  0.3516 -122.3   5.446   96.0  0.0849   57.1  0.4876  -38.1
 1.500  0.3491 -123.2   5.382   95.5  0.0855   57.2  0.4851  -38.2
 1.520  0.3469 -124.1   5.322   95.1  0.0861   57.3  0.4827  -38.3
 1.540  0.3448 -125.0   5.263   94.6  0.0867   57.3  0.4803  -38.4
 1.560  0.3428 -125.9   5.203   94.2  0.0874   57.4  0.4779  -38.4
 1.580  0.3409 -126.9   5.145   93.8  0.0880   57.4  0.4755  -38.5
 1.600  0.3391 -127.8   5.086   93.3  0.0886   57.5  0.4731  -38.6
 1.620  0.3373 -128.6   5.033   92.9  0.0892   57.6  0.4712  -38.7
 1.640  0.3355 -129.3   4.980   92.5  0.0899   57.7  0.4693  -38.8
 1.660  0.3338 -130.1   4.928   92.1  0.0905   57.7  0.4674  -38.9
 1.680  0.3321 -130.9   4.876   91.7  0.0912   57.8  0.4655  -39.0
 1.700  0.3305 -131.7   4.824   91.3  0.0918   57.9  0.4636  -39.1
 1.720  0.3290 -132.4   4.776   91.0  0.0924   58.0  0.4619  -39.2
 1.740  0.3275 -133.1   4.727   90.6  0.0930   58.1  0.4603  -39.3
 1.760  0.3261 -133.8   4.679   90.2  0.0937   58.1  0.4586  -39.3
 1.780  0.3248 -134.6   4.632   89.9  0.0943   58.2  0.4570  -39.4
 1.800  0.3235 -135.3   4.584   89.5  0.0949   58.3  0.4553  -39.5
 1.820  0.3221 -136.1   4.541   89.2  0.0956   58.4  0.4538  -39.6
 1.840  0.3207 -136.8   4.499   88.8  0.0962   58.5  0.4522  -39.7
 1.860  0.3194 -137.6   4.456   88.4  0.0969   58.5  0.4507  -39.8
 1.880  0.3181 -138.4   4.414   88.1  0.0975   58.6  0.4491  -39.9
 1.900  0.3169 -139.2   4.372   87.7  0.0982   58.7  0.4476  -40.0
 1.920  0.3157 -139.9   4.333   87.4  0.0988   58.8  0.4465  -40.1
 1.940  0.3146 -140.5   4.294   87.0  0.0995   58.9  0.4453  -40.1
 1.960  0.3135 -141.2   4.255   86.6  0.1001   58.9  0.4442  -40.2
 1.980  0.3124 -141.8   4.216   86.3  0.1008   59.0  0.4430  -40.2
 2.000  0.3114 -142.5   4.178   85.9  0.1014   59.1  0.4419  -40.3
 2.020  0.3104 -143.2   4.143   85.6  0.1021   59.2  0.4409  -40.4
 2.040  0.3094 -143.8   4.108   85.3  0.1027   59.3  0.4398  -40.5
 2.060  0.3085 -144.5   4.073   85.0  0.1034   59.4  0.4388  -40.6
 2.080  0.3077 -145.1   4.038   84.7  0.1040   59.4  0.4377  -40.7
 2.100  0.3068 -145.8   4.003   84.4  0.1047   59.5  0.4367  -40.8
 2.120  0.3060 -146.5   3.969   84.0  0.1054   59.6  0.4356  -41.0
 2.140  0.3053 -147.2   3.934   83.7  0.1060   59.7  0.4346  -41.1
 2.160  0.3046 -147.8   3.900   83.4  0.1067   59.7  0.4336  -41.2
 2.180  0.3039 -148.5   3.866   83.0  0.1073   59.8  0.4325  -41.3
 2.200  0.3033 -149.2   3.832   82.7  0.1080   59.9  0.4315  -41.4
 2.220  0.3026 -149.8   3.803   82.4  0.1087   60.0  0.4307  -41.5
 2.240  0.3019 -150.3   3.774   82.1  0.1094   60.0  0.4298  -41.6
 2.260  0.3013 -150.9   3.745   81.8  0.1100   60.1  0.4290  -41.7
 2.280  0.3007 -151.5   3.717   81.5  0.1107   60.2  0.4282  -41.8
 2.300  0.3001 -152.1   3.688   81.2  0.1114   60.3  0.4273  -41.9
 2.320  0.2995 -152.7   3.660   80.9  0.1121   60.3  0.4265  -42.0
 2.340  0.2990 -153.2   3.631   80.6  0.1128   60.4  0.4257  -42.1
 2.360  0.2985 -153.8   3.603   80.3  0.1134   60.5  0.4248  -42.2
 2.380  0.2980 -154.4   3.575   79.9  0.1141   60.5  0.4240  -42.3
 2.400  0.2976 -155.0   3.547   79.6  0.1148   60.6  0.4232  -42.4
 2.420  0.2972 -155.5   3.522   79.3  0.1155   60.7  0.4226  -42.5
 2.440  0.2968 -156.1   3.497   79.1  0.1162   60.7  0.4219  -42.7
 2.460  0.2964 -156.6   3.472   78.8  0.1168   60.8  0.4213  -42.8
 2.480  0.2960 -157.2   3.447   78.5  0.1175   60.9  0.4207  -42.9
 2.500  0.2957 -157.7   3.422   78.3  0.1182   61.0  0.4200  -43.0
 2.520  0.2954 -158.3   3.398   78.0  0.1189   61.0  0.4194  -43.2
 2.540  0.2951 -158.8   3.373   77.7  0.1196   61.1  0.4188  -43.3
 2.560  0.2949 -159.4   3.349   77.4  0.1202   61.2  0.4181  -43.4
 2.580  0.2947 -159.9   3.324   77.1  0.1209   61.2  0.4175  -43.6
 2.600  0.2945 -160.5   3.300   76.8  0.1216   61.3  0.4169  -43.7
 2.620  0.2941 -161.0   3.278   76.5  0.1223   61.4  0.4165  -43.8
 2.640  0.2937 -161.4   3.257   76.3  0.1230   61.4  0.4161  -44.0
 2.660  0.2933 -161.9   3.235   76.0  0.1237   61.5  0.4156  -44.1
 2.680  0.2929 -162.3   3.214   75.8  0.1244   61.5  0.4152  -44.3
 2.700  0.2926 -162.8   3.193   75.5  0.1251   61.6  0.4148  -44.4
 2.720  0.2922 -163.2   3.171   75.2  0.1258   61.6  0.4144  -44.5
 2.740  0.2919 -163.7   3.150   74.9  0.1265   61.7  0.4140  -44.7
 2.760  0.2916 -164.2   3.129   74.7  0.1272   61.7  0.4136  -44.8
 2.780  0.2914 -164.6   3.108   74.4  0.1279   61.8  0.4132  -45.0
 2.800  0.2911 -165.1   3.087   74.1  0.1286   61.8  0.4128  -45.1
 2.820  0.2910 -165.5   3.068   73.9  0.1293   61.9  0.4126  -45.2
 2.840  0.2908 -166.0   3.049   73.6  0.1300   61.9  0.4124  -45.4
 2.860  0.2907 -166.4   3.031   73.4  0.1308   62.0  0.4121  -45.5
 2.880  0.2907 -166.8   3.012   73.1  0.1315   62.0  0.4119  -45.6
 2.900  0.2906 -167.2   2.993   72.9  0.1322   62.1  0.4117  -45.7
 2.920  0.2905 -167.7   2.975   72.6  0.1329   62.1  0.4115  -45.9
 2.940  0.2905 -168.1   2.956   72.4  0.1336   62.2  0.4113  -46.0
 2.960  0.2905 -168.5   2.938   72.1  0.1344   62.2  0.4111  -46.1
 2.980  0.2905 -169.0   2.919   71.9  0.1351   62.3  0.4109  -46.3
 3.000  0.2905 -169.4   2.901   71.6  0.1358   62.3  0.4107  -46.4
 3.100  0.2885 -171.3   2.825   70.6  0.1395   62.5  0.4110  -47.0
 3.200  0.2869 -173.2   2.749   69.5  0.1432   62.7  0.4113  -47.6
 3.300  0.2855 -175.1   2.675   68.4  0.1470   62.9  0.4116  -48.2
 3.400  0.2845 -177.0   2.602   67.2  0.1507   63.0  0.4120  -48.8
 3.500  0.2838 -179.0   2.530   65.9  0.1544   63.2  0.4125  -49.4
 3.600  0.2825  179.3   2.474   65.0  0.1583   63.3  0.4132  -49.9
 3.700  0.2815  177.6   2.419   64.0  0.1622   63.5  0.4140  -50.5
 3.800  0.2807  175.8   2.365   63.0  0.1661   63.6  0.4148  -51.0
 3.900  0.2802  174.1   2.312   61.9  0.1700   63.7  0.4157  -51.6
 4.000  0.2799  172.3   2.259   60.8  0.1739   63.8  0.4166  -52.1
 4.100  0.2805  170.7   2.217   59.9  0.1781   63.9  0.4159  -52.8
 4.200  0.2813  169.0   2.175   59.0  0.1822   63.9  0.4152  -53.5
 4.300  0.2823  167.4   2.134   58.0  0.1864   64.0  0.4147  -54.3
 4.400  0.2835  165.8   2.094   57.0  0.1905   64.0  0.4141  -55.0
 4.500  0.2850  164.2   2.054   55.9  0.1947   64.1  0.4137  -55.7
 4.600  0.2865  162.5   2.022   55.0  0.1990   64.1  0.4122  -56.6
 4.700  0.2883  160.8   1.990   54.1  0.2034   64.0  0.4108  -57.5
 4.800  0.2903  159.1   1.959   53.1  0.2077   64.0  0.4096  -58.4
 4.900  0.2926  157.5   1.929   52.1  0.2121   63.9  0.4084  -59.3
 5.000  0.2951  155.9   1.899   51.1  0.2164   63.9  0.4073  -60.2
 5.100  0.2970  154.2   1.872   50.2  0.2210   63.8  0.4058  -61.0
 5.200  0.2991  152.5   1.845   49.3  0.2255   63.7  0.4043  -61.8
 5.300  0.3015  150.8   1.819   48.3  0.2301   63.7  0.4030  -62.6
 5.400  0.3042  149.2   1.793   47.3  0.2346   63.6  0.4017  -63.5
 5.500  0.3071  147.6   1.768   46.3  0.2392   63.5  0.4005  -64.3
 5.600  0.3096  146.1   1.745   45.5  0.2442   63.3  0.3984  -65.3
 5.700  0.3122  144.6   1.723   44.7  0.2493   63.2  0.3965  -66.4
 5.800  0.3151  143.1   1.701   43.8  0.2543   63.0  0.3947  -67.4
 5.900  0.3182  141.7   1.680   43.0  0.2594   62.8  0.3930  -68.4
 6.000  0.3215  140.3   1.659   42.1  0.2644   62.7  0.3915  -69.5
!
!  f       NFmin   Gammaopt  rn/50
! GHz       dB    MAG  ANG    -
 0.450      1.25  0.38    2   0.30
 0.900      1.27  0.38   11   0.33
 1.900      1.54  0.25   11   0.31
 2.400      1.69  0.21   23   0.30
!
! (c) 2015  Infineon Technologies AG, Munich
