! Infineon Technologies  Discrete & RF Semiconductors
! BFR35AP
! VCE =  1.5 V,  IC =  5.0 mA
! Common Emitter S-Parameters:                            Nov 2015
# GHz  S  MA  R  50
!  f         S11            S21            S12            S22
! GHz     MAG   ANG      MAG   ANG      MAG   ANG      MAG   ANG
 0.010  0.8114   -4.2  14.264  177.0  0.0032   85.7  0.9885   -1.9
 0.015  0.8081   -6.0  14.138  175.4  0.0050   85.6  0.9845   -2.9
 0.020  0.8056   -7.8  14.023  173.8  0.0068   85.6  0.9808   -4.0
 0.025  0.8015   -9.7  13.986  172.3  0.0085   83.6  0.9769   -5.0
 0.030  0.7982  -11.6  13.958  170.8  0.0103   82.2  0.9733   -5.9
 0.035  0.7958  -13.5  13.939  169.4  0.0120   81.3  0.9700   -6.9
 0.040  0.7943  -15.4  13.930  167.9  0.0137   80.6  0.9670   -7.9
 0.045  0.7937  -17.3  13.930  166.4  0.0155   80.0  0.9642   -8.9
 0.050  0.7940  -19.2  13.940  164.9  0.0172   79.6  0.9618   -9.9
 0.055  0.7847  -20.9  13.814  163.6  0.0186   78.1  0.9544  -10.7
 0.060  0.7762  -22.6  13.695  162.3  0.0201   76.8  0.9472  -11.6
 0.065  0.7683  -24.3  13.583  161.0  0.0215   75.7  0.9402  -12.4
 0.070  0.7611  -26.0  13.478  159.7  0.0230   74.8  0.9335  -13.3
 0.075  0.7547  -27.8  13.381  158.3  0.0245   73.9  0.9269  -14.1
 0.080  0.7490  -29.7  13.291  157.0  0.0260   73.2  0.9206  -15.0
 0.085  0.7441  -31.5  13.209  155.6  0.0274   72.5  0.9145  -15.9
 0.090  0.7399  -33.4  13.135  154.2  0.0289   71.9  0.9086  -16.8
 0.095  0.7366  -35.3  13.069  152.7  0.0304   71.4  0.9029  -17.8
 0.100  0.7341  -37.2  13.011  151.3  0.0319   70.9  0.8975  -18.7
 0.105  0.7244  -38.6  12.846  150.2  0.0331   70.1  0.8895  -19.3
 0.110  0.7152  -40.0  12.686  149.1  0.0342   69.3  0.8815  -19.9
 0.115  0.7064  -41.5  12.531  147.9  0.0354   68.5  0.8737  -20.6
 0.120  0.6982  -43.0  12.381  146.8  0.0366   67.8  0.8659  -21.2
 0.125  0.6904  -44.6  12.237  145.6  0.0377   67.2  0.8583  -21.9
 0.130  0.6831  -46.2  12.098  144.3  0.0389   66.6  0.8508  -22.5
 0.135  0.6764  -47.8  11.965  143.1  0.0401   66.0  0.8434  -23.2
 0.140  0.6702  -49.4  11.838  141.8  0.0413   65.5  0.8362  -23.9
 0.145  0.6645  -51.1  11.717  140.4  0.0425   65.0  0.8290  -24.6
 0.150  0.6595  -52.8  11.602  139.1  0.0437   64.5  0.8220  -25.3
 0.155  0.6513  -54.1  11.471  138.2  0.0446   64.0  0.8140  -25.7
 0.160  0.6434  -55.3  11.343  137.4  0.0455   63.4  0.8061  -26.2
 0.165  0.6358  -56.7  11.218  136.5  0.0464   62.9  0.7982  -26.6
 0.170  0.6286  -58.0  11.095  135.5  0.0473   62.4  0.7903  -27.1
 0.175  0.6218  -59.4  10.976  134.6  0.0482   62.0  0.7825  -27.5
 0.180  0.6153  -60.8  10.859  133.6  0.0491   61.5  0.7748  -28.0
 0.185  0.6092  -62.2  10.746  132.7  0.0500   61.1  0.7671  -28.5
 0.190  0.6034  -63.7  10.635  131.7  0.0510   60.7  0.7595  -29.0
 0.195  0.5981  -65.2  10.529  130.6  0.0519   60.3  0.7519  -29.5
 0.200  0.5932  -66.7  10.425  129.6  0.0528   59.9  0.7444  -30.0
 0.220  0.5662  -71.2   9.912  126.6  0.0555   58.4  0.7168  -31.2
 0.240  0.5431  -76.2   9.428  123.4  0.0583   57.1  0.6896  -32.5
 0.260  0.5227  -80.7   8.982  120.5  0.0610   56.2  0.6656  -33.6
 0.280  0.5036  -84.8   8.561  118.1  0.0635   55.6  0.6447  -34.4
 0.300  0.4872  -89.1   8.157  115.5  0.0660   55.0  0.6239  -35.2
 0.320  0.4683  -92.2   7.841  113.9  0.0680   54.6  0.6075  -35.6
 0.340  0.4508  -95.5   7.532  112.1  0.0700   54.2  0.5911  -36.0
 0.360  0.4349  -99.1   7.231  110.2  0.0719   53.9  0.5747  -36.4
 0.380  0.4209 -102.9   6.939  108.1  0.0739   53.5  0.5584  -36.8
 0.400  0.4089 -107.0   6.656  105.9  0.0759   53.2  0.5421  -37.3
 0.420  0.3984 -109.7   6.419  104.5  0.0775   53.1  0.5306  -37.5
 0.440  0.3889 -112.5   6.185  103.1  0.0790   53.1  0.5192  -37.6
 0.450  0.3845 -114.0   6.070  102.3  0.0798   53.0  0.5134  -37.7
 0.460  0.3803 -115.5   5.956  101.5  0.0806   53.0  0.5077  -37.8
 0.480  0.3729 -118.6   5.732   99.8  0.0821   53.0  0.4962  -38.0
 0.500  0.3665 -121.8   5.514   97.9  0.0837   52.9  0.4848  -38.2
 0.520  0.3598 -124.0   5.353   96.8  0.0856   52.9  0.4777  -38.3
 0.540  0.3536 -126.4   5.193   95.7  0.0874   53.0  0.4706  -38.4
 0.560  0.3480 -128.8   5.036   94.5  0.0893   53.0  0.4635  -38.4
 0.580  0.3431 -131.3   4.881   93.2  0.0911   53.1  0.4564  -38.5
 0.600  0.3388 -133.8   4.729   91.8  0.0930   53.1  0.4493  -38.6
 0.620  0.3345 -135.8   4.608   90.8  0.0948   53.2  0.4445  -38.7
 0.640  0.3306 -137.9   4.488   89.8  0.0966   53.3  0.4398  -38.8
 0.660  0.3272 -140.0   4.369   88.8  0.0984   53.3  0.4350  -38.9
 0.680  0.3242 -142.1   4.252   87.7  0.1002   53.4  0.4303  -39.0
 0.700  0.3217 -144.3   4.137   86.5  0.1020   53.5  0.4255  -39.1
 0.720  0.3190 -146.4   4.039   85.6  0.1038   53.5  0.4215  -39.2
 0.740  0.3168 -148.5   3.943   84.8  0.1056   53.6  0.4175  -39.3
 0.760  0.3150 -150.6   3.847   83.8  0.1073   53.6  0.4134  -39.4
 0.780  0.3136 -152.7   3.752   82.8  0.1091   53.7  0.4094  -39.5
 0.800  0.3127 -154.9   3.659   81.8  0.1109   53.7  0.4054  -39.6
 0.820  0.3082 -156.7   3.585   81.0  0.1128   53.8  0.4021  -39.7
 0.840  0.3041 -158.5   3.512   80.1  0.1147   53.9  0.3987  -39.8
 0.860  0.3002 -160.3   3.440   79.2  0.1165   54.0  0.3954  -39.9
 0.880  0.2967 -162.2   3.368   78.3  0.1184   54.1  0.3920  -40.0
 0.900  0.2935 -164.2   3.298   77.3  0.1203   54.2  0.3887  -40.1
 0.920  0.2926 -165.8   3.239   76.6  0.1221   54.2  0.3863  -40.3
 0.940  0.2920 -167.5   3.181   75.8  0.1238   54.3  0.3839  -40.4
 0.960  0.2916 -169.1   3.123   75.0  0.1256   54.3  0.3816  -40.6
 0.980  0.2914 -170.8   3.066   74.2  0.1273   54.4  0.3792  -40.7
 1.000  0.2915 -172.4   3.009   73.4  0.1291   54.4  0.3768  -40.9
 1.020  0.2921 -174.0   2.961   72.7  0.1310   54.4  0.3747  -41.2
 1.040  0.2929 -175.6   2.912   72.0  0.1329   54.5  0.3725  -41.4
 1.060  0.2939 -177.1   2.865   71.3  0.1349   54.5  0.3704  -41.7
 1.080  0.2951 -178.7   2.818   70.6  0.1368   54.6  0.3683  -41.9
 1.100  0.2966  179.8   2.771   69.8  0.1387   54.6  0.3662  -42.2
 1.120  0.2964  178.3   2.729   69.1  0.1407   54.6  0.3643  -42.4
 1.140  0.2965  176.8   2.688   68.4  0.1426   54.6  0.3624  -42.6
 1.160  0.2967  175.4   2.647   67.7  0.1446   54.5  0.3605  -42.9
 1.180  0.2972  173.9   2.606   67.0  0.1465   54.5  0.3587  -43.1
 1.200  0.2978  172.4   2.566   66.2  0.1485   54.5  0.3568  -43.3
 1.220  0.2976  171.4   2.528   65.6  0.1505   54.4  0.3553  -43.6
 1.240  0.2974  170.3   2.490   64.9  0.1524   54.4  0.3538  -43.8
 1.260  0.2974  169.3   2.452   64.3  0.1544   54.3  0.3523  -44.1
 1.280  0.2974  168.2   2.415   63.6  0.1563   54.3  0.3508  -44.3
 1.300  0.2976  167.2   2.378   62.9  0.1583   54.2  0.3493  -44.6
 1.320  0.2986  166.0   2.347   62.3  0.1602   54.1  0.3482  -44.9
 1.340  0.2997  164.9   2.316   61.7  0.1622   54.1  0.3471  -45.2
 1.360  0.3010  163.7   2.285   61.1  0.1641   54.0  0.3460  -45.6
 1.380  0.3023  162.5   2.255   60.5  0.1661   54.0  0.3449  -45.9
 1.400  0.3038  161.4   2.225   59.8  0.1680   53.9  0.3438  -46.2
 1.420  0.3034  160.4   2.201   59.2  0.1700   53.8  0.3423  -46.5
 1.440  0.3032  159.4   2.178   58.7  0.1719   53.7  0.3408  -46.8
 1.460  0.3030  158.3   2.155   58.1  0.1739   53.7  0.3394  -47.2
 1.480  0.3030  157.3   2.132   57.5  0.1758   53.6  0.3379  -47.5
 1.500  0.3030  156.3   2.109   56.9  0.1778   53.5  0.3365  -47.8
 1.520  0.3061  155.4   2.084   56.3  0.1798   53.4  0.3349  -48.1
 1.540  0.3094  154.4   2.060   55.6  0.1818   53.3  0.3333  -48.5
 1.560  0.3127  153.5   2.036   55.0  0.1838   53.1  0.3318  -48.8
 1.580  0.3160  152.7   2.012   54.3  0.1858   53.0  0.3302  -49.2
 1.600  0.3195  151.8   1.989   53.6  0.1878   52.9  0.3287  -49.5
 1.620  0.3199  150.6   1.969   53.0  0.1898   52.8  0.3271  -49.9
 1.640  0.3204  149.3   1.949   52.5  0.1918   52.7  0.3256  -50.2
 1.660  0.3211  148.1   1.929   51.9  0.1938   52.7  0.3240  -50.6
 1.680  0.3219  146.8   1.909   51.3  0.1958   52.6  0.3225  -51.0
 1.700  0.3229  145.6   1.890   50.7  0.1978   52.5  0.3210  -51.4
 1.720  0.3243  144.8   1.874   50.2  0.1999   52.4  0.3198  -51.8
 1.740  0.3258  144.1   1.858   49.7  0.2020   52.2  0.3187  -52.2
 1.760  0.3274  143.3   1.842   49.2  0.2042   52.1  0.3175  -52.6
 1.780  0.3290  142.5   1.826   48.6  0.2063   51.9  0.3164  -53.0
 1.800  0.3307  141.8   1.810   48.1  0.2084   51.8  0.3153  -53.4
 1.820  0.3332  141.1   1.795   47.5  0.2103   51.7  0.3137  -53.9
 1.840  0.3357  140.3   1.780   46.9  0.2122   51.5  0.3121  -54.4
 1.860  0.3382  139.6   1.765   46.3  0.2142   51.4  0.3106  -54.9
 1.880  0.3408  138.9   1.750   45.7  0.2161   51.2  0.3091  -55.4
 1.900  0.3435  138.2   1.736   45.1  0.2180   51.1  0.3076  -55.9
 1.920  0.3447  137.5   1.720   44.6  0.2202   50.9  0.3059  -56.3
 1.940  0.3460  136.8   1.704   44.1  0.2223   50.8  0.3042  -56.7
 1.960  0.3474  136.1   1.688   43.6  0.2245   50.6  0.3026  -57.1
 1.980  0.3488  135.5   1.673   43.0  0.2266   50.5  0.3009  -57.6
 2.000  0.3502  134.8   1.657   42.5  0.2288   50.3  0.2993  -58.0
 2.020  0.3515  134.1   1.644   42.0  0.2308   50.1  0.2980  -58.5
 2.040  0.3529  133.4   1.631   41.5  0.2328   49.9  0.2967  -59.0
 2.060  0.3543  132.6   1.618   41.0  0.2349   49.7  0.2954  -59.5
 2.080  0.3558  131.9   1.606   40.5  0.2369   49.5  0.2941  -60.0
 2.100  0.3573  131.2   1.593   40.0  0.2389   49.4  0.2929  -60.5
 2.120  0.3589  130.5   1.581   39.5  0.2410   49.2  0.2916  -61.0
 2.140  0.3606  129.8   1.569   38.9  0.2430   49.0  0.2904  -61.5
 2.160  0.3623  129.2   1.557   38.4  0.2450   48.8  0.2893  -62.0
 2.180  0.3640  128.5   1.545   37.9  0.2471   48.7  0.2881  -62.6
 2.200  0.3658  127.8   1.533   37.3  0.2491   48.5  0.2870  -63.1
 2.220  0.3680  127.1   1.523   36.8  0.2512   48.3  0.2850  -63.7
 2.240  0.3703  126.4   1.514   36.3  0.2533   48.1  0.2829  -64.2
 2.260  0.3727  125.7   1.504   35.8  0.2554   47.9  0.2810  -64.8
 2.280  0.3751  125.0   1.495   35.3  0.2575   47.7  0.2790  -65.4
 2.300  0.3775  124.3   1.486   34.8  0.2596   47.5  0.2771  -66.0
 2.320  0.3800  123.6   1.476   34.3  0.2617   47.3  0.2752  -66.6
 2.340  0.3826  122.9   1.467   33.8  0.2638   47.1  0.2733  -67.2
 2.360  0.3852  122.3   1.458   33.3  0.2659   47.0  0.2715  -67.8
 2.380  0.3879  121.6   1.450   32.7  0.2680   46.8  0.2697  -68.5
 2.400  0.3906  121.0   1.441   32.2  0.2701   46.6  0.2679  -69.1
 2.420  0.3929  120.4   1.431   31.8  0.2721   46.4  0.2664  -69.7
 2.440  0.3952  119.8   1.422   31.3  0.2741   46.1  0.2649  -70.3
 2.460  0.3975  119.2   1.413   30.9  0.2761   45.9  0.2634  -71.0
 2.480  0.3999  118.6   1.403   30.4  0.2782   45.7  0.2619  -71.6
 2.500  0.4024  118.1   1.394   29.9  0.2802   45.5  0.2605  -72.3
 2.520  0.4048  117.5   1.385   29.5  0.2822   45.2  0.2592  -72.9
 2.540  0.4073  116.9   1.376   29.0  0.2843   45.0  0.2578  -73.6
 2.560  0.4099  116.4   1.367   28.5  0.2863   44.8  0.2565  -74.2
 2.580  0.4125  115.8   1.359   28.0  0.2884   44.6  0.2552  -74.9
 2.600  0.4151  115.3   1.350   27.5  0.2904   44.4  0.2540  -75.6
 2.620  0.4170  114.7   1.343   27.1  0.2924   44.2  0.2519  -76.3
 2.640  0.4189  114.2   1.335   26.7  0.2945   43.9  0.2499  -77.1
 2.660  0.4208  113.7   1.328   26.2  0.2965   43.7  0.2479  -77.8
 2.680  0.4228  113.1   1.321   25.8  0.2985   43.4  0.2459  -78.6
 2.700  0.4248  112.6   1.314   25.4  0.3006   43.2  0.2440  -79.3
 2.720  0.4269  112.1   1.307   24.9  0.3026   43.0  0.2422  -80.1
 2.740  0.4290  111.5   1.300   24.5  0.3047   42.8  0.2404  -80.9
 2.760  0.4311  111.0   1.293   24.0  0.3068   42.5  0.2386  -81.7
 2.780  0.4333  110.5   1.287   23.6  0.3088   42.3  0.2369  -82.6
 2.800  0.4355  110.0   1.280   23.1  0.3109   42.1  0.2352  -83.4
 2.820  0.4379  109.6   1.273   22.7  0.3128   41.8  0.2337  -84.2
 2.840  0.4403  109.2   1.265   22.2  0.3147   41.6  0.2322  -85.1
 2.860  0.4428  108.8   1.258   21.8  0.3167   41.3  0.2308  -86.0
 2.880  0.4453  108.3   1.251   21.4  0.3186   41.1  0.2294  -86.8
 2.900  0.4478  107.9   1.244   20.9  0.3205   40.9  0.2281  -87.7
 2.920  0.4503  107.5   1.237   20.5  0.3225   40.6  0.2268  -88.6
 2.940  0.4528  107.2   1.230   20.0  0.3244   40.4  0.2256  -89.5
 2.960  0.4554  106.8   1.223   19.5  0.3264   40.2  0.2244  -90.4
 2.980  0.4580  106.4   1.217   19.1  0.3283   39.9  0.2233  -91.4
 3.000  0.4606  106.0   1.210   18.6  0.3303   39.7  0.2223  -92.3
 3.100  0.4715  103.9   1.179   16.8  0.3391   38.3  0.2129  -97.3
 3.200  0.4831  101.8   1.148   14.9  0.3480   36.9  0.2052 -102.8
 3.300  0.4952   99.9   1.119   12.9  0.3572   35.7  0.1996 -108.6
 3.400  0.5079   98.1   1.092   10.8  0.3665   34.5  0.1961 -114.7
 3.500  0.5211   96.3   1.066    8.6  0.3760   33.3  0.1949 -121.0
 3.600  0.5294   94.5   1.042    7.0  0.3842   31.9  0.1913 -127.7
 3.700  0.5382   92.7   1.019    5.4  0.3926   30.6  0.1903 -134.6
 3.800  0.5475   91.0   0.997    3.7  0.4012   29.4  0.1921 -141.4
 3.900  0.5572   89.4   0.976    1.9  0.4099   28.2  0.1966 -148.1
 4.000  0.5674   87.8   0.956    0.0  0.4189   27.0  0.2036 -154.3
 4.100  0.5758   86.4   0.938   -1.4  0.4262   25.5  0.2065 -160.6
 4.200  0.5846   85.0   0.920   -2.9  0.4338   24.0  0.2118 -166.6
 4.300  0.5937   83.7   0.902   -4.4  0.4417   22.6  0.2193 -172.3
 4.400  0.6031   82.4   0.886   -6.0  0.4498   21.3  0.2288 -177.6
 4.500  0.6128   81.1   0.870   -7.7  0.4582   20.0  0.2401  177.6
 4.600  0.6189   79.8   0.855   -8.9  0.4639   18.5  0.2472  172.7
 4.700  0.6252   78.6   0.841  -10.2  0.4699   17.1  0.2559  168.2
 4.800  0.6319   77.4   0.827  -11.5  0.4761   15.8  0.2662  164.0
 4.900  0.6388   76.2   0.813  -12.9  0.4826   14.4  0.2777  160.1
 5.000  0.6460   75.1   0.800  -14.3  0.4894   13.1  0.2905  156.5
 5.100  0.6523   73.9   0.781  -15.4  0.4906   11.6  0.2922  152.3
 5.200  0.6589   72.7   0.763  -16.5  0.4922   10.1  0.2955  148.1
 5.300  0.6657   71.5   0.744  -17.7  0.4941    8.6  0.3002  144.1
 5.400  0.6728   70.4   0.727  -18.9  0.4963    7.2  0.3064  140.2
 5.500  0.6802   69.3   0.709  -20.2  0.4989    5.7  0.3140  136.5
 5.600  0.6792   68.3   0.705  -20.5  0.5069    4.8  0.3308  136.0
 5.700  0.6784   67.3   0.701  -20.8  0.5149    4.0  0.3476  135.6
 5.800  0.6778   66.3   0.698  -21.1  0.5231    3.2  0.3645  135.3
 5.900  0.6774   65.3   0.694  -21.5  0.5313    2.5  0.3813  134.9
 6.000  0.6772   64.3   0.690  -21.8  0.5397    1.7  0.3982  134.6
!
!  f       NFmin   Gammaopt  rn/50
! GHz       dB    MAG  ANG    -
!
! noise parameter not available yet for this operation point!
!
! (c) 2015  Infineon Technologies AG, Munich
