! Infineon Technologies  Discrete & RF Semiconductors
! BFR35AP
! VCE =  8.0 V,  IC =  30 mA
! Common Emitter S-Parameters:                            Nov 2015
# GHz  S  MA  R  50
!  f         S11            S21            S12            S22
! GHz     MAG   ANG      MAG   ANG      MAG   ANG      MAG   ANG
 0.010  0.5876   -8.4  33.259  173.4  0.0020   85.4  0.9692   -2.5
 0.015  0.5798  -12.3  32.929  170.3  0.0029   82.8  0.9595   -3.9
 0.020  0.5747  -16.3  32.695  167.2  0.0038   81.5  0.9505   -5.4
 0.025  0.5610  -19.8  32.034  164.7  0.0047   79.7  0.9400   -6.5
 0.030  0.5496  -23.4  31.437  162.0  0.0057   78.5  0.9300   -7.6
 0.035  0.5404  -27.2  30.911  159.3  0.0066   77.6  0.9202   -8.8
 0.040  0.5337  -31.1  30.456  156.5  0.0076   77.0  0.9109  -10.0
 0.045  0.5294  -35.1  30.078  153.6  0.0085   76.5  0.9019  -11.2
 0.050  0.5278  -39.1  29.779  150.6  0.0095   76.1  0.8934  -12.4
 0.055  0.5116  -41.4  28.979  149.0  0.0101   74.9  0.8810  -12.9
 0.060  0.4963  -43.9  28.201  147.4  0.0108   73.9  0.8686  -13.4
 0.065  0.4820  -46.5  27.448  145.7  0.0114   73.0  0.8563  -13.9
 0.070  0.4687  -49.3  26.721  143.9  0.0120   72.2  0.8440  -14.4
 0.075  0.4566  -52.2  26.023  141.9  0.0127   71.5  0.8318  -14.9
 0.080  0.4458  -55.3  25.356  139.9  0.0133   70.8  0.8197  -15.4
 0.085  0.4363  -58.5  24.722  137.8  0.0140   70.2  0.8077  -16.0
 0.090  0.4283  -61.9  24.125  135.5  0.0146   69.7  0.7957  -16.6
 0.095  0.4217  -65.3  23.566  133.2  0.0153   69.2  0.7839  -17.2
 0.100  0.4168  -68.9  23.049  130.7  0.0159   68.7  0.7721  -17.8
 0.105  0.4071  -70.6  22.483  129.7  0.0164   68.3  0.7638  -17.9
 0.110  0.3978  -72.4  21.925  128.6  0.0168   68.0  0.7555  -18.0
 0.115  0.3890  -74.3  21.374  127.5  0.0173   67.7  0.7471  -18.1
 0.120  0.3805  -76.3  20.833  126.3  0.0177   67.4  0.7388  -18.2
 0.125  0.3726  -78.3  20.301  125.0  0.0182   67.1  0.7305  -18.3
 0.130  0.3651  -80.5  19.779  123.7  0.0187   66.8  0.7222  -18.4
 0.135  0.3582  -82.7  19.268  122.3  0.0191   66.5  0.7139  -18.5
 0.140  0.3518  -85.0  18.769  120.9  0.0196   66.3  0.7056  -18.6
 0.145  0.3460  -87.4  18.283  119.3  0.0200   66.0  0.6973  -18.7
 0.150  0.3409  -89.9  17.811  117.7  0.0205   65.8  0.6890  -18.8
 0.155  0.3348  -91.3  17.449  117.1  0.0209   66.0  0.6842  -18.7
 0.160  0.3290  -92.7  17.089  116.4  0.0213   66.3  0.6795  -18.7
 0.165  0.3233  -94.1  16.731  115.7  0.0218   66.5  0.6747  -18.6
 0.170  0.3179  -95.6  16.376  114.9  0.0222   66.7  0.6699  -18.6
 0.175  0.3127  -97.2  16.024  114.2  0.0226   66.9  0.6651  -18.5
 0.180  0.3077  -98.8  15.675  113.4  0.0230   67.1  0.6604  -18.5
 0.185  0.3030 -100.5  15.329  112.5  0.0234   67.3  0.6556  -18.4
 0.190  0.2986 -102.2  14.986  111.7  0.0239   67.5  0.6508  -18.3
 0.195  0.2944 -104.0  14.647  110.8  0.0243   67.6  0.6461  -18.3
 0.200  0.2905 -105.8  14.312  109.8  0.0247   67.8  0.6413  -18.2
 0.220  0.2785 -110.3  13.312  107.8  0.0263   67.8  0.6290  -18.0
 0.240  0.2683 -115.2  12.332  105.4  0.0278   67.7  0.6167  -17.7
 0.260  0.2594 -119.8  11.491  103.3  0.0295   68.1  0.6068  -17.5
 0.280  0.2511 -124.1  10.779  101.7  0.0312   68.9  0.5993  -17.4
 0.300  0.2443 -128.6  10.078   99.8  0.0330   69.6  0.5918  -17.2
 0.320  0.2377 -131.6   9.600   98.8  0.0348   70.0  0.5876  -17.1
 0.340  0.2318 -134.8   9.125   97.7  0.0366   70.4  0.5835  -17.0
 0.360  0.2266 -138.1   8.654   96.4  0.0383   70.8  0.5793  -16.8
 0.380  0.2222 -141.5   8.188   95.0  0.0401   71.1  0.5752  -16.7
 0.400  0.2187 -145.1   7.727   93.5  0.0419   71.4  0.5710  -16.6
 0.420  0.2165 -147.7   7.425   92.6  0.0436   71.5  0.5684  -16.6
 0.440  0.2148 -150.4   7.124   91.6  0.0453   71.7  0.5658  -16.6
 0.450  0.2141 -151.7   6.975   91.0  0.0462   71.7  0.5645  -16.6
 0.460  0.2136 -153.1   6.826   90.5  0.0471   71.8  0.5632  -16.6
 0.480  0.2128 -155.8   6.531   89.3  0.0488   71.9  0.5606  -16.6
 0.500  0.2125 -158.5   6.239   88.0  0.0505   72.0  0.5580  -16.6
 0.520  0.2114 -160.5   6.044   87.3  0.0522   72.2  0.5565  -16.7
 0.540  0.2105 -162.5   5.849   86.5  0.0539   72.3  0.5551  -16.8
 0.560  0.2099 -164.6   5.656   85.7  0.0557   72.4  0.5536  -17.0
 0.580  0.2096 -166.6   5.464   84.8  0.0574   72.6  0.5522  -17.1
 0.600  0.2095 -168.7   5.273   83.9  0.0591   72.7  0.5507  -17.2
 0.620  0.2084 -170.4   5.129   83.2  0.0609   72.8  0.5496  -17.4
 0.640  0.2074 -172.1   4.985   82.5  0.0628   72.9  0.5486  -17.6
 0.660  0.2067 -173.9   4.842   81.7  0.0646   73.0  0.5476  -17.7
 0.680  0.2062 -175.6   4.701   80.9  0.0665   73.0  0.5465  -17.9
 0.700  0.2058 -177.4   4.560   80.0  0.0683   73.1  0.5455  -18.1
 0.720  0.2070 -178.7   4.448   79.4  0.0701   72.9  0.5444  -18.3
 0.740  0.2082 -179.9   4.337   78.7  0.0720   72.8  0.5434  -18.5
 0.760  0.2096  178.9   4.226   78.0  0.0738   72.7  0.5424  -18.7
 0.780  0.2111  177.7   4.115   77.3  0.0757   72.5  0.5413  -18.9
 0.800  0.2126  176.5   4.006   76.5  0.0775   72.4  0.5403  -19.1
 0.820  0.2117  174.8   3.918   75.9  0.0793   72.4  0.5397  -19.3
 0.840  0.2110  173.2   3.830   75.2  0.0811   72.4  0.5392  -19.5
 0.860  0.2104  171.5   3.743   74.6  0.0830   72.3  0.5386  -19.8
 0.880  0.2101  169.8   3.657   73.8  0.0848   72.3  0.5380  -20.0
 0.900  0.2099  168.1   3.571   73.1  0.0866   72.3  0.5375  -20.2
 0.920  0.2111  166.9   3.505   72.5  0.0884   72.2  0.5370  -20.5
 0.940  0.2123  165.7   3.440   72.0  0.0901   72.1  0.5365  -20.7
 0.960  0.2137  164.6   3.375   71.4  0.0919   72.1  0.5360  -21.0
 0.980  0.2151  163.4   3.310   70.7  0.0936   72.0  0.5355  -21.2
 1.000  0.2166  162.3   3.246   70.1  0.0954   71.9  0.5350  -21.5
 1.020  0.2182  161.3   3.193   69.6  0.0972   71.8  0.5343  -21.8
 1.040  0.2200  160.3   3.140   69.0  0.0990   71.7  0.5336  -22.1
 1.060  0.2217  159.3   3.087   68.5  0.1009   71.7  0.5330  -22.5
 1.080  0.2236  158.3   3.035   67.9  0.1027   71.6  0.5323  -22.8
 1.100  0.2255  157.4   2.983   67.3  0.1045   71.5  0.5317  -23.1
 1.120  0.2269  156.3   2.937   66.7  0.1063   71.4  0.5308  -23.3
 1.140  0.2284  155.2   2.892   66.1  0.1082   71.2  0.5300  -23.6
 1.160  0.2299  154.2   2.846   65.5  0.1100   71.1  0.5291  -23.8
 1.180  0.2316  153.1   2.802   64.9  0.1119   70.9  0.5282  -24.1
 1.200  0.2333  152.1   2.757   64.2  0.1137   70.8  0.5274  -24.3
 1.220  0.2339  151.1   2.716   63.7  0.1155   70.7  0.5268  -24.6
 1.240  0.2345  150.2   2.674   63.2  0.1174   70.5  0.5261  -24.9
 1.260  0.2352  149.3   2.633   62.7  0.1192   70.4  0.5255  -25.2
 1.280  0.2359  148.3   2.593   62.2  0.1211   70.2  0.5249  -25.5
 1.300  0.2367  147.4   2.552   61.7  0.1229   70.1  0.5243  -25.8
 1.320  0.2386  146.5   2.518   61.2  0.1247   70.0  0.5239  -26.1
 1.340  0.2405  145.7   2.484   60.6  0.1265   69.8  0.5235  -26.4
 1.360  0.2424  144.8   2.450   60.1  0.1283   69.7  0.5231  -26.8
 1.380  0.2444  144.0   2.417   59.5  0.1301   69.5  0.5227  -27.1
 1.400  0.2465  143.2   2.384   58.9  0.1319   69.4  0.5224  -27.4
 1.420  0.2473  142.5   2.357   58.4  0.1338   69.3  0.5216  -27.7
 1.440  0.2481  141.9   2.331   57.9  0.1357   69.1  0.5209  -28.0
 1.460  0.2489  141.2   2.304   57.4  0.1375   69.0  0.5202  -28.4
 1.480  0.2498  140.6   2.278   56.9  0.1394   68.8  0.5195  -28.7
 1.500  0.2507  139.9   2.252   56.4  0.1413   68.7  0.5188  -29.0
 1.520  0.2529  139.1   2.224   55.8  0.1431   68.5  0.5177  -29.4
 1.540  0.2552  138.3   2.197   55.3  0.1450   68.3  0.5167  -29.7
 1.560  0.2576  137.6   2.170   54.7  0.1468   68.1  0.5157  -30.1
 1.580  0.2600  136.8   2.143   54.1  0.1487   67.9  0.5147  -30.4
 1.600  0.2624  136.1   2.116   53.5  0.1505   67.7  0.5137  -30.8
 1.620  0.2650  135.2   2.093   53.0  0.1523   67.6  0.5131  -31.1
 1.640  0.2676  134.4   2.071   52.5  0.1541   67.5  0.5125  -31.5
 1.660  0.2703  133.6   2.049   52.0  0.1558   67.4  0.5119  -31.8
 1.680  0.2731  132.8   2.027   51.5  0.1576   67.3  0.5113  -32.2
 1.700  0.2759  132.0   2.005   51.0  0.1594   67.2  0.5108  -32.5
 1.720  0.2774  131.3   1.987   50.6  0.1613   67.0  0.5103  -32.9
 1.740  0.2790  130.7   1.968   50.1  0.1632   66.8  0.5099  -33.2
 1.760  0.2806  130.1   1.950   49.6  0.1652   66.6  0.5095  -33.6
 1.780  0.2822  129.4   1.932   49.2  0.1671   66.4  0.5091  -33.9
 1.800  0.2839  128.8   1.914   48.7  0.1690   66.2  0.5087  -34.3
 1.820  0.2858  128.4   1.898   48.2  0.1708   66.0  0.5077  -34.7
 1.840  0.2877  127.9   1.881   47.7  0.1727   65.9  0.5068  -35.1
 1.860  0.2896  127.5   1.865   47.2  0.1745   65.7  0.5058  -35.4
 1.880  0.2915  127.1   1.849   46.7  0.1764   65.6  0.5049  -35.8
 1.900  0.2935  126.7   1.833   46.2  0.1782   65.4  0.5040  -36.2
 1.920  0.2947  126.1   1.816   45.8  0.1800   65.2  0.5028  -36.6
 1.940  0.2960  125.5   1.799   45.3  0.1818   65.0  0.5016  -37.0
 1.960  0.2972  124.9   1.782   44.8  0.1837   64.8  0.5004  -37.3
 1.980  0.2986  124.4   1.766   44.4  0.1855   64.7  0.4992  -37.7
 2.000  0.2999  123.8   1.749   43.9  0.1873   64.5  0.4981  -38.1
 2.020  0.3018  123.2   1.735   43.5  0.1893   64.3  0.4969  -38.5
 2.040  0.3037  122.6   1.721   43.0  0.1912   64.1  0.4958  -38.8
 2.060  0.3056  122.1   1.707   42.5  0.1932   63.9  0.4947  -39.2
 2.080  0.3076  121.5   1.693   42.1  0.1952   63.7  0.4936  -39.6
 2.100  0.3095  121.0   1.680   41.6  0.1971   63.6  0.4925  -40.0
 2.120  0.3116  120.4   1.666   41.1  0.1991   63.4  0.4914  -40.4
 2.140  0.3136  119.9   1.653   40.6  0.2011   63.2  0.4904  -40.7
 2.160  0.3157  119.3   1.639   40.1  0.2030   63.0  0.4894  -41.1
 2.180  0.3178  118.8   1.626   39.6  0.2050   62.9  0.4884  -41.5
 2.200  0.3199  118.3   1.613   39.1  0.2070   62.7  0.4874  -41.9
 2.220  0.3224  117.7   1.603   38.7  0.2089   62.5  0.4860  -42.3
 2.240  0.3249  117.2   1.593   38.2  0.2109   62.3  0.4846  -42.7
 2.260  0.3275  116.7   1.583   37.8  0.2128   62.1  0.4833  -43.2
 2.280  0.3300  116.1   1.573   37.3  0.2147   61.9  0.4820  -43.6
 2.300  0.3327  115.6   1.563   36.8  0.2167   61.7  0.4807  -44.0
 2.320  0.3353  115.1   1.553   36.4  0.2186   61.5  0.4795  -44.5
 2.340  0.3380  114.6   1.543   35.9  0.2206   61.3  0.4782  -44.9
 2.360  0.3406  114.1   1.534   35.4  0.2225   61.2  0.4770  -45.3
 2.380  0.3434  113.6   1.524   34.9  0.2244   61.0  0.4758  -45.8
 2.400  0.3461  113.1   1.515   34.4  0.2264   60.8  0.4747  -46.2
 2.420  0.3484  112.6   1.505   34.0  0.2284   60.6  0.4733  -46.6
 2.440  0.3508  112.1   1.495   33.6  0.2303   60.4  0.4719  -47.1
 2.460  0.3532  111.6   1.484   33.2  0.2323   60.2  0.4705  -47.5
 2.480  0.3556  111.1   1.474   32.8  0.2343   60.0  0.4691  -48.0
 2.500  0.3580  110.7   1.465   32.4  0.2363   59.8  0.4678  -48.4
 2.520  0.3605  110.2   1.455   31.9  0.2382   59.6  0.4665  -48.9
 2.540  0.3630  109.7   1.445   31.5  0.2402   59.4  0.4652  -49.3
 2.560  0.3655  109.3   1.435   31.1  0.2422   59.2  0.4640  -49.8
 2.580  0.3680  108.8   1.426   30.6  0.2442   59.0  0.4628  -50.2
 2.600  0.3706  108.4   1.416   30.2  0.2462   58.8  0.4616  -50.7
 2.620  0.3725  108.0   1.408   29.8  0.2482   58.6  0.4599  -51.2
 2.640  0.3745  107.6   1.401   29.4  0.2503   58.4  0.4582  -51.6
 2.660  0.3765  107.2   1.393   29.0  0.2523   58.1  0.4565  -52.1
 2.680  0.3785  106.7   1.386   28.7  0.2543   57.9  0.4549  -52.6
 2.700  0.3805  106.3   1.379   28.3  0.2564   57.7  0.4533  -53.1
 2.720  0.3826  105.9   1.371   27.9  0.2584   57.5  0.4517  -53.5
 2.740  0.3846  105.6   1.364   27.4  0.2604   57.3  0.4501  -54.0
 2.760  0.3867  105.2   1.357   27.0  0.2625   57.1  0.4486  -54.5
 2.780  0.3888  104.8   1.350   26.6  0.2645   56.9  0.4471  -55.0
 2.800  0.3909  104.4   1.343   26.2  0.2666   56.7  0.4457  -55.5
 2.820  0.3933  104.0   1.335   25.8  0.2686   56.5  0.4440  -56.0
 2.840  0.3957  103.7   1.327   25.4  0.2706   56.2  0.4423  -56.5
 2.860  0.3982  103.3   1.319   24.9  0.2726   56.0  0.4407  -57.1
 2.880  0.4006  103.0   1.311   24.5  0.2747   55.7  0.4391  -57.6
 2.900  0.4031  102.6   1.303   24.1  0.2767   55.5  0.4376  -58.2
 2.920  0.4056  102.3   1.295   23.6  0.2787   55.3  0.4361  -58.7
 2.940  0.4081  102.0   1.288   23.2  0.2808   55.1  0.4346  -59.2
 2.960  0.4106  101.6   1.280   22.7  0.2828   54.8  0.4331  -59.8
 2.980  0.4132  101.3   1.272   22.3  0.2849   54.6  0.4318  -60.3
 3.000  0.4157  101.0   1.265   21.8  0.2869   54.4  0.4304  -60.9
 3.100  0.4278   99.2   1.233   20.1  0.2968   53.0  0.4189  -63.8
 3.200  0.4402   97.6   1.202   18.3  0.3068   51.8  0.4086  -66.8
 3.300  0.4530   96.0   1.172   16.4  0.3170   50.6  0.3994  -70.0
 3.400  0.4661   94.5   1.144   14.4  0.3273   49.5  0.3915  -73.3
 3.500  0.4795   93.1   1.117   12.3  0.3377   48.4  0.3850  -76.7
 3.600  0.4888   91.6   1.094   10.7  0.3479   47.0  0.3737  -80.4
 3.700  0.4984   90.1   1.071    9.1  0.3582   45.7  0.3640  -84.3
 3.800  0.5084   88.7   1.049    7.4  0.3687   44.4  0.3561  -88.4
 3.900  0.5186   87.4   1.029    5.6  0.3794   43.2  0.3502  -92.7
 4.000  0.5291   86.1   1.009    3.7  0.3903   42.1  0.3462  -97.1
 4.100  0.5385   84.9   0.989    2.2  0.4003   40.5  0.3363 -101.6
 4.200  0.5481   83.7   0.970    0.7  0.4107   39.0  0.3286 -106.3
 4.300  0.5580   82.6   0.951   -0.9  0.4213   37.6  0.3232 -111.2
 4.400  0.5680   81.5   0.933   -2.5  0.4321   36.2  0.3202 -116.3
 4.500  0.5783   80.4   0.916   -4.2  0.4432   34.9  0.3198 -121.4
 4.600  0.5852   79.1   0.899   -5.5  0.4518   33.2  0.3136 -126.4
 4.700  0.5924   77.9   0.883   -6.8  0.4607   31.6  0.3099 -131.6
 4.800  0.5999   76.7   0.867   -8.2  0.4700   30.1  0.3088 -136.8
 4.900  0.6076   75.5   0.852   -9.7  0.4797   28.6  0.3103 -142.1
 5.000  0.6156   74.4   0.837  -11.2  0.4896   27.2  0.3143 -147.2
 5.100  0.6231   73.2   0.816  -12.4  0.4934   25.3  0.3047 -152.2
 5.200  0.6309   72.1   0.796  -13.6  0.4977   23.5  0.2974 -157.4
 5.300  0.6390   71.0   0.776  -14.9  0.5026   21.7  0.2928 -162.8
 5.400  0.6473   69.9   0.757  -16.3  0.5079   19.9  0.2909 -168.4
 5.500  0.6558   68.8   0.738  -17.7  0.5137   18.2  0.2917 -174.0
 5.600  0.6554   67.8   0.731  -18.0  0.5230   17.2  0.3079 -177.1
 5.700  0.6553   66.7   0.724  -18.4  0.5324   16.3  0.3248 -179.8
 5.800  0.6553   65.7   0.718  -18.7  0.5420   15.3  0.3424  177.7
 5.900  0.6556   64.6   0.711  -19.0  0.5518   14.5  0.3606  175.5
 6.000  0.6561   63.6   0.704  -19.4  0.5616   13.6  0.3793  173.5
!
!  f       NFmin   Gammaopt  rn/50
! GHz       dB    MAG  ANG    -
!
! noise parameter not available yet for this operation point!
!
! (c) 2015  Infineon Technologies AG, Munich
