! Infineon Technologies  Discrete & RF Semiconductors
! BFR380F
! VCE =  3.0 V,  IC =  14 mA
! Common Emitter S-Parameters:                            Nov 2015
# GHz  S  MA  R  50
!  f         S11            S21            S12            S22
! GHz     MAG   ANG      MAG   ANG      MAG   ANG      MAG   ANG
 0.030  0.6845  -19.4  38.093  169.0  0.0081   81.2  0.9635  -11.8
 0.035  0.6818  -22.5  37.867  167.2  0.0094   79.8  0.9570  -13.7
 0.040  0.6812  -25.7  37.679  165.4  0.0107   78.7  0.9515  -15.6
 0.045  0.6764  -29.1  37.461  163.5  0.0119   77.5  0.9441  -17.4
 0.050  0.6740  -32.5  37.285  161.6  0.0131   76.6  0.9377  -19.3
 0.055  0.6723  -35.4  36.914  160.2  0.0143   75.1  0.9286  -21.1
 0.060  0.6724  -38.3  36.567  158.7  0.0156   73.9  0.9205  -22.9
 0.065  0.6691  -41.3  36.150  157.1  0.0167   72.5  0.9101  -24.6
 0.070  0.6677  -44.3  35.762  155.4  0.0178   71.2  0.9005  -26.4
 0.075  0.6678  -47.3  35.371  154.0  0.0188   70.2  0.8901  -28.0
 0.080  0.6696  -50.2  35.001  152.6  0.0199   69.3  0.8804  -29.7
 0.085  0.6651  -52.7  34.494  151.2  0.0208   68.2  0.8692  -31.3
 0.090  0.6619  -55.2  34.010  149.7  0.0217   67.1  0.8586  -32.9
 0.095  0.6588  -57.7  33.563  148.4  0.0226   66.1  0.8470  -34.4
 0.100  0.6570  -60.3  33.135  147.0  0.0235   65.2  0.8360  -35.9
 0.105  0.6544  -62.6  32.663  145.7  0.0244   64.2  0.8241  -37.4
 0.110  0.6529  -64.9  32.208  144.4  0.0253   63.3  0.8127  -38.9
 0.115  0.6496  -67.2  31.732  143.2  0.0261   62.4  0.8012  -40.2
 0.120  0.6473  -69.6  31.270  142.0  0.0269   61.5  0.7901  -41.6
 0.125  0.6462  -71.7  30.805  140.9  0.0276   60.7  0.7786  -42.9
 0.130  0.6461  -73.9  30.352  139.8  0.0283   60.0  0.7676  -44.3
 0.135  0.6433  -76.0  29.908  138.7  0.0290   59.3  0.7564  -45.5
 0.140  0.6414  -78.2  29.476  137.6  0.0297   58.6  0.7455  -46.7
 0.145  0.6389  -80.3  29.044  136.5  0.0303   57.9  0.7344  -47.9
 0.150  0.6372  -82.4  28.623  135.4  0.0309   57.3  0.7237  -49.1
 0.155  0.6334  -84.0  28.187  134.6  0.0314   56.7  0.7128  -50.0
 0.160  0.6302  -85.7  27.755  133.9  0.0319   56.2  0.7022  -50.9
 0.165  0.6275  -87.4  27.330  133.0  0.0324   55.6  0.6917  -51.8
 0.170  0.6254  -89.1  26.909  132.2  0.0329   55.1  0.6814  -52.8
 0.175  0.6238  -90.8  26.495  131.3  0.0334   54.6  0.6712  -53.8
 0.180  0.6227  -92.5  26.087  130.4  0.0339   54.1  0.6614  -54.9
 0.185  0.6222  -94.2  25.686  129.5  0.0344   53.6  0.6517  -55.9
 0.190  0.6222  -95.9  25.291  128.6  0.0349   53.2  0.6422  -57.0
 0.195  0.6228  -97.6  24.903  127.6  0.0354   52.7  0.6330  -58.1
 0.200  0.6240  -99.3  24.523  126.6  0.0359   52.3  0.6241  -59.3
 0.220  0.6158 -104.3  23.173  124.2  0.0373   51.0  0.5904  -62.3
 0.240  0.6124 -109.4  21.868  121.6  0.0388   49.8  0.5586  -65.6
 0.260  0.6096 -114.0  20.687  119.2  0.0401   48.9  0.5298  -68.6
 0.280  0.6059 -118.2  19.608  117.1  0.0412   48.2  0.5034  -71.2
 0.300  0.6054 -122.3  18.558  114.8  0.0423   47.6  0.4782  -74.1
 0.320  0.6019 -125.5  17.684  113.3  0.0433   47.2  0.4572  -76.2
 0.340  0.6002 -128.7  16.823  111.7  0.0442   46.9  0.4368  -78.5
 0.360  0.5988 -131.6  16.047  110.2  0.0451   46.7  0.4185  -80.6
 0.380  0.5972 -134.1  15.352  108.8  0.0460   46.6  0.4020  -82.5
 0.400  0.5967 -136.7  14.666  107.3  0.0468   46.5  0.3859  -84.5
 0.420  0.5950 -138.9  14.092  106.2  0.0476   46.5  0.3722  -86.2
 0.440  0.5941 -141.0  13.523  105.0  0.0484   46.6  0.3589  -88.0
 0.450  0.5940 -142.1  13.241  104.4  0.0488   46.6  0.3524  -88.9
 0.460  0.5936 -143.0  13.000  104.0  0.0492   46.7  0.3467  -89.6
 0.480  0.5931 -144.7  12.521  103.0  0.0499   46.8  0.3356  -91.2
 0.500  0.5932 -146.5  12.045  102.0  0.0507   47.0  0.3247  -92.8
 0.520  0.5922 -148.0  11.670  101.3  0.0515   47.3  0.3161  -94.0
 0.540  0.5915 -149.5  11.296  100.6  0.0522   47.5  0.3077  -95.3
 0.560  0.5912 -150.9  10.924   99.8  0.0530   47.7  0.2994  -96.7
 0.580  0.5914 -152.4  10.555   98.9  0.0537   48.0  0.2914  -98.2
 0.600  0.5919 -153.9  10.188   98.0  0.0545   48.2  0.2835  -99.7
 0.620  0.5913 -155.0   9.911   97.4  0.0553   48.5  0.2774 -100.8
 0.640  0.5909 -156.1   9.635   96.8  0.0560   48.8  0.2715 -101.9
 0.660  0.5908 -157.1   9.360   96.2  0.0568   49.1  0.2656 -103.1
 0.680  0.5908 -158.2   9.086   95.5  0.0575   49.4  0.2599 -104.4
 0.700  0.5911 -159.3   8.814   94.8  0.0583   49.7  0.2543 -105.7
 0.720  0.5908 -160.2   8.602   94.3  0.0591   50.0  0.2499 -106.7
 0.740  0.5907 -161.1   8.390   93.7  0.0599   50.3  0.2457 -107.7
 0.760  0.5908 -162.0   8.180   93.1  0.0606   50.6  0.2414 -108.8
 0.780  0.5910 -162.9   7.970   92.5  0.0614   50.9  0.2373 -109.9
 0.800  0.5913 -163.8   7.761   91.9  0.0622   51.2  0.2333 -111.0
 0.820  0.5914 -164.5   7.594   91.5  0.0630   51.5  0.2302 -111.9
 0.840  0.5916 -165.2   7.428   91.0  0.0638   51.8  0.2272 -112.8
 0.860  0.5919 -166.0   7.262   90.6  0.0647   52.1  0.2242 -113.7
 0.880  0.5923 -166.7   7.096   90.1  0.0655   52.4  0.2213 -114.7
 0.900  0.5928 -167.4   6.931   89.6  0.0663   52.7  0.2185 -115.7
 0.920  0.5927 -168.1   6.795   89.2  0.0671   53.0  0.2162 -116.5
 0.940  0.5927 -168.7   6.659   88.8  0.0680   53.2  0.2139 -117.4
 0.960  0.5927 -169.4   6.524   88.3  0.0688   53.5  0.2116 -118.2
 0.980  0.5929 -170.0   6.389   87.9  0.0697   53.8  0.2094 -119.1
 1.000  0.5931 -170.7   6.254   87.4  0.0705   54.0  0.2073 -120.0
 1.020  0.5933 -171.2   6.145   87.0  0.0714   54.3  0.2056 -120.7
 1.040  0.5935 -171.8   6.036   86.7  0.0722   54.5  0.2040 -121.5
 1.060  0.5938 -172.3   5.928   86.3  0.0731   54.7  0.2025 -122.2
 1.080  0.5942 -172.9   5.820   85.9  0.0739   55.0  0.2009 -123.0
 1.100  0.5946 -173.4   5.712   85.5  0.0748   55.2  0.1994 -123.8
 1.120  0.5949 -173.9   5.618   85.2  0.0757   55.4  0.1982 -124.5
 1.140  0.5953 -174.4   5.524   84.8  0.0766   55.7  0.1970 -125.2
 1.160  0.5957 -174.9   5.430   84.5  0.0774   55.9  0.1959 -125.9
 1.180  0.5962 -175.4   5.336   84.1  0.0783   56.1  0.1948 -126.6
 1.200  0.5967 -175.9   5.243   83.7  0.0792   56.3  0.1937 -127.3
 1.220  0.5968 -176.4   5.165   83.4  0.0801   56.5  0.1929 -127.9
 1.240  0.5970 -176.8   5.087   83.0  0.0810   56.7  0.1921 -128.5
 1.260  0.5972 -177.3   5.010   82.7  0.0818   56.9  0.1913 -129.1
 1.280  0.5975 -177.7   4.932   82.3  0.0827   57.0  0.1905 -129.7
 1.300  0.5978 -178.2   4.855   81.9  0.0836   57.2  0.1898 -130.3
 1.320  0.5982 -178.6   4.787   81.6  0.0845   57.4  0.1893 -130.9
 1.340  0.5986 -179.0   4.718   81.3  0.0854   57.6  0.1888 -131.5
 1.360  0.5990 -179.4   4.650   81.0  0.0863   57.8  0.1883 -132.0
 1.380  0.5994 -179.8   4.582   80.6  0.0872   57.9  0.1878 -132.6
 1.400  0.5999  179.8   4.514   80.3  0.0881   58.1  0.1874 -133.2
 1.420  0.6002  179.4   4.456   80.0  0.0890   58.3  0.1870 -133.7
 1.440  0.6006  179.0   4.398   79.7  0.0899   58.4  0.1867 -134.1
 1.460  0.6010  178.6   4.341   79.4  0.0909   58.6  0.1863 -134.6
 1.480  0.6014  178.2   4.283   79.1  0.0918   58.7  0.1860 -135.0
 1.500  0.6019  177.8   4.226   78.8  0.0927   58.9  0.1857 -135.5
 1.520  0.6020  177.5   4.174   78.5  0.0936   59.0  0.1856 -135.9
 1.540  0.6021  177.1   4.123   78.2  0.0946   59.1  0.1856 -136.3
 1.560  0.6023  176.8   4.071   77.9  0.0955   59.3  0.1855 -136.7
 1.580  0.6024  176.4   4.020   77.6  0.0965   59.4  0.1854 -137.1
 1.600  0.6026  176.1   3.969   77.3  0.0974   59.5  0.1854 -137.5
 1.620  0.6028  175.8   3.924   77.0  0.0983   59.6  0.1852 -137.9
 1.640  0.6030  175.4   3.879   76.7  0.0992   59.7  0.1851 -138.3
 1.660  0.6032  175.1   3.835   76.4  0.1002   59.8  0.1850 -138.7
 1.680  0.6034  174.7   3.790   76.1  0.1011   59.9  0.1848 -139.1
 1.700  0.6037  174.4   3.746   75.8  0.1020   60.0  0.1847 -139.5
 1.720  0.6040  174.1   3.705   75.5  0.1029   60.1  0.1848 -139.8
 1.740  0.6042  173.8   3.664   75.3  0.1039   60.2  0.1849 -140.0
 1.760  0.6045  173.6   3.623   75.0  0.1048   60.3  0.1850 -140.3
 1.780  0.6048  173.3   3.583   74.7  0.1058   60.4  0.1851 -140.5
 1.800  0.6051  173.0   3.542   74.4  0.1067   60.5  0.1852 -140.8
 1.820  0.6055  172.7   3.506   74.2  0.1076   60.6  0.1852 -141.1
 1.840  0.6059  172.4   3.470   73.9  0.1086   60.7  0.1853 -141.5
 1.860  0.6063  172.1   3.434   73.6  0.1095   60.7  0.1854 -141.8
 1.880  0.6067  171.8   3.398   73.4  0.1105   60.8  0.1854 -142.2
 1.900  0.6071  171.5   3.362   73.1  0.1114   60.9  0.1855 -142.5
 1.920  0.6074  171.2   3.330   72.8  0.1124   61.0  0.1857 -142.7
 1.940  0.6077  170.9   3.299   72.6  0.1134   61.1  0.1858 -142.8
 1.960  0.6081  170.7   3.267   72.3  0.1143   61.1  0.1860 -143.0
 1.980  0.6084  170.4   3.235   72.1  0.1153   61.2  0.1861 -143.1
 2.000  0.6088  170.1   3.204   71.8  0.1163   61.3  0.1863 -143.3
 2.020  0.6088  169.8   3.176   71.6  0.1172   61.4  0.1865 -143.5
 2.040  0.6088  169.6   3.148   71.3  0.1182   61.4  0.1866 -143.7
 2.060  0.6087  169.3   3.121   71.1  0.1191   61.5  0.1868 -143.9
 2.080  0.6088  169.0   3.093   70.8  0.1201   61.6  0.1870 -144.1
 2.100  0.6088  168.7   3.065   70.6  0.1210   61.6  0.1872 -144.4
 2.120  0.6088  168.5   3.038   70.3  0.1220   61.7  0.1873 -144.6
 2.140  0.6089  168.2   3.010   70.0  0.1229   61.7  0.1875 -144.8
 2.160  0.6089  167.9   2.983   69.8  0.1239   61.8  0.1877 -145.0
 2.180  0.6090  167.7   2.955   69.5  0.1248   61.8  0.1879 -145.2
 2.200  0.6091  167.4   2.928   69.2  0.1258   61.9  0.1881 -145.4
 2.220  0.6093  167.2   2.905   69.0  0.1268   61.9  0.1883 -145.6
 2.240  0.6094  166.9   2.882   68.8  0.1277   62.0  0.1884 -145.8
 2.260  0.6096  166.7   2.858   68.5  0.1287   62.0  0.1886 -145.9
 2.280  0.6098  166.5   2.835   68.3  0.1297   62.0  0.1887 -146.1
 2.300  0.6100  166.2   2.812   68.0  0.1306   62.1  0.1889 -146.3
 2.320  0.6102  166.0   2.789   67.8  0.1316   62.1  0.1890 -146.5
 2.340  0.6104  165.8   2.766   67.6  0.1326   62.1  0.1892 -146.7
 2.360  0.6106  165.6   2.744   67.3  0.1336   62.1  0.1894 -146.8
 2.380  0.6109  165.3   2.721   67.1  0.1345   62.2  0.1895 -147.0
 2.400  0.6111  165.1   2.698   66.8  0.1355   62.2  0.1897 -147.2
 2.420  0.6111  164.9   2.678   66.6  0.1365   62.2  0.1899 -147.4
 2.440  0.6112  164.6   2.658   66.3  0.1375   62.2  0.1901 -147.5
 2.460  0.6112  164.4   2.638   66.1  0.1384   62.3  0.1903 -147.7
 2.480  0.6113  164.2   2.619   65.9  0.1394   62.3  0.1905 -147.8
 2.500  0.6113  163.9   2.599   65.6  0.1404   62.3  0.1907 -148.0
 2.520  0.6114  163.7   2.579   65.4  0.1414   62.3  0.1909 -148.1
 2.540  0.6115  163.5   2.560   65.2  0.1424   62.3  0.1912 -148.3
 2.560  0.6116  163.3   2.540   64.9  0.1433   62.4  0.1914 -148.4
 2.580  0.6117  163.0   2.520   64.7  0.1443   62.4  0.1916 -148.6
 2.600  0.6118  162.8   2.501   64.4  0.1453   62.4  0.1918 -148.7
 2.620  0.6119  162.6   2.485   64.2  0.1463   62.4  0.1921 -148.8
 2.640  0.6120  162.4   2.469   64.0  0.1473   62.4  0.1923 -148.9
 2.660  0.6121  162.2   2.453   63.8  0.1483   62.4  0.1926 -149.0
 2.680  0.6122  162.0   2.437   63.6  0.1493   62.4  0.1928 -149.1
 2.700  0.6123  161.7   2.421   63.3  0.1503   62.5  0.1931 -149.2
 2.720  0.6124  161.5   2.405   63.1  0.1514   62.5  0.1934 -149.3
 2.740  0.6126  161.3   2.389   62.9  0.1524   62.5  0.1936 -149.4
 2.760  0.6127  161.1   2.373   62.7  0.1534   62.5  0.1939 -149.5
 2.780  0.6128  160.9   2.357   62.4  0.1544   62.5  0.1941 -149.6
 2.800  0.6130  160.7   2.341   62.2  0.1554   62.5  0.1944 -149.7
 2.820  0.6130  160.5   2.327   62.0  0.1564   62.5  0.1946 -149.8
 2.840  0.6130  160.3   2.313   61.8  0.1574   62.5  0.1948 -149.8
 2.860  0.6130  160.1   2.299   61.6  0.1584   62.5  0.1951 -149.9
 2.880  0.6130  159.9   2.285   61.4  0.1594   62.5  0.1953 -149.9
 2.900  0.6130  159.7   2.271   61.2  0.1605   62.5  0.1955 -150.0
 2.920  0.6130  159.5   2.257   61.0  0.1615   62.5  0.1957 -150.1
 2.940  0.6130  159.3   2.243   60.8  0.1625   62.5  0.1959 -150.1
 2.960  0.6130  159.1   2.229   60.5  0.1635   62.5  0.1962 -150.2
 2.980  0.6131  158.9   2.215   60.3  0.1645   62.5  0.1964 -150.2
 3.000  0.6131  158.7   2.201   60.1  0.1655   62.5  0.1966 -150.3
 3.100  0.6128  157.6   2.145   59.1  0.1708   62.4  0.1978 -150.5
 3.200  0.6126  156.6   2.090   58.1  0.1760   62.2  0.1990 -150.6
 3.300  0.6127  155.5   2.036   57.0  0.1813   62.1  0.2003 -150.8
 3.400  0.6130  154.5   1.982   55.9  0.1865   62.0  0.2015 -150.9
 3.500  0.6135  153.4   1.929   54.7  0.1918   61.9  0.2027 -151.1
 3.600  0.6133  152.3   1.888   53.8  0.1970   61.6  0.2040 -151.3
 3.700  0.6134  151.2   1.847   52.8  0.2023   61.4  0.2054 -151.5
 3.800  0.6137  150.2   1.807   51.8  0.2075   61.1  0.2067 -151.8
 3.900  0.6142  149.1   1.767   50.7  0.2128   60.9  0.2081 -152.0
 4.000  0.6149  148.0   1.728   49.6  0.2180   60.7  0.2094 -152.2
 4.100  0.6153  147.0   1.696   48.7  0.2231   60.4  0.2115 -152.8
 4.200  0.6159  146.0   1.663   47.8  0.2281   60.1  0.2136 -153.4
 4.300  0.6167  145.1   1.632   46.8  0.2332   59.8  0.2157 -154.0
 4.400  0.6177  144.1   1.601   45.8  0.2383   59.5  0.2179 -154.6
 4.500  0.6188  143.1   1.570   44.8  0.2434   59.2  0.2201 -155.2
 4.600  0.6195  142.1   1.545   43.9  0.2487   58.9  0.2226 -156.0
 4.700  0.6203  141.1   1.521   43.0  0.2540   58.5  0.2252 -156.7
 4.800  0.6214  140.1   1.497   42.1  0.2593   58.2  0.2278 -157.4
 4.900  0.6226  139.2   1.474   41.1  0.2647   57.9  0.2304 -158.1
 5.000  0.6240  138.2   1.451   40.1  0.2700   57.6  0.2331 -158.8
 5.100  0.6248  137.1   1.430   39.2  0.2753   57.1  0.2349 -159.8
 5.200  0.6259  136.0   1.409   38.2  0.2807   56.6  0.2367 -160.8
 5.300  0.6272  134.9   1.389   37.2  0.2861   56.2  0.2386 -161.8
 5.400  0.6287  133.8   1.369   36.2  0.2915   55.7  0.2406 -162.8
 5.500  0.6305  132.7   1.349   35.1  0.2969   55.3  0.2426 -163.7
 5.600  0.6323  131.5   1.329   34.2  0.3017   54.7  0.2438 -165.2
 5.700  0.6344  130.4   1.310   33.3  0.3066   54.2  0.2453 -166.8
 5.800  0.6368  129.2   1.291   32.4  0.3115   53.7  0.2468 -168.3
 5.900  0.6394  128.0   1.272   31.5  0.3164   53.2  0.2486 -169.7
 6.000  0.6423  126.9   1.254   30.5  0.3213   52.7  0.2505 -171.2
!
!  f       NFmin   Gammaopt  rn/50
! GHz       dB    MAG  ANG    -
 0.450      0.96  0.12  161   0.08
 0.900      0.94  0.20  154   0.08
 1.800      1.18  0.33  176   0.07
 1.900      1.26  0.34  176   0.07
 2.400      1.38  0.37 -171   0.08
 3.500      1.98  0.48 -157   0.11
!
! (c) 2015  Infineon Technologies AG, Munich
