! Infineon Technologies  Discrete & RF Semiconductors
! BFR380F
! VCE =  2.0 V,  IC =  1.0 mA
! Common Emitter S-Parameters:                            Nov 2015
# GHz  S  MA  R  50
!  f         S11            S21            S12            S22
! GHz     MAG   ANG      MAG   ANG      MAG   ANG      MAG   ANG
 0.030  0.9720   -4.6   3.859  176.9  0.0101   87.5  0.9973   -2.0
 0.035  0.9707   -5.3   3.854  176.4  0.0118   87.1  0.9969   -2.3
 0.040  0.9696   -6.1   3.850  175.8  0.0135   86.8  0.9966   -2.6
 0.045  0.9685   -7.0   3.867  175.0  0.0151   86.0  0.9964   -2.9
 0.050  0.9677   -7.9   3.884  174.3  0.0167   85.4  0.9962   -3.3
 0.055  0.9666   -8.5   3.883  174.1  0.0184   85.4  0.9958   -3.6
 0.060  0.9657   -9.2   3.882  173.8  0.0202   85.4  0.9954   -4.0
 0.065  0.9680  -10.1   3.878  173.2  0.0219   84.5  0.9948   -4.3
 0.070  0.9705  -10.9   3.874  172.6  0.0236   83.8  0.9943   -4.6
 0.075  0.9696  -11.6   3.875  172.2  0.0253   83.4  0.9936   -4.9
 0.080  0.9688  -12.4   3.876  171.9  0.0270   83.0  0.9930   -5.3
 0.085  0.9687  -13.1   3.867  171.3  0.0286   82.5  0.9924   -5.6
 0.090  0.9687  -13.8   3.859  170.7  0.0303   82.0  0.9918   -5.9
 0.095  0.9669  -14.6   3.858  170.2  0.0319   81.6  0.9910   -6.2
 0.100  0.9653  -15.4   3.858  169.7  0.0336   81.3  0.9903   -6.6
 0.105  0.9657  -16.2   3.853  169.2  0.0352   80.8  0.9892   -6.9
 0.110  0.9662  -16.9   3.849  168.7  0.0369   80.3  0.9881   -7.3
 0.115  0.9641  -17.7   3.845  168.2  0.0385   79.8  0.9874   -7.6
 0.120  0.9621  -18.5   3.842  167.6  0.0401   79.4  0.9868   -7.9
 0.125  0.9622  -19.2   3.835  167.2  0.0417   79.0  0.9858   -8.2
 0.130  0.9624  -19.8   3.829  166.8  0.0434   78.6  0.9849   -8.5
 0.135  0.9618  -20.6   3.827  166.3  0.0450   78.2  0.9839   -8.8
 0.140  0.9614  -21.4   3.825  165.8  0.0466   77.8  0.9829   -9.1
 0.145  0.9602  -22.2   3.826  165.2  0.0482   77.3  0.9817   -9.4
 0.150  0.9592  -23.0   3.828  164.7  0.0498   76.8  0.9806   -9.8
 0.155  0.9577  -23.7   3.820  164.2  0.0513   76.3  0.9792  -10.1
 0.160  0.9564  -24.5   3.813  163.7  0.0529   75.8  0.9777  -10.4
 0.165  0.9553  -25.2   3.805  163.2  0.0544   75.3  0.9764  -10.7
 0.170  0.9543  -25.9   3.799  162.7  0.0560   74.8  0.9750  -11.0
 0.175  0.9535  -26.7   3.792  162.2  0.0575   74.4  0.9737  -11.3
 0.180  0.9528  -27.4   3.786  161.7  0.0591   74.0  0.9724  -11.6
 0.185  0.9523  -28.2   3.779  161.2  0.0606   73.6  0.9711  -11.9
 0.190  0.9520  -28.9   3.774  160.7  0.0622   73.3  0.9698  -12.2
 0.195  0.9518  -29.7   3.768  160.2  0.0637   72.9  0.9686  -12.5
 0.200  0.9518  -30.4   3.763  159.7  0.0653   72.6  0.9674  -12.8
 0.220  0.9471  -33.2   3.728  157.9  0.0711   70.8  0.9609  -14.0
 0.240  0.9447  -36.0   3.697  156.0  0.0769   69.2  0.9549  -15.2
 0.260  0.9407  -38.8   3.666  154.2  0.0825   67.6  0.9481  -16.4
 0.280  0.9353  -41.7   3.636  152.3  0.0879   66.0  0.9406  -17.5
 0.300  0.9322  -44.6   3.609  150.4  0.0933   64.5  0.9335  -18.6
 0.320  0.9255  -47.2   3.563  148.6  0.0982   62.9  0.9254  -19.6
 0.340  0.9208  -49.9   3.521  146.8  0.1032   61.4  0.9177  -20.7
 0.360  0.9162  -52.5   3.480  145.1  0.1079   59.9  0.9095  -21.7
 0.380  0.9115  -55.0   3.442  143.3  0.1124   58.5  0.9009  -22.6
 0.400  0.9087  -57.6   3.406  141.6  0.1169   57.2  0.8926  -23.6
 0.420  0.9025  -60.1   3.363  140.0  0.1210   55.8  0.8843  -24.5
 0.440  0.8979  -62.5   3.322  138.3  0.1252   54.4  0.8763  -25.4
 0.450  0.8963  -63.8   3.303  137.4  0.1273   53.8  0.8724  -25.9
 0.460  0.8931  -64.9   3.280  136.7  0.1290   53.1  0.8678  -26.3
 0.480  0.8877  -67.3   3.235  135.2  0.1326   51.8  0.8589  -27.1
 0.500  0.8838  -69.6   3.193  133.6  0.1362   50.6  0.8501  -28.0
 0.520  0.8765  -71.7   3.145  132.2  0.1391   49.3  0.8419  -28.8
 0.540  0.8705  -73.8   3.099  130.8  0.1421   48.1  0.8338  -29.5
 0.560  0.8656  -76.0   3.054  129.3  0.1452   46.9  0.8258  -30.3
 0.580  0.8620  -78.2   3.012  127.8  0.1483   45.8  0.8180  -31.1
 0.600  0.8597  -80.4   2.972  126.3  0.1515   44.7  0.8104  -31.9
 0.620  0.8533  -82.3   2.929  125.1  0.1537   43.6  0.8024  -32.5
 0.640  0.8479  -84.3   2.886  123.8  0.1559   42.5  0.7944  -33.2
 0.660  0.8435  -86.2   2.846  122.5  0.1582   41.5  0.7866  -33.8
 0.680  0.8400  -88.2   2.807  121.2  0.1605   40.5  0.7789  -34.5
 0.700  0.8376  -90.2   2.769  119.8  0.1629   39.5  0.7713  -35.2
 0.720  0.8323  -91.9   2.728  118.7  0.1645   38.6  0.7643  -35.8
 0.740  0.8277  -93.7   2.688  117.5  0.1662   37.6  0.7574  -36.3
 0.760  0.8240  -95.4   2.650  116.4  0.1679   36.7  0.7505  -36.9
 0.780  0.8210  -97.2   2.612  115.1  0.1697   35.9  0.7438  -37.5
 0.800  0.8188  -99.0   2.576  113.9  0.1715   35.0  0.7371  -38.1
 0.820  0.8145 -100.5   2.539  112.9  0.1727   34.2  0.7310  -38.6
 0.840  0.8108 -102.0   2.502  111.9  0.1739   33.4  0.7250  -39.1
 0.860  0.8077 -103.6   2.467  110.8  0.1751   32.6  0.7191  -39.6
 0.880  0.8051 -105.1   2.432  109.7  0.1764   31.8  0.7131  -40.1
 0.900  0.8032 -106.7   2.398  108.6  0.1777   31.0  0.7073  -40.6
 0.920  0.7994 -108.1   2.365  107.7  0.1785   30.3  0.7021  -41.0
 0.940  0.7960 -109.5   2.333  106.7  0.1794   29.6  0.6969  -41.5
 0.960  0.7932 -110.9   2.301  105.7  0.1803   28.9  0.6917  -41.9
 0.980  0.7908 -112.4   2.270  104.7  0.1812   28.3  0.6866  -42.3
 1.000  0.7889 -113.8   2.240  103.7  0.1821   27.6  0.6815  -42.8
 1.020  0.7862 -115.0   2.210  102.8  0.1826   27.0  0.6771  -43.2
 1.040  0.7839 -116.3   2.181  102.0  0.1831   26.3  0.6728  -43.6
 1.060  0.7820 -117.5   2.153  101.1  0.1837   25.7  0.6684  -44.0
 1.080  0.7804 -118.7   2.125  100.1  0.1842   25.0  0.6641  -44.5
 1.100  0.7792 -120.0   2.097   99.2  0.1848   24.4  0.6599  -44.9
 1.120  0.7768 -121.2   2.071   98.4  0.1851   23.9  0.6560  -45.3
 1.140  0.7747 -122.3   2.045   97.6  0.1854   23.3  0.6522  -45.7
 1.160  0.7730 -123.5   2.020   96.8  0.1857   22.8  0.6484  -46.1
 1.180  0.7716 -124.7   1.995   96.0  0.1860   22.2  0.6446  -46.5
 1.200  0.7705 -125.9   1.970   95.1  0.1864   21.7  0.6409  -46.9
 1.220  0.7686 -126.9   1.947   94.4  0.1864   21.2  0.6378  -47.3
 1.240  0.7669 -127.9   1.923   93.6  0.1865   20.7  0.6347  -47.6
 1.260  0.7655 -128.9   1.901   92.9  0.1865   20.3  0.6317  -48.0
 1.280  0.7643 -130.0   1.878   92.1  0.1866   19.8  0.6287  -48.3
 1.300  0.7634 -131.0   1.856   91.3  0.1867   19.3  0.6257  -48.7
 1.320  0.7617 -132.0   1.835   90.6  0.1866   18.9  0.6229  -49.1
 1.340  0.7603 -132.9   1.814   89.9  0.1865   18.4  0.6201  -49.4
 1.360  0.7590 -133.9   1.793   89.2  0.1864   18.0  0.6174  -49.8
 1.380  0.7580 -134.8   1.772   88.5  0.1863   17.5  0.6147  -50.1
 1.400  0.7572 -135.8   1.752   87.7  0.1862   17.1  0.6120  -50.5
 1.420  0.7563 -136.7   1.733   87.1  0.1859   16.7  0.6098  -50.9
 1.440  0.7555 -137.5   1.714   86.4  0.1857   16.3  0.6076  -51.2
 1.460  0.7549 -138.4   1.696   85.8  0.1855   16.0  0.6054  -51.6
 1.480  0.7545 -139.2   1.677   85.1  0.1852   15.6  0.6033  -51.9
 1.500  0.7542 -140.1   1.659   84.4  0.1850   15.2  0.6012  -52.3
 1.520  0.7532 -140.9   1.642   83.8  0.1846   14.9  0.5993  -52.6
 1.540  0.7523 -141.7   1.624   83.2  0.1842   14.5  0.5974  -53.0
 1.560  0.7516 -142.5   1.607   82.5  0.1838   14.2  0.5955  -53.3
 1.580  0.7510 -143.3   1.591   81.9  0.1835   13.8  0.5936  -53.7
 1.600  0.7506 -144.1   1.574   81.2  0.1831   13.5  0.5918  -54.0
 1.620  0.7500 -144.8   1.559   80.6  0.1826   13.2  0.5905  -54.3
 1.640  0.7495 -145.6   1.544   80.0  0.1822   12.9  0.5891  -54.7
 1.660  0.7492 -146.3   1.529   79.4  0.1817   12.6  0.5878  -55.0
 1.680  0.7490 -147.1   1.514   78.8  0.1812   12.3  0.5866  -55.4
 1.700  0.7489 -147.8   1.500   78.2  0.1808   12.0  0.5853  -55.7
 1.720  0.7484 -148.5   1.486   77.7  0.1802   11.7  0.5842  -56.1
 1.740  0.7480 -149.1   1.471   77.1  0.1796   11.5  0.5830  -56.4
 1.760  0.7478 -149.8   1.457   76.6  0.1790   11.2  0.5819  -56.8
 1.780  0.7476 -150.4   1.443   76.0  0.1785   11.0  0.5809  -57.1
 1.800  0.7475 -151.1   1.429   75.4  0.1779   10.7  0.5798  -57.5
 1.820  0.7473 -151.7   1.416   74.9  0.1773   10.5  0.5788  -57.8
 1.840  0.7471 -152.4   1.403   74.3  0.1766   10.3  0.5777  -58.2
 1.860  0.7471 -153.0   1.390   73.8  0.1760   10.0  0.5767  -58.5
 1.880  0.7472 -153.7   1.378   73.3  0.1753    9.8  0.5758  -58.9
 1.900  0.7473 -154.3   1.365   72.7  0.1747    9.6  0.5748  -59.2
 1.920  0.7471 -154.9   1.353   72.2  0.1740    9.4  0.5744  -59.5
 1.940  0.7471 -155.5   1.341   71.7  0.1733    9.2  0.5740  -59.8
 1.960  0.7471 -156.0   1.330   71.2  0.1726    9.1  0.5736  -60.2
 1.980  0.7471 -156.6   1.318   70.6  0.1719    8.9  0.5732  -60.5
 2.000  0.7473 -157.2   1.307   70.1  0.1712    8.7  0.5729  -60.8
 2.020  0.7470 -157.7   1.296   69.7  0.1704    8.6  0.5724  -61.1
 2.040  0.7467 -158.3   1.286   69.2  0.1696    8.4  0.5720  -61.5
 2.060  0.7465 -158.8   1.275   68.7  0.1689    8.3  0.5716  -61.8
 2.080  0.7464 -159.4   1.265   68.3  0.1681    8.2  0.5712  -62.2
 2.100  0.7463 -159.9   1.255   67.8  0.1673    8.1  0.5708  -62.5
 2.120  0.7463 -160.5   1.245   67.3  0.1665    7.9  0.5705  -62.8
 2.140  0.7464 -161.1   1.235   66.8  0.1657    7.8  0.5702  -63.2
 2.160  0.7465 -161.6   1.225   66.3  0.1650    7.7  0.5699  -63.5
 2.180  0.7467 -162.2   1.215   65.8  0.1642    7.5  0.5696  -63.9
 2.200  0.7470 -162.7   1.205   65.3  0.1634    7.4  0.5693  -64.2
 2.220  0.7469 -163.2   1.196   64.9  0.1625    7.3  0.5691  -64.5
 2.240  0.7469 -163.6   1.187   64.5  0.1616    7.3  0.5689  -64.9
 2.260  0.7470 -164.1   1.178   64.1  0.1608    7.2  0.5687  -65.2
 2.280  0.7471 -164.6   1.169   63.7  0.1599    7.1  0.5685  -65.6
 2.300  0.7472 -165.1   1.160   63.2  0.1590    7.1  0.5684  -65.9
 2.320  0.7474 -165.5   1.151   62.8  0.1581    7.0  0.5683  -66.3
 2.340  0.7477 -166.0   1.142   62.4  0.1572    6.9  0.5682  -66.6
 2.360  0.7480 -166.5   1.133   61.9  0.1564    6.8  0.5681  -67.0
 2.380  0.7483 -166.9   1.125   61.5  0.1555    6.8  0.5680  -67.3
 2.400  0.7487 -167.4   1.116   61.0  0.1546    6.7  0.5680  -67.7
 2.420  0.7487 -167.8   1.108   60.6  0.1537    6.7  0.5680  -68.0
 2.440  0.7487 -168.3   1.100   60.2  0.1528    6.8  0.5680  -68.4
 2.460  0.7487 -168.7   1.092   59.9  0.1518    6.8  0.5680  -68.7
 2.480  0.7488 -169.1   1.085   59.5  0.1509    6.8  0.5681  -69.1
 2.500  0.7490 -169.6   1.077   59.1  0.1500    6.8  0.5681  -69.4
 2.520  0.7492 -170.0   1.069   58.7  0.1491    6.9  0.5682  -69.7
 2.540  0.7494 -170.4   1.062   58.3  0.1482    6.9  0.5683  -70.1
 2.560  0.7496 -170.8   1.054   57.8  0.1472    6.9  0.5685  -70.4
 2.580  0.7500 -171.3   1.046   57.4  0.1463    7.0  0.5686  -70.8
 2.600  0.7503 -171.7   1.039   57.0  0.1454    7.0  0.5688  -71.1
 2.620  0.7505 -172.1   1.032   56.7  0.1445    7.1  0.5691  -71.5
 2.640  0.7508 -172.5   1.026   56.3  0.1435    7.2  0.5693  -71.8
 2.660  0.7511 -172.9   1.019   56.0  0.1426    7.3  0.5697  -72.2
 2.680  0.7514 -173.3   1.012   55.7  0.1417    7.4  0.5700  -72.5
 2.700  0.7518 -173.7   1.006   55.3  0.1407    7.5  0.5703  -72.9
 2.720  0.7522 -174.0   0.999   55.0  0.1398    7.6  0.5707  -73.2
 2.740  0.7526 -174.4   0.992   54.6  0.1389    7.7  0.5711  -73.6
 2.760  0.7531 -174.8   0.986   54.2  0.1380    7.8  0.5715  -73.9
 2.780  0.7536 -175.2   0.979   53.9  0.1370    7.9  0.5719  -74.3
 2.800  0.7541 -175.6   0.973   53.5  0.1361    8.0  0.5724  -74.6
 2.820  0.7542 -176.0   0.967   53.2  0.1352    8.2  0.5727  -74.9
 2.840  0.7544 -176.3   0.961   52.9  0.1342    8.4  0.5731  -75.3
 2.860  0.7546 -176.7   0.955   52.6  0.1333    8.7  0.5735  -75.6
 2.880  0.7548 -177.1   0.949   52.2  0.1324    8.9  0.5739  -76.0
 2.900  0.7551 -177.5   0.944   51.9  0.1315    9.1  0.5743  -76.3
 2.920  0.7553 -177.8   0.938   51.6  0.1306    9.3  0.5747  -76.6
 2.940  0.7557 -178.2   0.932   51.2  0.1296    9.6  0.5752  -77.0
 2.960  0.7560 -178.6   0.926   50.9  0.1287    9.8  0.5757  -77.3
 2.980  0.7564 -178.9   0.921   50.5  0.1278   10.1  0.5762  -77.7
 3.000  0.7568 -179.3   0.915   50.2  0.1269   10.3  0.5767  -78.0
 3.100  0.7570  178.9   0.891   48.9  0.1230   12.2  0.5781  -79.7
 3.200  0.7579  177.1   0.867   47.6  0.1192   14.3  0.5801  -81.4
 3.300  0.7596  175.3   0.844   46.2  0.1156   16.4  0.5825  -83.1
 3.400  0.7620  173.5   0.821   44.7  0.1122   18.7  0.5855  -84.8
 3.500  0.7652  171.7   0.799   43.1  0.1090   21.2  0.5890  -86.5
 3.600  0.7655  170.0   0.781   42.1  0.1075   24.6  0.5900  -88.1
 3.700  0.7666  168.2   0.763   41.1  0.1065   28.1  0.5915  -89.7
 3.800  0.7683  166.5   0.745   40.0  0.1058   31.7  0.5935  -91.3
 3.900  0.7708  164.8   0.727   38.9  0.1055   35.3  0.5959  -92.9
 4.000  0.7739  163.1   0.710   37.7  0.1057   38.9  0.5988  -94.5
 4.100  0.7740  161.5   0.696   36.9  0.1083   42.7  0.6000  -96.2
 4.200  0.7748  159.8   0.682   36.1  0.1114   46.2  0.6018  -97.9
 4.300  0.7762  158.2   0.668   35.3  0.1149   49.6  0.6040  -99.6
 4.400  0.7782  156.6   0.654   34.4  0.1187   52.7  0.6068 -101.2
 4.500  0.7808  155.0   0.640   33.5  0.1229   55.7  0.6101 -102.9
 4.600  0.7810  153.5   0.630   33.0  0.1295   58.1  0.6120 -104.6
 4.700  0.7817  151.9   0.619   32.4  0.1364   60.3  0.6144 -106.3
 4.800  0.7830  150.4   0.609   31.9  0.1434   62.2  0.6173 -108.0
 4.900  0.7849  148.9   0.599   31.3  0.1505   64.0  0.6208 -109.7
 5.000  0.7873  147.4   0.589   30.7  0.1578   65.6  0.6248 -111.3
 5.100  0.7865  145.7   0.581   30.3  0.1670   66.4  0.6259 -113.1
 5.200  0.7864  144.1   0.573   29.8  0.1762   67.1  0.6276 -115.0
 5.300  0.7870  142.4   0.565   29.4  0.1854   67.7  0.6300 -116.8
 5.400  0.7882  140.8   0.557   28.9  0.1946   68.3  0.6331 -118.6
 5.500  0.7901  139.1   0.549   28.4  0.2039   68.8  0.6367 -120.4
 5.600  0.7891  137.5   0.543   28.1  0.2137   68.6  0.6353 -122.5
 5.700  0.7888  135.9   0.537   27.9  0.2236   68.3  0.6346 -124.5
 5.800  0.7891  134.2   0.530   27.6  0.2334   68.1  0.6348 -126.6
 5.900  0.7900  132.6   0.524   27.3  0.2433   68.0  0.6359 -128.6
 6.000  0.7916  131.0   0.518   27.0  0.2531   67.8  0.6377 -130.7
!
!  f       NFmin   Gammaopt  rn/50
! GHz       dB    MAG  ANG    -
 0.450      0.89  0.66   41   0.41
 0.900      1.11  0.61   80   0.32
 1.800      1.88  0.61  134   0.20
 1.900      2.18  0.63  138   0.19
 2.400      2.61  0.63  155   0.14
 3.500      3.96  0.62 -172   0.16
!
! (c) 2015  Infineon Technologies AG, Munich
