! Infineon Technologies  Discrete & RF Semiconductors
! BFR380F
! VCE =  3.0 V,  IC =  50 mA
! Common Emitter S-Parameters:                            Nov 2015
# GHz  S  MA  R  50
!  f         S11            S21            S12            S22
! GHz     MAG   ANG      MAG   ANG      MAG   ANG      MAG   ANG
 0.030  0.3485  -53.5  73.377  160.0  0.0062   77.1  0.8762  -22.8
 0.035  0.3573  -60.7  71.810  157.1  0.0070   74.8  0.8581  -26.2
 0.040  0.3715  -67.5  70.434  154.1  0.0079   73.0  0.8433  -29.8
 0.045  0.3805  -74.0  68.764  151.3  0.0086   71.4  0.8230  -33.1
 0.050  0.3941  -80.2  67.271  148.3  0.0094   70.0  0.8056  -36.5
 0.055  0.4039  -85.4  65.361  146.1  0.0101   68.3  0.7843  -39.4
 0.060  0.4169  -90.3  63.557  143.7  0.0108   66.8  0.7651  -42.5
 0.065  0.4266  -94.6  61.704  141.5  0.0113   65.3  0.7435  -45.2
 0.070  0.4386  -98.7  59.951  139.1  0.0118   64.0  0.7237  -48.0
 0.075  0.4493 -102.3  58.233  137.4  0.0124   63.1  0.7038  -50.4
 0.080  0.4617 -105.8  56.573  135.5  0.0130   62.2  0.6852  -53.0
 0.085  0.4674 -108.8  54.862  133.8  0.0134   61.4  0.6663  -55.2
 0.090  0.4743 -111.8  53.203  132.0  0.0139   60.7  0.6484  -57.6
 0.095  0.4789 -114.6  51.665  130.5  0.0143   59.9  0.6306  -59.6
 0.100  0.4847 -117.3  50.164  128.9  0.0148   59.2  0.6137  -61.8
 0.105  0.4900 -119.5  48.768  127.6  0.0151   58.8  0.5974  -63.6
 0.110  0.4961 -121.7  47.399  126.2  0.0155   58.5  0.5817  -65.6
 0.115  0.5000 -123.8  46.064  125.0  0.0158   57.9  0.5669  -67.4
 0.120  0.5046 -125.8  44.750  123.7  0.0162   57.4  0.5527  -69.2
 0.125  0.5103 -127.5  43.556  122.6  0.0165   57.2  0.5392  -70.8
 0.130  0.5164 -129.2  42.378  121.5  0.0169   57.0  0.5262  -72.4
 0.135  0.5194 -131.0  41.295  120.6  0.0172   56.9  0.5139  -73.9
 0.140  0.5228 -132.7  40.223  119.6  0.0175   56.8  0.5019  -75.5
 0.145  0.5254 -134.3  39.204  118.6  0.0178   56.6  0.4907  -76.9
 0.150  0.5284 -135.9  38.197  117.6  0.0181   56.4  0.4797  -78.3
 0.155  0.5298 -137.0  37.379  117.0  0.0184   56.4  0.4704  -79.3
 0.160  0.5314 -138.1  36.565  116.4  0.0186   56.5  0.4613  -80.3
 0.165  0.5333 -139.2  35.755  115.8  0.0189   56.5  0.4523  -81.4
 0.170  0.5353 -140.3  34.950  115.2  0.0191   56.6  0.4435  -82.5
 0.175  0.5375 -141.4  34.149  114.5  0.0194   56.6  0.4348  -83.6
 0.180  0.5399 -142.5  33.353  113.8  0.0197   56.7  0.4263  -84.8
 0.185  0.5425 -143.6  32.562  113.1  0.0199   56.7  0.4181  -86.1
 0.190  0.5453 -144.6  31.777  112.3  0.0202   56.7  0.4100  -87.4
 0.195  0.5483 -145.7  30.998  111.5  0.0204   56.8  0.4021  -88.7
 0.200  0.5514 -146.7  30.226  110.6  0.0207   56.8  0.3945  -90.1
 0.220  0.5548 -149.5  28.093  109.0  0.0217   57.3  0.3710  -93.5
 0.240  0.5595 -152.2  25.987  107.1  0.0227   57.8  0.3490  -97.3
 0.260  0.5636 -154.7  24.173  105.4  0.0237   58.4  0.3305 -100.8
 0.280  0.5669 -156.9  22.636  104.0  0.0248   59.1  0.3151 -103.9
 0.300  0.5710 -159.0  21.114  102.4  0.0258   59.8  0.3006 -107.2
 0.320  0.5722 -160.5  19.973  101.4  0.0268   60.5  0.2895 -109.7
 0.340  0.5738 -162.0  18.839  100.4  0.0278   61.1  0.2791 -112.4
 0.360  0.5753 -163.4  17.839   99.4  0.0288   61.7  0.2701 -114.8
 0.380  0.5767 -164.6  16.971   98.5  0.0299   62.3  0.2625 -117.0
 0.400  0.5783 -165.8  16.108   97.5  0.0310   62.9  0.2553 -119.3
 0.420  0.5797 -166.8  15.420   96.8  0.0321   63.4  0.2494 -121.2
 0.440  0.5813 -167.9  14.734   96.0  0.0332   64.0  0.2438 -123.3
 0.450  0.5822 -168.4  14.392   95.6  0.0337   64.2  0.2411 -124.3
 0.460  0.5825 -168.8  14.112   95.3  0.0343   64.5  0.2389 -125.1
 0.480  0.5831 -169.7  13.552   94.7  0.0354   64.9  0.2346 -126.9
 0.500  0.5839 -170.5  12.994   94.1  0.0365   65.4  0.2305 -128.7
 0.520  0.5846 -171.2  12.569   93.6  0.0376   65.8  0.2274 -130.1
 0.540  0.5854 -171.9  12.145   93.1  0.0387   66.2  0.2245 -131.5
 0.560  0.5863 -172.6  11.722   92.5  0.0398   66.5  0.2218 -133.0
 0.580  0.5873 -173.3  11.300   91.9  0.0409   66.9  0.2192 -134.5
 0.600  0.5884 -174.0  10.879   91.3  0.0420   67.2  0.2167 -136.1
 0.620  0.5888 -174.6  10.573   90.9  0.0431   67.5  0.2149 -137.2
 0.640  0.5893 -175.1  10.267   90.5  0.0442   67.8  0.2133 -138.4
 0.660  0.5898 -175.7   9.962   90.1  0.0454   68.1  0.2117 -139.6
 0.680  0.5904 -176.2   9.658   89.6  0.0465   68.3  0.2102 -140.8
 0.700  0.5910 -176.8   9.354   89.1  0.0476   68.6  0.2088 -142.0
 0.720  0.5915 -177.3   9.123   88.7  0.0487   68.8  0.2077 -142.9
 0.740  0.5920 -177.8   8.893   88.4  0.0499   69.0  0.2068 -143.9
 0.760  0.5926 -178.2   8.663   88.0  0.0510   69.2  0.2058 -144.8
 0.780  0.5932 -178.7   8.433   87.5  0.0522   69.4  0.2049 -145.7
 0.800  0.5938 -179.2   8.204   87.1  0.0533   69.6  0.2041 -146.7
 0.820  0.5942 -179.6   8.024   86.8  0.0544   69.7  0.2036 -147.5
 0.840  0.5946  180.0   7.844   86.5  0.0556   69.9  0.2031 -148.2
 0.860  0.5950  179.6   7.664   86.1  0.0567   70.0  0.2027 -149.0
 0.880  0.5955  179.2   7.485   85.8  0.0579   70.1  0.2023 -149.8
 0.900  0.5960  178.8   7.306   85.4  0.0590   70.2  0.2019 -150.6
 0.920  0.5963  178.4   7.160   85.1  0.0602   70.3  0.2016 -151.2
 0.940  0.5966  178.0   7.014   84.8  0.0613   70.5  0.2014 -151.9
 0.960  0.5970  177.7   6.868   84.4  0.0625   70.6  0.2012 -152.5
 0.980  0.5974  177.3   6.723   84.1  0.0636   70.7  0.2010 -153.2
 1.000  0.5978  176.9   6.578   83.7  0.0648   70.8  0.2009 -153.8
 1.020  0.5981  176.6   6.462   83.4  0.0659   70.9  0.2008 -154.3
 1.040  0.5984  176.3   6.346   83.1  0.0671   70.9  0.2008 -154.8
 1.060  0.5987  175.9   6.231   82.8  0.0682   71.0  0.2007 -155.4
 1.080  0.5990  175.6   6.115   82.5  0.0694   71.0  0.2007 -155.9
 1.100  0.5994  175.3   6.000   82.2  0.0705   71.1  0.2007 -156.4
 1.120  0.5999  175.0   5.900   81.9  0.0716   71.1  0.2009 -156.9
 1.140  0.6004  174.6   5.800   81.6  0.0728   71.2  0.2011 -157.4
 1.160  0.6010  174.3   5.701   81.3  0.0739   71.2  0.2014 -157.8
 1.180  0.6015  173.9   5.601   81.0  0.0751   71.3  0.2016 -158.3
 1.200  0.6021  173.6   5.502   80.7  0.0762   71.3  0.2019 -158.8
 1.220  0.6024  173.3   5.419   80.5  0.0774   71.3  0.2021 -159.2
 1.240  0.6027  173.0   5.337   80.2  0.0785   71.3  0.2022 -159.5
 1.260  0.6031  172.8   5.254   79.9  0.0797   71.4  0.2024 -159.9
 1.280  0.6034  172.5   5.172   79.7  0.0808   71.4  0.2026 -160.2
 1.300  0.6038  172.2   5.090   79.4  0.0820   71.4  0.2028 -160.6
 1.320  0.6041  171.9   5.017   79.1  0.0831   71.4  0.2031 -160.9
 1.340  0.6043  171.6   4.945   78.9  0.0843   71.4  0.2035 -161.3
 1.360  0.6046  171.4   4.872   78.6  0.0854   71.5  0.2039 -161.6
 1.380  0.6049  171.1   4.800   78.3  0.0866   71.5  0.2042 -162.0
 1.400  0.6052  170.8   4.728   78.0  0.0877   71.5  0.2046 -162.3
 1.420  0.6057  170.5   4.667   77.8  0.0888   71.5  0.2049 -162.6
 1.440  0.6062  170.3   4.606   77.5  0.0900   71.5  0.2051 -162.8
 1.460  0.6067  170.0   4.545   77.3  0.0911   71.5  0.2054 -163.1
 1.480  0.6073  169.8   4.484   77.1  0.0923   71.5  0.2056 -163.3
 1.500  0.6078  169.5   4.423   76.8  0.0934   71.5  0.2059 -163.6
 1.520  0.6080  169.3   4.369   76.6  0.0945   71.5  0.2063 -163.8
 1.540  0.6083  169.0   4.315   76.3  0.0957   71.5  0.2068 -164.0
 1.560  0.6085  168.8   4.261   76.0  0.0968   71.4  0.2072 -164.3
 1.580  0.6088  168.5   4.208   75.8  0.0980   71.4  0.2077 -164.5
 1.600  0.6091  168.3   4.154   75.5  0.0991   71.4  0.2081 -164.7
 1.620  0.6094  168.0   4.107   75.3  0.1002   71.4  0.2084 -164.9
 1.640  0.6097  167.8   4.059   75.0  0.1014   71.3  0.2087 -165.1
 1.660  0.6100  167.5   4.012   74.8  0.1025   71.3  0.2089 -165.4
 1.680  0.6103  167.3   3.965   74.6  0.1037   71.2  0.2092 -165.6
 1.700  0.6106  167.0   3.918   74.3  0.1048   71.2  0.2095 -165.8
 1.720  0.6110  166.8   3.875   74.1  0.1059   71.2  0.2098 -165.9
 1.740  0.6114  166.6   3.833   73.8  0.1071   71.2  0.2101 -166.0
 1.760  0.6118  166.3   3.790   73.5  0.1082   71.1  0.2105 -166.2
 1.780  0.6122  166.1   3.747   73.3  0.1094   71.1  0.2108 -166.3
 1.800  0.6126  165.9   3.705   73.0  0.1105   71.1  0.2111 -166.4
 1.820  0.6128  165.7   3.667   72.8  0.1116   71.1  0.2115 -166.6
 1.840  0.6131  165.5   3.629   72.6  0.1128   71.0  0.2118 -166.8
 1.860  0.6134  165.2   3.591   72.4  0.1139   71.0  0.2122 -167.0
 1.880  0.6136  165.0   3.553   72.1  0.1151   70.9  0.2125 -167.2
 1.900  0.6139  164.8   3.515   71.9  0.1162   70.9  0.2129 -167.4
 1.920  0.6141  164.6   3.482   71.7  0.1173   70.9  0.2131 -167.4
 1.940  0.6144  164.4   3.448   71.5  0.1185   70.8  0.2133 -167.5
 1.960  0.6146  164.2   3.415   71.3  0.1196   70.8  0.2135 -167.5
 1.980  0.6148  164.0   3.382   71.0  0.1208   70.7  0.2137 -167.6
 2.000  0.6151  163.8   3.349   70.8  0.1219   70.7  0.2139 -167.6
 2.020  0.6152  163.6   3.320   70.6  0.1230   70.6  0.2142 -167.7
 2.040  0.6152  163.4   3.291   70.4  0.1241   70.6  0.2145 -167.8
 2.060  0.6153  163.1   3.262   70.2  0.1253   70.5  0.2147 -168.0
 2.080  0.6154  162.9   3.233   69.9  0.1264   70.4  0.2150 -168.1
 2.100  0.6155  162.7   3.204   69.7  0.1275   70.4  0.2153 -168.2
 2.120  0.6156  162.5   3.176   69.5  0.1286   70.3  0.2156 -168.3
 2.140  0.6157  162.3   3.147   69.2  0.1297   70.3  0.2159 -168.4
 2.160  0.6158  162.0   3.118   69.0  0.1309   70.2  0.2161 -168.6
 2.180  0.6160  161.8   3.090   68.7  0.1320   70.2  0.2164 -168.7
 2.200  0.6161  161.6   3.061   68.5  0.1331   70.1  0.2167 -168.8
 2.220  0.6162  161.4   3.037   68.3  0.1342   70.0  0.2169 -168.9
 2.240  0.6163  161.2   3.012   68.1  0.1353   70.0  0.2171 -169.0
 2.260  0.6164  161.0   2.988   67.9  0.1365   69.9  0.2173 -169.1
 2.280  0.6165  160.8   2.963   67.7  0.1376   69.9  0.2175 -169.2
 2.300  0.6166  160.6   2.939   67.4  0.1387   69.8  0.2177 -169.3
 2.320  0.6167  160.5   2.915   67.2  0.1398   69.8  0.2180 -169.4
 2.340  0.6168  160.3   2.890   67.0  0.1409   69.7  0.2182 -169.5
 2.360  0.6169  160.1   2.866   66.8  0.1421   69.7  0.2184 -169.6
 2.380  0.6171  159.9   2.842   66.5  0.1432   69.6  0.2186 -169.7
 2.400  0.6172  159.7   2.818   66.3  0.1443   69.6  0.2188 -169.8
 2.420  0.6172  159.5   2.797   66.1  0.1454   69.5  0.2190 -169.9
 2.440  0.6173  159.3   2.777   65.9  0.1465   69.5  0.2192 -170.0
 2.460  0.6174  159.1   2.756   65.7  0.1477   69.4  0.2194 -170.1
 2.480  0.6174  158.9   2.736   65.5  0.1488   69.3  0.2196 -170.2
 2.500  0.6175  158.7   2.716   65.3  0.1499   69.3  0.2198 -170.3
 2.520  0.6176  158.6   2.695   65.1  0.1510   69.2  0.2201 -170.3
 2.540  0.6177  158.4   2.675   64.9  0.1521   69.2  0.2203 -170.4
 2.560  0.6178  158.2   2.655   64.6  0.1533   69.1  0.2205 -170.5
 2.580  0.6179  158.0   2.634   64.4  0.1544   69.1  0.2207 -170.6
 2.600  0.6180  157.8   2.614   64.2  0.1555   69.0  0.2209 -170.7
 2.620  0.6181  157.6   2.597   64.0  0.1566   68.9  0.2211 -170.8
 2.640  0.6182  157.4   2.580   63.8  0.1578   68.9  0.2212 -170.8
 2.660  0.6183  157.2   2.564   63.6  0.1589   68.8  0.2214 -170.9
 2.680  0.6184  157.0   2.547   63.4  0.1600   68.7  0.2216 -170.9
 2.700  0.6185  156.8   2.530   63.2  0.1611   68.6  0.2217 -171.0
 2.720  0.6186  156.7   2.513   63.0  0.1623   68.6  0.2219 -171.0
 2.740  0.6187  156.5   2.497   62.8  0.1634   68.5  0.2221 -171.1
 2.760  0.6188  156.3   2.480   62.6  0.1645   68.4  0.2223 -171.1
 2.780  0.6190  156.1   2.464   62.4  0.1657   68.4  0.2224 -171.2
 2.800  0.6191  155.9   2.447   62.2  0.1668   68.3  0.2226 -171.2
 2.820  0.6190  155.7   2.432   62.0  0.1679   68.2  0.2227 -171.2
 2.840  0.6189  155.6   2.418   61.8  0.1691   68.2  0.2227 -171.3
 2.860  0.6187  155.4   2.403   61.6  0.1702   68.1  0.2228 -171.3
 2.880  0.6186  155.2   2.388   61.4  0.1713   68.0  0.2229 -171.4
 2.900  0.6185  155.1   2.374   61.2  0.1724   67.9  0.2229 -171.4
 2.920  0.6184  154.9   2.359   61.0  0.1736   67.9  0.2230 -171.4
 2.940  0.6183  154.7   2.344   60.8  0.1747   67.8  0.2231 -171.5
 2.960  0.6183  154.5   2.330   60.6  0.1758   67.7  0.2232 -171.5
 2.980  0.6182  154.4   2.315   60.4  0.1770   67.7  0.2232 -171.6
 3.000  0.6181  154.2   2.301   60.2  0.1781   67.6  0.2233 -171.6
 3.100  0.6173  153.2   2.243   59.3  0.1838   67.1  0.2235 -171.6
 3.200  0.6168  152.2   2.185   58.4  0.1895   66.7  0.2237 -171.7
 3.300  0.6164  151.3   2.128   57.4  0.1953   66.3  0.2240 -171.7
 3.400  0.6161  150.3   2.072   56.4  0.2010   65.9  0.2242 -171.8
 3.500  0.6161  149.3   2.016   55.3  0.2068   65.5  0.2244 -171.8
 3.600  0.6158  148.3   1.973   54.4  0.2123   64.9  0.2248 -171.9
 3.700  0.6157  147.3   1.930   53.5  0.2179   64.4  0.2253 -172.0
 3.800  0.6157  146.4   1.888   52.5  0.2234   63.9  0.2257 -172.0
 3.900  0.6160  145.4   1.847   51.5  0.2290   63.5  0.2262 -172.1
 4.000  0.6164  144.4   1.806   50.4  0.2346   63.0  0.2266 -172.2
 4.100  0.6164  143.5   1.772   49.5  0.2399   62.5  0.2283 -172.6
 4.200  0.6165  142.6   1.739   48.7  0.2451   62.0  0.2299 -173.0
 4.300  0.6168  141.6   1.706   47.7  0.2504   61.5  0.2316 -173.4
 4.400  0.6172  140.7   1.673   46.8  0.2558   61.0  0.2333 -173.8
 4.500  0.6178  139.8   1.641   45.8  0.2611   60.6  0.2350 -174.2
 4.600  0.6183  138.9   1.615   44.9  0.2665   60.1  0.2372 -174.7
 4.700  0.6190  138.0   1.590   44.0  0.2718   59.5  0.2393 -175.3
 4.800  0.6198  137.2   1.565   43.1  0.2772   59.0  0.2415 -175.8
 4.900  0.6207  136.3   1.541   42.2  0.2827   58.6  0.2438 -176.3
 5.000  0.6218  135.4   1.517   41.2  0.2881   58.1  0.2460 -176.8
 5.100  0.6222  134.4   1.495   40.3  0.2933   57.5  0.2476 -177.7
 5.200  0.6229  133.3   1.473   39.4  0.2986   56.9  0.2492 -178.5
 5.300  0.6237  132.3   1.451   38.5  0.3039   56.3  0.2509 -179.4
 5.400  0.6247  131.2   1.430   37.5  0.3092   55.7  0.2526  179.8
 5.500  0.6260  130.2   1.409   36.5  0.3146   55.2  0.2544  179.0
 5.600  0.6279  129.1   1.389   35.6  0.3191   54.5  0.2560  177.6
 5.700  0.6300  128.0   1.369   34.7  0.3237   53.9  0.2578  176.1
 5.800  0.6323  126.9   1.349   33.8  0.3283   53.2  0.2598  174.7
 5.900  0.6349  125.8   1.330   32.9  0.3329   52.6  0.2619  173.4
 6.000  0.6377  124.7   1.311   31.9  0.3376   52.0  0.2641  172.0
!
!  f       NFmin   Gammaopt  rn/50
! GHz       dB    MAG  ANG    -
 0.450      1.55  0.41 -175   0.08
 0.900      1.53  0.44 -174   0.07
 1.800      1.72  0.48 -162   0.09
 1.900      1.81  0.48 -163   0.09
 2.400      1.87  0.49 -153   0.12
 3.500      2.48  0.54 -144   0.20
!
! (c) 2015  Infineon Technologies AG, Munich
