! Infineon Technologies  Discrete & RF Semiconductors
! BFR35AP
! VCE = 0.75 V,  IC =  20 mA
! Common Emitter S-Parameters:                            Nov 2015
# GHz  S  MA  R  50
!  f         S11            S21            S12            S22
! GHz     MAG   ANG      MAG   ANG      MAG   ANG      MAG   ANG
 0.010  0.4168  -21.6  22.728  169.5  0.0054   78.3  0.6671   -9.0
 0.015  0.4073  -31.2  22.082  164.6  0.0080   74.3  0.6457  -13.4
 0.020  0.4096  -41.0  21.604  159.5  0.0107   72.3  0.6282  -18.0
 0.025  0.3944  -48.4  20.682  156.4  0.0124   68.5  0.6033  -20.6
 0.030  0.3861  -56.2  19.825  153.1  0.0142   65.7  0.5798  -23.5
 0.035  0.3853  -64.2  19.041  149.5  0.0161   63.5  0.5579  -26.6
 0.040  0.3919  -72.0  18.338  145.6  0.0179   61.7  0.5377  -30.0
 0.045  0.4055  -79.5  17.728  141.4  0.0197   60.3  0.5195  -33.6
 0.050  0.4256  -86.4  17.220  136.9  0.0216   59.1  0.5035  -37.4
 0.055  0.4169  -90.2  16.556  135.5  0.0225   58.3  0.4863  -38.4
 0.060  0.4101  -94.2  15.903  134.0  0.0234   57.5  0.4693  -39.5
 0.065  0.4053  -98.3  15.262  132.4  0.0243   56.8  0.4524  -40.6
 0.070  0.4027 -102.4  14.634  130.7  0.0252   56.1  0.4357  -41.8
 0.075  0.4022 -106.6  14.020  128.7  0.0261   55.5  0.4193  -43.2
 0.080  0.4038 -110.8  13.424  126.6  0.0270   54.9  0.4031  -44.6
 0.085  0.4076 -114.9  12.848  124.4  0.0279   54.3  0.3872  -46.2
 0.090  0.4134 -119.0  12.293  121.9  0.0289   53.8  0.3715  -47.9
 0.095  0.4212 -122.9  11.764  119.2  0.0298   53.3  0.3563  -49.7
 0.100  0.4309 -126.6  11.264  116.2  0.0307   52.9  0.3414  -51.7
 0.105  0.4290 -128.5  10.923  115.4  0.0313   52.9  0.3320  -52.1
 0.110  0.4276 -130.5  10.584  114.5  0.0320   52.9  0.3226  -52.5
 0.115  0.4267 -132.4  10.248  113.6  0.0326   52.9  0.3133  -52.9
 0.120  0.4263 -134.4   9.914  112.7  0.0333   52.9  0.3039  -53.3
 0.125  0.4264 -136.3   9.583  111.6  0.0339   52.9  0.2946  -53.8
 0.130  0.4270 -138.3   9.256  110.5  0.0345   52.9  0.2853  -54.3
 0.135  0.4281 -140.2   8.933  109.3  0.0352   52.9  0.2761  -54.8
 0.140  0.4297 -142.2   8.613  108.1  0.0358   52.9  0.2668  -55.4
 0.145  0.4318 -144.1   8.299  106.7  0.0365   52.9  0.2576  -56.0
 0.150  0.4343 -146.0   7.989  105.2  0.0371   52.9  0.2484  -56.7
 0.155  0.4338 -147.1   7.810  104.7  0.0376   53.2  0.2440  -56.8
 0.160  0.4335 -148.2   7.631  104.2  0.0382   53.4  0.2395  -56.8
 0.165  0.4333 -149.2   7.453  103.6  0.0387   53.7  0.2351  -56.9
 0.170  0.4333 -150.3   7.276  103.0  0.0393   53.9  0.2307  -56.9
 0.175  0.4335 -151.4   7.100  102.4  0.0398   54.2  0.2262  -57.0
 0.180  0.4338 -152.5   6.925  101.7  0.0403   54.4  0.2218  -57.0
 0.185  0.4342 -153.6   6.750  101.1  0.0409   54.6  0.2174  -57.1
 0.190  0.4348 -154.7   6.577  100.4  0.0414   54.9  0.2130  -57.2
 0.195  0.4356 -155.7   6.404   99.6  0.0420   55.1  0.2085  -57.2
 0.200  0.4365 -156.8   6.233   98.8  0.0425   55.3  0.2041  -57.3
 0.220  0.4387 -160.1   5.734   97.1  0.0449   56.2  0.1923  -57.3
 0.240  0.4423 -163.3   5.242   95.0  0.0474   57.0  0.1805  -57.3
 0.260  0.4441 -166.0   4.834   93.2  0.0499   57.9  0.1703  -57.3
 0.280  0.4437 -168.3   4.505   91.8  0.0524   58.9  0.1618  -57.4
 0.300  0.4440 -170.5   4.180   90.2  0.0550   59.8  0.1532  -57.5
 0.320  0.4432 -172.2   3.989   89.3  0.0576   60.4  0.1486  -57.4
 0.340  0.4429 -174.0   3.799   88.3  0.0601   60.9  0.1440  -57.3
 0.360  0.4429 -175.7   3.610   87.1  0.0627   61.4  0.1393  -57.2
 0.380  0.4433 -177.5   3.422   85.9  0.0653   61.9  0.1347  -57.0
 0.400  0.4442 -179.2   3.237   84.5  0.0679   62.3  0.1301  -56.9
 0.420  0.4444  179.5   3.111   83.7  0.0705   62.6  0.1276  -56.8
 0.440  0.4449  178.2   2.986   82.7  0.0732   62.9  0.1250  -56.7
 0.450  0.4452  177.6   2.924   82.3  0.0745   63.0  0.1237  -56.7
 0.460  0.4455  176.9   2.862   81.8  0.0758   63.1  0.1225  -56.7
 0.480  0.4464  175.7   2.739   80.7  0.0785   63.4  0.1199  -56.6
 0.500  0.4475  174.4   2.617   79.5  0.0811   63.6  0.1174  -56.5
 0.520  0.4477  173.3   2.529   78.7  0.0839   63.8  0.1156  -56.9
 0.540  0.4481  172.2   2.442   77.8  0.0868   64.0  0.1137  -57.2
 0.560  0.4486  171.2   2.355   76.9  0.0896   64.1  0.1119  -57.6
 0.580  0.4493  170.1   2.269   75.9  0.0925   64.3  0.1100  -58.0
 0.600  0.4501  169.0   2.184   74.8  0.0953   64.4  0.1082  -58.4
 0.620  0.4509  167.9   2.126   74.0  0.0980   64.4  0.1068  -59.0
 0.640  0.4520  166.9   2.068   73.2  0.1007   64.4  0.1054  -59.6
 0.660  0.4531  165.8   2.011   72.4  0.1035   64.3  0.1041  -60.2
 0.680  0.4544  164.7   1.954   71.5  0.1062   64.3  0.1027  -60.8
 0.700  0.4559  163.7   1.898   70.5  0.1089   64.3  0.1014  -61.4
 0.720  0.4562  162.9   1.854   69.8  0.1117   64.1  0.1002  -62.0
 0.740  0.4567  162.2   1.810   69.1  0.1146   64.0  0.0990  -62.5
 0.760  0.4572  161.4   1.766   68.4  0.1174   63.9  0.0979  -63.1
 0.780  0.4577  160.7   1.723   67.6  0.1203   63.7  0.0967  -63.7
 0.800  0.4584  159.9   1.680   66.8  0.1231   63.6  0.0956  -64.3
 0.820  0.4585  159.0   1.651   66.1  0.1259   63.5  0.0948  -64.8
 0.840  0.4587  158.1   1.622   65.4  0.1287   63.4  0.0940  -65.4
 0.860  0.4590  157.3   1.593   64.7  0.1316   63.3  0.0932  -66.0
 0.880  0.4594  156.4   1.565   64.0  0.1344   63.3  0.0924  -66.5
 0.900  0.4599  155.5   1.537   63.2  0.1372   63.2  0.0916  -67.1
 0.920  0.4603  154.6   1.511   62.6  0.1400   63.0  0.0912  -67.8
 0.940  0.4609  153.7   1.486   61.9  0.1427   62.9  0.0908  -68.6
 0.960  0.4616  152.7   1.460   61.2  0.1455   62.7  0.0904  -69.4
 0.980  0.4624  151.8   1.435   60.5  0.1482   62.5  0.0900  -70.1
 1.000  0.4633  150.9   1.410   59.8  0.1510   62.4  0.0896  -70.9
 1.020  0.4644  150.2   1.388   59.1  0.1537   62.1  0.0890  -72.0
 1.040  0.4656  149.4   1.366   58.5  0.1564   61.9  0.0884  -73.1
 1.060  0.4668  148.7   1.344   57.8  0.1592   61.7  0.0879  -74.3
 1.080  0.4682  147.9   1.322   57.0  0.1619   61.4  0.0874  -75.4
 1.100  0.4696  147.2   1.301   56.3  0.1646   61.2  0.0869  -76.6
 1.120  0.4714  146.4   1.283   55.7  0.1673   61.0  0.0860  -77.6
 1.140  0.4732  145.7   1.265   55.1  0.1701   60.8  0.0852  -78.7
 1.160  0.4751  145.0   1.248   54.5  0.1728   60.6  0.0844  -79.7
 1.180  0.4771  144.2   1.230   53.9  0.1756   60.4  0.0836  -80.8
 1.200  0.4792  143.5   1.213   53.2  0.1783   60.2  0.0829  -81.9
 1.220  0.4785  142.8   1.196   52.6  0.1810   59.9  0.0823  -83.0
 1.240  0.4779  142.1   1.179   52.0  0.1838   59.7  0.0818  -84.2
 1.260  0.4773  141.3   1.162   51.4  0.1865   59.4  0.0813  -85.3
 1.280  0.4768  140.6   1.145   50.8  0.1893   59.1  0.0808  -86.5
 1.300  0.4764  139.9   1.128   50.1  0.1920   58.9  0.0804  -87.7
 1.320  0.4778  139.3   1.115   49.6  0.1947   58.6  0.0800  -89.2
 1.340  0.4792  138.6   1.103   49.1  0.1973   58.3  0.0797  -90.7
 1.360  0.4807  138.0   1.090   48.5  0.2000   58.0  0.0794  -92.2
 1.380  0.4822  137.3   1.077   48.0  0.2027   57.8  0.0792  -93.7
 1.400  0.4838  136.7   1.065   47.4  0.2054   57.5  0.0790  -95.2
 1.420  0.4846  136.0   1.056   46.9  0.2080   57.2  0.0788  -96.5
 1.440  0.4854  135.3   1.048   46.3  0.2107   56.9  0.0786  -97.9
 1.460  0.4863  134.7   1.039   45.7  0.2134   56.6  0.0785  -99.2
 1.480  0.4873  134.0   1.031   45.2  0.2160   56.4  0.0784 -100.6
 1.500  0.4883  133.3   1.023   44.6  0.2187   56.1  0.0784 -101.9
 1.520  0.4905  132.6   1.011   44.0  0.2213   55.8  0.0779 -103.6
 1.540  0.4927  132.0   0.999   43.5  0.2238   55.5  0.0775 -105.3
 1.560  0.4950  131.3   0.988   42.9  0.2264   55.2  0.0772 -107.1
 1.580  0.4974  130.6   0.976   42.3  0.2290   55.0  0.0769 -108.8
 1.600  0.4998  130.0   0.965   41.7  0.2316   54.7  0.0767 -110.6
 1.620  0.5011  129.3   0.959   41.2  0.2341   54.4  0.0764 -111.9
 1.640  0.5024  128.6   0.953   40.6  0.2366   54.1  0.0761 -113.1
 1.660  0.5038  127.9   0.947   40.1  0.2391   53.8  0.0758 -114.4
 1.680  0.5053  127.3   0.941   39.6  0.2417   53.6  0.0756 -115.7
 1.700  0.5068  126.6   0.935   39.0  0.2442   53.3  0.0754 -117.0
 1.720  0.5080  126.1   0.929   38.6  0.2467   53.0  0.0761 -118.3
 1.740  0.5093  125.6   0.923   38.1  0.2492   52.7  0.0768 -119.6
 1.760  0.5106  125.0   0.917   37.7  0.2517   52.4  0.0775 -120.8
 1.780  0.5120  124.5   0.912   37.3  0.2542   52.1  0.0783 -122.0
 1.800  0.5134  124.0   0.906   36.8  0.2567   51.8  0.0791 -123.2
 1.820  0.5145  123.5   0.900   36.3  0.2591   51.5  0.0796 -125.1
 1.840  0.5157  123.0   0.894   35.7  0.2616   51.1  0.0801 -126.9
 1.860  0.5169  122.4   0.888   35.2  0.2641   50.8  0.0807 -128.7
 1.880  0.5181  121.9   0.882   34.7  0.2665   50.5  0.0814 -130.5
 1.900  0.5194  121.4   0.876   34.1  0.2690   50.2  0.0822 -132.3
 1.920  0.5208  120.8   0.869   33.7  0.2715   49.9  0.0824 -134.1
 1.940  0.5222  120.2   0.861   33.2  0.2739   49.6  0.0828 -136.0
 1.960  0.5237  119.6   0.854   32.8  0.2764   49.3  0.0832 -137.8
 1.980  0.5252  119.0   0.847   32.4  0.2789   49.1  0.0836 -139.5
 2.000  0.5268  118.4   0.840   31.9  0.2814   48.8  0.0842 -141.3
 2.020  0.5275  117.9   0.835   31.5  0.2838   48.4  0.0849 -143.2
 2.040  0.5282  117.3   0.830   31.1  0.2862   48.1  0.0856 -145.0
 2.060  0.5290  116.8   0.825   30.7  0.2886   47.8  0.0865 -146.8
 2.080  0.5298  116.3   0.820   30.3  0.2910   47.4  0.0874 -148.5
 2.100  0.5306  115.7   0.815   29.9  0.2934   47.1  0.0884 -150.2
 2.120  0.5315  115.2   0.810   29.4  0.2958   46.8  0.0895 -151.9
 2.140  0.5325  114.7   0.805   29.0  0.2982   46.4  0.0907 -153.6
 2.160  0.5335  114.1   0.800   28.6  0.3007   46.1  0.0919 -155.1
 2.180  0.5345  113.6   0.796   28.1  0.3031   45.8  0.0932 -156.7
 2.200  0.5356  113.1   0.791   27.7  0.3056   45.5  0.0946 -158.2
 2.220  0.5372  112.6   0.787   27.3  0.3078   45.2  0.0956 -159.8
 2.240  0.5388  112.0   0.783   26.9  0.3099   44.8  0.0967 -161.3
 2.260  0.5405  111.5   0.779   26.4  0.3121   44.5  0.0978 -162.8
 2.280  0.5422  110.9   0.775   26.0  0.3143   44.2  0.0990 -164.3
 2.300  0.5440  110.4   0.771   25.6  0.3165   43.9  0.1003 -165.8
 2.320  0.5458  109.9   0.767   25.1  0.3187   43.6  0.1016 -167.2
 2.340  0.5477  109.4   0.763   24.7  0.3210   43.3  0.1030 -168.5
 2.360  0.5496  108.8   0.759   24.2  0.3232   43.0  0.1044 -169.9
 2.380  0.5516  108.3   0.756   23.8  0.3254   42.7  0.1059 -171.1
 2.400  0.5536  107.8   0.752   23.3  0.3277   42.4  0.1075 -172.4
 2.420  0.5549  107.3   0.749   23.0  0.3298   42.1  0.1091 -173.8
 2.440  0.5563  106.8   0.746   22.6  0.3319   41.7  0.1108 -175.1
 2.460  0.5578  106.2   0.743   22.3  0.3340   41.4  0.1126 -176.4
 2.480  0.5592  105.7   0.740   22.0  0.3361   41.1  0.1144 -177.6
 2.500  0.5607  105.2   0.737   21.6  0.3383   40.7  0.1163 -178.8
 2.520  0.5623  104.7   0.734   21.3  0.3404   40.4  0.1182 -180.0
 2.540  0.5639  104.2   0.731   20.9  0.3426   40.1  0.1202  178.9
 2.560  0.5656  103.7   0.728   20.6  0.3447   39.8  0.1222  177.8
 2.580  0.5673  103.2   0.725   20.3  0.3469   39.5  0.1242  176.7
 2.600  0.5690  102.7   0.722   19.9  0.3491   39.2  0.1263  175.7
 2.620  0.5703  102.3   0.719   19.6  0.3510   38.9  0.1283  174.6
 2.640  0.5716  101.8   0.716   19.2  0.3530   38.5  0.1304  173.5
 2.660  0.5729  101.4   0.714   18.9  0.3550   38.2  0.1325  172.5
 2.680  0.5742  101.0   0.711   18.6  0.3570   37.9  0.1346  171.5
 2.700  0.5756  100.5   0.708   18.2  0.3590   37.6  0.1368  170.6
 2.720  0.5771  100.1   0.705   17.9  0.3610   37.2  0.1391  169.6
 2.740  0.5785   99.7   0.703   17.5  0.3630   36.9  0.1413  168.7
 2.760  0.5800   99.2   0.700   17.2  0.3650   36.6  0.1436  167.9
 2.780  0.5815   98.8   0.698   16.9  0.3671   36.3  0.1459  167.0
 2.800  0.5831   98.4   0.695   16.5  0.3691   36.0  0.1483  166.2
 2.820  0.5843   98.0   0.692   16.2  0.3709   35.6  0.1506  165.2
 2.840  0.5855   97.5   0.689   15.9  0.3727   35.3  0.1529  164.2
 2.860  0.5867   97.1   0.687   15.6  0.3745   34.9  0.1553  163.3
 2.880  0.5880   96.7   0.684   15.3  0.3764   34.6  0.1578  162.4
 2.900  0.5893   96.3   0.681   15.0  0.3782   34.3  0.1602  161.5
 2.920  0.5906   95.9   0.679   14.7  0.3801   33.9  0.1627  160.6
 2.940  0.5919   95.4   0.676   14.4  0.3820   33.6  0.1653  159.8
 2.960  0.5933   95.0   0.673   14.0  0.3839   33.3  0.1679  158.9
 2.980  0.5947   94.6   0.671   13.7  0.3858   32.9  0.1705  158.2
 3.000  0.5962   94.2   0.668   13.4  0.3877   32.6  0.1731  157.4
 3.100  0.6022   92.4   0.658   12.1  0.3948   30.9  0.1854  153.3
 3.200  0.6088   90.7   0.647   10.8  0.4022   29.3  0.1985  149.6
 3.300  0.6159   89.0   0.638    9.5  0.4100   27.7  0.2123  146.5
 3.400  0.6236   87.4   0.628    8.1  0.4180   26.2  0.2267  143.7
 3.500  0.6317   85.8   0.619    6.7  0.4263   24.8  0.2415  141.3
 3.600  0.6352   84.3   0.612    5.7  0.4316   23.3  0.2544  138.4
 3.700  0.6391   82.8   0.604    4.8  0.4372   21.8  0.2679  135.9
 3.800  0.6434   81.3   0.597    3.8  0.4431   20.3  0.2819  133.5
 3.900  0.6482   79.8   0.591    2.7  0.4493   18.9  0.2962  131.4
 4.000  0.6534   78.4   0.584    1.7  0.4558   17.5  0.3110  129.5
 4.100  0.6573   77.2   0.580    0.7  0.4601   16.1  0.3217  127.2
 4.200  0.6615   76.0   0.575   -0.3  0.4647   14.7  0.3329  125.1
 4.300  0.6660   74.8   0.571   -1.3  0.4696   13.3  0.3445  123.2
 4.400  0.6708   73.6   0.568   -2.3  0.4747   11.9  0.3565  121.3
 4.500  0.6758   72.5   0.564   -3.3  0.4801   10.6  0.3688  119.6
 4.600  0.6780   71.5   0.562   -4.2  0.4830    9.3  0.3775  117.6
 4.700  0.6804   70.5   0.560   -5.1  0.4861    7.9  0.3867  115.7
 4.800  0.6831   69.5   0.558   -6.0  0.4895    6.6  0.3962  113.9
 4.900  0.6859   68.6   0.556   -7.0  0.4932    5.4  0.4061  112.2
 5.000  0.6889   67.6   0.554   -7.9  0.4971    4.1  0.4164  110.6
 5.100  0.6922   66.6   0.547   -8.6  0.4964    2.8  0.4196  108.3
 5.200  0.6958   65.7   0.541   -9.4  0.4960    1.5  0.4234  106.1
 5.300  0.6995   64.7   0.534  -10.2  0.4959    0.3  0.4278  103.9
 5.400  0.7034   63.8   0.527  -11.0  0.4960   -1.0  0.4329  101.7
 5.500  0.7075   62.9   0.521  -11.8  0.4963   -2.3  0.4386   99.6
 5.600  0.7053   62.1   0.525  -12.1  0.5023   -3.1  0.4474  100.0
 5.700  0.7033   61.2   0.530  -12.4  0.5085   -3.8  0.4562  100.4
 5.800  0.7015   60.4   0.534  -12.7  0.5147   -4.6  0.4651  100.8
 5.900  0.6998   59.5   0.539  -12.9  0.5210   -5.3  0.4739  101.2
 6.000  0.6982   58.7   0.543  -13.2  0.5274   -6.0  0.4828  101.6
!
!  f       NFmin   Gammaopt  rn/50
! GHz       dB    MAG  ANG    -
!
! noise parameter not available yet for this operation point!
!
! (c) 2015  Infineon Technologies AG, Munich
