! Infineon Technologies  Discrete & RF Semiconductors
! BFR35AP
! VCE =  12. V,  IC =  1.5 mA
! Common Emitter S-Parameters:                            Nov 2015
# GHz  S  MA  R  50
!  f         S11            S21            S12            S22
! GHz     MAG   ANG      MAG   ANG      MAG   ANG      MAG   ANG
 0.010  0.9552   -1.3   4.994  178.8  0.0022   84.8  0.9999   -0.6
 0.015  0.9541   -2.0   4.984  178.0  0.0033   88.0  0.9975   -0.8
 0.020  0.9531   -2.8   4.976  177.1  0.0045   89.5  0.9952   -1.1
 0.025  0.9526   -3.6   4.990  176.5  0.0056   87.7  0.9950   -1.4
 0.030  0.9524   -4.4   5.005  175.9  0.0068   86.4  0.9949   -1.7
 0.035  0.9522   -5.1   5.020  175.2  0.0079   85.6  0.9948   -2.0
 0.040  0.9523   -5.9   5.036  174.6  0.0090   84.9  0.9948   -2.3
 0.045  0.9526   -6.7   5.052  174.0  0.0102   84.4  0.9947   -2.6
 0.050  0.9530   -7.5   5.069  173.4  0.0113   84.0  0.9947   -2.9
 0.055  0.9506   -8.2   5.059  172.8  0.0125   83.3  0.9934   -3.2
 0.060  0.9483   -9.0   5.049  172.2  0.0136   82.8  0.9922   -3.5
 0.065  0.9461   -9.7   5.040  171.6  0.0148   82.3  0.9910   -3.8
 0.070  0.9442  -10.5   5.031  170.9  0.0159   81.9  0.9898   -4.1
 0.075  0.9424  -11.2   5.023  170.3  0.0171   81.6  0.9887   -4.3
 0.080  0.9407  -12.0   5.016  169.7  0.0183   81.3  0.9876   -4.6
 0.085  0.9393  -12.7   5.009  169.1  0.0194   81.0  0.9865   -4.9
 0.090  0.9379  -13.5   5.003  168.5  0.0206   80.8  0.9854   -5.2
 0.095  0.9368  -14.2   4.997  167.8  0.0217   80.6  0.9843   -5.5
 0.100  0.9358  -15.0   4.992  167.2  0.0229   80.4  0.9833   -5.8
 0.105  0.9330  -15.7   4.980  166.5  0.0240   79.8  0.9822   -6.1
 0.110  0.9303  -16.4   4.970  165.8  0.0251   79.2  0.9812   -6.4
 0.115  0.9278  -17.1   4.960  165.0  0.0262   78.7  0.9802   -6.6
 0.120  0.9254  -17.8   4.950  164.3  0.0272   78.3  0.9792   -6.9
 0.125  0.9231  -18.5   4.942  163.6  0.0283   77.8  0.9782   -7.2
 0.130  0.9210  -19.2   4.934  162.8  0.0294   77.4  0.9773   -7.5
 0.135  0.9190  -19.9   4.928  162.1  0.0305   77.1  0.9763   -7.8
 0.140  0.9172  -20.7   4.922  161.4  0.0316   76.7  0.9754   -8.0
 0.145  0.9155  -21.4   4.916  160.6  0.0327   76.4  0.9746   -8.3
 0.150  0.9140  -22.1   4.912  159.9  0.0338   76.1  0.9737   -8.6
 0.155  0.9110  -22.8   4.901  159.3  0.0348   75.7  0.9720   -8.8
 0.160  0.9082  -23.5   4.890  158.7  0.0357   75.4  0.9703   -9.1
 0.165  0.9055  -24.2   4.880  158.1  0.0367   75.0  0.9686   -9.3
 0.170  0.9029  -24.9   4.870  157.5  0.0377   74.7  0.9669   -9.6
 0.175  0.9005  -25.6   4.861  156.9  0.0386   74.4  0.9652   -9.8
 0.180  0.8982  -26.3   4.852  156.3  0.0396   74.1  0.9636  -10.1
 0.185  0.8960  -27.0   4.844  155.7  0.0406   73.8  0.9620  -10.3
 0.190  0.8940  -27.7   4.836  155.0  0.0416   73.6  0.9604  -10.6
 0.195  0.8921  -28.4   4.829  154.4  0.0425   73.3  0.9588  -10.8
 0.200  0.8903  -29.1   4.823  153.8  0.0435   73.1  0.9572  -11.1
 0.220  0.8774  -31.7   4.738  151.6  0.0473   71.2  0.9492  -12.0
 0.240  0.8665  -34.4   4.660  149.3  0.0511   69.5  0.9415  -13.0
 0.260  0.8534  -37.0   4.586  147.0  0.0546   68.1  0.9338  -13.9
 0.280  0.8381  -39.5   4.514  144.6  0.0578   66.9  0.9260  -14.6
 0.300  0.8244  -42.1   4.451  142.2  0.0611   65.8  0.9184  -15.4
 0.320  0.8068  -44.4   4.384  140.3  0.0639   64.4  0.9094  -16.1
 0.340  0.7906  -46.9   4.322  138.4  0.0667   63.2  0.9005  -16.8
 0.360  0.7759  -49.4   4.264  136.5  0.0695   62.0  0.8918  -17.5
 0.380  0.7628  -52.0   4.212  134.5  0.0723   61.0  0.8832  -18.3
 0.400  0.7513  -54.7   4.165  132.4  0.0752   60.0  0.8747  -19.0
 0.420  0.7344  -56.7   4.079  130.6  0.0773   59.0  0.8658  -19.6
 0.440  0.7185  -58.8   3.997  128.7  0.0793   58.0  0.8571  -20.1
 0.450  0.7109  -59.9   3.958  127.7  0.0804   57.5  0.8527  -20.4
 0.460  0.7035  -61.0   3.919  126.7  0.0814   57.0  0.8484  -20.7
 0.480  0.6897  -63.3   3.847  124.7  0.0836   56.1  0.8398  -21.3
 0.500  0.6770  -65.7   3.779  122.6  0.0857   55.3  0.8313  -21.9
 0.520  0.6643  -67.6   3.709  121.2  0.0874   54.5  0.8247  -22.3
 0.540  0.6524  -69.5   3.640  119.8  0.0891   53.8  0.8181  -22.7
 0.560  0.6412  -71.6   3.575  118.3  0.0909   53.1  0.8115  -23.1
 0.580  0.6309  -73.6   3.512  116.7  0.0926   52.4  0.8051  -23.6
 0.600  0.6214  -75.8   3.451  115.1  0.0944   51.7  0.7986  -24.0
 0.620  0.6093  -77.5   3.393  113.8  0.0958   51.2  0.7929  -24.3
 0.640  0.5979  -79.3   3.336  112.4  0.0973   50.7  0.7873  -24.7
 0.660  0.5870  -81.2   3.282  111.0  0.0987   50.2  0.7817  -25.0
 0.680  0.5768  -83.1   3.229  109.5  0.1001   49.8  0.7761  -25.4
 0.700  0.5672  -85.1   3.179  108.0  0.1016   49.3  0.7705  -25.7
 0.720  0.5548  -86.8   3.125  106.8  0.1027   48.8  0.7649  -26.0
 0.740  0.5429  -88.7   3.072  105.5  0.1038   48.4  0.7593  -26.2
 0.760  0.5316  -90.6   3.021  104.2  0.1049   47.9  0.7538  -26.5
 0.780  0.5209  -92.5   2.971  102.8  0.1060   47.4  0.7482  -26.8
 0.800  0.5108  -94.6   2.923  101.4  0.1071   47.0  0.7427  -27.1
 0.820  0.5000  -96.1   2.880  100.2  0.1079   46.8  0.7378  -27.4
 0.840  0.4895  -97.7   2.838   99.1  0.1088   46.6  0.7329  -27.6
 0.860  0.4794  -99.3   2.798   97.8  0.1096   46.4  0.7280  -27.9
 0.880  0.4697 -101.0   2.759   96.6  0.1105   46.2  0.7231  -28.1
 0.900  0.4605 -102.8   2.721   95.3  0.1113   46.0  0.7182  -28.4
 0.920  0.4524 -104.4   2.682   94.3  0.1120   45.8  0.7147  -28.6
 0.940  0.4447 -106.1   2.643   93.3  0.1128   45.7  0.7112  -28.9
 0.960  0.4374 -107.9   2.606   92.3  0.1135   45.5  0.7077  -29.1
 0.980  0.4305 -109.7   2.569   91.2  0.1143   45.4  0.7042  -29.4
 1.000  0.4241 -111.6   2.533   90.1  0.1150   45.2  0.7007  -29.6
 1.020  0.4174 -113.2   2.499   89.2  0.1158   45.1  0.6977  -29.9
 1.040  0.4111 -114.9   2.466   88.3  0.1165   45.0  0.6947  -30.1
 1.060  0.4051 -116.7   2.433   87.4  0.1173   44.9  0.6917  -30.4
 1.080  0.3996 -118.5   2.401   86.5  0.1180   44.8  0.6887  -30.6
 1.100  0.3944 -120.3   2.369   85.5  0.1188   44.7  0.6857  -30.9
 1.120  0.3888 -121.9   2.337   84.6  0.1195   44.7  0.6831  -31.1
 1.140  0.3836 -123.6   2.305   83.7  0.1202   44.6  0.6806  -31.4
 1.160  0.3787 -125.3   2.274   82.8  0.1210   44.6  0.6780  -31.6
 1.180  0.3741 -127.0   2.244   81.9  0.1217   44.5  0.6755  -31.9
 1.200  0.3699 -128.8   2.214   80.9  0.1224   44.5  0.6730  -32.1
 1.220  0.3655 -130.3   2.186   80.1  0.1231   44.5  0.6711  -32.3
 1.240  0.3613 -131.8   2.158   79.4  0.1239   44.5  0.6693  -32.5
 1.260  0.3573 -133.4   2.131   78.6  0.1246   44.6  0.6675  -32.8
 1.280  0.3537 -135.0   2.104   77.7  0.1254   44.6  0.6656  -33.0
 1.300  0.3503 -136.6   2.077   76.9  0.1261   44.6  0.6638  -33.2
 1.320  0.3457 -138.2   2.052   76.1  0.1267   44.6  0.6621  -33.5
 1.340  0.3413 -139.9   2.028   75.3  0.1273   44.7  0.6604  -33.7
 1.360  0.3373 -141.6   2.004   74.5  0.1279   44.7  0.6587  -34.0
 1.380  0.3335 -143.3   1.980   73.7  0.1285   44.8  0.6571  -34.2
 1.400  0.3301 -145.1   1.957   72.8  0.1291   44.8  0.6554  -34.5
 1.420  0.3272 -146.5   1.939   72.1  0.1299   44.9  0.6535  -34.7
 1.440  0.3245 -148.0   1.920   71.4  0.1308   45.0  0.6517  -34.9
 1.460  0.3220 -149.5   1.903   70.7  0.1316   45.2  0.6499  -35.2
 1.480  0.3197 -151.0   1.885   69.9  0.1325   45.3  0.6480  -35.4
 1.500  0.3177 -152.5   1.868   69.2  0.1333   45.4  0.6462  -35.6
 1.520  0.3157 -154.4   1.847   68.4  0.1341   45.5  0.6447  -35.9
 1.540  0.3140 -156.4   1.826   67.6  0.1349   45.6  0.6433  -36.1
 1.560  0.3127 -158.4   1.806   66.8  0.1357   45.7  0.6418  -36.4
 1.580  0.3118 -160.4   1.786   66.0  0.1365   45.8  0.6404  -36.6
 1.600  0.3113 -162.4   1.767   65.1  0.1373   45.9  0.6390  -36.9
 1.620  0.3085 -164.1   1.754   64.5  0.1381   46.1  0.6368  -37.2
 1.640  0.3060 -165.9   1.741   63.8  0.1389   46.4  0.6346  -37.5
 1.660  0.3037 -167.7   1.728   63.1  0.1398   46.6  0.6325  -37.7
 1.680  0.3018 -169.6   1.715   62.5  0.1406   46.9  0.6303  -38.0
 1.700  0.3002 -171.4   1.703   61.8  0.1414   47.1  0.6282  -38.3
 1.720  0.2991 -172.9   1.689   61.2  0.1425   47.3  0.6272  -38.5
 1.740  0.2981 -174.4   1.675   60.6  0.1436   47.4  0.6261  -38.8
 1.760  0.2974 -175.9   1.662   59.9  0.1447   47.6  0.6251  -39.0
 1.780  0.2969 -177.4   1.648   59.3  0.1458   47.7  0.6241  -39.3
 1.800  0.2966 -178.9   1.635   58.6  0.1469   47.9  0.6231  -39.5
 1.820  0.2973  179.8   1.622   57.9  0.1479   48.1  0.6220  -39.8
 1.840  0.2982  178.5   1.609   57.3  0.1489   48.2  0.6210  -40.1
 1.860  0.2992  177.2   1.596   56.6  0.1499   48.4  0.6200  -40.5
 1.880  0.3003  176.0   1.583   55.9  0.1509   48.5  0.6190  -40.8
 1.900  0.3016  174.7   1.571   55.2  0.1519   48.7  0.6180  -41.1
 1.920  0.3018  173.4   1.557   54.6  0.1530   48.8  0.6168  -41.4
 1.940  0.3022  172.1   1.543   54.0  0.1541   48.9  0.6156  -41.7
 1.960  0.3027  170.8   1.529   53.4  0.1552   48.9  0.6145  -42.0
 1.980  0.3034  169.6   1.515   52.8  0.1563   49.0  0.6133  -42.3
 2.000  0.3042  168.3   1.502   52.2  0.1574   49.1  0.6122  -42.6
 2.020  0.3042  167.0   1.491   51.6  0.1586   49.2  0.6111  -42.9
 2.040  0.3044  165.7   1.480   51.1  0.1598   49.3  0.6100  -43.3
 2.060  0.3047  164.4   1.469   50.5  0.1610   49.4  0.6089  -43.6
 2.080  0.3052  163.2   1.459   49.9  0.1622   49.6  0.6078  -43.9
 2.100  0.3059  161.9   1.448   49.3  0.1633   49.7  0.6068  -44.3
 2.120  0.3067  160.6   1.438   48.7  0.1645   49.8  0.6058  -44.6
 2.140  0.3076  159.3   1.428   48.1  0.1657   49.9  0.6048  -45.0
 2.160  0.3087  158.1   1.418   47.5  0.1669   50.0  0.6038  -45.3
 2.180  0.3099  156.8   1.408   46.8  0.1681   50.1  0.6028  -45.7
 2.200  0.3113  155.6   1.398   46.2  0.1693   50.2  0.6019  -46.0
 2.220  0.3125  154.4   1.389   45.7  0.1707   50.3  0.6006  -46.4
 2.240  0.3139  153.2   1.380   45.1  0.1721   50.5  0.5993  -46.7
 2.260  0.3154  152.0   1.371   44.6  0.1735   50.6  0.5981  -47.1
 2.280  0.3170  150.8   1.363   44.0  0.1749   50.7  0.5969  -47.5
 2.300  0.3188  149.6   1.354   43.5  0.1763   50.8  0.5957  -47.8
 2.320  0.3207  148.5   1.346   42.9  0.1777   50.9  0.5945  -48.2
 2.340  0.3227  147.3   1.338   42.4  0.1791   51.1  0.5934  -48.6
 2.360  0.3248  146.2   1.330   41.8  0.1805   51.2  0.5923  -48.9
 2.380  0.3271  145.1   1.322   41.2  0.1819   51.3  0.5912  -49.3
 2.400  0.3295  144.0   1.314   40.6  0.1833   51.4  0.5901  -49.7
 2.420  0.3311  142.9   1.306   40.1  0.1849   51.4  0.5889  -50.1
 2.440  0.3328  141.8   1.298   39.6  0.1865   51.5  0.5878  -50.5
 2.460  0.3347  140.8   1.290   39.1  0.1880   51.5  0.5866  -50.9
 2.480  0.3366  139.7   1.283   38.6  0.1896   51.6  0.5855  -51.2
 2.500  0.3387  138.7   1.275   38.1  0.1912   51.6  0.5845  -51.6
 2.520  0.3409  137.7   1.268   37.6  0.1928   51.6  0.5834  -52.0
 2.540  0.3431  136.7   1.260   37.1  0.1944   51.7  0.5824  -52.4
 2.560  0.3455  135.7   1.253   36.6  0.1959   51.7  0.5814  -52.8
 2.580  0.3480  134.7   1.246   36.0  0.1975   51.8  0.5804  -53.2
 2.600  0.3506  133.7   1.239   35.5  0.1991   51.8  0.5795  -53.6
 2.620  0.3528  132.9   1.232   35.1  0.2008   51.8  0.5781  -54.0
 2.640  0.3550  132.1   1.225   34.6  0.2026   51.8  0.5767  -54.5
 2.660  0.3573  131.3   1.218   34.1  0.2043   51.8  0.5753  -54.9
 2.680  0.3597  130.5   1.212   33.7  0.2061   51.8  0.5740  -55.3
 2.700  0.3621  129.7   1.205   33.2  0.2078   51.9  0.5727  -55.8
 2.720  0.3646  129.0   1.198   32.7  0.2095   51.9  0.5714  -56.2
 2.740  0.3672  128.2   1.192   32.3  0.2113   51.9  0.5702  -56.7
 2.760  0.3698  127.5   1.186   31.8  0.2130   51.9  0.5690  -57.1
 2.780  0.3725  126.7   1.179   31.3  0.2148   51.9  0.5678  -57.6
 2.800  0.3753  126.0   1.173   30.8  0.2165   51.9  0.5667  -58.0
 2.820  0.3772  125.3   1.167   30.3  0.2183   51.9  0.5655  -58.5
 2.840  0.3793  124.5   1.161   29.9  0.2201   51.9  0.5644  -59.0
 2.860  0.3813  123.8   1.154   29.4  0.2218   51.8  0.5632  -59.5
 2.880  0.3835  123.1   1.148   28.9  0.2236   51.8  0.5622  -59.9
 2.900  0.3857  122.3   1.142   28.4  0.2254   51.8  0.5611  -60.4
 2.920  0.3879  121.6   1.137   27.9  0.2272   51.8  0.5601  -60.9
 2.940  0.3902  120.9   1.131   27.4  0.2290   51.8  0.5592  -61.4
 2.960  0.3926  120.3   1.125   26.9  0.2307   51.7  0.5583  -61.9
 2.980  0.3950  119.6   1.120   26.4  0.2325   51.7  0.5574  -62.4
 3.000  0.3975  118.9   1.114   25.9  0.2343   51.7  0.5566  -62.9
 3.100  0.4089  115.6   1.086   24.0  0.2446   51.1  0.5476  -65.7
 3.200  0.4215  112.5   1.058   22.0  0.2549   50.6  0.5399  -68.5
 3.300  0.4352  109.6   1.032   20.0  0.2653   50.1  0.5336  -71.5
 3.400  0.4500  106.9   1.008   17.8  0.2756   49.6  0.5287  -74.5
 3.500  0.4658  104.4   0.985   15.5  0.2860   49.2  0.5253  -77.5
 3.600  0.4755  102.1   0.963   13.9  0.2977   48.3  0.5157  -81.1
 3.700  0.4860  100.0   0.943   12.2  0.3095   47.5  0.5082  -84.7
 3.800  0.4971   97.9   0.923   10.4  0.3213   46.7  0.5029  -88.5
 3.900  0.5088   95.9   0.904    8.6  0.3333   46.0  0.4998  -92.3
 4.000  0.5211   94.0   0.886    6.7  0.3452   45.3  0.4989  -96.2
 4.100  0.5296   92.2   0.869    5.3  0.3577   43.8  0.4886 -100.3
 4.200  0.5386   90.5   0.852    3.9  0.3703   42.4  0.4808 -104.5
 4.300  0.5481   88.8   0.836    2.4  0.3832   41.1  0.4757 -108.9
 4.400  0.5580   87.2   0.821    0.8  0.3963   39.9  0.4735 -113.3
 4.500  0.5683   85.7   0.806   -0.8  0.4095   38.8  0.4740 -117.7
 4.600  0.5752   84.2   0.793   -2.0  0.4205   37.0  0.4655 -122.2
 4.700  0.5824   82.8   0.780   -3.3  0.4319   35.4  0.4600 -126.8
 4.800  0.5900   81.5   0.768   -4.6  0.4436   33.8  0.4575 -131.6
 4.900  0.5979   80.1   0.756   -6.0  0.4556   32.3  0.4582 -136.3
 5.000  0.6061   78.8   0.744   -7.4  0.4679   30.9  0.4620 -141.0
 5.100  0.6132   77.3   0.726   -8.4  0.4732   28.9  0.4468 -145.4
 5.200  0.6208   75.9   0.708   -9.5  0.4790   27.0  0.4344 -150.2
 5.300  0.6287   74.5   0.690  -10.7  0.4853   25.0  0.4252 -155.1
 5.400  0.6370   73.1   0.673  -11.9  0.4922   23.2  0.4193 -160.3
 5.500  0.6456   71.8   0.656  -13.2  0.4996   21.4  0.4168 -165.5
 5.600  0.6444   70.7   0.652  -13.3  0.5108   20.3  0.4311 -168.7
 5.700  0.6435   69.5   0.649  -13.3  0.5223   19.3  0.4467 -171.7
 5.800  0.6429   68.4   0.645  -13.4  0.5338   18.3  0.4634 -174.5
 5.900  0.6424   67.2   0.642  -13.4  0.5455   17.4  0.4811 -177.1
 6.000  0.6423   66.1   0.638  -13.5  0.5574   16.5  0.4998 -179.5
!
!  f       NFmin   Gammaopt  rn/50
! GHz       dB    MAG  ANG    -
!
! noise parameter not available yet for this operation point!
!
! (c) 2015  Infineon Technologies AG, Munich
