! Infineon Technologies  Discrete & RF Semiconductors
! BFR340F
! VCE =  1.5 V,  IC =  9.0 mA
! Common Emitter S-Parameters:                            Nov 2015
# GHz  S  MA  R  50
!  f         S11            S21            S12            S22
! GHz     MAG   ANG      MAG   ANG      MAG   ANG      MAG   ANG
 0.030  0.8044   -5.9  16.262  176.0  0.0039   85.2  0.9610   -2.3
 0.035  0.8043   -7.1  16.239  175.1  0.0045   85.6  0.9605   -2.7
 0.040  0.8046   -8.2  16.221  174.2  0.0052   85.9  0.9601   -3.1
 0.045  0.8003   -9.2  16.171  173.3  0.0058   84.7  0.9592   -3.6
 0.050  0.7962  -10.2  16.126  172.3  0.0065   83.7  0.9583   -4.1
 0.055  0.7989  -11.2  16.099  171.8  0.0071   83.9  0.9575   -4.5
 0.060  0.8018  -12.2  16.074  171.2  0.0077   84.0  0.9567   -4.9
 0.065  0.7979  -13.1  16.105  170.3  0.0084   83.5  0.9555   -5.3
 0.070  0.7943  -14.1  16.139  169.5  0.0091   83.1  0.9543   -5.7
 0.075  0.7942  -15.0  16.087  169.0  0.0097   82.0  0.9527   -6.1
 0.080  0.7943  -16.0  16.036  168.4  0.0103   81.1  0.9512   -6.6
 0.085  0.7927  -17.0  16.005  167.7  0.0108   81.3  0.9495   -7.0
 0.090  0.7913  -18.1  15.977  167.0  0.0114   81.4  0.9478   -7.4
 0.095  0.7897  -18.9  15.896  166.3  0.0120   80.9  0.9459   -7.8
 0.100  0.7883  -19.8  15.817  165.5  0.0127   80.5  0.9441   -8.2
 0.105  0.7868  -20.8  15.790  164.9  0.0133   80.0  0.9418   -8.5
 0.110  0.7856  -21.8  15.765  164.2  0.0139   79.5  0.9396   -8.9
 0.115  0.7829  -22.7  15.734  163.5  0.0144   78.7  0.9375   -9.3
 0.120  0.7803  -23.6  15.705  162.7  0.0150   77.9  0.9354   -9.8
 0.125  0.7779  -24.6  15.647  162.1  0.0155   77.7  0.9329  -10.1
 0.130  0.7757  -25.6  15.592  161.4  0.0161   77.5  0.9305  -10.5
 0.135  0.7719  -26.6  15.555  160.7  0.0167   77.0  0.9278  -10.8
 0.140  0.7683  -27.6  15.521  160.0  0.0173   76.6  0.9251  -11.2
 0.145  0.7660  -28.5  15.440  159.3  0.0178   76.1  0.9224  -11.5
 0.150  0.7639  -29.5  15.362  158.5  0.0184   75.7  0.9198  -11.9
 0.155  0.7604  -30.4  15.293  157.9  0.0189   75.2  0.9167  -12.2
 0.160  0.7571  -31.2  15.226  157.3  0.0194   74.8  0.9136  -12.5
 0.165  0.7539  -32.1  15.160  156.6  0.0200   74.4  0.9105  -12.9
 0.170  0.7510  -33.0  15.097  156.0  0.0205   74.0  0.9075  -13.2
 0.175  0.7482  -33.9  15.035  155.4  0.0210   73.6  0.9045  -13.5
 0.180  0.7456  -34.8  14.975  154.7  0.0215   73.3  0.9015  -13.9
 0.185  0.7432  -35.7  14.917  154.1  0.0220   72.9  0.8986  -14.2
 0.190  0.7409  -36.6  14.861  153.4  0.0226   72.6  0.8956  -14.5
 0.195  0.7389  -37.5  14.807  152.8  0.0231   72.3  0.8928  -14.9
 0.200  0.7370  -38.4  14.755  152.1  0.0236   72.0  0.8899  -15.2
 0.220  0.7223  -41.6  14.451  149.8  0.0254   70.4  0.8766  -16.3
 0.240  0.7100  -45.0  14.171  147.4  0.0273   69.0  0.8636  -17.4
 0.260  0.6976  -48.2  13.878  145.2  0.0290   67.8  0.8503  -18.5
 0.280  0.6847  -51.2  13.568  143.1  0.0307   66.6  0.8366  -19.4
 0.300  0.6738  -54.4  13.276  140.9  0.0323   65.5  0.8231  -20.4
 0.320  0.6598  -57.2  12.965  139.0  0.0337   64.5  0.8098  -21.2
 0.340  0.6475  -60.2  12.669  137.1  0.0351   63.5  0.7966  -22.0
 0.360  0.6354  -63.0  12.374  135.3  0.0364   62.7  0.7838  -22.7
 0.380  0.6232  -65.6  12.078  133.5  0.0376   61.9  0.7714  -23.2
 0.400  0.6124  -68.3  11.793  131.7  0.0388   61.2  0.7590  -23.8
 0.420  0.5999  -70.7  11.513  130.2  0.0399   60.5  0.7474  -24.3
 0.440  0.5886  -73.2  11.241  128.6  0.0410   59.9  0.7358  -24.9
 0.450  0.5833  -74.5  11.108  127.8  0.0416   59.6  0.7301  -25.2
 0.460  0.5778  -75.6  10.977  127.1  0.0421   59.3  0.7247  -25.4
 0.480  0.5674  -78.0  10.720  125.7  0.0431   58.8  0.7139  -25.8
 0.500  0.5580  -80.4  10.469  124.3  0.0441   58.3  0.7031  -26.2
 0.520  0.5479  -82.4  10.233  123.2  0.0449   57.9  0.6940  -26.5
 0.540  0.5384  -84.4  10.001  122.0  0.0458   57.6  0.6849  -26.7
 0.560  0.5296  -86.5   9.774  120.7  0.0466   57.2  0.6758  -27.0
 0.580  0.5216  -88.7   9.552  119.4  0.0475   56.9  0.6667  -27.3
 0.600  0.5143  -90.9   9.335  118.0  0.0483   56.6  0.6576  -27.6
 0.620  0.5062  -92.7   9.137  117.1  0.0490   56.4  0.6502  -27.8
 0.640  0.4987  -94.5   8.942  116.1  0.0498   56.3  0.6427  -27.9
 0.660  0.4916  -96.3   8.750  115.1  0.0505   56.1  0.6353  -28.1
 0.680  0.4851  -98.2   8.560  114.0  0.0513   56.0  0.6279  -28.3
 0.700  0.4791 -100.2   8.374  112.9  0.0520   55.8  0.6205  -28.5
 0.720  0.4728 -101.7   8.209  112.1  0.0527   55.7  0.6146  -28.6
 0.740  0.4669 -103.3   8.045  111.2  0.0533   55.7  0.6086  -28.7
 0.760  0.4614 -104.9   7.884  110.4  0.0540   55.6  0.6027  -28.8
 0.780  0.4562 -106.6   7.724  109.5  0.0546   55.6  0.5967  -28.9
 0.800  0.4514 -108.3   7.566  108.5  0.0553   55.5  0.5908  -29.0
 0.820  0.4465 -109.7   7.429  107.8  0.0559   55.5  0.5860  -29.1
 0.840  0.4418 -111.2   7.293  107.1  0.0565   55.5  0.5812  -29.2
 0.860  0.4374 -112.7   7.158  106.3  0.0572   55.5  0.5765  -29.3
 0.880  0.4334 -114.2   7.025  105.5  0.0578   55.5  0.5717  -29.4
 0.900  0.4296 -115.7   6.893  104.7  0.0584   55.5  0.5669  -29.5
 0.920  0.4256 -117.0   6.777  104.1  0.0590   55.6  0.5630  -29.5
 0.940  0.4219 -118.3   6.662  103.4  0.0596   55.7  0.5590  -29.6
 0.960  0.4183 -119.7   6.547  102.8  0.0603   55.7  0.5551  -29.6
 0.980  0.4151 -121.0   6.434  102.1  0.0609   55.8  0.5511  -29.7
 1.000  0.4120 -122.4   6.321  101.4  0.0615   55.9  0.5472  -29.7
 1.020  0.4091 -123.5   6.221  100.8  0.0621   56.0  0.5440  -29.8
 1.040  0.4063 -124.7   6.121  100.3  0.0627   56.1  0.5409  -29.8
 1.060  0.4038 -125.8   6.023   99.7  0.0633   56.1  0.5377  -29.9
 1.080  0.4013 -127.0   5.924   99.0  0.0639   56.2  0.5346  -29.9
 1.100  0.3991 -128.2   5.827   98.4  0.0645   56.3  0.5314  -30.0
 1.120  0.3967 -129.3   5.741   97.9  0.0651   56.4  0.5286  -30.1
 1.140  0.3944 -130.4   5.656   97.4  0.0657   56.5  0.5258  -30.1
 1.160  0.3922 -131.5   5.570   96.8  0.0662   56.7  0.5231  -30.2
 1.180  0.3902 -132.7   5.486   96.3  0.0668   56.8  0.5203  -30.2
 1.200  0.3884 -133.8   5.402   95.7  0.0674   56.9  0.5175  -30.3
 1.220  0.3867 -134.8   5.327   95.2  0.0680   57.0  0.5154  -30.4
 1.240  0.3850 -135.7   5.253   94.8  0.0686   57.2  0.5133  -30.5
 1.260  0.3835 -136.7   5.179   94.3  0.0692   57.3  0.5111  -30.5
 1.280  0.3821 -137.7   5.106   93.8  0.0698   57.5  0.5090  -30.6
 1.300  0.3808 -138.7   5.033   93.3  0.0704   57.6  0.5069  -30.7
 1.320  0.3795 -139.6   4.968   92.8  0.0710   57.7  0.5050  -30.8
 1.340  0.3783 -140.5   4.902   92.4  0.0716   57.9  0.5030  -30.9
 1.360  0.3772 -141.4   4.838   91.9  0.0722   58.0  0.5011  -30.9
 1.380  0.3762 -142.4   4.773   91.4  0.0728   58.2  0.4991  -31.0
 1.400  0.3753 -143.3   4.709   90.9  0.0734   58.3  0.4972  -31.1
 1.420  0.3740 -144.1   4.653   90.5  0.0740   58.4  0.4957  -31.2
 1.440  0.3728 -145.0   4.596   90.1  0.0746   58.6  0.4942  -31.3
 1.460  0.3717 -145.9   4.540   89.7  0.0753   58.7  0.4927  -31.3
 1.480  0.3707 -146.7   4.485   89.2  0.0759   58.9  0.4912  -31.4
 1.500  0.3697 -147.6   4.429   88.8  0.0765   59.0  0.4897  -31.5
 1.520  0.3690 -148.4   4.378   88.4  0.0771   59.1  0.4883  -31.6
 1.540  0.3684 -149.2   4.327   88.0  0.0777   59.2  0.4869  -31.7
 1.560  0.3679 -149.9   4.276   87.6  0.0784   59.4  0.4855  -31.8
 1.580  0.3674 -150.7   4.225   87.1  0.0790   59.5  0.4841  -31.9
 1.600  0.3670 -151.5   4.175   86.7  0.0796   59.6  0.4827  -32.0
 1.620  0.3662 -152.2   4.129   86.3  0.0802   59.7  0.4817  -32.1
 1.640  0.3654 -152.9   4.084   86.0  0.0808   59.9  0.4806  -32.2
 1.660  0.3647 -153.6   4.039   85.6  0.0815   60.0  0.4796  -32.4
 1.680  0.3641 -154.3   3.994   85.2  0.0821   60.2  0.4785  -32.5
 1.700  0.3635 -155.0   3.949   84.8  0.0827   60.3  0.4775  -32.6
 1.720  0.3632 -155.6   3.908   84.5  0.0833   60.4  0.4766  -32.7
 1.740  0.3630 -156.2   3.867   84.1  0.0840   60.6  0.4757  -32.8
 1.760  0.3628 -156.8   3.827   83.7  0.0846   60.7  0.4747  -32.9
 1.780  0.3626 -157.4   3.786   83.4  0.0853   60.9  0.4738  -33.0
 1.800  0.3625 -158.0   3.746   83.0  0.0859   61.0  0.4729  -33.1
 1.820  0.3620 -158.7   3.710   82.7  0.0866   61.1  0.4721  -33.2
 1.840  0.3616 -159.3   3.674   82.3  0.0872   61.2  0.4712  -33.4
 1.860  0.3612 -160.0   3.639   82.0  0.0879   61.4  0.4704  -33.5
 1.880  0.3609 -160.6   3.603   81.7  0.0885   61.5  0.4695  -33.7
 1.900  0.3606 -161.3   3.568   81.3  0.0892   61.6  0.4687  -33.8
 1.920  0.3604 -161.8   3.535   81.0  0.0898   61.7  0.4682  -33.9
 1.940  0.3603 -162.3   3.502   80.6  0.0905   61.9  0.4677  -34.0
 1.960  0.3602 -162.9   3.470   80.3  0.0911   62.0  0.4671  -34.1
 1.980  0.3601 -163.4   3.437   80.0  0.0918   62.2  0.4666  -34.2
 2.000  0.3600 -163.9   3.405   79.6  0.0924   62.3  0.4661  -34.3
 2.020  0.3597 -164.4   3.376   79.3  0.0931   62.4  0.4656  -34.4
 2.040  0.3594 -165.0   3.347   79.0  0.0938   62.5  0.4651  -34.6
 2.060  0.3592 -165.5   3.318   78.7  0.0944   62.6  0.4645  -34.7
 2.080  0.3590 -166.1   3.289   78.4  0.0951   62.8  0.4640  -34.9
 2.100  0.3588 -166.6   3.260   78.1  0.0958   62.9  0.4635  -35.0
 2.120  0.3586 -167.2   3.231   77.7  0.0965   63.0  0.4630  -35.2
 2.140  0.3585 -167.7   3.202   77.4  0.0972   63.1  0.4625  -35.3
 2.160  0.3585 -168.3   3.174   77.1  0.0978   63.2  0.4620  -35.5
 2.180  0.3584 -168.8   3.145   76.7  0.0985   63.3  0.4615  -35.6
 2.200  0.3584 -169.4   3.117   76.4  0.0992   63.4  0.4610  -35.8
 2.220  0.3584 -169.9   3.093   76.1  0.0999   63.5  0.4606  -35.9
 2.240  0.3585 -170.3   3.069   75.8  0.1006   63.6  0.4602  -36.1
 2.260  0.3586 -170.8   3.045   75.5  0.1013   63.7  0.4598  -36.2
 2.280  0.3587 -171.2   3.022   75.3  0.1020   63.8  0.4594  -36.4
 2.300  0.3588 -171.7   2.998   75.0  0.1026   63.9  0.4590  -36.5
 2.320  0.3590 -172.1   2.974   74.7  0.1033   64.0  0.4586  -36.6
 2.340  0.3591 -172.6   2.951   74.4  0.1040   64.1  0.4582  -36.8
 2.360  0.3593 -173.0   2.928   74.0  0.1047   64.2  0.4579  -36.9
 2.380  0.3596 -173.5   2.904   73.7  0.1054   64.3  0.4575  -37.1
 2.400  0.3598 -173.9   2.881   73.4  0.1061   64.4  0.4571  -37.2
 2.420  0.3598 -174.3   2.860   73.1  0.1068   64.5  0.4568  -37.4
 2.440  0.3598 -174.8   2.840   72.9  0.1075   64.6  0.4565  -37.5
 2.460  0.3598 -175.2   2.819   72.6  0.1083   64.7  0.4562  -37.7
 2.480  0.3598 -175.6   2.799   72.3  0.1090   64.8  0.4559  -37.9
 2.500  0.3599 -176.1   2.778   72.1  0.1097   64.9  0.4555  -38.0
 2.520  0.3600 -176.5   2.758   71.8  0.1104   65.0  0.4553  -38.2
 2.540  0.3601 -176.9   2.737   71.5  0.1111   65.0  0.4550  -38.4
 2.560  0.3602 -177.3   2.717   71.2  0.1119   65.1  0.4547  -38.6
 2.580  0.3603 -177.8   2.697   70.9  0.1126   65.2  0.4544  -38.7
 2.600  0.3605 -178.2   2.677   70.6  0.1133   65.3  0.4541  -38.9
 2.620  0.3606 -178.6   2.659   70.3  0.1140   65.4  0.4539  -39.1
 2.640  0.3606 -178.9   2.642   70.1  0.1148   65.4  0.4538  -39.3
 2.660  0.3607 -179.3   2.624   69.8  0.1155   65.5  0.4537  -39.4
 2.680  0.3608 -179.7   2.606   69.6  0.1162   65.6  0.4535  -39.6
 2.700  0.3609  179.9   2.589   69.3  0.1169   65.7  0.4534  -39.8
 2.720  0.3610  179.6   2.571   69.0  0.1177   65.7  0.4533  -40.0
 2.740  0.3612  179.2   2.554   68.7  0.1184   65.8  0.4531  -40.2
 2.760  0.3613  178.8   2.537   68.5  0.1191   65.9  0.4530  -40.3
 2.780  0.3615  178.5   2.519   68.2  0.1199   65.9  0.4529  -40.5
 2.800  0.3617  178.1   2.502   67.9  0.1206   66.0  0.4528  -40.7
 2.820  0.3618  177.8   2.486   67.7  0.1213   66.1  0.4528  -40.9
 2.840  0.3618  177.4   2.471   67.4  0.1221   66.1  0.4528  -41.0
 2.860  0.3619  177.1   2.455   67.2  0.1228   66.2  0.4529  -41.2
 2.880  0.3620  176.7   2.440   66.9  0.1236   66.3  0.4529  -41.4
 2.900  0.3621  176.4   2.424   66.7  0.1243   66.4  0.4530  -41.6
 2.920  0.3622  176.1   2.409   66.4  0.1251   66.4  0.4530  -41.7
 2.940  0.3623  175.7   2.394   66.2  0.1258   66.5  0.4530  -41.9
 2.960  0.3625  175.4   2.378   65.9  0.1266   66.6  0.4531  -42.1
 2.980  0.3626  175.0   2.363   65.7  0.1273   66.6  0.4531  -42.2
 3.000  0.3628  174.7   2.348   65.4  0.1281   66.7  0.4532  -42.4
 3.100  0.3622  173.1   2.286   64.4  0.1321   67.0  0.4542  -43.2
 3.200  0.3618  171.5   2.225   63.3  0.1360   67.2  0.4553  -44.1
 3.300  0.3618  169.9   2.164   62.1  0.1400   67.5  0.4564  -44.9
 3.400  0.3620  168.3   2.105   60.9  0.1439   67.7  0.4577  -45.8
 3.500  0.3625  166.7   2.046   59.6  0.1479   67.9  0.4591  -46.6
 3.600  0.3621  165.2   2.001   58.6  0.1521   68.1  0.4604  -47.3
 3.700  0.3620  163.7   1.956   57.6  0.1563   68.2  0.4617  -48.1
 3.800  0.3622  162.1   1.912   56.6  0.1605   68.3  0.4631  -48.8
 3.900  0.3625  160.6   1.869   55.5  0.1647   68.5  0.4646  -49.6
 4.000  0.3632  159.1   1.826   54.3  0.1689   68.6  0.4662  -50.3
 4.100  0.3644  157.7   1.792   53.4  0.1734   68.6  0.4659  -51.2
 4.200  0.3658  156.3   1.758   52.5  0.1779   68.7  0.4657  -52.1
 4.300  0.3674  154.9   1.724   51.5  0.1825   68.7  0.4656  -52.9
 4.400  0.3692  153.6   1.691   50.5  0.1870   68.8  0.4657  -53.8
 4.500  0.3712  152.2   1.659   49.4  0.1915   68.8  0.4658  -54.7
 4.600  0.3730  150.7   1.632   48.5  0.1963   68.8  0.4647  -55.7
 4.700  0.3751  149.3   1.606   47.5  0.2010   68.8  0.4638  -56.8
 4.800  0.3774  147.8   1.581   46.6  0.2058   68.7  0.4630  -57.8
 4.900  0.3799  146.4   1.556   45.5  0.2105   68.7  0.4624  -58.9
 5.000  0.3827  145.0   1.531   44.5  0.2153   68.7  0.4619  -59.9
 5.100  0.3849  143.5   1.509   43.6  0.2204   68.6  0.4607  -60.9
 5.200  0.3873  142.1   1.487   42.7  0.2255   68.4  0.4596  -61.9
 5.300  0.3899  140.6   1.465   41.8  0.2306   68.3  0.4587  -62.9
 5.400  0.3929  139.2   1.444   40.8  0.2357   68.2  0.4579  -63.9
 5.500  0.3960  137.8   1.423   39.8  0.2408   68.1  0.4572  -64.9
 5.600  0.3986  136.4   1.404   39.0  0.2465   67.9  0.4553  -66.1
 5.700  0.4015  135.1   1.386   38.1  0.2522   67.7  0.4536  -67.2
 5.800  0.4046  133.8   1.367   37.3  0.2578   67.5  0.4521  -68.4
 5.900  0.4079  132.5   1.350   36.4  0.2635   67.3  0.4508  -69.6
 6.000  0.4114  131.2   1.332   35.5  0.2692   67.1  0.4497  -70.8
!
!  f       NFmin   Gammaopt  rn/50
! GHz       dB    MAG  ANG    -
 0.450      1.39  0.29    0   0.28
 0.900      1.47  0.28   10   0.31
 1.900      1.87  0.14    0   0.29
 2.400      2.10  0.08   -1   0.30
!
! (c) 2015  Infineon Technologies AG, Munich
