! Infineon Technologies  Discrete & RF Semiconductors
! BFR35AP
! VCE =  8.0 V,  IC =  1.5 mA
! Common Emitter S-Parameters:                            Nov 2015
# GHz  S  MA  R  50
!  f         S11            S21            S12            S22
! GHz     MAG   ANG      MAG   ANG      MAG   ANG      MAG   ANG
 0.010  0.9424   -1.6   5.053  178.9  0.0022   91.3  0.9999   -0.6
 0.015  0.9416   -2.3   5.051  178.0  0.0035   89.3  0.9971   -0.9
 0.020  0.9410   -3.0   5.051  177.1  0.0049   88.4  0.9944   -1.3
 0.025  0.9414   -3.8   5.042  176.5  0.0061   87.2  0.9944   -1.6
 0.030  0.9420   -4.6   5.034  175.9  0.0073   86.5  0.9945   -1.9
 0.035  0.9427   -5.4   5.026  175.3  0.0085   85.9  0.9945   -2.2
 0.040  0.9437   -6.2   5.019  174.6  0.0098   85.5  0.9946   -2.5
 0.045  0.9448   -7.0   5.013  174.0  0.0110   85.2  0.9947   -2.8
 0.050  0.9461   -7.8   5.007  173.4  0.0122   84.9  0.9949   -3.1
 0.055  0.9430   -8.5   5.004  172.8  0.0135   84.2  0.9935   -3.4
 0.060  0.9400   -9.3   5.001  172.1  0.0147   83.6  0.9921   -3.7
 0.065  0.9371  -10.0   4.999  171.5  0.0160   83.1  0.9908   -4.0
 0.070  0.9345  -10.8   4.998  170.8  0.0172   82.7  0.9895   -4.3
 0.075  0.9320  -11.5   4.997  170.2  0.0185   82.3  0.9882   -4.6
 0.080  0.9296  -12.3   4.997  169.5  0.0198   82.0  0.9870   -5.0
 0.085  0.9274  -13.0   4.998  168.8  0.0210   81.7  0.9858   -5.3
 0.090  0.9254  -13.8   4.999  168.2  0.0223   81.4  0.9846   -5.6
 0.095  0.9235  -14.5   5.001  167.5  0.0235   81.2  0.9834   -5.9
 0.100  0.9218  -15.3   5.004  166.9  0.0248   81.0  0.9823   -6.2
 0.105  0.9191  -16.0   4.987  166.2  0.0259   80.3  0.9810   -6.5
 0.110  0.9166  -16.8   4.971  165.5  0.0270   79.7  0.9797   -6.8
 0.115  0.9143  -17.5   4.955  164.8  0.0282   79.1  0.9785   -7.1
 0.120  0.9121  -18.3   4.941  164.0  0.0293   78.6  0.9773   -7.4
 0.125  0.9100  -19.1   4.927  163.3  0.0304   78.1  0.9761   -7.7
 0.130  0.9082  -19.8   4.914  162.6  0.0316   77.6  0.9749   -8.0
 0.135  0.9065  -20.6   4.902  161.8  0.0327   77.2  0.9738   -8.3
 0.140  0.9049  -21.4   4.890  161.1  0.0338   76.8  0.9726   -8.6
 0.145  0.9035  -22.1   4.880  160.3  0.0350   76.4  0.9716   -8.9
 0.150  0.9023  -22.9   4.870  159.6  0.0361   76.1  0.9705   -9.2
 0.155  0.8995  -23.6   4.857  159.0  0.0372   75.6  0.9688   -9.5
 0.160  0.8967  -24.3   4.845  158.4  0.0382   75.1  0.9671   -9.7
 0.165  0.8942  -25.0   4.833  157.8  0.0393   74.6  0.9654  -10.0
 0.170  0.8917  -25.7   4.822  157.2  0.0404   74.2  0.9637  -10.2
 0.175  0.8894  -26.4   4.811  156.6  0.0415   73.8  0.9621  -10.5
 0.180  0.8872  -27.1   4.801  156.0  0.0426   73.4  0.9605  -10.7
 0.185  0.8852  -27.8   4.791  155.4  0.0436   73.0  0.9589  -11.0
 0.190  0.8833  -28.6   4.782  154.7  0.0447   72.7  0.9573  -11.3
 0.195  0.8815  -29.3   4.774  154.1  0.0458   72.3  0.9557  -11.5
 0.200  0.8799  -30.0   4.766  153.5  0.0469   72.0  0.9542  -11.8
 0.220  0.8658  -33.0   4.731  151.0  0.0508   70.4  0.9460  -12.8
 0.240  0.8542  -36.1   4.705  148.4  0.0547   69.0  0.9380  -13.9
 0.260  0.8410  -39.0   4.653  146.0  0.0585   67.7  0.9292  -14.9
 0.280  0.8253  -41.5   4.572  143.7  0.0620   66.3  0.9195  -15.8
 0.300  0.8114  -44.2   4.498  141.3  0.0656   65.1  0.9100  -16.8
 0.320  0.7948  -46.4   4.409  139.5  0.0685   63.7  0.9008  -17.5
 0.340  0.7795  -48.8   4.324  137.7  0.0713   62.4  0.8918  -18.2
 0.360  0.7655  -51.2   4.243  135.8  0.0743   61.2  0.8829  -18.9
 0.380  0.7530  -53.7   4.168  133.8  0.0772   60.1  0.8742  -19.7
 0.400  0.7419  -56.3   4.097  131.8  0.0802   59.1  0.8656  -20.4
 0.420  0.7248  -58.4   4.016  129.9  0.0825   58.1  0.8566  -21.0
 0.440  0.7087  -60.6   3.938  128.0  0.0849   57.1  0.8476  -21.6
 0.450  0.7011  -61.7   3.902  127.0  0.0861   56.6  0.8432  -21.9
 0.460  0.6938  -62.9   3.866  126.0  0.0873   56.1  0.8388  -22.2
 0.480  0.6800  -65.3   3.798  123.9  0.0897   55.2  0.8301  -22.8
 0.500  0.6674  -67.8   3.736  121.8  0.0921   54.4  0.8214  -23.4
 0.520  0.6524  -69.9   3.675  120.3  0.0937   53.6  0.8133  -23.9
 0.540  0.6383  -72.0   3.616  118.7  0.0954   52.8  0.8053  -24.3
 0.560  0.6252  -74.2   3.561  117.1  0.0971   52.0  0.7973  -24.8
 0.580  0.6130  -76.6   3.508  115.4  0.0988   51.2  0.7894  -25.3
 0.600  0.6019  -79.0   3.458  113.7  0.1005   50.5  0.7815  -25.8
 0.620  0.5910  -80.7   3.397  112.4  0.1018   50.0  0.7748  -26.1
 0.640  0.5807  -82.5   3.338  111.1  0.1031   49.5  0.7681  -26.5
 0.660  0.5710  -84.4   3.281  109.7  0.1044   49.0  0.7615  -26.9
 0.680  0.5619  -86.3   3.225  108.3  0.1057   48.5  0.7549  -27.2
 0.700  0.5534  -88.3   3.172  106.8  0.1070   48.0  0.7483  -27.6
 0.720  0.5417  -90.0   3.114  105.6  0.1081   47.6  0.7427  -27.9
 0.740  0.5306  -91.8   3.057  104.3  0.1093   47.1  0.7371  -28.2
 0.760  0.5199  -93.7   3.001  103.0  0.1105   46.7  0.7315  -28.5
 0.780  0.5099  -95.7   2.947  101.7  0.1116   46.3  0.7259  -28.8
 0.800  0.5005  -97.7   2.895  100.3  0.1128   45.9  0.7204  -29.1
 0.820  0.4914  -99.3   2.846   99.2  0.1139   45.6  0.7164  -29.4
 0.840  0.4827 -100.9   2.799   98.1  0.1150   45.3  0.7125  -29.6
 0.860  0.4744 -102.6   2.752   97.0  0.1162   45.0  0.7085  -29.9
 0.880  0.4665 -104.4   2.706   95.8  0.1173   44.7  0.7046  -30.1
 0.900  0.4591 -106.2   2.662   94.6  0.1184   44.4  0.7007  -30.4
 0.920  0.4509 -107.9   2.626   93.6  0.1191   44.2  0.6970  -30.7
 0.940  0.4431 -109.7   2.591   92.5  0.1199   44.0  0.6933  -30.9
 0.960  0.4357 -111.5   2.557   91.4  0.1206   43.9  0.6896  -31.2
 0.980  0.4288 -113.4   2.523   90.3  0.1214   43.7  0.6859  -31.4
 1.000  0.4224 -115.4   2.491   89.2  0.1221   43.5  0.6822  -31.7
 1.020  0.4157 -117.1   2.460   88.3  0.1229   43.4  0.6788  -32.0
 1.040  0.4094 -118.8   2.429   87.4  0.1236   43.4  0.6755  -32.3
 1.060  0.4035 -120.6   2.400   86.4  0.1244   43.3  0.6722  -32.5
 1.080  0.3980 -122.5   2.370   85.4  0.1251   43.3  0.6689  -32.8
 1.100  0.3929 -124.4   2.342   84.4  0.1259   43.2  0.6656  -33.1
 1.120  0.3868 -126.1   2.311   83.5  0.1265   43.2  0.6626  -33.3
 1.140  0.3811 -127.8   2.281   82.6  0.1271   43.1  0.6596  -33.6
 1.160  0.3758 -129.6   2.252   81.7  0.1278   43.1  0.6566  -33.8
 1.180  0.3709 -131.5   2.223   80.8  0.1284   43.0  0.6537  -34.1
 1.200  0.3663 -133.4   2.195   79.8  0.1290   43.0  0.6507  -34.3
 1.220  0.3625 -135.0   2.167   79.0  0.1298   43.1  0.6483  -34.5
 1.240  0.3590 -136.6   2.140   78.2  0.1306   43.1  0.6459  -34.8
 1.260  0.3558 -138.2   2.113   77.4  0.1314   43.2  0.6435  -35.0
 1.280  0.3529 -139.9   2.086   76.6  0.1322   43.2  0.6411  -35.3
 1.300  0.3503 -141.6   2.060   75.7  0.1330   43.3  0.6387  -35.5
 1.320  0.3459 -143.2   2.036   74.9  0.1336   43.4  0.6367  -35.7
 1.340  0.3418 -144.8   2.012   74.1  0.1342   43.5  0.6347  -36.0
 1.360  0.3380 -146.5   1.989   73.3  0.1349   43.5  0.6327  -36.2
 1.380  0.3345 -148.2   1.966   72.5  0.1355   43.6  0.6308  -36.5
 1.400  0.3313 -150.0   1.943   71.6  0.1361   43.7  0.6288  -36.7
 1.420  0.3298 -151.5   1.925   70.9  0.1369   43.8  0.6268  -36.9
 1.440  0.3285 -153.1   1.907   70.2  0.1377   43.9  0.6247  -37.2
 1.460  0.3275 -154.6   1.889   69.5  0.1384   44.1  0.6227  -37.4
 1.480  0.3267 -156.1   1.871   68.8  0.1392   44.2  0.6207  -37.7
 1.500  0.3262 -157.7   1.854   68.1  0.1400   44.3  0.6187  -37.9
 1.520  0.3241 -159.5   1.832   67.3  0.1408   44.4  0.6169  -38.2
 1.540  0.3224 -161.3   1.810   66.5  0.1416   44.5  0.6152  -38.4
 1.560  0.3210 -163.1   1.788   65.7  0.1425   44.7  0.6134  -38.7
 1.580  0.3199 -164.9   1.767   64.9  0.1433   44.8  0.6117  -38.9
 1.600  0.3191 -166.7   1.746   64.0  0.1441   44.9  0.6100  -39.2
 1.620  0.3182 -168.2   1.730   63.4  0.1450   45.0  0.6086  -39.5
 1.640  0.3174 -169.6   1.714   62.8  0.1459   45.1  0.6073  -39.8
 1.660  0.3169 -171.1   1.699   62.2  0.1468   45.3  0.6060  -40.2
 1.680  0.3166 -172.6   1.683   61.5  0.1477   45.4  0.6047  -40.5
 1.700  0.3165 -174.1   1.668   60.9  0.1486   45.5  0.6034  -40.8
 1.720  0.3153 -175.6   1.655   60.3  0.1497   45.6  0.6024  -41.1
 1.740  0.3144 -177.1   1.642   59.7  0.1508   45.7  0.6014  -41.3
 1.760  0.3136 -178.6   1.629   59.0  0.1519   45.9  0.6004  -41.6
 1.780  0.3131  179.9   1.616   58.4  0.1530   46.0  0.5995  -41.8
 1.800  0.3128  178.4   1.604   57.7  0.1541   46.1  0.5985  -42.1
 1.820  0.3127  177.0   1.592   57.0  0.1551   46.3  0.5972  -42.5
 1.840  0.3127  175.5   1.581   56.3  0.1561   46.4  0.5959  -42.8
 1.860  0.3130  174.1   1.570   55.6  0.1570   46.6  0.5946  -43.2
 1.880  0.3134  172.6   1.559   54.9  0.1580   46.7  0.5934  -43.5
 1.900  0.3141  171.2   1.548   54.2  0.1590   46.9  0.5922  -43.9
 1.920  0.3142  169.8   1.535   53.6  0.1602   47.0  0.5908  -44.2
 1.940  0.3146  168.4   1.522   53.0  0.1614   47.1  0.5893  -44.5
 1.960  0.3151  167.0   1.509   52.4  0.1627   47.2  0.5879  -44.7
 1.980  0.3157  165.7   1.496   51.7  0.1639   47.3  0.5865  -45.0
 2.000  0.3166  164.3   1.484   51.1  0.1651   47.4  0.5851  -45.3
 2.020  0.3172  163.1   1.472   50.6  0.1663   47.5  0.5838  -45.7
 2.040  0.3179  162.0   1.460   50.0  0.1676   47.7  0.5825  -46.0
 2.060  0.3188  160.8   1.448   49.4  0.1688   47.8  0.5812  -46.4
 2.080  0.3198  159.6   1.436   48.9  0.1700   47.9  0.5799  -46.8
 2.100  0.3209  158.5   1.424   48.3  0.1712   48.0  0.5787  -47.1
 2.120  0.3222  157.4   1.413   47.7  0.1725   48.1  0.5775  -47.5
 2.140  0.3235  156.2   1.401   47.1  0.1737   48.3  0.5763  -47.9
 2.160  0.3250  155.1   1.390   46.5  0.1749   48.4  0.5751  -48.2
 2.180  0.3267  154.0   1.379   45.8  0.1762   48.5  0.5740  -48.6
 2.200  0.3284  152.9   1.368   45.2  0.1774   48.6  0.5729  -49.0
 2.220  0.3296  151.7   1.360   44.7  0.1788   48.7  0.5714  -49.4
 2.240  0.3310  150.5   1.353   44.1  0.1803   48.8  0.5700  -49.8
 2.260  0.3325  149.4   1.346   43.6  0.1817   48.9  0.5686  -50.2
 2.280  0.3342  148.2   1.338   43.0  0.1831   49.0  0.5672  -50.6
 2.300  0.3360  147.1   1.331   42.4  0.1845   49.1  0.5658  -51.0
 2.320  0.3379  146.0   1.324   41.9  0.1860   49.2  0.5645  -51.4
 2.340  0.3399  144.9   1.318   41.3  0.1874   49.3  0.5632  -51.8
 2.360  0.3421  143.8   1.311   40.7  0.1888   49.4  0.5619  -52.2
 2.380  0.3444  142.7   1.304   40.1  0.1903   49.5  0.5606  -52.6
 2.400  0.3468  141.6   1.298   39.5  0.1917   49.6  0.5594  -53.0
 2.420  0.3489  140.6   1.289   39.0  0.1934   49.6  0.5581  -53.4
 2.440  0.3511  139.6   1.281   38.6  0.1950   49.7  0.5568  -53.8
 2.460  0.3533  138.6   1.272   38.1  0.1967   49.7  0.5555  -54.2
 2.480  0.3557  137.6   1.264   37.6  0.1984   49.8  0.5543  -54.6
 2.500  0.3582  136.7   1.255   37.1  0.2000   49.8  0.5530  -55.0
 2.520  0.3608  135.7   1.247   36.6  0.2017   49.8  0.5519  -55.4
 2.540  0.3635  134.8   1.239   36.1  0.2034   49.9  0.5507  -55.9
 2.560  0.3663  133.9   1.231   35.6  0.2051   49.9  0.5496  -56.3
 2.580  0.3691  133.0   1.223   35.1  0.2067   50.0  0.5485  -56.7
 2.600  0.3721  132.1   1.215   34.6  0.2084   50.0  0.5474  -57.1
 2.620  0.3736  131.3   1.209   34.1  0.2101   50.0  0.5460  -57.6
 2.640  0.3753  130.5   1.203   33.7  0.2119   50.0  0.5446  -58.0
 2.660  0.3769  129.6   1.197   33.2  0.2136   50.0  0.5432  -58.5
 2.680  0.3787  128.8   1.191   32.7  0.2154   50.0  0.5419  -59.0
 2.700  0.3805  128.1   1.185   32.3  0.2171   49.9  0.5406  -59.5
 2.720  0.3825  127.3   1.180   31.8  0.2189   49.9  0.5394  -60.0
 2.740  0.3844  126.5   1.174   31.3  0.2206   49.9  0.5382  -60.4
 2.760  0.3865  125.7   1.169   30.8  0.2224   49.9  0.5370  -60.9
 2.780  0.3886  125.0   1.163   30.3  0.2241   49.9  0.5359  -61.4
 2.800  0.3908  124.2   1.158   29.8  0.2259   49.9  0.5348  -61.9
 2.820  0.3932  123.5   1.151   29.4  0.2278   49.9  0.5332  -62.4
 2.840  0.3956  122.9   1.145   28.9  0.2297   49.8  0.5317  -62.9
 2.860  0.3980  122.2   1.138   28.4  0.2317   49.8  0.5303  -63.4
 2.880  0.4005  121.6   1.132   28.0  0.2336   49.8  0.5288  -63.9
 2.900  0.4031  120.9   1.126   27.5  0.2355   49.7  0.5275  -64.5
 2.920  0.4057  120.3   1.119   27.0  0.2374   49.7  0.5261  -65.0
 2.940  0.4084  119.7   1.113   26.6  0.2393   49.7  0.5248  -65.5
 2.960  0.4111  119.1   1.107   26.1  0.2413   49.7  0.5236  -66.0
 2.980  0.4138  118.5   1.101   25.6  0.2432   49.6  0.5224  -66.6
 3.000  0.4166  117.9   1.095   25.1  0.2451   49.6  0.5212  -67.1
 3.100  0.4274  114.7   1.067   23.2  0.2554   48.9  0.5119  -70.0
 3.200  0.4394  111.7   1.041   21.2  0.2657   48.3  0.5040  -73.1
 3.300  0.4525  108.9   1.015   19.2  0.2760   47.8  0.4976  -76.2
 3.400  0.4667  106.2   0.991   17.0  0.2864   47.3  0.4927  -79.4
 3.500  0.4819  103.7   0.969   14.7  0.2968   46.8  0.4894  -82.7
 3.600  0.4906  101.5   0.949   13.1  0.3086   45.8  0.4790  -86.5
 3.700  0.5001   99.3   0.929   11.4  0.3204   44.8  0.4708  -90.4
 3.800  0.5102   97.2   0.910    9.7  0.3323   44.0  0.4648  -94.4
 3.900  0.5210   95.2   0.892    7.9  0.3443   43.2  0.4612  -98.5
 4.000  0.5324   93.3   0.875    6.0  0.3564   42.4  0.4600 -102.7
 4.100  0.5406   91.6   0.859    4.6  0.3684   40.9  0.4508 -107.1
 4.200  0.5494   89.9   0.844    3.2  0.3807   39.5  0.4445 -111.7
 4.300  0.5586   88.2   0.830    1.8  0.3932   38.2  0.4410 -116.3
 4.400  0.5682   86.6   0.815    0.3  0.4059   37.0  0.4404 -121.0
 4.500  0.5783   85.1   0.802   -1.3  0.4187   35.8  0.4428 -125.7
 4.600  0.5850   83.7   0.788   -2.5  0.4291   34.1  0.4359 -130.5
 4.700  0.5921   82.3   0.774   -3.8  0.4398   32.4  0.4320 -135.3
 4.800  0.5996   80.9   0.761   -5.1  0.4508   30.9  0.4314 -140.3
 4.900  0.6073   79.6   0.748   -6.4  0.4622   29.4  0.4339 -145.2
 5.000  0.6154   78.3   0.735   -7.8  0.4739   28.0  0.4396 -150.0
 5.100  0.6228   76.9   0.719   -8.9  0.4782   26.1  0.4254 -154.5
 5.200  0.6306   75.5   0.703  -10.0  0.4831   24.2  0.4140 -159.3
 5.300  0.6387   74.2   0.687  -11.2  0.4885   22.3  0.4056 -164.3
 5.400  0.6471   72.9   0.672  -12.5  0.4944   20.5  0.4004 -169.4
 5.500  0.6559   71.6   0.657  -13.8  0.5008   18.7  0.3986 -174.7
 5.600  0.6543   70.5   0.654  -13.9  0.5116   17.7  0.4144 -177.6
 5.700  0.6530   69.5   0.651  -14.0  0.5226   16.7  0.4313  179.6
 5.800  0.6518   68.4   0.649  -14.0  0.5337   15.7  0.4490  177.1
 5.900  0.6510   67.3   0.646  -14.1  0.5450   14.8  0.4676  174.8
 6.000  0.6503   66.2   0.643  -14.2  0.5564   13.9  0.4868  172.7
!
!  f       NFmin   Gammaopt  rn/50
! GHz       dB    MAG  ANG    -
!
! noise parameter not available yet for this operation point!
!
! (c) 2015  Infineon Technologies AG, Munich
