! Infineon Technologies  Discrete & RF Semiconductors
! BFR35AP
! VCE =  12. V,  IC =  1.0 mA
! Common Emitter S-Parameters:                            Nov 2015
# GHz  S  MA  R  50
!  f         S11            S21            S12            S22
! GHz     MAG   ANG      MAG   ANG      MAG   ANG      MAG   ANG
 0.010  0.9707   -1.3   3.346  179.1  0.0022   90.8  0.9999   -0.4
 0.015  0.9691   -1.9   3.336  178.4  0.0033   86.0  0.9978   -0.6
 0.020  0.9676   -2.5   3.326  177.6  0.0045   83.7  0.9958   -0.9
 0.025  0.9680   -3.1   3.339  177.1  0.0057   84.6  0.9959   -1.1
 0.030  0.9686   -3.7   3.352  176.6  0.0069   85.1  0.9961   -1.4
 0.035  0.9692   -4.3   3.365  176.1  0.0081   85.5  0.9962   -1.6
 0.040  0.9699   -4.8   3.378  175.6  0.0094   85.8  0.9964   -1.8
 0.045  0.9708   -5.4   3.392  175.1  0.0106   86.0  0.9966   -2.1
 0.050  0.9717   -6.0   3.406  174.6  0.0118   86.2  0.9968   -2.3
 0.055  0.9696   -6.6   3.401  174.1  0.0129   85.6  0.9962   -2.5
 0.060  0.9676   -7.2   3.397  173.6  0.0141   85.1  0.9956   -2.8
 0.065  0.9656   -7.8   3.392  173.1  0.0152   84.7  0.9951   -3.0
 0.070  0.9638   -8.4   3.388  172.6  0.0163   84.4  0.9945   -3.2
 0.075  0.9621   -9.0   3.385  172.1  0.0174   84.1  0.9940   -3.4
 0.080  0.9605   -9.6   3.381  171.6  0.0186   83.8  0.9935   -3.7
 0.085  0.9591  -10.2   3.378  171.0  0.0197   83.6  0.9930   -3.9
 0.090  0.9577  -10.9   3.375  170.5  0.0208   83.4  0.9925   -4.1
 0.095  0.9564  -11.5   3.372  170.0  0.0220   83.2  0.9920   -4.4
 0.100  0.9553  -12.1   3.370  169.5  0.0231   83.0  0.9916   -4.6
 0.105  0.9537  -12.7   3.366  168.9  0.0242   82.3  0.9908   -4.8
 0.110  0.9522  -13.3   3.362  168.2  0.0253   81.6  0.9900   -5.1
 0.115  0.9508  -13.9   3.359  167.6  0.0264   81.1  0.9892   -5.3
 0.120  0.9495  -14.5   3.356  167.0  0.0275   80.5  0.9884   -5.5
 0.125  0.9483  -15.1   3.353  166.3  0.0286   80.0  0.9877   -5.7
 0.130  0.9472  -15.7   3.351  165.7  0.0297   79.6  0.9870   -6.0
 0.135  0.9462  -16.4   3.349  165.0  0.0308   79.1  0.9863   -6.2
 0.140  0.9453  -17.0   3.348  164.4  0.0320   78.7  0.9856   -6.4
 0.145  0.9446  -17.6   3.347  163.7  0.0331   78.3  0.9849   -6.7
 0.150  0.9439  -18.2   3.347  163.1  0.0342   78.0  0.9842   -6.9
 0.155  0.9416  -18.8   3.344  162.6  0.0353   77.6  0.9832   -7.1
 0.160  0.9395  -19.4   3.341  162.1  0.0364   77.2  0.9822   -7.3
 0.165  0.9374  -20.0   3.339  161.6  0.0374   76.9  0.9813   -7.6
 0.170  0.9355  -20.6   3.336  161.1  0.0385   76.6  0.9803   -7.8
 0.175  0.9336  -21.2   3.334  160.6  0.0396   76.2  0.9794   -8.0
 0.180  0.9319  -21.8   3.333  160.1  0.0407   75.9  0.9784   -8.2
 0.185  0.9302  -22.4   3.331  159.6  0.0417   75.7  0.9775   -8.4
 0.190  0.9287  -23.0   3.330  159.1  0.0428   75.4  0.9766   -8.7
 0.195  0.9272  -23.6   3.329  158.6  0.0439   75.1  0.9758   -8.9
 0.200  0.9259  -24.2   3.328  158.1  0.0450   74.9  0.9749   -9.1
 0.220  0.9189  -26.5   3.284  156.0  0.0490   73.1  0.9698   -9.9
 0.240  0.9133  -28.8   3.245  153.9  0.0530   71.7  0.9650  -10.8
 0.260  0.9058  -31.1   3.210  151.8  0.0569   70.4  0.9598  -11.6
 0.280  0.8960  -33.2   3.178  149.7  0.0607   69.4  0.9544  -12.3
 0.300  0.8876  -35.4   3.150  147.6  0.0646   68.5  0.9491  -13.1
 0.320  0.8731  -37.5   3.120  145.9  0.0677   67.0  0.9425  -13.8
 0.340  0.8599  -39.7   3.093  144.1  0.0708   65.6  0.9361  -14.5
 0.360  0.8479  -41.9   3.069  142.3  0.0740   64.4  0.9298  -15.2
 0.380  0.8372  -44.2   3.049  140.5  0.0772   63.3  0.9237  -16.0
 0.400  0.8280  -46.6   3.031  138.6  0.0804   62.2  0.9177  -16.7
 0.420  0.8149  -48.5   2.983  136.8  0.0829   61.1  0.9108  -17.3
 0.440  0.8027  -50.5   2.938  135.0  0.0855   60.0  0.9040  -17.9
 0.450  0.7969  -51.5   2.916  134.0  0.0868   59.5  0.9007  -18.2
 0.460  0.7915  -52.5   2.896  133.1  0.0881   59.0  0.8973  -18.5
 0.480  0.7813  -54.6   2.857  131.1  0.0907   58.1  0.8908  -19.2
 0.500  0.7721  -56.7   2.822  129.1  0.0934   57.2  0.8843  -19.8
 0.520  0.7599  -58.5   2.782  127.6  0.0957   56.2  0.8788  -20.2
 0.540  0.7486  -60.4   2.743  126.1  0.0980   55.2  0.8733  -20.7
 0.560  0.7381  -62.4   2.707  124.6  0.1003   54.2  0.8679  -21.2
 0.580  0.7284  -64.4   2.672  123.0  0.1027   53.4  0.8626  -21.6
 0.600  0.7197  -66.4   2.640  121.4  0.1051   52.5  0.8573  -22.1
 0.620  0.7080  -68.1   2.608  120.0  0.1067   51.8  0.8517  -22.5
 0.640  0.6969  -69.8   2.577  118.6  0.1084   51.1  0.8461  -23.0
 0.660  0.6865  -71.6   2.548  117.1  0.1101   50.4  0.8406  -23.5
 0.680  0.6767  -73.4   2.521  115.6  0.1118   49.7  0.8351  -23.9
 0.700  0.6677  -75.3   2.495  114.1  0.1135   49.1  0.8297  -24.4
 0.720  0.6553  -77.0   2.460  112.8  0.1149   48.4  0.8244  -24.8
 0.740  0.6436  -78.8   2.427  111.4  0.1163   47.8  0.8191  -25.1
 0.760  0.6325  -80.6   2.395  110.0  0.1177   47.1  0.8138  -25.5
 0.780  0.6220  -82.5   2.365  108.6  0.1192   46.5  0.8086  -25.8
 0.800  0.6122  -84.4   2.336  107.1  0.1206   45.9  0.8034  -26.2
 0.820  0.6005  -86.0   2.307  105.9  0.1215   45.4  0.7983  -26.5
 0.840  0.5894  -87.6   2.279  104.6  0.1224   45.0  0.7933  -26.9
 0.860  0.5787  -89.3   2.253  103.3  0.1233   44.6  0.7883  -27.2
 0.880  0.5685  -91.1   2.227  102.0  0.1242   44.1  0.7833  -27.6
 0.900  0.5589  -92.9   2.203  100.6  0.1251   43.7  0.7783  -27.9
 0.920  0.5503  -94.5   2.175   99.6  0.1258   43.3  0.7744  -28.2
 0.940  0.5421  -96.1   2.148   98.5  0.1264   43.0  0.7705  -28.5
 0.960  0.5344  -97.7   2.122   97.4  0.1271   42.6  0.7666  -28.8
 0.980  0.5271  -99.4   2.097   96.3  0.1278   42.3  0.7627  -29.1
 1.000  0.5203 -101.2   2.072   95.1  0.1285   41.9  0.7589  -29.4
 1.020  0.5126 -102.8   2.048   94.1  0.1291   41.6  0.7556  -29.7
 1.040  0.5052 -104.4   2.025   93.1  0.1297   41.3  0.7524  -30.0
 1.060  0.4983 -106.0   2.003   92.0  0.1304   41.1  0.7492  -30.4
 1.080  0.4918 -107.7   1.981   91.0  0.1310   40.8  0.7460  -30.7
 1.100  0.4857 -109.5   1.960   89.9  0.1316   40.5  0.7428  -31.0
 1.120  0.4791 -111.0   1.936   88.9  0.1321   40.3  0.7401  -31.3
 1.140  0.4729 -112.6   1.913   88.0  0.1326   40.0  0.7373  -31.6
 1.160  0.4670 -114.2   1.890   87.0  0.1332   39.8  0.7346  -31.8
 1.180  0.4616 -115.9   1.868   85.9  0.1337   39.5  0.7320  -32.1
 1.200  0.4565 -117.6   1.847   84.9  0.1342   39.3  0.7293  -32.4
 1.220  0.4507 -119.1   1.827   84.0  0.1347   39.2  0.7269  -32.7
 1.240  0.4452 -120.6   1.806   83.2  0.1353   39.1  0.7246  -32.9
 1.260  0.4400 -122.2   1.787   82.3  0.1358   39.1  0.7222  -33.2
 1.280  0.4351 -123.8   1.768   81.3  0.1364   39.0  0.7199  -33.4
 1.300  0.4306 -125.4   1.749   80.4  0.1369   38.9  0.7176  -33.7
 1.320  0.4249 -126.8   1.730   79.5  0.1372   38.8  0.7156  -34.0
 1.340  0.4195 -128.3   1.712   78.7  0.1375   38.7  0.7136  -34.3
 1.360  0.4144 -129.8   1.694   77.8  0.1377   38.6  0.7116  -34.6
 1.380  0.4096 -131.3   1.676   76.8  0.1380   38.5  0.7096  -34.9
 1.400  0.4051 -132.9   1.659   75.9  0.1383   38.4  0.7077  -35.2
 1.420  0.4015 -134.5   1.646   75.1  0.1387   38.5  0.7056  -35.4
 1.440  0.3982 -136.1   1.633   74.4  0.1391   38.5  0.7035  -35.7
 1.460  0.3952 -137.8   1.620   73.6  0.1395   38.6  0.7014  -35.9
 1.480  0.3926 -139.5   1.608   72.8  0.1399   38.6  0.6994  -36.2
 1.500  0.3903 -141.2   1.596   72.0  0.1403   38.7  0.6973  -36.4
 1.520  0.3858 -143.0   1.579   71.1  0.1407   38.8  0.6954  -36.7
 1.540  0.3818 -144.8   1.563   70.3  0.1410   38.8  0.6935  -37.0
 1.560  0.3781 -146.6   1.547   69.4  0.1414   38.9  0.6917  -37.2
 1.580  0.3748 -148.5   1.532   68.4  0.1417   38.9  0.6898  -37.5
 1.600  0.3719 -150.4   1.517   67.5  0.1421   39.0  0.6880  -37.8
 1.620  0.3684 -152.0   1.507   66.8  0.1425   39.2  0.6855  -38.1
 1.640  0.3652 -153.6   1.497   66.1  0.1429   39.5  0.6831  -38.4
 1.660  0.3623 -155.3   1.488   65.4  0.1432   39.7  0.6807  -38.6
 1.680  0.3597 -157.0   1.479   64.6  0.1436   40.0  0.6783  -38.9
 1.700  0.3574 -158.7   1.470   63.9  0.1440   40.2  0.6759  -39.2
 1.720  0.3553 -160.2   1.459   63.2  0.1446   40.3  0.6747  -39.5
 1.740  0.3535 -161.7   1.448   62.6  0.1452   40.5  0.6736  -39.8
 1.760  0.3520 -163.3   1.437   61.9  0.1458   40.6  0.6724  -40.0
 1.780  0.3506 -164.8   1.426   61.2  0.1464   40.8  0.6713  -40.3
 1.800  0.3496 -166.4   1.416   60.5  0.1470   40.9  0.6702  -40.6
 1.820  0.3489 -168.0   1.405   59.8  0.1475   41.1  0.6690  -40.9
 1.840  0.3485 -169.7   1.395   59.1  0.1479   41.3  0.6679  -41.2
 1.860  0.3483 -171.3   1.384   58.4  0.1484   41.6  0.6667  -41.6
 1.880  0.3485 -173.0   1.374   57.6  0.1488   41.8  0.6656  -41.9
 1.900  0.3489 -174.6   1.364   56.9  0.1493   42.0  0.6645  -42.2
 1.920  0.3480 -176.0   1.352   56.2  0.1501   42.1  0.6633  -42.5
 1.940  0.3473 -177.4   1.339   55.5  0.1509   42.3  0.6622  -42.8
 1.960  0.3468 -178.8   1.327   54.8  0.1517   42.4  0.6610  -43.1
 1.980  0.3466  179.8   1.316   54.1  0.1525   42.6  0.6599  -43.4
 2.000  0.3465  178.4   1.304   53.4  0.1533   42.7  0.6588  -43.7
 2.020  0.3458  177.0   1.295   52.8  0.1541   42.9  0.6575  -44.0
 2.040  0.3453  175.7   1.286   52.2  0.1549   43.2  0.6563  -44.4
 2.060  0.3449  174.3   1.278   51.6  0.1557   43.4  0.6551  -44.7
 2.080  0.3448  173.0   1.269   51.0  0.1565   43.6  0.6539  -45.1
 2.100  0.3449  171.6   1.261   50.4  0.1573   43.9  0.6527  -45.4
 2.120  0.3451  170.2   1.253   49.7  0.1581   44.1  0.6515  -45.8
 2.140  0.3456  168.9   1.245   49.1  0.1589   44.3  0.6504  -46.1
 2.160  0.3462  167.5   1.237   48.4  0.1598   44.6  0.6493  -46.5
 2.180  0.3471  166.1   1.229   47.8  0.1606   44.8  0.6482  -46.8
 2.200  0.3481  164.8   1.222   47.1  0.1614   45.0  0.6472  -47.2
 2.220  0.3487  163.5   1.214   46.5  0.1624   45.2  0.6459  -47.6
 2.240  0.3496  162.2   1.207   46.0  0.1635   45.5  0.6447  -48.0
 2.260  0.3506  160.9   1.199   45.4  0.1645   45.7  0.6435  -48.4
 2.280  0.3518  159.6   1.192   44.8  0.1656   45.9  0.6423  -48.7
 2.300  0.3531  158.4   1.184   44.2  0.1666   46.1  0.6412  -49.1
 2.320  0.3546  157.1   1.177   43.6  0.1677   46.4  0.6401  -49.5
 2.340  0.3563  155.9   1.170   43.0  0.1687   46.6  0.6390  -49.9
 2.360  0.3582  154.6   1.163   42.4  0.1698   46.8  0.6379  -50.3
 2.380  0.3602  153.4   1.157   41.7  0.1708   47.0  0.6369  -50.7
 2.400  0.3624  152.2   1.150   41.1  0.1719   47.2  0.6359  -51.1
 2.420  0.3634  151.0   1.143   40.6  0.1733   47.4  0.6347  -51.5
 2.440  0.3646  149.8   1.137   40.1  0.1747   47.6  0.6336  -51.9
 2.460  0.3660  148.6   1.130   39.6  0.1761   47.7  0.6325  -52.3
 2.480  0.3675  147.5   1.124   39.1  0.1775   47.9  0.6315  -52.6
 2.500  0.3691  146.3   1.118   38.6  0.1789   48.1  0.6304  -53.0
 2.520  0.3709  145.2   1.112   38.0  0.1803   48.3  0.6294  -53.4
 2.540  0.3729  144.0   1.106   37.5  0.1817   48.4  0.6285  -53.8
 2.560  0.3750  142.9   1.100   37.0  0.1831   48.6  0.6275  -54.2
 2.580  0.3772  141.8   1.094   36.4  0.1845   48.7  0.6266  -54.6
 2.600  0.3796  140.7   1.088   35.9  0.1859   48.9  0.6257  -55.0
 2.620  0.3813  139.7   1.082   35.4  0.1874   49.0  0.6244  -55.5
 2.640  0.3830  138.8   1.076   35.0  0.1890   49.2  0.6232  -55.9
 2.660  0.3849  137.8   1.070   34.5  0.1905   49.3  0.6220  -56.4
 2.680  0.3869  136.9   1.064   34.0  0.1920   49.4  0.6208  -56.8
 2.700  0.3890  135.9   1.058   33.5  0.1935   49.5  0.6197  -57.3
 2.720  0.3912  135.0   1.052   33.0  0.1951   49.6  0.6186  -57.7
 2.740  0.3935  134.1   1.047   32.5  0.1966   49.8  0.6176  -58.2
 2.760  0.3959  133.2   1.041   32.0  0.1981   49.9  0.6166  -58.7
 2.780  0.3984  132.3   1.035   31.5  0.1997   50.0  0.6156  -59.1
 2.800  0.4010  131.4   1.030   31.0  0.2012   50.1  0.6147  -59.6
 2.820  0.4030  130.5   1.025   30.5  0.2030   50.2  0.6135  -60.1
 2.840  0.4052  129.6   1.020   30.0  0.2047   50.3  0.6123  -60.6
 2.860  0.4074  128.8   1.015   29.5  0.2065   50.4  0.6112  -61.1
 2.880  0.4097  127.9   1.011   29.1  0.2082   50.4  0.6101  -61.6
 2.900  0.4121  127.1   1.006   28.6  0.2100   50.5  0.6091  -62.1
 2.920  0.4146  126.2   1.001   28.1  0.2118   50.6  0.6081  -62.6
 2.940  0.4172  125.4   0.997   27.5  0.2135   50.7  0.6071  -63.1
 2.960  0.4199  124.6   0.993   27.0  0.2153   50.8  0.6062  -63.6
 2.980  0.4227  123.8   0.988   26.5  0.2170   50.8  0.6054  -64.1
 3.000  0.4255  123.0   0.984   26.0  0.2188   50.9  0.6046  -64.6
 3.100  0.4351  119.4   0.959   24.2  0.2295   50.7  0.5958  -67.5
 3.200  0.4463  116.0   0.934   22.3  0.2402   50.6  0.5885  -70.4
 3.300  0.4590  112.8   0.911   20.2  0.2508   50.4  0.5829  -73.4
 3.400  0.4731  109.8   0.889   18.1  0.2615   50.3  0.5788  -76.5
 3.500  0.4884  106.9   0.868   15.9  0.2722   50.2  0.5765  -79.6
 3.600  0.4965  104.3   0.849   14.4  0.2851   49.4  0.5669  -83.2
 3.700  0.5055  101.9   0.831   12.8  0.2980   48.6  0.5597  -87.0
 3.800  0.5154   99.5   0.814   11.1  0.3109   47.9  0.5549  -90.8
 3.900  0.5262   97.2   0.797    9.3  0.3240   47.3  0.5526  -94.7
 4.000  0.5378   95.0   0.781    7.5  0.3370   46.7  0.5529  -98.6
 4.100  0.5461   93.0   0.767    6.3  0.3506   45.2  0.5421 -102.8
 4.200  0.5551   91.0   0.753    5.1  0.3644   43.8  0.5343 -107.1
 4.300  0.5647   89.2   0.740    3.9  0.3784   42.4  0.5296 -111.5
 4.400  0.5749   87.4   0.727    2.6  0.3926   41.2  0.5280 -115.9
 4.500  0.5857   85.6   0.714    1.2  0.4070   40.1  0.5297 -120.4
 4.600  0.5914   84.1   0.704    0.1  0.4189   38.2  0.5201 -124.9
 4.700  0.5975   82.7   0.694   -1.1  0.4312   36.5  0.5138 -129.5
 4.800  0.6039   81.3   0.684   -2.2  0.4438   34.8  0.5110 -134.3
 4.900  0.6107   79.9   0.675   -3.5  0.4569   33.3  0.5117 -139.0
 5.000  0.6178   78.6   0.666   -4.7  0.4702   31.8  0.5158 -143.7
 5.100  0.6230   77.1   0.653   -5.6  0.4756   29.7  0.4984 -148.1
 5.200  0.6285   75.7   0.640   -6.6  0.4816   27.6  0.4842 -152.8
 5.300  0.6345   74.3   0.627   -7.6  0.4882   25.6  0.4734 -157.8
 5.400  0.6408   72.9   0.614   -8.6  0.4954   23.7  0.4663 -162.9
 5.500  0.6475   71.6   0.602   -9.7  0.5032   21.8  0.4631 -168.2
 5.600  0.6468   70.4   0.601   -9.6  0.5146   20.7  0.4764 -171.2
 5.700  0.6464   69.3   0.600   -9.4  0.5261   19.6  0.4909 -174.1
 5.800  0.6463   68.1   0.599   -9.3  0.5379   18.5  0.5066 -176.7
 5.900  0.6464   67.0   0.598   -9.1  0.5498   17.6  0.5233 -179.2
 6.000  0.6468   65.8   0.597   -9.0  0.5619   16.6  0.5410  178.4
!
!  f       NFmin   Gammaopt  rn/50
! GHz       dB    MAG  ANG    -
!
! noise parameter not available yet for this operation point!
!
! (c) 2015  Infineon Technologies AG, Munich
