! Infineon Technologies  Discrete & RF Semiconductors
! BFR35AP
! VCE = 0.75 V,  IC =  8.0 mA
! Common Emitter S-Parameters:                            Nov 2015
# GHz  S  MA  R  50
!  f         S11            S21            S12            S22
! GHz     MAG   ANG      MAG   ANG      MAG   ANG      MAG   ANG
 0.010  0.7149   -6.7  19.737  175.5  0.0040   85.8  0.9685   -3.4
 0.015  0.7085   -9.7  19.625  173.2  0.0062   85.0  0.9591   -5.2
 0.020  0.7041  -12.7  19.547  170.8  0.0085   84.6  0.9507   -7.0
 0.025  0.6963  -15.6  19.331  168.8  0.0105   81.6  0.9421   -8.6
 0.030  0.6902  -18.5  19.139  166.7  0.0124   79.5  0.9343  -10.2
 0.035  0.6860  -21.5  18.973  164.6  0.0144   78.0  0.9273  -11.9
 0.040  0.6836  -24.5  18.833  162.5  0.0164   76.8  0.9210  -13.6
 0.045  0.6832  -27.5  18.719  160.3  0.0184   75.9  0.9155  -15.3
 0.050  0.6846  -30.5  18.633  158.1  0.0204   75.2  0.9109  -17.0
 0.055  0.6698  -32.8  18.302  156.6  0.0219   73.5  0.8968  -18.1
 0.060  0.6562  -35.2  17.984  155.0  0.0233   72.0  0.8831  -19.2
 0.065  0.6437  -37.7  17.681  153.3  0.0248   70.7  0.8697  -20.4
 0.070  0.6324  -40.2  17.393  151.6  0.0263   69.5  0.8568  -21.6
 0.075  0.6225  -42.9  17.121  149.9  0.0278   68.5  0.8442  -22.9
 0.080  0.6140  -45.6  16.865  148.1  0.0294   67.5  0.8320  -24.2
 0.085  0.6070  -48.5  16.626  146.2  0.0309   66.7  0.8202  -25.5
 0.090  0.6014  -51.3  16.406  144.3  0.0324   65.9  0.8090  -26.9
 0.095  0.5974  -54.2  16.205  142.3  0.0340   65.2  0.7981  -28.3
 0.100  0.5949  -57.2  16.023  140.3  0.0355   64.6  0.7878  -29.7
 0.105  0.5836  -59.1  15.717  139.2  0.0365   63.8  0.7748  -30.4
 0.110  0.5730  -61.0  15.418  138.0  0.0375   63.1  0.7618  -31.1
 0.115  0.5630  -63.0  15.125  136.7  0.0385   62.4  0.7490  -31.9
 0.120  0.5538  -65.1  14.840  135.5  0.0394   61.8  0.7364  -32.7
 0.125  0.5453  -67.3  14.563  134.1  0.0404   61.2  0.7239  -33.5
 0.130  0.5376  -69.5  14.293  132.8  0.0414   60.6  0.7115  -34.3
 0.135  0.5308  -71.8  14.033  131.3  0.0425   60.0  0.6993  -35.2
 0.140  0.5248  -74.1  13.781  129.8  0.0435   59.5  0.6872  -36.1
 0.145  0.5197  -76.5  13.539  128.3  0.0445   59.0  0.6754  -37.0
 0.150  0.5155  -78.9  13.307  126.7  0.0455   58.5  0.6637  -38.0
 0.155  0.5086  -80.4  13.081  125.9  0.0462   58.2  0.6542  -38.4
 0.160  0.5020  -81.9  12.858  125.1  0.0470   57.9  0.6448  -38.8
 0.165  0.4957  -83.5  12.638  124.3  0.0477   57.6  0.6354  -39.2
 0.170  0.4899  -85.1  12.420  123.4  0.0485   57.3  0.6260  -39.6
 0.175  0.4844  -86.7  12.205  122.5  0.0492   57.0  0.6167  -40.0
 0.180  0.4793  -88.4  11.994  121.6  0.0500   56.8  0.6074  -40.4
 0.185  0.4747  -90.1  11.785  120.6  0.0507   56.5  0.5981  -40.9
 0.190  0.4705  -91.8  11.581  119.6  0.0515   56.3  0.5889  -41.3
 0.195  0.4667  -93.6  11.379  118.6  0.0522   56.0  0.5797  -41.8
 0.200  0.4634  -95.4  11.182  117.5  0.0530   55.8  0.5705  -42.3
 0.220  0.4440 -100.8  10.475  114.8  0.0554   55.2  0.5406  -43.3
 0.240  0.4289 -106.7   9.795  111.7  0.0577   54.6  0.5109  -44.4
 0.260  0.4160 -111.8   9.204  109.0  0.0600   54.3  0.4852  -45.3
 0.280  0.4036 -116.0   8.687  107.0  0.0622   54.3  0.4635  -45.9
 0.300  0.3934 -120.5   8.182  104.6  0.0644   54.3  0.4419  -46.5
 0.320  0.3839 -123.7   7.818  103.3  0.0666   54.4  0.4279  -46.7
 0.340  0.3758 -127.1   7.458  101.9  0.0688   54.5  0.4140  -46.8
 0.360  0.3689 -130.6   7.103  100.3  0.0709   54.6  0.4000  -47.0
 0.380  0.3636 -134.3   6.753   98.6  0.0731   54.7  0.3861  -47.2
 0.400  0.3597 -138.0   6.411   96.7  0.0753   54.8  0.3721  -47.4
 0.420  0.3555 -140.6   6.164   95.6  0.0774   55.0  0.3632  -47.4
 0.440  0.3521 -143.2   5.921   94.3  0.0794   55.2  0.3543  -47.4
 0.450  0.3506 -144.6   5.800   93.7  0.0804   55.3  0.3498  -47.4
 0.460  0.3494 -145.9   5.680   93.0  0.0815   55.4  0.3454  -47.4
 0.480  0.3475 -148.7   5.442   91.6  0.0835   55.6  0.3365  -47.4
 0.500  0.3464 -151.4   5.208   90.0  0.0856   55.8  0.3276  -47.4
 0.520  0.3434 -153.5   5.046   89.0  0.0878   56.0  0.3217  -47.4
 0.540  0.3409 -155.6   4.886   88.0  0.0900   56.2  0.3158  -47.4
 0.560  0.3388 -157.7   4.728   86.9  0.0923   56.4  0.3100  -47.5
 0.580  0.3373 -159.9   4.571   85.8  0.0945   56.6  0.3041  -47.5
 0.600  0.3362 -162.1   4.417   84.5  0.0967   56.8  0.2982  -47.5
 0.620  0.3351 -163.9   4.299   83.6  0.0989   56.9  0.2941  -47.6
 0.640  0.3344 -165.6   4.183   82.7  0.1011   57.0  0.2901  -47.6
 0.660  0.3340 -167.4   4.067   81.7  0.1034   57.1  0.2860  -47.7
 0.680  0.3339 -169.2   3.953   80.7  0.1056   57.2  0.2820  -47.7
 0.700  0.3341 -171.0   3.840   79.6  0.1078   57.3  0.2779  -47.8
 0.720  0.3345 -172.4   3.746   78.9  0.1102   57.4  0.2748  -47.9
 0.740  0.3350 -173.8   3.653   78.1  0.1125   57.4  0.2717  -48.0
 0.760  0.3358 -175.2   3.561   77.3  0.1149   57.5  0.2687  -48.0
 0.780  0.3367 -176.6   3.470   76.4  0.1172   57.5  0.2656  -48.1
 0.800  0.3379 -178.0   3.379   75.5  0.1196   57.6  0.2625  -48.2
 0.820  0.3362 -179.4   3.309   74.8  0.1220   57.6  0.2602  -48.3
 0.840  0.3346  179.2   3.239   74.0  0.1244   57.6  0.2579  -48.4
 0.860  0.3333  177.8   3.170   73.3  0.1269   57.5  0.2557  -48.6
 0.880  0.3321  176.4   3.101   72.4  0.1293   57.5  0.2534  -48.7
 0.900  0.3312  175.0   3.033   71.6  0.1317   57.5  0.2511  -48.8
 0.920  0.3325  173.6   2.977   70.9  0.1340   57.4  0.2494  -49.0
 0.940  0.3339  172.3   2.922   70.2  0.1362   57.4  0.2476  -49.2
 0.960  0.3355  170.9   2.867   69.5  0.1385   57.3  0.2459  -49.5
 0.980  0.3373  169.6   2.813   68.7  0.1407   57.3  0.2442  -49.7
 1.000  0.3393  168.3   2.759   67.9  0.1430   57.2  0.2425  -49.9
 1.020  0.3404  167.3   2.714   67.2  0.1455   57.1  0.2409  -50.3
 1.040  0.3415  166.3   2.670   66.6  0.1480   57.0  0.2393  -50.6
 1.060  0.3428  165.3   2.626   65.9  0.1504   57.0  0.2377  -51.0
 1.080  0.3442  164.3   2.582   65.1  0.1529   56.9  0.2362  -51.3
 1.100  0.3457  163.3   2.539   64.4  0.1554   56.8  0.2346  -51.7
 1.120  0.3463  162.2   2.500   63.7  0.1577   56.7  0.2328  -52.0
 1.140  0.3469  161.1   2.461   63.1  0.1600   56.5  0.2310  -52.3
 1.160  0.3477  160.0   2.422   62.4  0.1624   56.4  0.2292  -52.6
 1.180  0.3487  159.0   2.384   61.6  0.1647   56.3  0.2274  -52.9
 1.200  0.3497  157.9   2.346   60.9  0.1670   56.2  0.2256  -53.2
 1.220  0.3498  157.0   2.313   60.3  0.1694   56.1  0.2241  -53.6
 1.240  0.3499  156.1   2.280   59.8  0.1717   55.9  0.2227  -53.9
 1.260  0.3502  155.3   2.247   59.2  0.1741   55.8  0.2212  -54.3
 1.280  0.3505  154.4   2.214   58.5  0.1764   55.6  0.2197  -54.6
 1.300  0.3509  153.5   2.182   57.9  0.1788   55.5  0.2183  -55.0
 1.320  0.3521  152.5   2.154   57.3  0.1811   55.3  0.2171  -55.4
 1.340  0.3535  151.6   2.126   56.7  0.1835   55.1  0.2160  -55.9
 1.360  0.3549  150.7   2.098   56.1  0.1858   54.9  0.2148  -56.3
 1.380  0.3565  149.7   2.070   55.5  0.1882   54.8  0.2137  -56.8
 1.400  0.3581  148.8   2.043   54.8  0.1905   54.6  0.2126  -57.2
 1.420  0.3587  148.1   2.022   54.2  0.1928   54.4  0.2113  -57.6
 1.440  0.3594  147.4   2.000   53.6  0.1951   54.3  0.2100  -58.1
 1.460  0.3601  146.8   1.979   53.0  0.1975   54.1  0.2088  -58.6
 1.480  0.3609  146.1   1.959   52.4  0.1998   54.0  0.2075  -59.0
 1.500  0.3617  145.4   1.938   51.8  0.2021   53.8  0.2063  -59.5
 1.520  0.3644  144.5   1.914   51.2  0.2045   53.6  0.2046  -60.0
 1.540  0.3671  143.7   1.891   50.6  0.2068   53.3  0.2030  -60.5
 1.560  0.3700  142.8   1.867   50.0  0.2092   53.1  0.2014  -61.0
 1.580  0.3729  142.0   1.844   49.4  0.2115   52.9  0.1998  -61.6
 1.600  0.3759  141.2   1.821   48.7  0.2139   52.7  0.1982  -62.1
 1.620  0.3775  140.4   1.803   48.1  0.2162   52.5  0.1970  -62.6
 1.640  0.3791  139.6   1.786   47.6  0.2185   52.3  0.1959  -63.0
 1.660  0.3808  138.8   1.768   47.0  0.2208   52.1  0.1947  -63.5
 1.680  0.3826  138.0   1.751   46.4  0.2231   52.0  0.1936  -64.0
 1.700  0.3845  137.2   1.734   45.8  0.2254   51.8  0.1925  -64.5
 1.720  0.3852  136.6   1.718   45.3  0.2277   51.6  0.1917  -65.1
 1.740  0.3859  136.0   1.702   44.8  0.2300   51.3  0.1910  -65.7
 1.760  0.3866  135.4   1.687   44.3  0.2323   51.1  0.1902  -66.3
 1.780  0.3874  134.8   1.671   43.8  0.2346   50.8  0.1895  -67.0
 1.800  0.3882  134.2   1.656   43.3  0.2369   50.6  0.1888  -67.6
 1.820  0.3902  133.5   1.642   42.7  0.2392   50.4  0.1874  -68.4
 1.840  0.3922  132.9   1.629   42.2  0.2415   50.1  0.1860  -69.1
 1.860  0.3943  132.2   1.616   41.6  0.2438   49.9  0.1847  -69.9
 1.880  0.3964  131.5   1.603   41.0  0.2461   49.7  0.1834  -70.7
 1.900  0.3986  130.9   1.590   40.4  0.2484   49.5  0.1821  -71.5
 1.920  0.4004  130.2   1.576   39.9  0.2507   49.3  0.1804  -72.2
 1.940  0.4023  129.6   1.562   39.3  0.2530   49.0  0.1788  -72.8
 1.960  0.4042  129.0   1.548   38.8  0.2553   48.8  0.1772  -73.5
 1.980  0.4062  128.3   1.534   38.3  0.2576   48.5  0.1756  -74.2
 2.000  0.4082  127.7   1.520   37.7  0.2599   48.3  0.1740  -74.9
 2.020  0.4095  127.1   1.508   37.2  0.2621   48.0  0.1726  -75.7
 2.040  0.4109  126.6   1.496   36.7  0.2644   47.8  0.1712  -76.4
 2.060  0.4123  126.0   1.485   36.3  0.2666   47.5  0.1699  -77.2
 2.080  0.4137  125.5   1.473   35.8  0.2688   47.3  0.1686  -78.0
 2.100  0.4152  124.9   1.462   35.2  0.2711   47.1  0.1673  -78.8
 2.120  0.4167  124.4   1.451   34.7  0.2733   46.8  0.1661  -79.7
 2.140  0.4182  123.8   1.440   34.2  0.2756   46.6  0.1649  -80.5
 2.160  0.4198  123.3   1.429   33.7  0.2779   46.3  0.1637  -81.4
 2.180  0.4214  122.7   1.418   33.1  0.2801   46.1  0.1626  -82.2
 2.200  0.4231  122.2   1.407   32.6  0.2824   45.9  0.1615  -83.1
 2.220  0.4251  121.6   1.398   32.1  0.2845   45.6  0.1599  -84.0
 2.240  0.4272  121.0   1.390   31.6  0.2865   45.3  0.1583  -85.0
 2.260  0.4293  120.4   1.381   31.1  0.2886   45.0  0.1567  -86.0
 2.280  0.4315  119.8   1.372   30.6  0.2907   44.8  0.1552  -87.0
 2.300  0.4337  119.2   1.364   30.1  0.2928   44.5  0.1537  -88.0
 2.320  0.4359  118.6   1.356   29.6  0.2949   44.2  0.1523  -89.0
 2.340  0.4382  118.0   1.348   29.0  0.2970   44.0  0.1510  -90.0
 2.360  0.4406  117.4   1.340   28.5  0.2991   43.7  0.1497  -91.1
 2.380  0.4430  116.9   1.332   27.9  0.3013   43.5  0.1484  -92.2
 2.400  0.4454  116.3   1.324   27.4  0.3034   43.2  0.1472  -93.3
 2.420  0.4474  115.7   1.315   27.0  0.3055   42.9  0.1460  -94.4
 2.440  0.4494  115.2   1.306   26.6  0.3075   42.6  0.1448  -95.5
 2.460  0.4515  114.7   1.298   26.1  0.3096   42.4  0.1437  -96.7
 2.480  0.4536  114.1   1.289   25.7  0.3117   42.1  0.1426  -97.8
 2.500  0.4558  113.6   1.281   25.3  0.3138   41.8  0.1416  -99.0
 2.520  0.4580  113.1   1.272   24.8  0.3159   41.5  0.1407 -100.2
 2.540  0.4603  112.5   1.264   24.4  0.3180   41.3  0.1398 -101.4
 2.560  0.4625  112.0   1.255   23.9  0.3201   41.0  0.1389 -102.6
 2.580  0.4648  111.5   1.247   23.5  0.3223   40.8  0.1382 -103.9
 2.600  0.4672  111.0   1.239   23.0  0.3244   40.5  0.1375 -105.1
 2.620  0.4692  110.5   1.232   22.6  0.3264   40.2  0.1364 -106.5
 2.640  0.4712  110.0   1.226   22.2  0.3284   39.9  0.1354 -107.8
 2.660  0.4733  109.5   1.219   21.7  0.3305   39.7  0.1345 -109.2
 2.680  0.4754  109.0   1.213   21.3  0.3325   39.4  0.1337 -110.7
 2.700  0.4775  108.5   1.206   20.9  0.3346   39.1  0.1329 -112.1
 2.720  0.4797  108.1   1.200   20.4  0.3366   38.8  0.1322 -113.6
 2.740  0.4819  107.6   1.193   20.0  0.3387   38.6  0.1316 -115.0
 2.760  0.4841  107.1   1.187   19.5  0.3407   38.3  0.1311 -116.5
 2.780  0.4864  106.7   1.181   19.1  0.3428   38.1  0.1307 -118.0
 2.800  0.4887  106.2   1.175   18.6  0.3449   37.8  0.1304 -119.5
 2.820  0.4906  105.8   1.168   18.2  0.3467   37.5  0.1299 -121.1
 2.840  0.4925  105.4   1.162   17.8  0.3486   37.2  0.1295 -122.6
 2.860  0.4944  105.0   1.155   17.3  0.3504   36.9  0.1291 -124.2
 2.880  0.4964  104.6   1.149   16.9  0.3523   36.6  0.1289 -125.8
 2.900  0.4984  104.2   1.143   16.5  0.3542   36.3  0.1288 -127.4
 2.920  0.5004  103.8   1.136   16.0  0.3561   36.0  0.1288 -129.0
 2.940  0.5024  103.4   1.130   15.6  0.3580   35.7  0.1289 -130.6
 2.960  0.5045  103.0   1.124   15.1  0.3599   35.4  0.1290 -132.2
 2.980  0.5066  102.6   1.118   14.7  0.3618   35.1  0.1293 -133.8
 3.000  0.5087  102.2   1.112   14.2  0.3637   34.8  0.1297 -135.4
 3.100  0.5186  100.3   1.083   12.5  0.3716   33.3  0.1298 -143.8
 3.200  0.5291   98.4   1.055   10.7  0.3798   31.8  0.1327 -152.1
 3.300  0.5401   96.6   1.029    8.8  0.3883   30.4  0.1382 -159.8
 3.400  0.5517   94.9   1.003    6.8  0.3969   29.0  0.1460 -166.9
 3.500  0.5637   93.2   0.979    4.7  0.4058   27.7  0.1558 -173.1
 3.600  0.5714   91.5   0.958    3.2  0.4124   26.2  0.1643 -179.5
 3.700  0.5796   89.9   0.937    1.7  0.4193   24.8  0.1747  174.7
 3.800  0.5882   88.3   0.917    0.1  0.4264   23.5  0.1866  169.7
 3.900  0.5973   86.8   0.898   -1.6  0.4337   22.2  0.1998  165.3
 4.000  0.6068   85.3   0.879   -3.3  0.4413   20.9  0.2140  161.4
 4.100  0.6134   83.9   0.863   -4.6  0.4470   19.4  0.2246  157.2
 4.200  0.6203   82.5   0.847   -6.0  0.4529   18.0  0.2363  153.4
 4.300  0.6277   81.1   0.832   -7.4  0.4591   16.6  0.2489  150.0
 4.400  0.6353   79.8   0.817   -8.9  0.4656   15.3  0.2623  147.0
 4.500  0.6433   78.5   0.803  -10.4  0.4723   14.0  0.2764  144.2
 4.600  0.6478   77.4   0.790  -11.5  0.4764   12.6  0.2864  141.2
 4.700  0.6525   76.3   0.777  -12.6  0.4808   11.3  0.2972  138.3
 4.800  0.6574   75.2   0.764  -13.8  0.4855   10.0  0.3087  135.7
 4.900  0.6626   74.1   0.752  -15.0  0.4904    8.7  0.3207  133.3
 5.000  0.6680   73.0   0.740  -16.3  0.4955    7.4  0.3333  131.0
 5.100  0.6734   71.8   0.723  -17.2  0.4957    6.0  0.3374  127.9
 5.200  0.6791   70.6   0.707  -18.2  0.4961    4.7  0.3424  124.9
 5.300  0.6850   69.5   0.691  -19.3  0.4968    3.3  0.3483  121.9
 5.400  0.6913   68.3   0.675  -20.4  0.4978    2.0  0.3551  119.1
 5.500  0.6978   67.2   0.659  -21.5  0.4991    0.6  0.3628  116.4
 5.600  0.6966   66.3   0.656  -21.8  0.5060   -0.2  0.3762  116.7
 5.700  0.6957   65.3   0.654  -22.1  0.5131   -1.0  0.3897  117.0
 5.800  0.6949   64.4   0.651  -22.4  0.5202   -1.7  0.4032  117.2
 5.900  0.6943   63.4   0.649  -22.7  0.5274   -2.5  0.4166  117.5
 6.000  0.6939   62.5   0.646  -23.0  0.5347   -3.2  0.4301  117.7
!
!  f       NFmin   Gammaopt  rn/50
! GHz       dB    MAG  ANG    -
!
! noise parameter not available yet for this operation point!
!
! (c) 2015  Infineon Technologies AG, Munich
