! Infineon Technologies  Discrete & RF Semiconductors
! BFR35AP
! VCE =  3.0 V,  IC =  1.5 mA
! Common Emitter S-Parameters:                            Nov 2015
# GHz  S  MA  R  50
!  f         S11            S21            S12            S22
! GHz     MAG   ANG      MAG   ANG      MAG   ANG      MAG   ANG
 0.010  0.9357   -1.7   5.033  178.9  0.0030   89.3  0.9999   -0.7
 0.015  0.9318   -2.5   5.066  177.9  0.0045   88.7  0.9956   -1.1
 0.020  0.9281   -3.4   5.101  176.9  0.0060   88.4  0.9914   -1.6
 0.025  0.9284   -4.3   5.098  176.2  0.0075   87.2  0.9915   -2.0
 0.030  0.9290   -5.1   5.096  175.5  0.0091   86.3  0.9916   -2.4
 0.035  0.9297   -6.0   5.095  174.9  0.0106   85.7  0.9918   -2.8
 0.040  0.9307   -6.9   5.094  174.2  0.0121   85.3  0.9920   -3.1
 0.045  0.9319   -7.7   5.094  173.5  0.0137   85.0  0.9923   -3.5
 0.050  0.9333   -8.6   5.095  172.8  0.0152   84.7  0.9926   -3.9
 0.055  0.9305   -9.4   5.082  172.1  0.0167   83.8  0.9914   -4.3
 0.060  0.9279  -10.3   5.070  171.4  0.0183   83.1  0.9902   -4.7
 0.065  0.9255  -11.1   5.059  170.7  0.0198   82.5  0.9890   -5.0
 0.070  0.9233  -12.0   5.049  170.0  0.0213   82.0  0.9879   -5.4
 0.075  0.9213  -12.9   5.039  169.3  0.0229   81.6  0.9868   -5.8
 0.080  0.9196  -13.7   5.030  168.6  0.0244   81.2  0.9858   -6.2
 0.085  0.9180  -14.6   5.022  167.9  0.0260   80.8  0.9848   -6.6
 0.090  0.9167  -15.5   5.015  167.2  0.0275   80.5  0.9839   -6.9
 0.095  0.9155  -16.3   5.008  166.5  0.0291   80.2  0.9830   -7.3
 0.100  0.9146  -17.2   5.002  165.8  0.0306   80.0  0.9821   -7.7
 0.105  0.9109  -18.0   4.994  165.0  0.0320   79.3  0.9800   -8.1
 0.110  0.9075  -18.9   4.987  164.2  0.0334   78.6  0.9779   -8.4
 0.115  0.9042  -19.8   4.981  163.4  0.0348   78.0  0.9759   -8.8
 0.120  0.9012  -20.6   4.976  162.6  0.0362   77.4  0.9739   -9.2
 0.125  0.8984  -21.5   4.973  161.8  0.0376   76.9  0.9720   -9.6
 0.130  0.8957  -22.4   4.970  161.0  0.0390   76.4  0.9701  -10.0
 0.135  0.8933  -23.2   4.968  160.1  0.0404   76.0  0.9682  -10.3
 0.140  0.8911  -24.1   4.967  159.3  0.0419   75.6  0.9664  -10.7
 0.145  0.8891  -25.0   4.967  158.5  0.0433   75.2  0.9646  -11.1
 0.150  0.8873  -25.9   4.968  157.7  0.0447   74.8  0.9629  -11.5
 0.155  0.8842  -26.6   4.945  157.1  0.0460   74.3  0.9606  -11.8
 0.160  0.8812  -27.4   4.924  156.5  0.0474   73.7  0.9584  -12.1
 0.165  0.8784  -28.1   4.902  155.9  0.0487   73.3  0.9562  -12.4
 0.170  0.8757  -28.9   4.881  155.2  0.0501   72.8  0.9540  -12.7
 0.175  0.8732  -29.6   4.861  154.6  0.0515   72.4  0.9518  -13.0
 0.180  0.8708  -30.4   4.842  154.0  0.0528   72.0  0.9497  -13.3
 0.185  0.8686  -31.2   4.822  153.3  0.0542   71.6  0.9476  -13.7
 0.190  0.8665  -31.9   4.804  152.7  0.0556   71.2  0.9455  -14.0
 0.195  0.8646  -32.7   4.786  152.1  0.0569   70.8  0.9434  -14.3
 0.200  0.8629  -33.5   4.769  151.4  0.0583   70.5  0.9414  -14.6
 0.220  0.8468  -36.6   4.699  148.9  0.0628   68.3  0.9305  -15.8
 0.240  0.8332  -39.8   4.638  146.2  0.0675   66.4  0.9201  -17.1
 0.260  0.8187  -42.9   4.576  143.7  0.0718   64.9  0.9092  -18.2
 0.280  0.8025  -45.8   4.514  141.1  0.0760   63.5  0.8978  -19.3
 0.300  0.7885  -48.8   4.460  138.5  0.0801   62.3  0.8868  -20.4
 0.320  0.7704  -51.3   4.366  136.7  0.0834   60.7  0.8747  -21.3
 0.340  0.7539  -54.0   4.276  134.7  0.0867   59.3  0.8629  -22.2
 0.360  0.7391  -56.7   4.192  132.7  0.0900   58.0  0.8513  -23.1
 0.380  0.7260  -59.6   4.113  130.7  0.0934   56.7  0.8399  -24.0
 0.400  0.7148  -62.5   4.039  128.5  0.0969   55.6  0.8287  -25.0
 0.420  0.6990  -64.7   3.943  126.7  0.0994   54.5  0.8186  -25.6
 0.440  0.6842  -67.0   3.852  124.8  0.1019   53.4  0.8086  -26.3
 0.450  0.6772  -68.2   3.807  123.8  0.1032   52.9  0.8037  -26.6
 0.460  0.6706  -69.4   3.764  122.8  0.1045   52.4  0.7987  -26.9
 0.480  0.6582  -71.9   3.682  120.8  0.1071   51.4  0.7890  -27.6
 0.500  0.6471  -74.5   3.604  118.6  0.1097   50.5  0.7793  -28.3
 0.520  0.6314  -76.7   3.541  117.1  0.1117   49.7  0.7703  -28.8
 0.540  0.6166  -79.0   3.480  115.5  0.1137   49.0  0.7614  -29.3
 0.560  0.6029  -81.4   3.422  113.8  0.1158   48.3  0.7526  -29.8
 0.580  0.5903  -83.9   3.367  112.1  0.1178   47.6  0.7438  -30.3
 0.600  0.5789  -86.5   3.315  110.4  0.1199   46.9  0.7351  -30.8
 0.620  0.5676  -88.5   3.258  109.0  0.1212   46.3  0.7273  -31.2
 0.640  0.5571  -90.5   3.202  107.6  0.1225   45.8  0.7195  -31.7
 0.660  0.5473  -92.6   3.149  106.2  0.1239   45.2  0.7118  -32.1
 0.680  0.5382  -94.8   3.097  104.7  0.1252   44.7  0.7041  -32.5
 0.700  0.5300  -97.1   3.048  103.1  0.1266   44.2  0.6964  -33.0
 0.720  0.5204  -98.9   2.991  101.9  0.1278   43.7  0.6898  -33.3
 0.740  0.5114 -100.9   2.936  100.7  0.1290   43.3  0.6833  -33.7
 0.760  0.5029 -102.8   2.882   99.4  0.1302   42.9  0.6768  -34.0
 0.780  0.4951 -104.9   2.830   98.1  0.1314   42.4  0.6703  -34.3
 0.800  0.4879 -107.0   2.779   96.7  0.1326   42.0  0.6638  -34.7
 0.820  0.4795 -108.6   2.729   95.6  0.1336   41.7  0.6585  -35.0
 0.840  0.4715 -110.4   2.679   94.5  0.1346   41.5  0.6531  -35.3
 0.860  0.4640 -112.1   2.631   93.4  0.1356   41.2  0.6478  -35.6
 0.880  0.4569 -113.9   2.584   92.2  0.1366   41.0  0.6426  -35.9
 0.900  0.4503 -115.8   2.538   91.0  0.1376   40.7  0.6373  -36.2
 0.920  0.4435 -117.5   2.500   90.0  0.1384   40.5  0.6336  -36.5
 0.940  0.4371 -119.3   2.462   89.0  0.1393   40.3  0.6298  -36.8
 0.960  0.4311 -121.1   2.425   88.0  0.1401   40.0  0.6261  -37.1
 0.980  0.4255 -122.9   2.389   86.9  0.1410   39.8  0.6225  -37.4
 1.000  0.4204 -124.8   2.354   85.8  0.1418   39.6  0.6188  -37.7
 1.020  0.4154 -126.6   2.323   84.9  0.1426   39.5  0.6153  -38.0
 1.040  0.4108 -128.5   2.292   83.9  0.1435   39.4  0.6118  -38.3
 1.060  0.4066 -130.4   2.263   82.9  0.1443   39.2  0.6084  -38.6
 1.080  0.4029 -132.3   2.233   81.9  0.1452   39.1  0.6049  -38.9
 1.100  0.3997 -134.3   2.205   80.8  0.1460   39.0  0.6015  -39.2
 1.120  0.3951 -136.0   2.176   79.9  0.1467   38.9  0.5984  -39.5
 1.140  0.3908 -137.8   2.147   79.0  0.1474   38.9  0.5952  -39.8
 1.160  0.3869 -139.5   2.119   78.1  0.1480   38.8  0.5921  -40.0
 1.180  0.3834 -141.4   2.092   77.2  0.1487   38.8  0.5890  -40.3
 1.200  0.3803 -143.2   2.065   76.2  0.1494   38.7  0.5859  -40.6
 1.220  0.3766 -144.9   2.040   75.4  0.1502   38.7  0.5832  -40.9
 1.240  0.3733 -146.7   2.015   74.6  0.1510   38.7  0.5806  -41.1
 1.260  0.3704 -148.5   1.991   73.8  0.1518   38.7  0.5779  -41.4
 1.280  0.3678 -150.3   1.967   73.0  0.1526   38.7  0.5753  -41.6
 1.300  0.3656 -152.1   1.944   72.1  0.1534   38.7  0.5727  -41.9
 1.320  0.3621 -153.6   1.921   71.3  0.1539   38.7  0.5705  -42.2
 1.340  0.3589 -155.1   1.898   70.5  0.1545   38.8  0.5683  -42.5
 1.360  0.3559 -156.6   1.876   69.7  0.1550   38.8  0.5661  -42.8
 1.380  0.3532 -158.2   1.854   68.9  0.1556   38.9  0.5639  -43.1
 1.400  0.3508 -159.8   1.832   68.0  0.1561   38.9  0.5617  -43.4
 1.420  0.3496 -161.3   1.815   67.3  0.1568   39.0  0.5590  -43.7
 1.440  0.3485 -162.8   1.798   66.6  0.1576   39.2  0.5564  -44.0
 1.460  0.3478 -164.3   1.781   65.9  0.1583   39.3  0.5537  -44.3
 1.480  0.3473 -165.9   1.765   65.1  0.1591   39.5  0.5511  -44.6
 1.500  0.3470 -167.4   1.749   64.4  0.1598   39.6  0.5485  -44.9
 1.520  0.3461 -169.1   1.730   63.6  0.1608   39.7  0.5464  -45.2
 1.540  0.3456 -170.8   1.710   62.8  0.1617   39.8  0.5444  -45.5
 1.560  0.3453 -172.6   1.692   62.0  0.1627   39.8  0.5423  -45.8
 1.580  0.3454 -174.3   1.673   61.2  0.1636   39.9  0.5403  -46.1
 1.600  0.3458 -176.0   1.655   60.3  0.1646   40.0  0.5383  -46.4
 1.620  0.3454 -177.5   1.640   59.7  0.1655   40.2  0.5360  -46.7
 1.640  0.3453 -179.0   1.624   59.0  0.1664   40.4  0.5337  -47.0
 1.660  0.3453  179.6   1.609   58.4  0.1673   40.6  0.5315  -47.4
 1.680  0.3457  178.1   1.595   57.7  0.1682   40.8  0.5292  -47.7
 1.700  0.3462  176.6   1.580   57.0  0.1691   41.0  0.5270  -48.0
 1.720  0.3455  175.4   1.566   56.4  0.1703   41.0  0.5261  -48.3
 1.740  0.3450  174.2   1.553   55.8  0.1715   41.1  0.5253  -48.6
 1.760  0.3447  173.0   1.540   55.2  0.1726   41.1  0.5245  -49.0
 1.780  0.3445  171.8   1.527   54.5  0.1738   41.2  0.5237  -49.3
 1.800  0.3444  170.6   1.514   53.9  0.1750   41.2  0.5229  -49.6
 1.820  0.3458  169.3   1.502   53.2  0.1760   41.3  0.5214  -50.0
 1.840  0.3473  168.0   1.491   52.6  0.1770   41.4  0.5199  -50.5
 1.860  0.3491  166.8   1.479   51.9  0.1779   41.6  0.5184  -50.9
 1.880  0.3509  165.5   1.468   51.2  0.1789   41.7  0.5170  -51.4
 1.900  0.3530  164.3   1.457   50.5  0.1799   41.8  0.5156  -51.8
 1.920  0.3532  163.2   1.445   49.9  0.1813   41.9  0.5140  -52.1
 1.940  0.3536  162.1   1.432   49.3  0.1826   41.9  0.5124  -52.4
 1.960  0.3541  160.9   1.420   48.6  0.1840   42.0  0.5108  -52.8
 1.980  0.3547  159.8   1.409   48.0  0.1853   42.0  0.5092  -53.1
 2.000  0.3555  158.7   1.397   47.3  0.1867   42.1  0.5077  -53.4
 2.020  0.3559  157.6   1.387   46.7  0.1880   42.2  0.5059  -53.8
 2.040  0.3565  156.4   1.377   46.2  0.1894   42.4  0.5042  -54.2
 2.060  0.3573  155.3   1.367   45.6  0.1907   42.5  0.5024  -54.7
 2.080  0.3581  154.1   1.357   45.0  0.1920   42.6  0.5007  -55.1
 2.100  0.3591  153.0   1.348   44.5  0.1934   42.8  0.4990  -55.5
 2.120  0.3603  151.9   1.338   43.9  0.1947   42.9  0.4974  -55.9
 2.140  0.3616  150.8   1.329   43.3  0.1961   43.0  0.4958  -56.4
 2.160  0.3630  149.7   1.320   42.6  0.1974   43.2  0.4942  -56.8
 2.180  0.3645  148.6   1.311   42.0  0.1988   43.3  0.4926  -57.3
 2.200  0.3662  147.5   1.302   41.4  0.2001   43.4  0.4911  -57.7
 2.220  0.3680  146.4   1.294   40.9  0.2016   43.4  0.4896  -58.2
 2.240  0.3699  145.4   1.286   40.4  0.2030   43.5  0.4882  -58.6
 2.260  0.3720  144.3   1.279   39.8  0.2045   43.5  0.4868  -59.1
 2.280  0.3742  143.3   1.271   39.3  0.2060   43.6  0.4855  -59.6
 2.300  0.3765  142.3   1.264   38.7  0.2074   43.6  0.4842  -60.1
 2.320  0.3789  141.3   1.256   38.2  0.2089   43.6  0.4829  -60.5
 2.340  0.3814  140.3   1.249   37.6  0.2104   43.7  0.4816  -61.0
 2.360  0.3841  139.3   1.242   37.1  0.2119   43.7  0.4804  -61.5
 2.380  0.3868  138.4   1.235   36.5  0.2133   43.8  0.4792  -62.0
 2.400  0.3897  137.4   1.228   35.9  0.2148   43.8  0.4781  -62.5
 2.420  0.3914  136.5   1.220   35.4  0.2166   43.8  0.4762  -63.0
 2.440  0.3931  135.6   1.213   34.9  0.2184   43.9  0.4744  -63.5
 2.460  0.3950  134.7   1.205   34.4  0.2203   43.9  0.4726  -63.9
 2.480  0.3970  133.8   1.198   33.9  0.2221   43.9  0.4709  -64.4
 2.500  0.3990  132.9   1.191   33.4  0.2239   44.0  0.4692  -64.9
 2.520  0.4012  132.0   1.184   32.9  0.2257   44.0  0.4675  -65.4
 2.540  0.4034  131.1   1.177   32.4  0.2275   44.0  0.4658  -65.9
 2.560  0.4058  130.3   1.170   31.9  0.2294   44.0  0.4642  -66.4
 2.580  0.4082  129.4   1.163   31.3  0.2312   44.1  0.4626  -66.9
 2.600  0.4107  128.6   1.156   30.8  0.2330   44.1  0.4611  -67.4
 2.620  0.4125  127.9   1.150   30.4  0.2348   44.0  0.4597  -68.0
 2.640  0.4144  127.1   1.144   29.9  0.2365   44.0  0.4583  -68.6
 2.660  0.4163  126.4   1.138   29.4  0.2383   43.9  0.4569  -69.1
 2.680  0.4184  125.7   1.131   29.0  0.2400   43.9  0.4556  -69.7
 2.700  0.4204  125.0   1.126   28.5  0.2418   43.8  0.4544  -70.3
 2.720  0.4226  124.3   1.120   28.0  0.2436   43.8  0.4532  -70.9
 2.740  0.4248  123.6   1.114   27.6  0.2453   43.7  0.4521  -71.5
 2.760  0.4271  122.9   1.108   27.1  0.2471   43.7  0.4510  -72.1
 2.780  0.4294  122.2   1.103   26.6  0.2488   43.6  0.4499  -72.7
 2.800  0.4318  121.5   1.097   26.1  0.2506   43.6  0.4489  -73.3
 2.820  0.4340  120.8   1.091   25.6  0.2527   43.5  0.4470  -73.9
 2.840  0.4362  120.1   1.086   25.2  0.2547   43.5  0.4451  -74.5
 2.860  0.4385  119.5   1.080   24.7  0.2568   43.4  0.4432  -75.2
 2.880  0.4408  118.8   1.075   24.2  0.2589   43.3  0.4414  -75.8
 2.900  0.4432  118.2   1.069   23.8  0.2609   43.3  0.4397  -76.4
 2.920  0.4457  117.5   1.064   23.3  0.2630   43.2  0.4380  -77.1
 2.940  0.4482  116.9   1.058   22.8  0.2651   43.2  0.4364  -77.7
 2.960  0.4508  116.2   1.053   22.3  0.2672   43.1  0.4349  -78.4
 2.980  0.4534  115.6   1.048   21.8  0.2692   43.1  0.4333  -79.0
 3.000  0.4561  115.0   1.043   21.3  0.2713   43.0  0.4319  -79.7
 3.100  0.4662  112.1   1.016   19.5  0.2816   42.2  0.4217  -83.3
 3.200  0.4773  109.4   0.990   17.6  0.2920   41.5  0.4132  -87.0
 3.300  0.4896  106.7   0.966   15.6  0.3024   40.8  0.4065  -90.9
 3.400  0.5028  104.3   0.942   13.5  0.3128   40.1  0.4017  -94.8
 3.500  0.5169  101.9   0.920   11.3  0.3233   39.5  0.3989  -98.9
 3.600  0.5246   99.7   0.901    9.7  0.3343   38.4  0.3900 -103.5
 3.700  0.5330   97.5   0.883    8.1  0.3455   37.3  0.3838 -108.3
 3.800  0.5421   95.4   0.865    6.4  0.3567   36.3  0.3803 -113.2
 3.900  0.5520   93.4   0.849    4.6  0.3681   35.4  0.3797 -118.2
 4.000  0.5625   91.5   0.833    2.8  0.3795   34.5  0.3819 -123.1
 4.100  0.5711   89.8   0.817    1.5  0.3902   33.0  0.3765 -128.2
 4.200  0.5802   88.1   0.802    0.2  0.4012   31.6  0.3742 -133.4
 4.300  0.5897   86.5   0.787   -1.1  0.4124   30.3  0.3750 -138.7
 4.400  0.5997   84.9   0.773   -2.5  0.4238   29.0  0.3789 -143.9
 4.500  0.6102   83.4   0.759   -4.0  0.4354   27.8  0.3858 -148.9
 4.600  0.6155   82.0   0.747   -5.1  0.4441   26.1  0.3833 -153.9
 4.700  0.6212   80.6   0.735   -6.2  0.4531   24.5  0.3837 -159.0
 4.800  0.6272   79.2   0.724   -7.4  0.4624   23.0  0.3872 -164.0
 4.900  0.6336   77.9   0.713   -8.6  0.4721   21.5  0.3935 -168.9
 5.000  0.6403   76.6   0.702   -9.8  0.4821   20.1  0.4026 -173.6
 5.100  0.6453   75.3   0.687  -10.8  0.4849   18.3  0.3944 -178.2
 5.200  0.6506   74.1   0.672  -11.9  0.4881   16.6  0.3888  177.0
 5.300  0.6562   72.8   0.658  -13.0  0.4918   14.9  0.3860  172.0
 5.400  0.6622   71.6   0.644  -14.1  0.4959   13.2  0.3861  167.1
 5.500  0.6684   70.4   0.630  -15.3  0.5005   11.5  0.3891  162.2
 5.600  0.6669   69.3   0.629  -15.4  0.5100   10.5  0.4065  160.2
 5.700  0.6657   68.3   0.628  -15.5  0.5197    9.6  0.4243  158.3
 5.800  0.6647   67.2   0.627  -15.6  0.5295    8.7  0.4426  156.6
 5.900  0.6639   66.2   0.626  -15.7  0.5394    7.8  0.4612  155.0
 6.000  0.6633   65.1   0.625  -15.8  0.5495    7.0  0.4801  153.6
!
!  f       NFmin   Gammaopt  rn/50
! GHz       dB    MAG  ANG    -
!
! noise parameter not available yet for this operation point!
!
! (c) 2015  Infineon Technologies AG, Munich
