! Infineon Technologies  Discrete & RF Semiconductors
! BFR35AP
! VCE =  2.0 V,  IC =  25 mA
! Common Emitter S-Parameters:                            Nov 2015
# GHz  S  MA  R  50
!  f         S11            S21            S12            S22
! GHz     MAG   ANG      MAG   ANG      MAG   ANG      MAG   ANG
 0.010  0.4178  -12.0  32.696  172.9  0.0027   86.3  0.9251   -4.0
 0.015  0.4132  -17.5  32.343  169.4  0.0040   82.8  0.9152   -6.2
 0.020  0.4125  -23.0  32.114  165.8  0.0054   81.0  0.9067   -8.4
 0.025  0.4011  -27.8  31.325  163.1  0.0065   78.6  0.8907  -10.0
 0.030  0.3926  -32.8  30.607  160.3  0.0076   76.9  0.8755  -11.7
 0.035  0.3873  -38.0  29.965  157.4  0.0087   75.7  0.8610  -13.4
 0.040  0.3852  -43.3  29.404  154.4  0.0098   74.7  0.8474  -15.2
 0.045  0.3864  -48.6  28.929  151.2  0.0109   73.9  0.8345  -17.0
 0.050  0.3909  -53.8  28.544  148.0  0.0120   73.3  0.8226  -18.9
 0.055  0.3792  -57.1  27.698  146.4  0.0127   72.2  0.8054  -19.6
 0.060  0.3688  -60.5  26.873  144.8  0.0135   71.3  0.7883  -20.3
 0.065  0.3598  -64.2  26.072  143.0  0.0143   70.4  0.7713  -21.1
 0.070  0.3524  -68.0  25.297  141.2  0.0150   69.7  0.7545  -21.9
 0.075  0.3466  -72.0  24.550  139.2  0.0158   69.0  0.7378  -22.7
 0.080  0.3425  -76.1  23.834  137.1  0.0165   68.3  0.7213  -23.6
 0.085  0.3402  -80.3  23.153  134.9  0.0173   67.8  0.7049  -24.5
 0.090  0.3397  -84.5  22.508  132.5  0.0181   67.2  0.6888  -25.5
 0.095  0.3410  -88.7  21.904  130.0  0.0188   66.7  0.6728  -26.5
 0.100  0.3442  -92.8  21.343  127.4  0.0196   66.3  0.6571  -27.5
 0.105  0.3390  -95.0  20.796  126.4  0.0202   66.0  0.6465  -27.7
 0.110  0.3343  -97.2  20.256  125.4  0.0208   65.8  0.6359  -27.9
 0.115  0.3301  -99.5  19.723  124.3  0.0214   65.6  0.6252  -28.1
 0.120  0.3265 -101.8  19.197  123.2  0.0220   65.4  0.6146  -28.3
 0.125  0.3234 -104.2  18.679  122.0  0.0226   65.2  0.6040  -28.5
 0.130  0.3208 -106.6  18.170  120.7  0.0232   65.0  0.5935  -28.7
 0.135  0.3189 -109.1  17.671  119.3  0.0238   64.8  0.5829  -29.0
 0.140  0.3176 -111.6  17.181  117.9  0.0244   64.6  0.5723  -29.2
 0.145  0.3168 -114.1  16.704  116.4  0.0250   64.5  0.5617  -29.4
 0.150  0.3167 -116.6  16.238  114.8  0.0256   64.3  0.5512  -29.7
 0.155  0.3148 -118.2  15.896  114.2  0.0261   64.5  0.5451  -29.7
 0.160  0.3132 -119.7  15.555  113.5  0.0266   64.7  0.5389  -29.6
 0.165  0.3118 -121.3  15.217  112.8  0.0271   64.9  0.5328  -29.6
 0.170  0.3106 -122.9  14.882  112.1  0.0276   65.1  0.5266  -29.5
 0.175  0.3097 -124.5  14.548  111.3  0.0280   65.2  0.5205  -29.5
 0.180  0.3091 -126.2  14.217  110.6  0.0285   65.4  0.5144  -29.4
 0.185  0.3086 -127.8  13.890  109.7  0.0290   65.6  0.5082  -29.4
 0.190  0.3085 -129.4  13.565  108.9  0.0295   65.7  0.5021  -29.3
 0.195  0.3086 -131.1  13.243  108.0  0.0300   65.9  0.4959  -29.3
 0.200  0.3089 -132.7  12.925  107.0  0.0305   66.0  0.4898  -29.2
 0.220  0.3059 -137.3  11.962  105.0  0.0327   66.4  0.4736  -28.8
 0.240  0.3050 -142.0  11.016  102.7  0.0348   66.7  0.4574  -28.3
 0.260  0.3031 -146.1  10.231  100.7  0.0370   67.3  0.4446  -27.9
 0.280  0.2993 -149.4   9.599   99.1  0.0391   68.0  0.4351  -27.6
 0.300  0.2967 -152.9   8.975   97.3  0.0412   68.7  0.4256  -27.2
 0.320  0.2950 -155.4   8.552   96.3  0.0433   69.0  0.4197  -26.9
 0.340  0.2939 -158.0   8.132   95.2  0.0455   69.2  0.4139  -26.7
 0.360  0.2934 -160.6   7.716   94.0  0.0476   69.5  0.4081  -26.4
 0.380  0.2935 -163.1   7.303   92.6  0.0498   69.7  0.4022  -26.1
 0.400  0.2942 -165.7   6.895   91.1  0.0519   69.9  0.3964  -25.8
 0.420  0.2948 -167.5   6.618   90.2  0.0541   70.2  0.3930  -25.7
 0.440  0.2956 -169.3   6.343   89.2  0.0563   70.4  0.3896  -25.6
 0.450  0.2962 -170.2   6.206   88.7  0.0573   70.5  0.3879  -25.6
 0.460  0.2968 -171.1   6.069   88.2  0.0584   70.6  0.3863  -25.5
 0.480  0.2982 -172.9   5.798   87.0  0.0606   70.8  0.3829  -25.4
 0.500  0.2999 -174.6   5.530   85.7  0.0628   71.0  0.3795  -25.3
 0.520  0.2993 -176.0   5.353   84.9  0.0650   71.0  0.3776  -25.3
 0.540  0.2989 -177.4   5.176   84.1  0.0673   71.0  0.3758  -25.4
 0.560  0.2986 -178.8   5.001   83.2  0.0695   70.9  0.3739  -25.4
 0.580  0.2986  179.8   4.827   82.3  0.0718   70.9  0.3721  -25.5
 0.600  0.2987  178.4   4.654   81.3  0.0740   70.9  0.3702  -25.5
 0.620  0.2994  177.1   4.529   80.6  0.0763   70.9  0.3689  -25.7
 0.640  0.3002  175.8   4.404   79.8  0.0786   70.8  0.3676  -25.8
 0.660  0.3012  174.5   4.281   79.0  0.0808   70.8  0.3662  -26.0
 0.680  0.3023  173.3   4.158   78.2  0.0831   70.7  0.3649  -26.1
 0.700  0.3036  172.0   4.036   77.3  0.0854   70.7  0.3636  -26.3
 0.720  0.3038  171.1   3.938   76.6  0.0877   70.6  0.3623  -26.5
 0.740  0.3041  170.1   3.841   75.9  0.0899   70.4  0.3610  -26.7
 0.760  0.3045  169.2   3.744   75.2  0.0922   70.3  0.3597  -26.8
 0.780  0.3050  168.2   3.647   74.4  0.0944   70.2  0.3585  -27.0
 0.800  0.3055  167.3   3.552   73.6  0.0967   70.1  0.3572  -27.2
 0.820  0.3056  166.2   3.476   73.0  0.0990   70.0  0.3560  -27.4
 0.840  0.3059  165.1   3.401   72.4  0.1014   69.9  0.3549  -27.7
 0.860  0.3062  163.9   3.326   71.7  0.1037   69.8  0.3537  -27.9
 0.880  0.3067  162.8   3.252   71.0  0.1061   69.7  0.3525  -28.2
 0.900  0.3073  161.7   3.178   70.3  0.1084   69.6  0.3514  -28.4
 0.920  0.3085  160.7   3.117   69.7  0.1106   69.4  0.3507  -28.7
 0.940  0.3098  159.7   3.056   69.1  0.1129   69.3  0.3499  -29.0
 0.960  0.3112  158.7   2.996   68.4  0.1151   69.2  0.3492  -29.2
 0.980  0.3127  157.8   2.936   67.7  0.1174   69.0  0.3485  -29.5
 1.000  0.3143  156.8   2.877   67.0  0.1196   68.9  0.3478  -29.8
 1.020  0.3169  155.9   2.828   66.4  0.1218   68.7  0.3468  -30.2
 1.040  0.3195  155.0   2.779   65.9  0.1241   68.5  0.3458  -30.6
 1.060  0.3222  154.2   2.731   65.3  0.1263   68.3  0.3449  -30.9
 1.080  0.3250  153.3   2.683   64.6  0.1286   68.2  0.3439  -31.3
 1.100  0.3279  152.5   2.635   64.0  0.1308   68.0  0.3430  -31.7
 1.120  0.3287  151.6   2.595   63.4  0.1331   67.8  0.3419  -32.0
 1.140  0.3296  150.7   2.554   62.8  0.1353   67.6  0.3408  -32.3
 1.160  0.3306  149.8   2.515   62.1  0.1376   67.4  0.3398  -32.7
 1.180  0.3317  148.9   2.475   61.5  0.1398   67.3  0.3387  -33.0
 1.200  0.3328  148.0   2.436   60.8  0.1421   67.1  0.3377  -33.3
 1.220  0.3333  147.5   2.400   60.3  0.1444   66.9  0.3370  -33.7
 1.240  0.3338  146.9   2.364   59.7  0.1466   66.6  0.3363  -34.0
 1.260  0.3344  146.4   2.328   59.2  0.1489   66.4  0.3357  -34.4
 1.280  0.3350  145.8   2.292   58.6  0.1511   66.2  0.3350  -34.7
 1.300  0.3356  145.3   2.257   58.0  0.1534   66.0  0.3344  -35.1
 1.320  0.3373  144.4   2.228   57.5  0.1556   65.8  0.3336  -35.5
 1.340  0.3391  143.6   2.200   57.0  0.1578   65.6  0.3328  -35.9
 1.360  0.3410  142.8   2.171   56.5  0.1599   65.4  0.3320  -36.3
 1.380  0.3429  141.9   2.143   55.9  0.1621   65.2  0.3312  -36.7
 1.400  0.3449  141.1   2.115   55.4  0.1643   65.0  0.3304  -37.1
 1.420  0.3448  140.5   2.093   54.9  0.1666   64.7  0.3294  -37.5
 1.440  0.3447  140.0   2.070   54.3  0.1688   64.5  0.3284  -38.0
 1.460  0.3447  139.4   2.048   53.8  0.1711   64.2  0.3275  -38.4
 1.480  0.3447  138.9   2.027   53.2  0.1734   63.9  0.3265  -38.9
 1.500  0.3447  138.3   2.005   52.6  0.1757   63.7  0.3256  -39.3
 1.520  0.3474  137.5   1.981   52.0  0.1779   63.5  0.3242  -39.7
 1.540  0.3501  136.7   1.956   51.5  0.1801   63.2  0.3229  -40.1
 1.560  0.3529  136.0   1.932   50.9  0.1823   63.0  0.3216  -40.5
 1.580  0.3558  135.2   1.909   50.3  0.1845   62.8  0.3203  -41.0
 1.600  0.3587  134.5   1.885   49.7  0.1867   62.6  0.3190  -41.4
 1.620  0.3602  133.9   1.865   49.2  0.1889   62.4  0.3178  -41.8
 1.640  0.3617  133.2   1.845   48.7  0.1911   62.2  0.3167  -42.2
 1.660  0.3632  132.6   1.826   48.1  0.1933   62.0  0.3155  -42.6
 1.680  0.3648  132.0   1.806   47.6  0.1955   61.8  0.3144  -43.0
 1.700  0.3664  131.4   1.787   47.0  0.1977   61.6  0.3133  -43.4
 1.720  0.3686  130.8   1.771   46.5  0.2000   61.3  0.3125  -43.9
 1.740  0.3708  130.3   1.756   46.1  0.2023   61.1  0.3118  -44.4
 1.760  0.3730  129.7   1.740   45.6  0.2046   60.8  0.3111  -45.0
 1.780  0.3753  129.1   1.725   45.1  0.2069   60.5  0.3104  -45.5
 1.800  0.3776  128.6   1.710   44.6  0.2092   60.3  0.3098  -46.0
 1.820  0.3792  128.1   1.694   44.1  0.2113   60.1  0.3083  -46.5
 1.840  0.3807  127.7   1.678   43.6  0.2134   59.8  0.3069  -47.1
 1.860  0.3823  127.2   1.662   43.0  0.2156   59.6  0.3055  -47.6
 1.880  0.3840  126.8   1.646   42.5  0.2177   59.4  0.3041  -48.2
 1.900  0.3856  126.3   1.631   41.9  0.2198   59.2  0.3027  -48.7
 1.920  0.3869  125.6   1.616   41.4  0.2220   58.9  0.3011  -49.2
 1.940  0.3884  124.9   1.602   41.0  0.2242   58.7  0.2996  -49.7
 1.960  0.3898  124.2   1.587   40.5  0.2264   58.4  0.2980  -50.2
 1.980  0.3913  123.6   1.573   40.0  0.2286   58.1  0.2965  -50.7
 2.000  0.3929  122.9   1.559   39.5  0.2308   57.9  0.2950  -51.2
 2.020  0.3942  122.4   1.547   39.1  0.2330   57.6  0.2936  -51.7
 2.040  0.3955  121.9   1.536   38.6  0.2353   57.3  0.2922  -52.2
 2.060  0.3968  121.5   1.524   38.1  0.2375   57.1  0.2908  -52.8
 2.080  0.3982  121.0   1.513   37.7  0.2397   56.8  0.2895  -53.3
 2.100  0.3996  120.5   1.501   37.2  0.2420   56.5  0.2881  -53.8
 2.120  0.4010  120.0   1.490   36.7  0.2442   56.3  0.2868  -54.4
 2.140  0.4024  119.6   1.479   36.2  0.2465   56.0  0.2856  -54.9
 2.160  0.4039  119.1   1.468   35.7  0.2488   55.8  0.2843  -55.5
 2.180  0.4054  118.7   1.457   35.2  0.2510   55.5  0.2831  -56.0
 2.200  0.4069  118.2   1.446   34.7  0.2533   55.3  0.2819  -56.6
 2.220  0.4092  117.6   1.436   34.2  0.2554   55.0  0.2800  -57.2
 2.240  0.4116  117.0   1.426   33.8  0.2576   54.7  0.2781  -57.8
 2.260  0.4140  116.4   1.416   33.3  0.2598   54.5  0.2762  -58.4
 2.280  0.4165  115.8   1.406   32.8  0.2619   54.2  0.2744  -59.0
 2.300  0.4190  115.2   1.396   32.3  0.2641   53.9  0.2726  -59.6
 2.320  0.4216  114.6   1.387   31.8  0.2663   53.7  0.2708  -60.3
 2.340  0.4242  114.1   1.377   31.3  0.2684   53.4  0.2691  -60.9
 2.360  0.4268  113.5   1.368   30.8  0.2706   53.2  0.2674  -61.6
 2.380  0.4295  112.9   1.358   30.3  0.2728   52.9  0.2657  -62.2
 2.400  0.4322  112.4   1.349   29.8  0.2750   52.7  0.2641  -62.9
 2.420  0.4342  112.0   1.341   29.4  0.2771   52.4  0.2624  -63.5
 2.440  0.4362  111.5   1.332   29.0  0.2792   52.1  0.2607  -64.2
 2.460  0.4382  111.1   1.324   28.6  0.2814   51.8  0.2591  -64.9
 2.480  0.4403  110.6   1.316   28.1  0.2835   51.6  0.2575  -65.5
 2.500  0.4423  110.2   1.308   27.7  0.2856   51.3  0.2559  -66.2
 2.520  0.4444  109.8   1.300   27.3  0.2878   51.0  0.2544  -66.9
 2.540  0.4466  109.3   1.292   26.8  0.2899   50.8  0.2529  -67.6
 2.560  0.4487  108.9   1.284   26.4  0.2921   50.5  0.2514  -68.3
 2.580  0.4509  108.5   1.277   26.0  0.2942   50.3  0.2500  -69.0
 2.600  0.4531  108.1   1.269   25.5  0.2964   50.0  0.2486  -69.7
 2.620  0.4551  107.7   1.262   25.1  0.2985   49.7  0.2465  -70.5
 2.640  0.4571  107.2   1.254   24.7  0.3007   49.4  0.2445  -71.2
 2.660  0.4592  106.8   1.247   24.3  0.3028   49.1  0.2425  -72.0
 2.680  0.4613  106.3   1.240   23.9  0.3050   48.9  0.2406  -72.8
 2.700  0.4634  105.9   1.233   23.5  0.3071   48.6  0.2387  -73.6
 2.720  0.4655  105.5   1.226   23.1  0.3093   48.3  0.2368  -74.4
 2.740  0.4677  105.0   1.219   22.7  0.3114   48.1  0.2350  -75.2
 2.760  0.4699  104.6   1.212   22.3  0.3136   47.8  0.2332  -76.1
 2.780  0.4721  104.2   1.205   21.8  0.3158   47.6  0.2315  -76.9
 2.800  0.4743  103.8   1.198   21.4  0.3180   47.3  0.2299  -77.8
 2.820  0.4762  103.4   1.191   21.0  0.3200   47.0  0.2281  -78.7
 2.840  0.4781  103.0   1.185   20.6  0.3220   46.7  0.2264  -79.5
 2.860  0.4800  102.7   1.178   20.2  0.3240   46.4  0.2247  -80.4
 2.880  0.4819  102.3   1.172   19.8  0.3261   46.1  0.2231  -81.3
 2.900  0.4839  101.9   1.165   19.4  0.3281   45.8  0.2216  -82.2
 2.920  0.4859  101.5   1.159   19.0  0.3301   45.5  0.2201  -83.2
 2.940  0.4879  101.2   1.153   18.6  0.3322   45.2  0.2187  -84.1
 2.960  0.4899  100.8   1.146   18.2  0.3343   45.0  0.2173  -85.1
 2.980  0.4919  100.5   1.140   17.7  0.3363   44.7  0.2160  -86.0
 3.000  0.4940  100.1   1.134   17.3  0.3384   44.4  0.2147  -87.0
 3.100  0.5044   98.3   1.105   15.6  0.3476   42.8  0.2041  -92.2
 3.200  0.5152   96.5   1.077   13.9  0.3570   41.2  0.1952  -97.8
 3.300  0.5265   94.8   1.050   12.0  0.3666   39.8  0.1885 -104.0
 3.400  0.5383   93.2   1.024   10.1  0.3765   38.4  0.1841 -110.5
 3.500  0.5505   91.6   1.000    8.0  0.3866   37.1  0.1821 -117.2
 3.600  0.5584   90.0   0.979    6.6  0.3948   35.6  0.1775 -124.4
 3.700  0.5667   88.5   0.958    5.0  0.4032   34.1  0.1759 -131.8
 3.800  0.5755   87.0   0.938    3.5  0.4119   32.7  0.1772 -139.2
 3.900  0.5846   85.6   0.919    1.8  0.4208   31.4  0.1814 -146.4
 4.000  0.5940   84.2   0.901    0.1  0.4300   30.1  0.1883 -153.2
 4.100  0.6014   82.8   0.884   -1.2  0.4374   28.5  0.1911 -159.9
 4.200  0.6092   81.5   0.867   -2.6  0.4451   27.0  0.1965 -166.4
 4.300  0.6173   80.1   0.851   -4.0  0.4531   25.5  0.2042 -172.4
 4.400  0.6257   78.9   0.835   -5.5  0.4614   24.1  0.2141 -178.0
 4.500  0.6344   77.6   0.820   -7.0  0.4700   22.7  0.2257  177.0
 4.600  0.6391   76.5   0.806   -8.1  0.4756   21.1  0.2328  171.9
 4.700  0.6440   75.4   0.793   -9.3  0.4816   19.6  0.2417  167.2
 4.800  0.6492   74.4   0.780  -10.5  0.4879   18.1  0.2520  162.8
 4.900  0.6545   73.3   0.767  -11.8  0.4945   16.7  0.2638  158.8
 5.000  0.6601   72.3   0.755  -13.1  0.5014   15.3  0.2767  155.1
 5.100  0.6654   71.2   0.739  -14.0  0.5025   13.7  0.2788  150.7
 5.200  0.6710   70.0   0.722  -15.0  0.5041   12.1  0.2826  146.4
 5.300  0.6768   68.9   0.706  -16.0  0.5060   10.6  0.2879  142.3
 5.400  0.6828   67.9   0.691  -17.1  0.5083    9.0  0.2946  138.3
 5.500  0.6891   66.8   0.675  -18.2  0.5109    7.5  0.3027  134.5
 5.600  0.6880   65.8   0.672  -18.5  0.5186    6.6  0.3190  134.2
 5.700  0.6871   64.8   0.668  -18.8  0.5264    5.7  0.3353  133.9
 5.800  0.6865   63.9   0.665  -19.2  0.5343    4.9  0.3516  133.6
 5.900  0.6860   62.9   0.661  -19.5  0.5424    4.1  0.3679  133.4
 6.000  0.6857   61.9   0.658  -19.8  0.5505    3.3  0.3842  133.2
!
!  f       NFmin   Gammaopt  rn/50
! GHz       dB    MAG  ANG    -
!
! noise parameter not available yet for this operation point!
!
! (c) 2015  Infineon Technologies AG, Munich
