! Infineon Technologies  Discrete & RF Semiconductors
! BFR35AP
! VCE =  4.0 V,  IC =  10 mA
! Common Emitter S-Parameters:                            Nov 2015
# GHz  S  MA  R  50
!  f         S11            S21            S12            S22
! GHz     MAG   ANG      MAG   ANG      MAG   ANG      MAG   ANG
 0.010  0.7158   -5.0  22.883  175.8  0.0022   85.2  0.9840   -2.2
 0.015  0.7107   -7.4  22.747  173.7  0.0035   84.4  0.9796   -3.4
 0.020  0.7068   -9.8  22.641  171.6  0.0048   84.0  0.9756   -4.6
 0.025  0.7001  -12.1  22.443  169.8  0.0061   82.2  0.9693   -5.7
 0.030  0.6947  -14.5  22.267  168.0  0.0073   81.1  0.9634   -6.7
 0.035  0.6903  -16.8  22.114  166.2  0.0086   80.3  0.9579   -7.8
 0.040  0.6872  -19.2  21.983  164.4  0.0099   79.6  0.9526   -9.0
 0.045  0.6854  -21.7  21.875  162.5  0.0111   79.2  0.9478  -10.1
 0.050  0.6847  -24.1  21.791  160.6  0.0124   78.8  0.9433  -11.2
 0.055  0.6727  -25.9  21.468  159.2  0.0134   77.5  0.9333  -12.0
 0.060  0.6613  -27.8  21.160  157.7  0.0143   76.4  0.9235  -12.7
 0.065  0.6508  -29.8  20.866  156.1  0.0153   75.4  0.9138  -13.5
 0.070  0.6410  -31.8  20.587  154.6  0.0162   74.6  0.9044  -14.3
 0.075  0.6320  -33.9  20.324  153.0  0.0172   73.8  0.8951  -15.1
 0.080  0.6239  -36.0  20.078  151.3  0.0182   73.1  0.8859  -16.0
 0.085  0.6167  -38.2  19.849  149.6  0.0192   72.5  0.8770  -16.8
 0.090  0.6105  -40.5  19.638  147.9  0.0201   72.0  0.8683  -17.7
 0.095  0.6051  -42.8  19.445  146.1  0.0211   71.5  0.8598  -18.6
 0.100  0.6008  -45.1  19.271  144.3  0.0221   71.0  0.8515  -19.5
 0.105  0.5900  -46.6  18.944  143.2  0.0229   70.3  0.8419  -20.0
 0.110  0.5795  -48.1  18.624  142.0  0.0236   69.6  0.8323  -20.4
 0.115  0.5695  -49.7  18.313  140.8  0.0244   68.9  0.8228  -20.9
 0.120  0.5600  -51.3  18.010  139.5  0.0251   68.3  0.8134  -21.4
 0.125  0.5509  -53.0  17.717  138.2  0.0259   67.7  0.8040  -21.9
 0.130  0.5423  -54.8  17.433  136.8  0.0267   67.2  0.7947  -22.5
 0.135  0.5342  -56.6  17.159  135.4  0.0275   66.7  0.7854  -23.0
 0.140  0.5267  -58.4  16.895  134.0  0.0282   66.2  0.7762  -23.6
 0.145  0.5198  -60.3  16.642  132.5  0.0290   65.7  0.7671  -24.1
 0.150  0.5134  -62.3  16.401  131.0  0.0298   65.3  0.7581  -24.7
 0.155  0.5056  -63.5  16.146  130.2  0.0304   65.0  0.7503  -24.9
 0.160  0.4979  -64.8  15.895  129.4  0.0310   64.7  0.7425  -25.2
 0.165  0.4906  -66.1  15.647  128.6  0.0315   64.5  0.7347  -25.4
 0.170  0.4835  -67.5  15.402  127.7  0.0321   64.2  0.7269  -25.6
 0.175  0.4767  -68.9  15.161  126.8  0.0327   64.0  0.7192  -25.9
 0.180  0.4702  -70.4  14.924  125.9  0.0333   63.8  0.7114  -26.1
 0.185  0.4640  -71.8  14.690  124.9  0.0339   63.5  0.7037  -26.4
 0.190  0.4582  -73.3  14.461  124.0  0.0344   63.3  0.6960  -26.7
 0.195  0.4526  -74.9  14.236  122.9  0.0350   63.1  0.6883  -26.9
 0.200  0.4474  -76.5  14.016  121.9  0.0356   62.9  0.6806  -27.2
 0.220  0.4218  -81.0  13.199  119.2  0.0374   62.5  0.6563  -27.7
 0.240  0.3992  -86.1  12.416  116.1  0.0393   62.2  0.6320  -28.2
 0.260  0.3793  -90.8  11.720  113.4  0.0412   62.1  0.6115  -28.6
 0.280  0.3609  -94.8  11.093  111.3  0.0431   62.2  0.5948  -28.7
 0.300  0.3444  -99.3  10.482  109.0  0.0450   62.3  0.5780  -28.8
 0.320  0.3316 -102.2  10.026  107.7  0.0468   62.3  0.5670  -28.7
 0.340  0.3198 -105.3   9.576  106.3  0.0486   62.3  0.5560  -28.6
 0.360  0.3089 -108.6   9.133  104.7  0.0504   62.3  0.5449  -28.6
 0.380  0.2991 -112.1   8.696  103.0  0.0522   62.3  0.5339  -28.5
 0.400  0.2906 -115.9   8.269  101.1  0.0540   62.3  0.5229  -28.4
 0.420  0.2826 -118.6   7.960   99.9  0.0558   62.6  0.5155  -28.3
 0.440  0.2754 -121.5   7.654   98.7  0.0576   62.9  0.5082  -28.3
 0.450  0.2720 -123.0   7.503   98.0  0.0585   63.1  0.5045  -28.3
 0.460  0.2688 -124.5   7.353   97.3  0.0594   63.2  0.5008  -28.2
 0.480  0.2630 -127.7   7.056   95.8  0.0612   63.5  0.4935  -28.2
 0.500  0.2581 -131.0   6.764   94.2  0.0630   63.7  0.4861  -28.1
 0.520  0.2536 -133.2   6.555   93.3  0.0648   63.9  0.4817  -28.0
 0.540  0.2495 -135.4   6.348   92.4  0.0667   64.0  0.4772  -27.9
 0.560  0.2458 -137.8   6.143   91.4  0.0685   64.1  0.4728  -27.7
 0.580  0.2425 -140.1   5.940   90.3  0.0704   64.3  0.4683  -27.6
 0.600  0.2396 -142.6   5.739   89.2  0.0722   64.4  0.4639  -27.5
 0.620  0.2357 -144.8   5.586   88.3  0.0741   64.5  0.4612  -27.5
 0.640  0.2322 -147.0   5.433   87.4  0.0759   64.7  0.4585  -27.5
 0.660  0.2290 -149.4   5.283   86.5  0.0778   64.8  0.4558  -27.5
 0.680  0.2263 -151.8   5.133   85.5  0.0796   64.9  0.4531  -27.5
 0.700  0.2239 -154.2   4.986   84.4  0.0815   65.0  0.4504  -27.5
 0.720  0.2231 -156.0   4.864   83.7  0.0834   65.0  0.4484  -27.6
 0.740  0.2226 -157.8   4.743   82.9  0.0854   64.9  0.4464  -27.7
 0.760  0.2223 -159.6   4.622   82.1  0.0873   64.9  0.4445  -27.8
 0.780  0.2222 -161.5   4.503   81.3  0.0893   64.8  0.4425  -27.9
 0.800  0.2223 -163.3   4.384   80.4  0.0912   64.8  0.4405  -28.0
 0.820  0.2205 -165.0   4.290   79.7  0.0932   64.8  0.4388  -28.1
 0.840  0.2188 -166.7   4.197   79.0  0.0952   64.8  0.4371  -28.3
 0.860  0.2174 -168.5   4.105   78.2  0.0971   64.8  0.4355  -28.4
 0.880  0.2162 -170.3   4.014   77.4  0.0991   64.8  0.4338  -28.6
 0.900  0.2152 -172.1   3.923   76.6  0.1011   64.8  0.4321  -28.7
 0.920  0.2152 -173.9   3.850   76.0  0.1029   64.8  0.4306  -28.9
 0.940  0.2153 -175.8   3.778   75.4  0.1047   64.7  0.4290  -29.0
 0.960  0.2157 -177.6   3.706   74.8  0.1066   64.7  0.4275  -29.2
 0.980  0.2164 -179.5   3.635   74.1  0.1084   64.6  0.4259  -29.3
 1.000  0.2172  178.7   3.564   73.4  0.1102   64.6  0.4244  -29.5
 1.020  0.2180  177.4   3.507   72.8  0.1122   64.6  0.4234  -29.8
 1.040  0.2189  176.1   3.449   72.1  0.1143   64.5  0.4224  -30.0
 1.060  0.2199  174.8   3.393   71.5  0.1163   64.5  0.4214  -30.3
 1.080  0.2210  173.5   3.337   70.8  0.1184   64.4  0.4204  -30.5
 1.100  0.2222  172.2   3.281   70.1  0.1204   64.4  0.4194  -30.8
 1.120  0.2230  170.9   3.233   69.5  0.1223   64.3  0.4178  -30.9
 1.140  0.2239  169.6   3.185   68.8  0.1243   64.3  0.4162  -31.1
 1.160  0.2249  168.4   3.138   68.2  0.1262   64.2  0.4145  -31.2
 1.180  0.2261  167.1   3.091   67.5  0.1282   64.2  0.4129  -31.4
 1.200  0.2273  165.9   3.045   66.8  0.1301   64.1  0.4113  -31.5
 1.220  0.2271  164.8   3.000   66.3  0.1322   63.9  0.4104  -31.8
 1.240  0.2271  163.7   2.955   65.7  0.1342   63.8  0.4094  -32.0
 1.260  0.2271  162.5   2.910   65.2  0.1363   63.6  0.4085  -32.3
 1.280  0.2272  161.4   2.865   64.6  0.1383   63.5  0.4076  -32.5
 1.300  0.2274  160.3   2.821   64.0  0.1404   63.3  0.4067  -32.8
 1.320  0.2281  159.1   2.782   63.6  0.1422   63.2  0.4058  -33.1
 1.340  0.2289  157.9   2.743   63.1  0.1440   63.1  0.4049  -33.3
 1.360  0.2297  156.7   2.704   62.7  0.1458   63.0  0.4040  -33.6
 1.380  0.2307  155.6   2.665   62.2  0.1476   62.9  0.4032  -33.8
 1.400  0.2318  154.4   2.627   61.7  0.1494   62.8  0.4023  -34.1
 1.420  0.2325  153.7   2.598   61.2  0.1514   62.6  0.4013  -34.4
 1.440  0.2333  153.0   2.570   60.6  0.1534   62.5  0.4004  -34.7
 1.460  0.2340  152.3   2.542   60.1  0.1554   62.3  0.3994  -35.1
 1.480  0.2349  151.7   2.514   59.5  0.1574   62.2  0.3985  -35.4
 1.500  0.2357  151.0   2.486   58.9  0.1594   62.0  0.3976  -35.7
 1.520  0.2386  149.8   2.454   58.3  0.1614   61.8  0.3968  -36.0
 1.540  0.2417  148.7   2.423   57.7  0.1634   61.7  0.3959  -36.3
 1.560  0.2448  147.6   2.392   57.1  0.1655   61.5  0.3951  -36.5
 1.580  0.2480  146.5   2.361   56.5  0.1675   61.4  0.3943  -36.8
 1.600  0.2513  145.5   2.330   55.9  0.1695   61.2  0.3935  -37.1
 1.620  0.2519  144.5   2.306   55.3  0.1714   61.1  0.3921  -37.4
 1.640  0.2526  143.6   2.283   54.7  0.1734   60.9  0.3907  -37.7
 1.660  0.2533  142.7   2.260   54.1  0.1753   60.8  0.3893  -38.0
 1.680  0.2541  141.7   2.237   53.4  0.1773   60.6  0.3880  -38.3
 1.700  0.2550  140.8   2.214   52.8  0.1792   60.5  0.3866  -38.6
 1.720  0.2571  139.8   2.196   52.4  0.1812   60.3  0.3858  -39.0
 1.740  0.2593  138.9   2.178   52.1  0.1831   60.1  0.3850  -39.3
 1.760  0.2616  137.9   2.160   51.7  0.1851   59.9  0.3842  -39.7
 1.780  0.2639  137.0   2.143   51.3  0.1870   59.7  0.3834  -40.0
 1.800  0.2663  136.1   2.125   50.9  0.1890   59.5  0.3826  -40.4
 1.820  0.2688  135.7   2.107   50.4  0.1909   59.3  0.3814  -40.8
 1.840  0.2714  135.4   2.090   49.9  0.1929   59.1  0.3802  -41.2
 1.860  0.2739  135.0   2.073   49.4  0.1948   58.9  0.3790  -41.6
 1.880  0.2765  134.6   2.056   48.8  0.1968   58.8  0.3778  -42.0
 1.900  0.2791  134.3   2.039   48.3  0.1987   58.6  0.3767  -42.4
 1.920  0.2799  133.6   2.018   47.8  0.2007   58.4  0.3755  -42.7
 1.940  0.2808  132.8   1.997   47.3  0.2028   58.2  0.3743  -43.1
 1.960  0.2818  132.1   1.976   46.8  0.2048   58.0  0.3731  -43.4
 1.980  0.2828  131.3   1.955   46.2  0.2069   57.8  0.3720  -43.8
 2.000  0.2838  130.6   1.935   45.7  0.2089   57.6  0.3708  -44.1
 2.020  0.2855  129.9   1.919   45.3  0.2109   57.4  0.3695  -44.5
 2.040  0.2873  129.3   1.904   44.8  0.2129   57.2  0.3682  -44.9
 2.060  0.2890  128.7   1.888   44.4  0.2149   57.0  0.3669  -45.4
 2.080  0.2909  128.0   1.873   43.9  0.2169   56.8  0.3656  -45.8
 2.100  0.2927  127.4   1.858   43.5  0.2189   56.6  0.3643  -46.2
 2.120  0.2946  126.8   1.843   43.0  0.2209   56.4  0.3631  -46.6
 2.140  0.2965  126.2   1.828   42.6  0.2229   56.2  0.3619  -47.1
 2.160  0.2985  125.6   1.813   42.1  0.2249   56.1  0.3607  -47.5
 2.180  0.3005  125.0   1.799   41.6  0.2269   55.9  0.3595  -48.0
 2.200  0.3025  124.4   1.784   41.1  0.2289   55.7  0.3584  -48.4
 2.220  0.3047  123.7   1.771   40.6  0.2309   55.5  0.3567  -48.8
 2.240  0.3069  123.1   1.759   40.1  0.2328   55.3  0.3550  -49.2
 2.260  0.3091  122.4   1.746   39.6  0.2348   55.0  0.3534  -49.7
 2.280  0.3114  121.8   1.734   39.1  0.2368   54.8  0.3518  -50.1
 2.300  0.3138  121.1   1.722   38.6  0.2388   54.6  0.3501  -50.5
 2.320  0.3161  120.5   1.710   38.1  0.2407   54.4  0.3486  -51.0
 2.340  0.3186  119.9   1.698   37.6  0.2427   54.2  0.3470  -51.4
 2.360  0.3210  119.3   1.686   37.1  0.2447   54.0  0.3454  -51.9
 2.380  0.3235  118.7   1.674   36.5  0.2467   53.8  0.3439  -52.3
 2.400  0.3260  118.1   1.663   36.0  0.2487   53.6  0.3424  -52.8
 2.420  0.3286  117.6   1.653   35.5  0.2507   53.4  0.3406  -53.3
 2.440  0.3312  117.1   1.644   35.1  0.2526   53.1  0.3389  -53.7
 2.460  0.3338  116.5   1.634   34.6  0.2546   52.9  0.3372  -54.2
 2.480  0.3365  116.0   1.624   34.1  0.2566   52.7  0.3355  -54.7
 2.500  0.3392  115.6   1.615   33.7  0.2586   52.5  0.3338  -55.1
 2.520  0.3419  115.1   1.606   33.2  0.2606   52.2  0.3322  -55.6
 2.540  0.3446  114.6   1.597   32.7  0.2626   52.0  0.3305  -56.1
 2.560  0.3474  114.1   1.588   32.2  0.2646   51.8  0.3289  -56.6
 2.580  0.3502  113.7   1.579   31.7  0.2666   51.6  0.3274  -57.1
 2.600  0.3530  113.2   1.570   31.2  0.2686   51.4  0.3258  -57.6
 2.620  0.3550  112.7   1.560   30.8  0.2705   51.2  0.3239  -58.1
 2.640  0.3571  112.3   1.550   30.4  0.2725   50.9  0.3221  -58.6
 2.660  0.3591  111.8   1.540   30.0  0.2745   50.7  0.3203  -59.1
 2.680  0.3612  111.4   1.530   29.6  0.2764   50.4  0.3185  -59.6
 2.700  0.3633  110.9   1.521   29.2  0.2784   50.2  0.3167  -60.1
 2.720  0.3655  110.5   1.511   28.8  0.2804   50.0  0.3150  -60.6
 2.740  0.3676  110.1   1.501   28.4  0.2823   49.8  0.3133  -61.1
 2.760  0.3698  109.6   1.492   28.0  0.2843   49.5  0.3116  -61.6
 2.780  0.3720  109.2   1.482   27.5  0.2863   49.3  0.3099  -62.2
 2.800  0.3742  108.8   1.473   27.1  0.2883   49.1  0.3083  -62.7
 2.820  0.3767  108.4   1.466   26.7  0.2902   48.8  0.3065  -63.3
 2.840  0.3793  108.1   1.458   26.2  0.2922   48.6  0.3046  -63.9
 2.860  0.3819  107.7   1.451   25.8  0.2941   48.3  0.3029  -64.5
 2.880  0.3845  107.3   1.444   25.3  0.2961   48.1  0.3011  -65.1
 2.900  0.3871  107.0   1.437   24.9  0.2980   47.9  0.2994  -65.7
 2.920  0.3897  106.6   1.430   24.4  0.3000   47.6  0.2977  -66.3
 2.940  0.3923  106.3   1.423   23.9  0.3020   47.4  0.2961  -67.0
 2.960  0.3950  106.0   1.416   23.5  0.3039   47.2  0.2945  -67.6
 2.980  0.3976  105.6   1.410   23.0  0.3059   46.9  0.2929  -68.2
 3.000  0.4003  105.3   1.403   22.5  0.3079   46.7  0.2914  -68.9
 3.100  0.4118  103.4   1.367   20.8  0.3168   45.3  0.2795  -72.3
 3.200  0.4237  101.6   1.332   19.1  0.3258   44.0  0.2687  -75.9
 3.300  0.4360   99.8   1.299   17.3  0.3350   42.7  0.2591  -79.8
 3.400  0.4487   98.2   1.267   15.3  0.3444   41.5  0.2507  -84.0
 3.500  0.4617   96.7   1.236   13.3  0.3539   40.4  0.2438  -88.5
 3.600  0.4727   95.1   1.207   11.6  0.3626   39.0  0.2342  -93.3
 3.700  0.4840   93.6   1.180    9.9  0.3716   37.7  0.2263  -98.4
 3.800  0.4956   92.1   1.154    8.0  0.3807   36.5  0.2204 -103.9
 3.900  0.5076   90.7   1.129    6.1  0.3900   35.3  0.2167 -109.6
 4.000  0.5198   89.4   1.105    4.1  0.3994   34.2  0.2151 -115.5
 4.100  0.5296   88.1   1.084    2.6  0.4076   32.7  0.2093 -121.4
 4.200  0.5396   86.8   1.063    1.1  0.4161   31.4  0.2059 -127.5
 4.300  0.5499   85.5   1.044   -0.5  0.4249   30.0  0.2049 -133.8
 4.400  0.5605   84.3   1.025   -2.1  0.4338   28.7  0.2063 -140.1
 4.500  0.5713   83.2   1.007   -3.8  0.4430   27.5  0.2102 -146.2
 4.600  0.5790   82.0   0.987   -5.3  0.4498   26.0  0.2106 -152.1
 4.700  0.5870   80.8   0.968   -6.9  0.4569   24.5  0.2132 -158.0
 4.800  0.5952   79.6   0.950   -8.6  0.4643   23.1  0.2180 -163.6
 4.900  0.6036   78.5   0.933  -10.3  0.4720   21.7  0.2248 -169.0
 5.000  0.6123   77.4   0.916  -12.1  0.4799   20.4  0.2334 -174.0
 5.100  0.6210   76.1   0.892  -13.4  0.4824   18.8  0.2306 -179.4
 5.200  0.6300   74.9   0.869  -14.8  0.4852   17.2  0.2299  175.2
 5.300  0.6392   73.6   0.847  -16.2  0.4884   15.7  0.2312  169.8
 5.400  0.6488   72.4   0.824  -17.7  0.4919   14.1  0.2346  164.4
 5.500  0.6586   71.3   0.803  -19.3  0.4958   12.6  0.2400  159.3
 5.600  0.6581   70.3   0.797  -19.9  0.5048   11.7  0.2586  158.0
 5.700  0.6578   69.3   0.790  -20.4  0.5138   10.9  0.2774  156.8
 5.800  0.6577   68.2   0.784  -21.0  0.5230   10.1  0.2962  155.8
 5.900  0.6579   67.2   0.778  -21.6  0.5322    9.3  0.3151  154.9
 6.000  0.6582   66.2   0.772  -22.2  0.5416    8.6  0.3341  154.1
!
!  f       NFmin   Gammaopt  rn/50
! GHz       dB    MAG  ANG    -
!
! noise parameter not available yet for this operation point!
!
! (c) 2015  Infineon Technologies AG, Munich
