! Infineon Technologies  Discrete & RF Semiconductors
! BFR35AP
! VCE =  3.5 V,  IC =  3.5 mA
! Common Emitter S-Parameters:                            Nov 2015
# GHz  S  MA  R  50
!  f         S11            S21            S12            S22
! GHz     MAG   ANG      MAG   ANG      MAG   ANG      MAG   ANG
 0.010  0.8735   -2.7  10.544  177.9  0.0026   91.4  0.9952   -1.2
 0.015  0.8739   -4.1  10.456  176.7  0.0042   88.5  0.9907   -1.8
 0.020  0.8747   -5.4  10.373  175.4  0.0059   87.2  0.9863   -2.5
 0.025  0.8722   -6.7  10.367  174.3  0.0073   85.7  0.9852   -3.1
 0.030  0.8702   -8.0  10.364  173.2  0.0087   84.7  0.9843   -3.8
 0.035  0.8686   -9.3  10.366  172.1  0.0101   84.0  0.9835   -4.4
 0.040  0.8675  -10.7  10.371  171.1  0.0115   83.5  0.9828   -5.0
 0.045  0.8668  -12.0  10.380  170.0  0.0129   83.0  0.9822   -5.7
 0.050  0.8666  -13.3  10.392  168.9  0.0143   82.7  0.9817   -6.3
 0.055  0.8603  -14.5  10.348  167.9  0.0156   81.5  0.9781   -6.9
 0.060  0.8544  -15.8  10.307  166.9  0.0170   80.5  0.9745   -7.4
 0.065  0.8490  -17.1  10.269  165.8  0.0183   79.7  0.9711   -8.0
 0.070  0.8439  -18.3  10.234  164.8  0.0197   79.0  0.9678   -8.6
 0.075  0.8393  -19.6  10.203  163.8  0.0211   78.3  0.9646   -9.2
 0.080  0.8351  -20.9  10.176  162.7  0.0224   77.8  0.9614   -9.8
 0.085  0.8314  -22.3  10.151  161.7  0.0238   77.3  0.9584  -10.4
 0.090  0.8281  -23.6  10.130  160.6  0.0252   76.8  0.9555  -11.0
 0.095  0.8253  -24.9  10.113  159.6  0.0265   76.5  0.9527  -11.6
 0.100  0.8229  -26.3  10.099  158.5  0.0279   76.1  0.9500  -12.2
 0.105  0.8167  -27.4  10.013  157.5  0.0290   75.2  0.9451  -12.7
 0.110  0.8108  -28.5   9.929  156.6  0.0302   74.4  0.9402  -13.2
 0.115  0.8052  -29.7   9.848  155.6  0.0313   73.6  0.9354  -13.6
 0.120  0.8000  -30.8   9.771  154.6  0.0325   72.9  0.9307  -14.1
 0.125  0.7950  -32.0   9.696  153.5  0.0336   72.3  0.9260  -14.6
 0.130  0.7904  -33.2   9.625  152.5  0.0348   71.7  0.9214  -15.1
 0.135  0.7862  -34.3   9.557  151.4  0.0360   71.1  0.9169  -15.6
 0.140  0.7823  -35.6   9.492  150.4  0.0371   70.6  0.9125  -16.2
 0.145  0.7787  -36.8   9.430  149.3  0.0383   70.1  0.9081  -16.7
 0.150  0.7755  -38.0   9.372  148.2  0.0395   69.6  0.9038  -17.2
 0.155  0.7685  -39.0   9.309  147.4  0.0404   69.0  0.8987  -17.6
 0.160  0.7618  -40.1   9.248  146.5  0.0413   68.5  0.8936  -17.9
 0.165  0.7553  -41.1   9.189  145.7  0.0423   68.0  0.8886  -18.3
 0.170  0.7491  -42.2   9.131  144.8  0.0432   67.5  0.8836  -18.7
 0.175  0.7431  -43.3   9.076  144.0  0.0441   67.1  0.8787  -19.1
 0.180  0.7374  -44.5   9.023  143.1  0.0450   66.6  0.8738  -19.5
 0.185  0.7321  -45.6   8.972  142.2  0.0460   66.2  0.8689  -19.9
 0.190  0.7270  -46.7   8.924  141.3  0.0469   65.8  0.8641  -20.3
 0.195  0.7222  -47.9   8.877  140.4  0.0479   65.4  0.8593  -20.7
 0.200  0.7177  -49.1   8.833  139.5  0.0488   65.0  0.8546  -21.1
 0.220  0.6906  -52.8   8.536  136.5  0.0518   63.1  0.8331  -22.3
 0.240  0.6667  -56.9   8.263  133.4  0.0549   61.5  0.8121  -23.6
 0.260  0.6451  -60.7   7.984  130.5  0.0578   60.1  0.7927  -24.7
 0.280  0.6251  -64.2   7.689  128.1  0.0606   59.1  0.7749  -25.6
 0.300  0.6075  -67.9   7.410  125.4  0.0633   58.1  0.7573  -26.6
 0.320  0.5857  -70.6   7.172  123.6  0.0654   57.3  0.7427  -27.1
 0.340  0.5652  -73.4   6.942  121.7  0.0676   56.6  0.7281  -27.7
 0.360  0.5463  -76.5   6.720  119.6  0.0697   55.9  0.7136  -28.3
 0.380  0.5290  -79.8   6.508  117.4  0.0719   55.2  0.6992  -28.9
 0.400  0.5136  -83.3   6.305  115.1  0.0741   54.6  0.6849  -29.5
 0.420  0.4971  -85.7   6.109  113.5  0.0756   54.2  0.6729  -29.8
 0.440  0.4815  -88.2   5.919  111.8  0.0772   53.8  0.6609  -30.1
 0.450  0.4741  -89.5   5.826  110.9  0.0779   53.6  0.6549  -30.3
 0.460  0.4670  -90.9   5.734  110.0  0.0787   53.4  0.6489  -30.5
 0.480  0.4535  -93.8   5.555  108.1  0.0803   53.1  0.6369  -30.8
 0.500  0.4412  -96.8   5.383  106.0  0.0818   52.7  0.6250  -31.2
 0.520  0.4303  -99.1   5.240  104.8  0.0833   52.6  0.6169  -31.4
 0.540  0.4201 -101.5   5.099  103.5  0.0848   52.4  0.6088  -31.5
 0.560  0.4106 -104.0   4.960  102.1  0.0862   52.3  0.6007  -31.7
 0.580  0.4020 -106.7   4.825  100.7  0.0877   52.1  0.5926  -31.9
 0.600  0.3943 -109.4   4.693   99.2  0.0892   52.0  0.5845  -32.1
 0.620  0.3860 -111.2   4.581   98.1  0.0907   51.9  0.5790  -32.3
 0.640  0.3780 -113.2   4.471   97.0  0.0922   51.8  0.5735  -32.4
 0.660  0.3705 -115.2   4.362   95.8  0.0937   51.8  0.5680  -32.6
 0.680  0.3635 -117.2   4.256   94.6  0.0952   51.7  0.5625  -32.7
 0.700  0.3570 -119.4   4.151   93.3  0.0967   51.6  0.5570  -32.9
 0.720  0.3511 -121.3   4.056   92.3  0.0981   51.6  0.5525  -33.0
 0.740  0.3455 -123.3   3.963   91.3  0.0995   51.6  0.5480  -33.2
 0.760  0.3404 -125.3   3.870   90.3  0.1010   51.5  0.5435  -33.3
 0.780  0.3358 -127.4   3.779   89.2  0.1024   51.5  0.5390  -33.5
 0.800  0.3316 -129.6   3.690   88.0  0.1038   51.5  0.5345  -33.6
 0.820  0.3252 -131.4   3.620   87.1  0.1052   51.6  0.5308  -33.7
 0.840  0.3192 -133.3   3.550   86.2  0.1067   51.7  0.5271  -33.9
 0.860  0.3135 -135.3   3.482   85.2  0.1081   51.7  0.5235  -34.0
 0.880  0.3082 -137.4   3.414   84.2  0.1096   51.8  0.5198  -34.2
 0.900  0.3033 -139.5   3.348   83.2  0.1110   51.9  0.5161  -34.3
 0.920  0.2993 -141.5   3.291   82.4  0.1123   52.0  0.5132  -34.5
 0.940  0.2956 -143.6   3.235   81.6  0.1136   52.0  0.5103  -34.6
 0.960  0.2923 -145.7   3.180   80.7  0.1149   52.1  0.5074  -34.8
 0.980  0.2895 -147.8   3.125   79.8  0.1162   52.1  0.5045  -34.9
 1.000  0.2870 -150.0   3.071   78.9  0.1175   52.2  0.5016  -35.1
 1.020  0.2846 -151.9   3.023   78.2  0.1190   52.3  0.4993  -35.3
 1.040  0.2825 -153.8   2.976   77.4  0.1204   52.4  0.4969  -35.5
 1.060  0.2807 -155.8   2.930   76.6  0.1219   52.5  0.4946  -35.8
 1.080  0.2793 -157.8   2.883   75.8  0.1233   52.6  0.4923  -36.0
 1.100  0.2782 -159.8   2.838   75.0  0.1248   52.7  0.4900  -36.2
 1.120  0.2762 -161.4   2.796   74.3  0.1263   52.8  0.4878  -36.4
 1.140  0.2745 -162.9   2.754   73.5  0.1278   52.8  0.4856  -36.6
 1.160  0.2729 -164.5   2.713   72.8  0.1292   52.9  0.4834  -36.8
 1.180  0.2716 -166.2   2.672   72.0  0.1307   52.9  0.4813  -37.0
 1.200  0.2705 -167.8   2.632   71.2  0.1322   53.0  0.4791  -37.2
 1.220  0.2701 -169.3   2.595   70.6  0.1337   53.0  0.4774  -37.4
 1.240  0.2698 -170.8   2.557   69.9  0.1353   53.0  0.4756  -37.6
 1.260  0.2697 -172.4   2.521   69.2  0.1368   53.0  0.4739  -37.8
 1.280  0.2699 -173.9   2.484   68.5  0.1384   53.0  0.4722  -38.0
 1.300  0.2702 -175.4   2.448   67.8  0.1399   53.0  0.4705  -38.2
 1.320  0.2696 -176.8   2.415   67.2  0.1414   53.1  0.4693  -38.5
 1.340  0.2692 -178.2   2.383   66.5  0.1430   53.1  0.4681  -38.7
 1.360  0.2689 -179.7   2.351   65.9  0.1445   53.2  0.4669  -39.0
 1.380  0.2688  178.9   2.319   65.2  0.1461   53.2  0.4657  -39.2
 1.400  0.2689  177.5   2.288   64.5  0.1476   53.3  0.4645  -39.5
 1.420  0.2680  176.4   2.264   63.9  0.1492   53.3  0.4631  -39.8
 1.440  0.2672  175.3   2.240   63.3  0.1507   53.3  0.4616  -40.1
 1.460  0.2665  174.2   2.216   62.7  0.1523   53.3  0.4602  -40.3
 1.480  0.2659  173.0   2.193   62.1  0.1538   53.3  0.4588  -40.6
 1.500  0.2654  171.9   2.170   61.5  0.1554   53.3  0.4574  -40.9
 1.520  0.2676  170.3   2.144   60.8  0.1571   53.3  0.4559  -41.2
 1.540  0.2701  168.7   2.119   60.1  0.1588   53.2  0.4543  -41.5
 1.560  0.2727  167.1   2.094   59.4  0.1604   53.2  0.4528  -41.8
 1.580  0.2756  165.6   2.069   58.7  0.1621   53.1  0.4513  -42.1
 1.600  0.2786  164.1   2.045   57.9  0.1638   53.1  0.4498  -42.4
 1.620  0.2790  162.8   2.026   57.3  0.1655   53.1  0.4485  -42.7
 1.640  0.2796  161.4   2.006   56.8  0.1673   53.1  0.4472  -43.0
 1.660  0.2804  160.1   1.987   56.2  0.1690   53.0  0.4459  -43.3
 1.680  0.2813  158.8   1.969   55.6  0.1708   53.0  0.4447  -43.6
 1.700  0.2823  157.5   1.950   55.0  0.1725   53.0  0.4434  -43.9
 1.720  0.2834  156.4   1.933   54.5  0.1742   52.9  0.4423  -44.2
 1.740  0.2846  155.2   1.916   53.9  0.1760   52.9  0.4412  -44.5
 1.760  0.2859  154.1   1.900   53.3  0.1777   52.8  0.4401  -44.9
 1.780  0.2874  153.0   1.883   52.8  0.1795   52.8  0.4390  -45.2
 1.800  0.2889  151.9   1.867   52.2  0.1812   52.7  0.4379  -45.5
 1.820  0.2906  151.0   1.851   51.6  0.1829   52.7  0.4364  -45.9
 1.840  0.2923  150.1   1.836   51.1  0.1846   52.6  0.4350  -46.3
 1.860  0.2941  149.2   1.821   50.5  0.1864   52.6  0.4336  -46.7
 1.880  0.2960  148.4   1.806   49.9  0.1881   52.5  0.4322  -47.1
 1.900  0.2979  147.5   1.791   49.3  0.1898   52.5  0.4308  -47.5
 1.920  0.2994  146.5   1.774   48.8  0.1917   52.4  0.4292  -47.8
 1.940  0.3011  145.5   1.758   48.2  0.1935   52.3  0.4276  -48.2
 1.960  0.3028  144.5   1.742   47.7  0.1954   52.3  0.4261  -48.5
 1.980  0.3046  143.6   1.726   47.1  0.1972   52.2  0.4245  -48.9
 2.000  0.3065  142.6   1.710   46.5  0.1991   52.1  0.4230  -49.2
 2.020  0.3078  141.8   1.696   46.0  0.2009   52.0  0.4218  -49.6
 2.040  0.3091  141.0   1.683   45.5  0.2027   51.9  0.4206  -50.0
 2.060  0.3105  140.3   1.670   45.0  0.2045   51.8  0.4194  -50.4
 2.080  0.3119  139.5   1.657   44.5  0.2063   51.7  0.4182  -50.8
 2.100  0.3134  138.8   1.644   44.0  0.2081   51.6  0.4170  -51.2
 2.120  0.3150  138.0   1.631   43.4  0.2099   51.5  0.4159  -51.6
 2.140  0.3166  137.3   1.618   42.9  0.2117   51.5  0.4148  -52.0
 2.160  0.3182  136.5   1.606   42.3  0.2135   51.4  0.4137  -52.5
 2.180  0.3199  135.8   1.593   41.8  0.2153   51.3  0.4126  -52.9
 2.200  0.3217  135.1   1.581   41.2  0.2171   51.2  0.4116  -53.3
 2.220  0.3238  134.2   1.571   40.7  0.2190   51.1  0.4097  -53.7
 2.240  0.3260  133.3   1.561   40.2  0.2209   51.0  0.4079  -54.1
 2.260  0.3283  132.4   1.551   39.7  0.2229   50.9  0.4061  -54.6
 2.280  0.3307  131.5   1.542   39.2  0.2248   50.7  0.4043  -55.0
 2.300  0.3331  130.6   1.532   38.7  0.2267   50.6  0.4025  -55.5
 2.320  0.3356  129.8   1.523   38.2  0.2286   50.5  0.4008  -55.9
 2.340  0.3382  128.9   1.514   37.6  0.2305   50.4  0.3990  -56.3
 2.360  0.3409  128.1   1.505   37.1  0.2325   50.3  0.3973  -56.8
 2.380  0.3436  127.3   1.496   36.5  0.2344   50.2  0.3957  -57.2
 2.400  0.3464  126.5   1.487   36.0  0.2363   50.1  0.3940  -57.7
 2.420  0.3487  125.8   1.477   35.6  0.2382   49.9  0.3925  -58.2
 2.440  0.3510  125.1   1.467   35.1  0.2401   49.8  0.3911  -58.7
 2.460  0.3533  124.5   1.457   34.7  0.2420   49.6  0.3896  -59.2
 2.480  0.3557  123.8   1.447   34.2  0.2439   49.4  0.3882  -59.7
 2.500  0.3582  123.2   1.438   33.8  0.2458   49.3  0.3869  -60.2
 2.520  0.3607  122.6   1.428   33.3  0.2477   49.1  0.3855  -60.7
 2.540  0.3632  121.9   1.419   32.8  0.2497   49.0  0.3842  -61.2
 2.560  0.3658  121.3   1.409   32.4  0.2516   48.8  0.3830  -61.7
 2.580  0.3684  120.7   1.400   31.9  0.2535   48.6  0.3817  -62.2
 2.600  0.3711  120.1   1.391   31.4  0.2554   48.5  0.3805  -62.7
 2.620  0.3731  119.5   1.384   31.0  0.2574   48.3  0.3785  -63.2
 2.640  0.3751  118.9   1.377   30.5  0.2594   48.2  0.3766  -63.8
 2.660  0.3771  118.3   1.370   30.1  0.2614   48.0  0.3746  -64.3
 2.680  0.3792  117.7   1.363   29.6  0.2634   47.8  0.3727  -64.8
 2.700  0.3813  117.1   1.356   29.2  0.2654   47.7  0.3709  -65.4
 2.720  0.3835  116.5   1.350   28.7  0.2674   47.5  0.3690  -65.9
 2.740  0.3857  116.0   1.343   28.2  0.2694   47.4  0.3673  -66.5
 2.760  0.3879  115.4   1.337   27.8  0.2715   47.2  0.3655  -67.1
 2.780  0.3902  114.9   1.330   27.3  0.2735   47.0  0.3638  -67.6
 2.800  0.3925  114.3   1.324   26.8  0.2755   46.9  0.3621  -68.2
 2.820  0.3949  113.8   1.316   26.4  0.2774   46.7  0.3605  -68.8
 2.840  0.3974  113.2   1.308   25.9  0.2793   46.5  0.3590  -69.4
 2.860  0.3999  112.7   1.301   25.5  0.2812   46.3  0.3575  -70.0
 2.880  0.4024  112.2   1.293   25.0  0.2831   46.1  0.3560  -70.7
 2.900  0.4050  111.7   1.285   24.6  0.2851   45.9  0.3546  -71.3
 2.920  0.4076  111.2   1.278   24.1  0.2870   45.7  0.3532  -71.9
 2.940  0.4102  110.7   1.271   23.6  0.2889   45.5  0.3518  -72.6
 2.960  0.4129  110.2   1.263   23.2  0.2908   45.4  0.3506  -73.2
 2.980  0.4156  109.8   1.256   22.7  0.2928   45.2  0.3493  -73.8
 3.000  0.4183  109.3   1.249   22.2  0.2947   45.0  0.3481  -74.5
 3.100  0.4303  107.0   1.217   20.4  0.3042   43.8  0.3371  -77.9
 3.200  0.4429  104.8   1.187   18.4  0.3138   42.6  0.3274  -81.6
 3.300  0.4562  102.7   1.157   16.4  0.3235   41.6  0.3191  -85.4
 3.400  0.4700  100.7   1.130   14.2  0.3333   40.6  0.3123  -89.5
 3.500  0.4843   98.9   1.104   12.0  0.3432   39.6  0.3072  -93.7
 3.600  0.4932   97.0   1.080   10.4  0.3528   38.3  0.2980  -98.3
 3.700  0.5026   95.2   1.056    8.7  0.3626   37.1  0.2908 -103.2
 3.800  0.5125   93.5   1.034    6.9  0.3725   36.0  0.2859 -108.4
 3.900  0.5229   91.8   1.012    5.0  0.3825   34.9  0.2833 -113.6
 4.000  0.5337   90.2   0.992    3.1  0.3927   33.9  0.2831 -118.9
 4.100  0.5431   88.7   0.974    1.6  0.4017   32.4  0.2773 -124.2
 4.200  0.5528   87.2   0.956    0.1  0.4110   31.0  0.2741 -129.8
 4.300  0.5629   85.8   0.939   -1.5  0.4205   29.6  0.2734 -135.4
 4.400  0.5734   84.4   0.923   -3.1  0.4302   28.3  0.2754 -141.0
 4.500  0.5841   83.1   0.907   -4.8  0.4402   27.1  0.2799 -146.4
 4.600  0.5902   81.8   0.891   -6.1  0.4479   25.6  0.2798 -151.8
 4.700  0.5966   80.6   0.875   -7.5  0.4559   24.1  0.2823 -157.2
 4.800  0.6033   79.4   0.859   -9.0  0.4642   22.6  0.2872 -162.5
 4.900  0.6102   78.2   0.844  -10.5  0.4728   21.2  0.2944 -167.5
 5.000  0.6174   77.1   0.830  -12.0  0.4817   19.9  0.3038 -172.3
 5.100  0.6251   75.8   0.809  -13.1  0.4843   18.2  0.2991 -177.2
 5.200  0.6332   74.6   0.789  -14.3  0.4873   16.6  0.2967  177.8
 5.300  0.6415   73.4   0.769  -15.6  0.4907   15.0  0.2965  172.7
 5.400  0.6501   72.2   0.749  -16.9  0.4944   13.4  0.2987  167.6
 5.500  0.6590   71.1   0.730  -18.3  0.4986   11.8  0.3032  162.7
 5.600  0.6582   70.0   0.725  -18.6  0.5076   10.9  0.3212  160.8
 5.700  0.6576   68.9   0.720  -18.9  0.5167   10.0  0.3395  159.2
 5.800  0.6573   67.8   0.714  -19.2  0.5260    9.2  0.3581  157.7
 5.900  0.6572   66.7   0.709  -19.6  0.5353    8.4  0.3768  156.3
 6.000  0.6574   65.6   0.704  -19.9  0.5448    7.6  0.3958  155.1
!
!  f       NFmin   Gammaopt  rn/50
! GHz       dB    MAG  ANG    -
!
! noise parameter not available yet for this operation point!
!
! (c) 2015  Infineon Technologies AG, Munich
