! Infineon Technologies  Discrete & RF Semiconductors
! BFR340F
! VCE =  1.0 V,  IC =  5.0 mA
! Common Emitter S-Parameters:                            Nov 2015
# GHz  S  MA  R  50
!  f         S11            S21            S12            S22
! GHz     MAG   ANG      MAG   ANG      MAG   ANG      MAG   ANG
 0.030  0.8770   -3.7  12.321  177.4  0.0039   86.2  0.9817   -1.9
 0.035  0.8790   -4.4  12.315  176.8  0.0046   86.6  0.9813   -2.2
 0.040  0.8811   -5.1  12.311  176.1  0.0053   86.9  0.9810   -2.5
 0.045  0.8781   -5.6  12.282  175.4  0.0059   87.6  0.9806   -2.8
 0.050  0.8752   -6.2  12.255  174.7  0.0066   88.1  0.9802   -3.2
 0.055  0.8775   -6.8  12.248  174.4  0.0072   86.7  0.9799   -3.5
 0.060  0.8799   -7.4  12.241  174.0  0.0079   85.5  0.9796   -3.9
 0.065  0.8772   -8.1  12.283  173.4  0.0085   85.4  0.9791   -4.2
 0.070  0.8746   -8.9  12.326  172.8  0.0092   85.4  0.9786   -4.5
 0.075  0.8732   -9.4  12.297  172.5  0.0098   85.1  0.9778   -4.8
 0.080  0.8719  -10.0  12.269  172.1  0.0105   84.8  0.9771   -5.2
 0.085  0.8729  -10.7  12.266  171.6  0.0112   84.3  0.9761   -5.5
 0.090  0.8741  -11.3  12.264  171.1  0.0119   83.8  0.9751   -5.8
 0.095  0.8734  -11.8  12.219  170.6  0.0125   83.5  0.9742   -6.1
 0.100  0.8727  -12.4  12.174  170.1  0.0132   83.3  0.9734   -6.4
 0.105  0.8715  -13.0  12.171  169.7  0.0138   82.9  0.9723   -6.7
 0.110  0.8704  -13.6  12.169  169.2  0.0144   82.6  0.9712   -7.1
 0.115  0.8680  -14.3  12.169  168.7  0.0150   82.5  0.9702   -7.4
 0.120  0.8657  -15.0  12.170  168.2  0.0156   82.4  0.9692   -7.7
 0.125  0.8641  -15.5  12.147  167.8  0.0162   82.0  0.9677   -8.0
 0.130  0.8626  -16.1  12.125  167.3  0.0168   81.6  0.9663   -8.4
 0.135  0.8615  -16.7  12.119  166.8  0.0174   81.2  0.9650   -8.7
 0.140  0.8604  -17.3  12.115  166.2  0.0181   80.8  0.9638   -9.0
 0.145  0.8585  -17.9  12.077  165.7  0.0187   80.4  0.9624   -9.3
 0.150  0.8567  -18.5  12.041  165.1  0.0193   80.0  0.9610   -9.6
 0.155  0.8545  -19.1  12.017  164.6  0.0199   79.6  0.9592   -9.9
 0.160  0.8525  -19.7  11.993  164.2  0.0205   79.3  0.9574  -10.2
 0.165  0.8505  -20.3  11.970  163.7  0.0211   79.0  0.9556  -10.5
 0.170  0.8486  -20.9  11.948  163.2  0.0217   78.6  0.9539  -10.8
 0.175  0.8468  -21.5  11.926  162.8  0.0223   78.4  0.9522  -11.1
 0.180  0.8451  -22.1  11.906  162.3  0.0229   78.1  0.9505  -11.4
 0.185  0.8435  -22.7  11.886  161.8  0.0235   77.8  0.9488  -11.7
 0.190  0.8420  -23.3  11.867  161.4  0.0241   77.6  0.9472  -12.0
 0.195  0.8406  -23.9  11.849  160.9  0.0247   77.3  0.9456  -12.3
 0.200  0.8393  -24.5  11.832  160.4  0.0253   77.1  0.9440  -12.6
 0.220  0.8307  -26.7  11.711  158.6  0.0275   75.8  0.9360  -13.7
 0.240  0.8234  -29.0  11.601  156.7  0.0298   74.8  0.9283  -14.8
 0.260  0.8151  -31.3  11.479  155.0  0.0319   73.7  0.9200  -15.9
 0.280  0.8057  -33.5  11.343  153.3  0.0340   72.6  0.9109  -16.9
 0.300  0.7975  -35.7  11.216  151.6  0.0361   71.7  0.9021  -17.9
 0.320  0.7871  -37.8  11.071  150.0  0.0381   70.7  0.8924  -18.8
 0.340  0.7777  -39.9  10.934  148.3  0.0400   69.7  0.8829  -19.8
 0.360  0.7678  -42.0  10.791  146.7  0.0419   68.8  0.8731  -20.7
 0.380  0.7572  -43.9  10.638  145.2  0.0436   68.0  0.8632  -21.5
 0.400  0.7475  -45.9  10.492  143.6  0.0454   67.2  0.8534  -22.4
 0.420  0.7366  -47.8  10.338  142.2  0.0470   66.4  0.8434  -23.2
 0.440  0.7265  -49.8  10.191  140.7  0.0486   65.6  0.8336  -24.0
 0.450  0.7218  -50.8  10.120  140.0  0.0494   65.2  0.8288  -24.4
 0.460  0.7165  -51.7  10.043  139.3  0.0502   64.8  0.8237  -24.8
 0.480  0.7063  -53.5   9.892  137.9  0.0517   64.1  0.8136  -25.5
 0.500  0.6969  -55.3   9.748  136.5  0.0532   63.4  0.8036  -26.2
 0.520  0.6857  -56.9   9.595  135.3  0.0545   62.7  0.7939  -26.8
 0.540  0.6751  -58.6   9.446  134.1  0.0558   62.1  0.7843  -27.4
 0.560  0.6650  -60.4   9.302  132.8  0.0571   61.5  0.7747  -28.0
 0.580  0.6556  -62.2   9.162  131.5  0.0584   60.9  0.7653  -28.6
 0.600  0.6469  -64.0   9.027  130.2  0.0597   60.3  0.7559  -29.2
 0.620  0.6369  -65.5   8.885  129.2  0.0608   59.8  0.7470  -29.6
 0.640  0.6272  -67.0   8.746  128.1  0.0619   59.4  0.7382  -30.1
 0.660  0.6181  -68.5   8.610  127.0  0.0630   58.9  0.7294  -30.5
 0.680  0.6094  -70.1   8.477  125.9  0.0642   58.5  0.7207  -31.0
 0.700  0.6012  -71.8   8.348  124.7  0.0653   58.1  0.7120  -31.5
 0.720  0.5924  -73.2   8.218  123.8  0.0662   57.8  0.7042  -31.9
 0.740  0.5839  -74.6   8.090  122.9  0.0672   57.4  0.6963  -32.2
 0.760  0.5759  -76.0   7.965  121.9  0.0681   57.1  0.6886  -32.6
 0.780  0.5681  -77.5   7.842  120.9  0.0691   56.8  0.6808  -33.0
 0.800  0.5608  -79.0   7.721  119.9  0.0700   56.5  0.6731  -33.4
 0.820  0.5531  -80.3   7.608  119.1  0.0708   56.2  0.6661  -33.7
 0.840  0.5456  -81.5   7.497  118.3  0.0717   56.0  0.6591  -34.0
 0.860  0.5384  -82.9   7.387  117.4  0.0725   55.7  0.6522  -34.3
 0.880  0.5315  -84.2   7.279  116.5  0.0734   55.4  0.6452  -34.6
 0.900  0.5249  -85.6   7.173  115.6  0.0742   55.2  0.6383  -34.9
 0.920  0.5181  -86.8   7.071  114.9  0.0750   55.0  0.6322  -35.1
 0.940  0.5115  -88.0   6.971  114.1  0.0757   54.8  0.6262  -35.4
 0.960  0.5051  -89.2   6.872  113.3  0.0765   54.6  0.6201  -35.6
 0.980  0.4990  -90.5   6.774  112.5  0.0772   54.5  0.6141  -35.9
 1.000  0.4931  -91.8   6.678  111.7  0.0780   54.3  0.6081  -36.1
 1.020  0.4874  -92.9   6.587  111.0  0.0787   54.2  0.6029  -36.3
 1.040  0.4818  -94.0   6.496  110.4  0.0794   54.1  0.5977  -36.5
 1.060  0.4764  -95.2   6.407  109.7  0.0801   54.0  0.5925  -36.6
 1.080  0.4713  -96.4   6.318  108.9  0.0808   53.9  0.5874  -36.8
 1.100  0.4663  -97.6   6.231  108.2  0.0815   53.8  0.5822  -37.0
 1.120  0.4611  -98.7   6.150  107.6  0.0821   53.7  0.5775  -37.2
 1.140  0.4561  -99.8   6.070  107.0  0.0828   53.6  0.5727  -37.4
 1.160  0.4512 -100.9   5.990  106.4  0.0834   53.6  0.5680  -37.5
 1.180  0.4465 -102.0   5.911  105.8  0.0841   53.5  0.5633  -37.7
 1.200  0.4420 -103.2   5.833  105.1  0.0847   53.4  0.5586  -37.9
 1.220  0.4379 -104.2   5.761  104.5  0.0853   53.4  0.5547  -38.0
 1.240  0.4339 -105.1   5.689  104.0  0.0860   53.3  0.5509  -38.2
 1.260  0.4300 -106.1   5.618  103.4  0.0866   53.3  0.5470  -38.3
 1.280  0.4263 -107.2   5.548  102.8  0.0873   53.2  0.5432  -38.5
 1.300  0.4227 -108.2   5.478  102.2  0.0879   53.2  0.5393  -38.6
 1.320  0.4192 -109.1   5.413  101.7  0.0885   53.2  0.5357  -38.7
 1.340  0.4157 -110.1   5.349  101.2  0.0891   53.2  0.5321  -38.9
 1.360  0.4124 -111.1   5.285  100.6  0.0897   53.2  0.5284  -39.0
 1.380  0.4093 -112.1   5.221  100.1  0.0903   53.2  0.5248  -39.2
 1.400  0.4062 -113.1   5.158   99.5  0.0909   53.2  0.5212  -39.3
 1.420  0.4028 -114.0   5.101   99.0  0.0915   53.2  0.5183  -39.4
 1.440  0.3994 -115.0   5.044   98.5  0.0921   53.2  0.5155  -39.5
 1.460  0.3962 -115.9   4.987   98.0  0.0926   53.3  0.5126  -39.7
 1.480  0.3931 -116.9   4.931   97.5  0.0932   53.3  0.5098  -39.8
 1.500  0.3901 -117.9   4.875   97.0  0.0938   53.3  0.5069  -39.9
 1.520  0.3873 -118.8   4.823   96.6  0.0944   53.3  0.5042  -40.0
 1.540  0.3847 -119.7   4.770   96.1  0.0950   53.4  0.5015  -40.1
 1.560  0.3821 -120.6   4.719   95.7  0.0956   53.4  0.4988  -40.2
 1.580  0.3796 -121.5   4.667   95.2  0.0962   53.5  0.4961  -40.3
 1.600  0.3772 -122.4   4.616   94.7  0.0968   53.5  0.4934  -40.4
 1.620  0.3749 -123.2   4.569   94.3  0.0974   53.5  0.4912  -40.5
 1.640  0.3726 -124.0   4.522   93.8  0.0980   53.6  0.4890  -40.6
 1.660  0.3704 -124.8   4.475   93.4  0.0985   53.6  0.4868  -40.8
 1.680  0.3683 -125.6   4.429   93.0  0.0991   53.7  0.4846  -40.9
 1.700  0.3663 -126.4   4.383   92.5  0.0997   53.7  0.4824  -41.0
 1.720  0.3645 -127.1   4.341   92.1  0.1003   53.8  0.4805  -41.1
 1.740  0.3627 -127.9   4.298   91.8  0.1009   53.8  0.4785  -41.2
 1.760  0.3610 -128.6   4.256   91.4  0.1014   53.9  0.4766  -41.2
 1.780  0.3594 -129.3   4.215   91.0  0.1020   53.9  0.4746  -41.3
 1.800  0.3578 -130.1   4.173   90.6  0.1026   54.0  0.4727  -41.4
 1.820  0.3560 -130.9   4.135   90.2  0.1032   54.1  0.4709  -41.5
 1.840  0.3543 -131.7   4.097   89.8  0.1038   54.1  0.4691  -41.6
 1.860  0.3526 -132.5   4.059   89.4  0.1043   54.2  0.4674  -41.8
 1.880  0.3510 -133.3   4.021   89.0  0.1049   54.2  0.4656  -41.9
 1.900  0.3495 -134.1   3.984   88.6  0.1055   54.3  0.4638  -42.0
 1.920  0.3481 -134.7   3.949   88.2  0.1061   54.4  0.4624  -42.1
 1.940  0.3468 -135.4   3.914   87.9  0.1067   54.5  0.4611  -42.2
 1.960  0.3455 -136.1   3.880   87.5  0.1072   54.5  0.4597  -42.2
 1.980  0.3442 -136.7   3.845   87.1  0.1078   54.6  0.4584  -42.3
 2.000  0.3430 -137.4   3.811   86.7  0.1084   54.7  0.4570  -42.4
 2.020  0.3417 -138.1   3.779   86.4  0.1090   54.8  0.4558  -42.5
 2.040  0.3404 -138.7   3.748   86.0  0.1096   54.8  0.4545  -42.6
 2.060  0.3391 -139.4   3.717   85.7  0.1102   54.9  0.4533  -42.7
 2.080  0.3379 -140.1   3.685   85.4  0.1108   55.0  0.4521  -42.8
 2.100  0.3368 -140.7   3.654   85.0  0.1113   55.1  0.4509  -42.9
 2.120  0.3356 -141.4   3.623   84.7  0.1119   55.1  0.4497  -43.1
 2.140  0.3346 -142.1   3.593   84.3  0.1125   55.2  0.4484  -43.2
 2.160  0.3336 -142.8   3.562   83.9  0.1131   55.3  0.4472  -43.3
 2.180  0.3326 -143.5   3.531   83.6  0.1137   55.3  0.4460  -43.4
 2.200  0.3317 -144.2   3.501   83.2  0.1143   55.4  0.4448  -43.5
 2.220  0.3308 -144.8   3.475   82.9  0.1149   55.5  0.4438  -43.6
 2.240  0.3300 -145.4   3.450   82.6  0.1155   55.6  0.4428  -43.7
 2.260  0.3291 -146.0   3.424   82.3  0.1162   55.6  0.4419  -43.9
 2.280  0.3283 -146.6   3.399   82.0  0.1168   55.7  0.4409  -44.0
 2.300  0.3276 -147.2   3.373   81.7  0.1174   55.8  0.4399  -44.1
 2.320  0.3269 -147.8   3.348   81.3  0.1180   55.9  0.4390  -44.2
 2.340  0.3262 -148.4   3.323   81.0  0.1186   56.0  0.4380  -44.3
 2.360  0.3256 -149.0   3.298   80.7  0.1193   56.0  0.4370  -44.5
 2.380  0.3250 -149.6   3.273   80.3  0.1199   56.1  0.4361  -44.6
 2.400  0.3244 -150.2   3.248   80.0  0.1205   56.2  0.4351  -44.7
 2.420  0.3238 -150.8   3.225   79.7  0.1211   56.3  0.4343  -44.8
 2.440  0.3231 -151.3   3.202   79.4  0.1217   56.3  0.4336  -45.0
 2.460  0.3226 -151.9   3.180   79.1  0.1224   56.4  0.4328  -45.1
 2.480  0.3220 -152.5   3.157   78.9  0.1230   56.5  0.4320  -45.2
 2.500  0.3215 -153.1   3.134   78.6  0.1236   56.6  0.4313  -45.3
 2.520  0.3210 -153.7   3.112   78.3  0.1242   56.6  0.4305  -45.5
 2.540  0.3206 -154.2   3.090   77.9  0.1248   56.7  0.4298  -45.6
 2.560  0.3201 -154.8   3.067   77.6  0.1255   56.8  0.4290  -45.7
 2.580  0.3198 -155.4   3.045   77.3  0.1261   56.8  0.4282  -45.9
 2.600  0.3194 -156.0   3.023   77.0  0.1267   56.9  0.4275  -46.0
 2.620  0.3189 -156.5   3.003   76.7  0.1273   57.0  0.4270  -46.1
 2.640  0.3184 -156.9   2.984   76.4  0.1280   57.0  0.4265  -46.3
 2.660  0.3179 -157.4   2.965   76.2  0.1286   57.1  0.4260  -46.4
 2.680  0.3175 -157.9   2.945   75.9  0.1293   57.2  0.4255  -46.6
 2.700  0.3170 -158.4   2.926   75.6  0.1299   57.3  0.4250  -46.7
 2.720  0.3166 -158.9   2.907   75.3  0.1306   57.3  0.4245  -46.8
 2.740  0.3162 -159.3   2.888   75.0  0.1312   57.4  0.4240  -47.0
 2.760  0.3159 -159.8   2.869   74.7  0.1319   57.5  0.4235  -47.1
 2.780  0.3155 -160.3   2.850   74.4  0.1325   57.5  0.4230  -47.3
 2.800  0.3152 -160.8   2.831   74.1  0.1332   57.6  0.4225  -47.4
 2.820  0.3148 -161.3   2.814   73.8  0.1338   57.7  0.4222  -47.5
 2.840  0.3145 -161.7   2.797   73.6  0.1345   57.7  0.4219  -47.7
 2.860  0.3142 -162.2   2.780   73.3  0.1351   57.8  0.4215  -47.8
 2.880  0.3139 -162.6   2.763   73.1  0.1358   57.8  0.4212  -48.0
 2.900  0.3136 -163.1   2.747   72.8  0.1364   57.9  0.4209  -48.1
 2.920  0.3133 -163.6   2.730   72.5  0.1371   58.0  0.4206  -48.2
 2.940  0.3131 -164.0   2.713   72.2  0.1377   58.0  0.4203  -48.4
 2.960  0.3129 -164.5   2.697   72.0  0.1384   58.1  0.4200  -48.5
 2.980  0.3127 -164.9   2.680   71.7  0.1390   58.1  0.4197  -48.7
 3.000  0.3125 -165.4   2.664   71.4  0.1397   58.2  0.4194  -48.8
 3.100  0.3101 -167.4   2.595   70.3  0.1432   58.5  0.4193  -49.4
 3.200  0.3081 -169.3   2.526   69.2  0.1466   58.8  0.4193  -50.0
 3.300  0.3064 -171.3   2.459   68.0  0.1501   59.1  0.4194  -50.7
 3.400  0.3051 -173.4   2.393   66.7  0.1536   59.3  0.4195  -51.3
 3.500  0.3042 -175.4   2.328   65.4  0.1571   59.6  0.4196  -51.9
 3.600  0.3026 -177.2   2.278   64.4  0.1608   59.8  0.4200  -52.4
 3.700  0.3014 -179.0   2.228   63.3  0.1645   60.0  0.4204  -53.0
 3.800  0.3004  179.1   2.179   62.2  0.1683   60.2  0.4209  -53.5
 3.900  0.2998  177.3   2.131   61.1  0.1720   60.4  0.4214  -54.1
 4.000  0.2995  175.4   2.084   59.9  0.1757   60.6  0.4220  -54.6
 4.100  0.2998  173.7   2.046   59.0  0.1797   60.7  0.4211  -55.3
 4.200  0.3004  171.9   2.008   58.0  0.1837   60.9  0.4202  -56.0
 4.300  0.3012  170.2   1.971   57.0  0.1877   61.0  0.4194  -56.8
 4.400  0.3023  168.5   1.935   55.9  0.1917   61.1  0.4187  -57.5
 4.500  0.3037  166.8   1.899   54.8  0.1957   61.2  0.4180  -58.2
 4.600  0.3051  165.0   1.869   53.8  0.1999   61.2  0.4164  -59.1
 4.700  0.3068  163.2   1.840   52.9  0.2041   61.3  0.4149  -60.0
 4.800  0.3088  161.5   1.812   51.8  0.2084   61.3  0.4135  -60.9
 4.900  0.3111  159.7   1.784   50.8  0.2126   61.4  0.4122  -61.9
 5.000  0.3137  158.0   1.757   49.7  0.2168   61.4  0.4110  -62.8
 5.100  0.3153  156.2   1.732   48.8  0.2213   61.4  0.4094  -63.6
 5.200  0.3173  154.5   1.708   47.9  0.2258   61.3  0.4079  -64.5
 5.300  0.3195  152.8   1.684   46.9  0.2303   61.3  0.4064  -65.3
 5.400  0.3220  151.1   1.661   45.9  0.2348   61.2  0.4051  -66.1
 5.500  0.3248  149.4   1.638   44.9  0.2393   61.2  0.4038  -67.0
 5.600  0.3272  147.8   1.617   44.1  0.2443   61.1  0.4016  -68.1
 5.700  0.3299  146.2   1.597   43.2  0.2493   61.0  0.3996  -69.1
 5.800  0.3328  144.6   1.577   42.3  0.2544   60.9  0.3977  -70.2
 5.900  0.3359  143.1   1.558   41.4  0.2594   60.8  0.3959  -71.3
 6.000  0.3393  141.6   1.539   40.5  0.2644   60.7  0.3943  -72.4
!
!  f       NFmin   Gammaopt  rn/50
! GHz       dB    MAG  ANG    -
 0.100      0.95  0.54    1   0.31
 0.450      1.09  0.48    3   0.33
 0.900      1.10  0.48   12   0.36
 1.900      1.33  0.35   18   0.33
 2.400      1.45  0.32   29   0.31
!
! (c) 2015  Infineon Technologies AG, Munich
