! Infineon Technologies  Discrete & RF Semiconductors
! BFR380F
! VCE =  1.0 V,  IC =  70 mA
! Common Emitter S-Parameters:                            Nov 2015
# GHz  S  MA  R  50
!  f         S11            S21            S12            S22
! GHz     MAG   ANG      MAG   ANG      MAG   ANG      MAG   ANG
 0.030  0.4183 -114.0  54.808  147.5  0.0084   65.4  0.5207  -49.8
 0.035  0.4576 -119.8  52.083  143.7  0.0092   62.7  0.5015  -56.3
 0.040  0.5008 -124.6  49.611  139.5  0.0101   60.5  0.4893  -63.3
 0.045  0.5307 -128.8  47.083  136.3  0.0108   58.3  0.4732  -69.0
 0.050  0.5631 -132.6  44.721  132.7  0.0115   56.3  0.4622  -75.1
 0.055  0.5843 -135.8  42.418  130.3  0.0120   55.1  0.4481  -79.8
 0.060  0.6072 -138.7  40.199  127.6  0.0126   54.1  0.4372  -84.8
 0.065  0.6231 -141.3  38.254  125.3  0.0130   53.2  0.4254  -88.9
 0.070  0.6403 -143.8  36.376  122.8  0.0135   52.3  0.4160  -93.3
 0.075  0.6528 -145.7  34.725  121.2  0.0138   51.6  0.4069  -96.8
 0.080  0.6660 -147.5  33.104  119.4  0.0142   50.9  0.3995 -100.5
 0.085  0.6746 -149.0  31.670  118.0  0.0145   50.4  0.3919 -103.6
 0.090  0.6837 -150.5  30.257  116.5  0.0149   49.9  0.3856 -106.9
 0.095  0.6901 -152.0  29.039  115.3  0.0152   50.0  0.3796 -109.6
 0.100  0.6969 -153.5  27.835  113.9  0.0155   50.0  0.3745 -112.3
 0.105  0.7022 -154.7  26.807  112.8  0.0158   50.0  0.3696 -114.7
 0.110  0.7078 -155.8  25.789  111.7  0.0160   50.0  0.3653 -117.1
 0.115  0.7118 -156.9  24.852  110.8  0.0163   50.1  0.3613 -119.2
 0.120  0.7160 -157.9  23.922  109.8  0.0166   50.2  0.3579 -121.4
 0.125  0.7199 -158.7  23.116  109.0  0.0168   50.3  0.3546 -123.2
 0.130  0.7239 -159.4  22.315  108.1  0.0171   50.4  0.3517 -125.1
 0.135  0.7270 -160.4  21.624  107.4  0.0173   50.7  0.3489 -126.8
 0.140  0.7303 -161.3  20.937  106.7  0.0176   50.9  0.3465 -128.5
 0.145  0.7322 -162.0  20.287  106.0  0.0179   51.1  0.3442 -130.0
 0.150  0.7342 -162.6  19.641  105.3  0.0182   51.3  0.3422 -131.5
 0.155  0.7356 -163.1  19.172  104.9  0.0185   51.7  0.3403 -132.6
 0.160  0.7370 -163.7  18.705  104.5  0.0187   52.0  0.3384 -133.7
 0.165  0.7386 -164.2  18.238  104.1  0.0190   52.4  0.3367 -134.8
 0.170  0.7402 -164.7  17.773  103.6  0.0192   52.7  0.3352 -135.9
 0.175  0.7418 -165.3  17.308  103.1  0.0195   53.1  0.3337 -137.0
 0.180  0.7435 -165.8  16.845  102.6  0.0198   53.4  0.3324 -138.1
 0.185  0.7453 -166.3  16.384  102.1  0.0200   53.7  0.3312 -139.2
 0.190  0.7471 -166.9  15.923  101.5  0.0203   54.0  0.3301 -140.4
 0.195  0.7490 -167.4  15.465  100.9  0.0205   54.3  0.3292 -141.5
 0.200  0.7510 -167.9  15.008  100.3  0.0208   54.6  0.3284 -142.7
 0.220  0.7533 -169.2  13.869   99.2  0.0219   55.9  0.3250 -145.6
 0.240  0.7559 -170.5  12.737   97.9  0.0230   57.1  0.3225 -148.5
 0.260  0.7585 -171.7  11.773   96.7  0.0242   58.2  0.3207 -151.1
 0.280  0.7609 -172.8  10.975   95.7  0.0253   59.3  0.3193 -153.2
 0.300  0.7635 -173.8  10.180   94.5  0.0265   60.2  0.3183 -155.3
 0.320  0.7643 -174.6   9.611   93.8  0.0277   61.1  0.3175 -156.9
 0.340  0.7653 -175.4   9.044   93.0  0.0290   62.0  0.3169 -158.4
 0.360  0.7659 -176.1   8.546   92.3  0.0302   62.8  0.3165 -159.8
 0.380  0.7662 -176.8   8.116   91.6  0.0314   63.5  0.3161 -160.9
 0.400  0.7666 -177.5   7.687   90.8  0.0326   64.2  0.3158 -162.1
 0.420  0.7673 -178.1   7.348   90.2  0.0339   64.8  0.3156 -163.1
 0.440  0.7681 -178.6   7.011   89.6  0.0352   65.3  0.3156 -164.1
 0.450  0.7685 -178.9   6.842   89.3  0.0358   65.6  0.3156 -164.6
 0.460  0.7688 -179.1   6.706   89.0  0.0364   65.9  0.3156 -165.0
 0.480  0.7694 -179.6   6.436   88.5  0.0377   66.3  0.3156 -165.8
 0.500  0.7700  179.9   6.166   87.9  0.0389   66.8  0.3157 -166.6
 0.520  0.7703  179.5   5.962   87.5  0.0402   67.2  0.3159 -167.2
 0.540  0.7706  179.0   5.759   87.1  0.0415   67.6  0.3160 -167.8
 0.560  0.7709  178.6   5.555   86.6  0.0427   67.9  0.3163 -168.4
 0.580  0.7713  178.1   5.352   86.1  0.0440   68.3  0.3165 -169.0
 0.600  0.7718  177.7   5.150   85.6  0.0453   68.6  0.3168 -169.6
 0.620  0.7719  177.3   5.004   85.2  0.0466   68.9  0.3171 -170.0
 0.640  0.7721  176.9   4.858   84.8  0.0479   69.1  0.3174 -170.5
 0.660  0.7723  176.6   4.712   84.4  0.0491   69.4  0.3177 -170.9
 0.680  0.7725  176.2   4.566   84.0  0.0504   69.6  0.3180 -171.4
 0.700  0.7728  175.8   4.421   83.5  0.0517   69.8  0.3184 -171.8
 0.720  0.7727  175.5   4.312   83.1  0.0530   70.0  0.3187 -172.2
 0.740  0.7727  175.1   4.203   82.8  0.0543   70.2  0.3190 -172.5
 0.760  0.7727  174.8   4.094   82.4  0.0556   70.4  0.3193 -172.9
 0.780  0.7727  174.4   3.985   81.9  0.0569   70.5  0.3196 -173.2
 0.800  0.7727  174.1   3.877   81.5  0.0582   70.7  0.3199 -173.6
 0.820  0.7729  173.8   3.792   81.2  0.0595   70.8  0.3203 -173.9
 0.840  0.7732  173.5   3.708   80.9  0.0608   70.9  0.3208 -174.2
 0.860  0.7735  173.2   3.623   80.5  0.0620   71.0  0.3213 -174.4
 0.880  0.7738  172.9   3.539   80.2  0.0633   71.1  0.3217 -174.7
 0.900  0.7741  172.6   3.455   79.8  0.0646   71.2  0.3222 -175.0
 0.920  0.7742  172.3   3.386   79.5  0.0659   71.3  0.3226 -175.2
 0.940  0.7742  172.0   3.317   79.2  0.0672   71.3  0.3231 -175.5
 0.960  0.7743  171.7   3.249   78.8  0.0686   71.4  0.3236 -175.7
 0.980  0.7745  171.4   3.180   78.5  0.0699   71.4  0.3240 -176.0
 1.000  0.7746  171.1   3.112   78.1  0.0712   71.5  0.3245 -176.2
 1.020  0.7748  170.8   3.058   77.8  0.0725   71.6  0.3249 -176.4
 1.040  0.7750  170.6   3.004   77.5  0.0738   71.6  0.3253 -176.6
 1.060  0.7753  170.3   2.950   77.2  0.0750   71.7  0.3258 -176.7
 1.080  0.7755  170.1   2.897   76.8  0.0763   71.7  0.3262 -176.9
 1.100  0.7758  169.8   2.843   76.5  0.0776   71.8  0.3266 -177.1
 1.120  0.7760  169.5   2.796   76.2  0.0789   71.8  0.3271 -177.3
 1.140  0.7762  169.3   2.750   75.9  0.0802   71.8  0.3277 -177.5
 1.160  0.7764  169.0   2.704   75.6  0.0814   71.8  0.3282 -177.6
 1.180  0.7766  168.8   2.657   75.3  0.0827   71.8  0.3288 -177.8
 1.200  0.7769  168.5   2.611   75.0  0.0840   71.8  0.3293 -178.0
 1.220  0.7770  168.2   2.573   74.7  0.0853   71.8  0.3297 -178.1
 1.240  0.7771  168.0   2.534   74.4  0.0866   71.8  0.3301 -178.3
 1.260  0.7772  167.7   2.496   74.1  0.0879   71.8  0.3305 -178.4
 1.280  0.7773  167.5   2.458   73.7  0.0892   71.8  0.3309 -178.6
 1.300  0.7775  167.2   2.420   73.4  0.0905   71.8  0.3313 -178.7
 1.320  0.7776  167.0   2.386   73.1  0.0918   71.8  0.3319 -178.8
 1.340  0.7777  166.7   2.353   72.9  0.0931   71.8  0.3324 -178.9
 1.360  0.7778  166.5   2.319   72.6  0.0943   71.7  0.3330 -179.1
 1.380  0.7780  166.2   2.285   72.3  0.0956   71.7  0.3335 -179.2
 1.400  0.7781  166.0   2.252   72.0  0.0969   71.7  0.3341 -179.3
 1.420  0.7785  165.8   2.224   71.7  0.0982   71.7  0.3346 -179.4
 1.440  0.7789  165.5   2.196   71.4  0.0995   71.7  0.3350 -179.5
 1.460  0.7793  165.3   2.168   71.1  0.1007   71.6  0.3355 -179.7
 1.480  0.7797  165.0   2.140   70.8  0.1020   71.6  0.3359 -179.8
 1.500  0.7801  164.8   2.112   70.5  0.1033   71.6  0.3364 -179.9
 1.520  0.7800  164.6   2.087   70.3  0.1046   71.6  0.3369 -180.0
 1.540  0.7799  164.4   2.063   70.0  0.1059   71.5  0.3374  180.0
 1.560  0.7798  164.1   2.038   69.7  0.1071   71.5  0.3378  179.9
 1.580  0.7798  163.9   2.014   69.5  0.1084   71.4  0.3383  179.9
 1.600  0.7797  163.7   1.989   69.2  0.1097   71.4  0.3388  179.8
 1.620  0.7800  163.5   1.967   68.9  0.1110   71.3  0.3392  179.7
 1.640  0.7802  163.2   1.946   68.7  0.1122   71.3  0.3396  179.6
 1.660  0.7805  163.0   1.924   68.4  0.1135   71.2  0.3400  179.5
 1.680  0.7808  162.7   1.903   68.1  0.1147   71.2  0.3404  179.4
 1.700  0.7811  162.5   1.881   67.8  0.1160   71.1  0.3408  179.3
 1.720  0.7811  162.3   1.862   67.5  0.1173   71.1  0.3412  179.2
 1.740  0.7812  162.1   1.842   67.3  0.1186   71.0  0.3416  179.2
 1.760  0.7813  161.9   1.823   67.0  0.1198   71.0  0.3419  179.1
 1.780  0.7813  161.7   1.803   66.7  0.1211   70.9  0.3423  179.1
 1.800  0.7814  161.5   1.784   66.4  0.1224   70.9  0.3427  179.0
 1.820  0.7816  161.3   1.767   66.2  0.1237   70.8  0.3432  178.9
 1.840  0.7818  161.1   1.749   65.9  0.1249   70.8  0.3436  178.8
 1.860  0.7820  160.8   1.732   65.6  0.1262   70.7  0.3441  178.7
 1.880  0.7823  160.6   1.714   65.4  0.1274   70.7  0.3445  178.6
 1.900  0.7825  160.4   1.697   65.1  0.1287   70.6  0.3450  178.5
 1.920  0.7823  160.2   1.682   64.9  0.1300   70.5  0.3452  178.5
 1.940  0.7821  160.0   1.667   64.6  0.1313   70.5  0.3454  178.5
 1.960  0.7819  159.8   1.652   64.4  0.1325   70.4  0.3455  178.4
 1.980  0.7818  159.6   1.637   64.1  0.1338   70.4  0.3457  178.4
 2.000  0.7816  159.4   1.622   63.9  0.1351   70.3  0.3459  178.4
 2.020  0.7815  159.2   1.609   63.7  0.1363   70.2  0.3462  178.3
 2.040  0.7814  159.0   1.596   63.4  0.1376   70.1  0.3465  178.3
 2.060  0.7814  158.8   1.583   63.2  0.1388   70.1  0.3468  178.2
 2.080  0.7813  158.6   1.570   62.9  0.1401   70.0  0.3471  178.2
 2.100  0.7813  158.4   1.557   62.7  0.1413   69.9  0.3474  178.1
 2.120  0.7812  158.1   1.544   62.4  0.1426   69.9  0.3477  178.0
 2.140  0.7812  157.9   1.531   62.1  0.1438   69.8  0.3480  178.0
 2.160  0.7812  157.7   1.519   61.9  0.1451   69.7  0.3483  177.9
 2.180  0.7812  157.5   1.506   61.6  0.1463   69.7  0.3486  177.9
 2.200  0.7812  157.3   1.493   61.3  0.1476   69.6  0.3489  177.8
 2.220  0.7812  157.1   1.482   61.1  0.1488   69.5  0.3492  177.7
 2.240  0.7812  156.9   1.471   60.9  0.1501   69.4  0.3494  177.6
 2.260  0.7812  156.7   1.460   60.6  0.1513   69.3  0.3497  177.6
 2.280  0.7812  156.5   1.449   60.4  0.1526   69.3  0.3500  177.5
 2.300  0.7812  156.3   1.438   60.2  0.1538   69.2  0.3502  177.4
 2.320  0.7812  156.2   1.427   60.0  0.1551   69.1  0.3505  177.3
 2.340  0.7812  156.0   1.416   59.7  0.1563   69.0  0.3508  177.2
 2.360  0.7813  155.8   1.406   59.5  0.1576   68.9  0.3511  177.2
 2.380  0.7813  155.6   1.395   59.2  0.1588   68.9  0.3513  177.1
 2.400  0.7814  155.4   1.384   59.0  0.1601   68.8  0.3516  177.0
 2.420  0.7812  155.2   1.375   58.8  0.1613   68.7  0.3519  176.9
 2.440  0.7810  155.0   1.366   58.5  0.1626   68.6  0.3521  176.9
 2.460  0.7808  154.8   1.357   58.3  0.1638   68.5  0.3524  176.8
 2.480  0.7806  154.6   1.348   58.1  0.1651   68.5  0.3526  176.8
 2.500  0.7804  154.4   1.339   57.8  0.1663   68.4  0.3529  176.7
 2.520  0.7803  154.2   1.330   57.6  0.1676   68.3  0.3532  176.6
 2.540  0.7801  154.0   1.321   57.4  0.1688   68.2  0.3534  176.6
 2.560  0.7800  153.8   1.312   57.1  0.1701   68.2  0.3537  176.5
 2.580  0.7798  153.6   1.303   56.9  0.1713   68.1  0.3539  176.5
 2.600  0.7797  153.4   1.294   56.6  0.1726   68.0  0.3542  176.4
 2.620  0.7797  153.2   1.287   56.4  0.1739   67.9  0.3544  176.3
 2.640  0.7796  153.0   1.279   56.2  0.1751   67.8  0.3547  176.3
 2.660  0.7796  152.9   1.272   56.0  0.1764   67.7  0.3549  176.2
 2.680  0.7796  152.7   1.265   55.8  0.1777   67.7  0.3552  176.2
 2.700  0.7796  152.5   1.257   55.6  0.1789   67.6  0.3554  176.1
 2.720  0.7796  152.3   1.250   55.4  0.1802   67.5  0.3556  176.1
 2.740  0.7796  152.1   1.243   55.2  0.1815   67.4  0.3559  176.0
 2.760  0.7796  152.0   1.235   54.9  0.1828   67.4  0.3561  176.0
 2.780  0.7797  151.8   1.228   54.7  0.1840   67.3  0.3564  175.9
 2.800  0.7797  151.6   1.221   54.5  0.1853   67.2  0.3566  175.9
 2.820  0.7795  151.4   1.215   54.3  0.1866   67.1  0.3567  175.8
 2.840  0.7793  151.2   1.208   54.1  0.1878   67.0  0.3568  175.8
 2.860  0.7792  151.1   1.202   53.9  0.1891   66.9  0.3569  175.7
 2.880  0.7790  150.9   1.196   53.7  0.1903   66.8  0.3570  175.7
 2.900  0.7789  150.7   1.189   53.5  0.1916   66.7  0.3571  175.6
 2.920  0.7787  150.5   1.183   53.3  0.1929   66.6  0.3573  175.6
 2.940  0.7786  150.3   1.177   53.1  0.1941   66.6  0.3574  175.5
 2.960  0.7784  150.2   1.170   52.8  0.1954   66.5  0.3575  175.5
 2.980  0.7783  150.0   1.164   52.6  0.1966   66.4  0.3576  175.4
 3.000  0.7782  149.8   1.158   52.4  0.1979   66.3  0.3577  175.4
 3.100  0.7770  148.8   1.133   51.4  0.2043   65.7  0.3581  175.2
 3.200  0.7761  147.7   1.109   50.5  0.2107   65.2  0.3584  174.9
 3.300  0.7754  146.7   1.085   49.4  0.2171   64.7  0.3588  174.7
 3.400  0.7750  145.6   1.061   48.3  0.2235   64.2  0.3592  174.4
 3.500  0.7748  144.6   1.038   47.2  0.2299   63.8  0.3596  174.2
 3.600  0.7738  143.5   1.020   46.3  0.2360   63.1  0.3600  173.9
 3.700  0.7730  142.5   1.002   45.3  0.2421   62.5  0.3604  173.5
 3.800  0.7725  141.4   0.984   44.3  0.2482   61.9  0.3609  173.2
 3.900  0.7723  140.4   0.966   43.3  0.2543   61.3  0.3613  172.8
 4.000  0.7723  139.3   0.949   42.2  0.2605   60.8  0.3618  172.5
 4.100  0.7712  138.3   0.935   41.4  0.2662   60.1  0.3634  172.0
 4.200  0.7704  137.3   0.921   40.6  0.2719   59.5  0.3651  171.5
 4.300  0.7697  136.3   0.908   39.7  0.2776   58.9  0.3668  171.0
 4.400  0.7694  135.3   0.894   38.8  0.2834   58.4  0.3685  170.6
 4.500  0.7692  134.3   0.881   37.9  0.2892   57.8  0.3703  170.1
 4.600  0.7683  133.3   0.870   37.1  0.2950   57.2  0.3726  169.5
 4.700  0.7677  132.3   0.860   36.2  0.3007   56.6  0.3750  168.9
 4.800  0.7673  131.4   0.850   35.4  0.3066   56.0  0.3774  168.3
 4.900  0.7671  130.4   0.840   34.5  0.3124   55.4  0.3798  167.8
 5.000  0.7671  129.4   0.830   33.6  0.3183   54.9  0.3823  167.2
 5.100  0.7661  128.3   0.820   32.8  0.3238   54.1  0.3842  166.3
 5.200  0.7654  127.1   0.811   31.9  0.3293   53.4  0.3863  165.4
 5.300  0.7650  126.0   0.802   31.1  0.3349   52.7  0.3884  164.5
 5.400  0.7649  124.8   0.793   30.2  0.3405   52.0  0.3906  163.7
 5.500  0.7651  123.7   0.784   29.3  0.3462   51.3  0.3929  162.8
 5.600  0.7648  122.5   0.775   28.5  0.3506   50.5  0.3948  161.5
 5.700  0.7648  121.4   0.766   27.8  0.3550   49.8  0.3969  160.3
 5.800  0.7652  120.2   0.757   27.0  0.3595   49.1  0.3992  159.0
 5.900  0.7658  119.1   0.748   26.1  0.3640   48.4  0.4017  157.8
 6.000  0.7668  117.9   0.739   25.3  0.3686   47.7  0.4043  156.6
!
!  f       NFmin   Gammaopt  rn/50
! GHz       dB    MAG  ANG    -
 0.450      1.82  0.48 -174   0.08
 0.900      1.81  0.50 -171   0.08
 1.800      2.07  0.53 -159   0.11
 1.900      2.18  0.54 -159   0.11
 2.400      2.25  0.55 -150   0.15
 3.500      2.95  0.58 -140   0.28
!
! (c) 2015  Infineon Technologies AG, Munich
