! Infineon Technologies  Discrete & RF Semiconductors
! BFR35AP
! VCE =  10. V,  IC =  2.0 mA
! Common Emitter S-Parameters:                            Nov 2015
# GHz  S  MA  R  50
!  f         S11            S21            S12            S22
! GHz     MAG   ANG      MAG   ANG      MAG   ANG      MAG   ANG
 0.010  0.9347   -1.8   6.429  178.5  0.0024   95.5  0.9990   -0.6
 0.015  0.9319   -2.6   6.468  177.6  0.0035   88.7  0.9948   -1.0
 0.020  0.9292   -3.4   6.508  176.7  0.0046   85.2  0.9906   -1.4
 0.025  0.9290   -4.3   6.500  176.0  0.0058   85.1  0.9907   -1.8
 0.030  0.9291   -5.2   6.494  175.3  0.0070   85.1  0.9908   -2.1
 0.035  0.9294   -6.1   6.488  174.6  0.0082   85.1  0.9909   -2.5
 0.040  0.9299   -6.9   6.483  173.8  0.0095   85.0  0.9911   -2.9
 0.045  0.9306   -7.8   6.480  173.1  0.0107   85.0  0.9913   -3.2
 0.050  0.9316   -8.7   6.477  172.4  0.0119   85.0  0.9916   -3.6
 0.055  0.9284   -9.5   6.459  171.7  0.0131   84.1  0.9902   -3.9
 0.060  0.9253  -10.4   6.443  171.0  0.0142   83.3  0.9888   -4.3
 0.065  0.9225  -11.2   6.427  170.3  0.0154   82.7  0.9875   -4.6
 0.070  0.9198  -12.1   6.412  169.6  0.0165   82.1  0.9862   -4.9
 0.075  0.9174  -12.9   6.398  168.8  0.0177   81.6  0.9849   -5.2
 0.080  0.9152  -13.8   6.386  168.1  0.0188   81.2  0.9837   -5.6
 0.085  0.9132  -14.7   6.374  167.4  0.0200   80.8  0.9825   -5.9
 0.090  0.9114  -15.5   6.363  166.7  0.0212   80.5  0.9813   -6.2
 0.095  0.9098  -16.4   6.354  165.9  0.0223   80.2  0.9802   -6.6
 0.100  0.9084  -17.3   6.345  165.2  0.0235   79.9  0.9791   -6.9
 0.105  0.9044  -18.1   6.332  164.4  0.0245   79.2  0.9772   -7.2
 0.110  0.9005  -19.0   6.319  163.6  0.0256   78.6  0.9753   -7.6
 0.115  0.8969  -19.8   6.309  162.7  0.0266   78.0  0.9735   -7.9
 0.120  0.8934  -20.7   6.299  161.9  0.0276   77.5  0.9717   -8.2
 0.125  0.8902  -21.5   6.291  161.1  0.0287   77.0  0.9699   -8.6
 0.130  0.8871  -22.4   6.284  160.2  0.0297   76.5  0.9681   -8.9
 0.135  0.8843  -23.3   6.279  159.4  0.0308   76.1  0.9664   -9.3
 0.140  0.8817  -24.1   6.274  158.6  0.0318   75.7  0.9647   -9.6
 0.145  0.8792  -25.0   6.272  157.7  0.0329   75.4  0.9631  -10.0
 0.150  0.8770  -25.9   6.270  156.9  0.0339   75.0  0.9615  -10.3
 0.155  0.8735  -26.6   6.238  156.3  0.0349   74.5  0.9591  -10.6
 0.160  0.8701  -27.4   6.207  155.6  0.0359   74.0  0.9567  -10.8
 0.165  0.8669  -28.1   6.176  155.0  0.0368   73.5  0.9544  -11.1
 0.170  0.8639  -28.9   6.147  154.4  0.0378   73.1  0.9520  -11.4
 0.175  0.8610  -29.6   6.118  153.7  0.0388   72.6  0.9497  -11.7
 0.180  0.8582  -30.4   6.090  153.1  0.0398   72.2  0.9474  -12.0
 0.185  0.8556  -31.2   6.062  152.4  0.0408   71.8  0.9452  -12.2
 0.190  0.8531  -31.9   6.036  151.7  0.0418   71.5  0.9429  -12.5
 0.195  0.8508  -32.7   6.010  151.1  0.0428   71.1  0.9407  -12.8
 0.200  0.8487  -33.5   5.985  150.4  0.0438   70.8  0.9385  -13.1
 0.220  0.8309  -36.6   5.885  147.8  0.0471   69.2  0.9278  -14.1
 0.240  0.8156  -39.8   5.798  145.2  0.0504   67.8  0.9174  -15.2
 0.260  0.7991  -42.8   5.710  142.6  0.0537   66.4  0.9066  -16.1
 0.280  0.7807  -45.5   5.622  140.0  0.0569   64.9  0.8953  -17.0
 0.300  0.7641  -48.4   5.544  137.4  0.0602   63.6  0.8842  -17.9
 0.320  0.7452  -50.8   5.415  135.6  0.0626   62.4  0.8732  -18.6
 0.340  0.7276  -53.3   5.292  133.7  0.0651   61.3  0.8623  -19.2
 0.360  0.7115  -55.9   5.175  131.7  0.0675   60.3  0.8515  -19.9
 0.380  0.6969  -58.6   5.065  129.7  0.0700   59.3  0.8409  -20.7
 0.400  0.6839  -61.4   4.961  127.5  0.0725   58.4  0.8304  -21.4
 0.420  0.6667  -63.4   4.838  125.8  0.0744   57.5  0.8212  -21.9
 0.440  0.6503  -65.5   4.720  123.9  0.0762   56.6  0.8120  -22.3
 0.450  0.6425  -66.6   4.663  123.0  0.0772   56.1  0.8074  -22.6
 0.460  0.6349  -67.7   4.607  122.0  0.0781   55.7  0.8029  -22.8
 0.480  0.6205  -70.1   4.499  120.0  0.0801   54.9  0.7938  -23.3
 0.500  0.6071  -72.5   4.397  117.9  0.0820   54.1  0.7848  -23.8
 0.520  0.5920  -74.6   4.314  116.5  0.0836   53.5  0.7773  -24.1
 0.540  0.5776  -76.8   4.234  115.0  0.0852   53.0  0.7699  -24.5
 0.560  0.5642  -79.1   4.157  113.4  0.0868   52.5  0.7624  -24.9
 0.580  0.5518  -81.6   4.083  111.8  0.0885   52.0  0.7551  -25.2
 0.600  0.5404  -84.1   4.013  110.1  0.0901   51.5  0.7477  -25.6
 0.620  0.5281  -85.8   3.937  108.8  0.0913   51.1  0.7412  -25.9
 0.640  0.5162  -87.6   3.864  107.5  0.0924   50.8  0.7346  -26.2
 0.660  0.5049  -89.5   3.792  106.1  0.0936   50.4  0.7281  -26.5
 0.680  0.4942  -91.5   3.723  104.7  0.0947   50.0  0.7217  -26.8
 0.700  0.4841  -93.6   3.656  103.2  0.0959   49.7  0.7152  -27.1
 0.720  0.4732  -95.4   3.583  102.1  0.0969   49.4  0.7098  -27.3
 0.740  0.4627  -97.2   3.511  100.9  0.0980   49.2  0.7044  -27.5
 0.760  0.4527  -99.1   3.441   99.6  0.0990   49.0  0.6991  -27.7
 0.780  0.4433 -101.1   3.373   98.3  0.1001   48.7  0.6937  -28.0
 0.800  0.4344 -103.2   3.306   97.0  0.1011   48.5  0.6884  -28.2
 0.820  0.4264 -104.7   3.245   96.0  0.1022   48.4  0.6842  -28.4
 0.840  0.4186 -106.2   3.186   95.0  0.1033   48.3  0.6800  -28.6
 0.860  0.4112 -107.8   3.127   94.0  0.1043   48.3  0.6758  -28.9
 0.880  0.4041 -109.4   3.069   92.9  0.1054   48.2  0.6717  -29.1
 0.900  0.3973 -111.1   3.013   91.8  0.1065   48.1  0.6675  -29.3
 0.920  0.3902 -112.8   2.966   90.9  0.1073   48.1  0.6644  -29.5
 0.940  0.3835 -114.6   2.920   89.9  0.1081   48.0  0.6613  -29.7
 0.960  0.3772 -116.5   2.875   89.0  0.1090   48.0  0.6582  -29.9
 0.980  0.3714 -118.4   2.830   87.9  0.1098   47.9  0.6552  -30.1
 1.000  0.3659 -120.4   2.787   86.9  0.1106   47.9  0.6521  -30.3
 1.020  0.3604 -122.1   2.748   86.1  0.1116   47.9  0.6495  -30.5
 1.040  0.3553 -123.9   2.710   85.2  0.1126   47.8  0.6470  -30.8
 1.060  0.3504 -125.7   2.673   84.3  0.1137   47.8  0.6444  -31.0
 1.080  0.3460 -127.5   2.636   83.4  0.1147   47.7  0.6419  -31.3
 1.100  0.3419 -129.4   2.600   82.5  0.1157   47.7  0.6394  -31.5
 1.120  0.3366 -131.2   2.565   81.7  0.1166   47.7  0.6371  -31.7
 1.140  0.3317 -133.0   2.530   80.8  0.1175   47.8  0.6347  -31.9
 1.160  0.3271 -134.8   2.496   79.9  0.1184   47.8  0.6324  -32.1
 1.180  0.3229 -136.7   2.463   79.0  0.1193   47.9  0.6301  -32.3
 1.200  0.3190 -138.7   2.430   78.1  0.1202   47.9  0.6278  -32.5
 1.220  0.3149 -140.3   2.399   77.4  0.1212   48.0  0.6258  -32.7
 1.240  0.3111 -142.0   2.368   76.6  0.1222   48.1  0.6238  -32.9
 1.260  0.3075 -143.7   2.337   75.8  0.1231   48.1  0.6218  -33.2
 1.280  0.3042 -145.4   2.308   75.0  0.1241   48.2  0.6199  -33.4
 1.300  0.3012 -147.2   2.278   74.2  0.1251   48.3  0.6179  -33.6
 1.320  0.2976 -148.8   2.251   73.5  0.1260   48.4  0.6163  -33.8
 1.340  0.2942 -150.4   2.224   72.7  0.1269   48.5  0.6148  -34.1
 1.360  0.2911 -152.1   2.198   72.0  0.1278   48.5  0.6132  -34.3
 1.380  0.2882 -153.8   2.172   71.2  0.1287   48.6  0.6117  -34.6
 1.400  0.2856 -155.5   2.146   70.4  0.1296   48.7  0.6102  -34.8
 1.420  0.2845 -156.9   2.125   69.8  0.1306   48.9  0.6083  -35.0
 1.440  0.2835 -158.4   2.104   69.1  0.1315   49.0  0.6064  -35.2
 1.460  0.2827 -159.9   2.083   68.5  0.1325   49.2  0.6045  -35.5
 1.480  0.2821 -161.3   2.062   67.8  0.1334   49.3  0.6026  -35.7
 1.500  0.2817 -162.8   2.042   67.1  0.1344   49.5  0.6007  -35.9
 1.520  0.2800 -164.6   2.018   66.4  0.1356   49.6  0.5991  -36.1
 1.540  0.2786 -166.5   1.994   65.6  0.1368   49.7  0.5975  -36.4
 1.560  0.2776 -168.4   1.971   64.9  0.1379   49.8  0.5960  -36.6
 1.580  0.2768 -170.3   1.948   64.1  0.1391   49.9  0.5944  -36.9
 1.600  0.2763 -172.2   1.925   63.3  0.1403   50.0  0.5929  -37.1
 1.620  0.2754 -173.7   1.906   62.7  0.1414   50.2  0.5913  -37.4
 1.640  0.2747 -175.3   1.887   62.1  0.1426   50.4  0.5897  -37.7
 1.660  0.2741 -176.8   1.869   61.5  0.1437   50.5  0.5881  -37.9
 1.680  0.2738 -178.4   1.850   60.8  0.1449   50.7  0.5865  -38.2
 1.700  0.2737 -179.9   1.832   60.2  0.1460   50.9  0.5849  -38.5
 1.720  0.2738  178.7   1.815   59.6  0.1473   50.9  0.5841  -38.8
 1.740  0.2740  177.3   1.799   59.0  0.1486   51.0  0.5834  -39.1
 1.760  0.2744  175.9   1.783   58.4  0.1499   51.0  0.5826  -39.3
 1.780  0.2750  174.6   1.767   57.8  0.1512   51.1  0.5819  -39.6
 1.800  0.2757  173.2   1.751   57.2  0.1525   51.1  0.5812  -39.9
 1.820  0.2771  171.9   1.737   56.6  0.1536   51.2  0.5801  -40.2
 1.840  0.2787  170.6   1.724   55.9  0.1547   51.3  0.5790  -40.5
 1.860  0.2803  169.4   1.710   55.3  0.1557   51.3  0.5780  -40.9
 1.880  0.2822  168.1   1.697   54.7  0.1568   51.4  0.5769  -41.2
 1.900  0.2841  166.9   1.684   54.0  0.1579   51.5  0.5759  -41.5
 1.920  0.2843  165.5   1.670   53.4  0.1593   51.5  0.5748  -41.8
 1.940  0.2846  164.0   1.656   52.9  0.1607   51.6  0.5737  -42.1
 1.960  0.2851  162.6   1.642   52.3  0.1621   51.6  0.5727  -42.4
 1.980  0.2858  161.1   1.628   51.7  0.1635   51.7  0.5716  -42.7
 2.000  0.2867  159.7   1.615   51.1  0.1649   51.7  0.5706  -43.0
 2.020  0.2872  158.5   1.603   50.6  0.1664   51.8  0.5692  -43.3
 2.040  0.2879  157.4   1.590   50.0  0.1678   51.8  0.5679  -43.6
 2.060  0.2886  156.3   1.578   49.5  0.1693   51.9  0.5665  -44.0
 2.080  0.2895  155.1   1.566   48.9  0.1708   52.0  0.5652  -44.3
 2.100  0.2905  154.0   1.555   48.3  0.1722   52.1  0.5639  -44.6
 2.120  0.2916  152.9   1.543   47.7  0.1737   52.1  0.5626  -45.0
 2.140  0.2928  151.8   1.531   47.1  0.1752   52.2  0.5613  -45.3
 2.160  0.2941  150.7   1.520   46.5  0.1767   52.3  0.5600  -45.6
 2.180  0.2956  149.6   1.509   45.9  0.1781   52.3  0.5588  -46.0
 2.200  0.2971  148.5   1.498   45.3  0.1796   52.4  0.5576  -46.3
 2.220  0.2987  147.4   1.489   44.8  0.1811   52.4  0.5564  -46.7
 2.240  0.3005  146.4   1.479   44.3  0.1826   52.4  0.5553  -47.1
 2.260  0.3023  145.3   1.470   43.7  0.1842   52.4  0.5542  -47.5
 2.280  0.3043  144.3   1.461   43.2  0.1857   52.4  0.5531  -47.8
 2.300  0.3063  143.2   1.452   42.7  0.1872   52.5  0.5520  -48.2
 2.320  0.3085  142.2   1.444   42.1  0.1887   52.5  0.5509  -48.6
 2.340  0.3107  141.2   1.435   41.6  0.1902   52.5  0.5499  -49.0
 2.360  0.3131  140.2   1.427   41.0  0.1918   52.5  0.5489  -49.4
 2.380  0.3155  139.3   1.418   40.5  0.1933   52.5  0.5479  -49.8
 2.400  0.3180  138.3   1.410   39.9  0.1948   52.5  0.5470  -50.2
 2.420  0.3202  137.3   1.401   39.4  0.1966   52.5  0.5455  -50.6
 2.440  0.3225  136.4   1.392   39.0  0.1983   52.5  0.5441  -51.0
 2.460  0.3249  135.5   1.383   38.5  0.2001   52.5  0.5427  -51.3
 2.480  0.3274  134.6   1.375   38.0  0.2018   52.5  0.5413  -51.7
 2.500  0.3300  133.7   1.366   37.5  0.2036   52.4  0.5399  -52.1
 2.520  0.3326  132.8   1.358   37.0  0.2054   52.4  0.5385  -52.5
 2.540  0.3353  131.9   1.349   36.5  0.2071   52.4  0.5372  -52.9
 2.560  0.3381  131.1   1.341   36.0  0.2089   52.4  0.5359  -53.3
 2.580  0.3410  130.2   1.333   35.5  0.2106   52.4  0.5346  -53.7
 2.600  0.3439  129.4   1.325   35.0  0.2124   52.4  0.5334  -54.1
 2.620  0.3457  128.6   1.318   34.6  0.2141   52.3  0.5321  -54.5
 2.640  0.3476  127.8   1.310   34.1  0.2159   52.3  0.5309  -55.0
 2.660  0.3496  127.0   1.303   33.6  0.2176   52.2  0.5297  -55.4
 2.680  0.3516  126.3   1.296   33.2  0.2193   52.1  0.5285  -55.9
 2.700  0.3537  125.5   1.289   32.7  0.2210   52.1  0.5273  -56.3
 2.720  0.3558  124.7   1.282   32.2  0.2228   52.0  0.5262  -56.8
 2.740  0.3580  124.0   1.275   31.8  0.2245   52.0  0.5251  -57.2
 2.760  0.3603  123.2   1.268   31.3  0.2262   51.9  0.5241  -57.7
 2.780  0.3626  122.5   1.262   30.8  0.2280   51.9  0.5231  -58.1
 2.800  0.3650  121.8   1.255   30.3  0.2297   51.8  0.5221  -58.6
 2.820  0.3672  121.1   1.248   29.8  0.2317   51.7  0.5204  -59.1
 2.840  0.3694  120.5   1.242   29.4  0.2336   51.6  0.5188  -59.6
 2.860  0.3716  119.9   1.235   28.9  0.2356   51.5  0.5172  -60.0
 2.880  0.3739  119.2   1.229   28.4  0.2375   51.5  0.5157  -60.5
 2.900  0.3762  118.6   1.222   27.9  0.2395   51.4  0.5142  -61.0
 2.920  0.3786  118.0   1.216   27.4  0.2415   51.3  0.5127  -61.5
 2.940  0.3811  117.4   1.210   26.9  0.2434   51.2  0.5113  -62.0
 2.960  0.3835  116.8   1.204   26.4  0.2454   51.1  0.5099  -62.5
 2.980  0.3860  116.2   1.198   25.9  0.2473   51.1  0.5085  -63.0
 3.000  0.3886  115.6   1.192   25.4  0.2493   51.0  0.5072  -63.5
 3.100  0.4010  112.7   1.161   23.6  0.2593   50.2  0.4977  -66.3
 3.200  0.4143  110.1   1.132   21.6  0.2693   49.5  0.4895  -69.2
 3.300  0.4284  107.5   1.104   19.6  0.2794   48.8  0.4825  -72.1
 3.400  0.4434  105.2   1.078   17.4  0.2895   48.2  0.4769  -75.2
 3.500  0.4590  103.0   1.053   15.2  0.2997   47.6  0.4726  -78.3
 3.600  0.4687  100.9   1.031   13.5  0.3107   46.6  0.4628  -81.9
 3.700  0.4791   98.8   1.009   11.8  0.3218   45.6  0.4549  -85.6
 3.800  0.4901   96.9   0.989   10.0  0.3330   44.7  0.4490  -89.5
 3.900  0.5016   95.0   0.969    8.1  0.3443   43.9  0.4452  -93.4
 4.000  0.5136   93.2   0.951    6.1  0.3556   43.1  0.4435  -97.4
 4.100  0.5227   91.5   0.932    4.7  0.3671   41.7  0.4342 -101.6
 4.200  0.5323   89.9   0.914    3.2  0.3788   40.3  0.4273 -106.0
 4.300  0.5422   88.4   0.897    1.6  0.3907   39.0  0.4231 -110.5
 4.400  0.5525   86.9   0.880   -0.0  0.4028   37.8  0.4215 -115.1
 4.500  0.5632   85.5   0.864   -1.7  0.4151   36.7  0.4226 -119.7
 4.600  0.5703   84.1   0.848   -3.0  0.4253   35.0  0.4149 -124.3
 4.700  0.5776   82.7   0.832   -4.3  0.4358   33.4  0.4099 -129.0
 4.800  0.5854   81.4   0.817   -5.7  0.4466   31.9  0.4078 -133.9
 4.900  0.5934   80.1   0.802   -7.2  0.4578   30.4  0.4087 -138.7
 5.000  0.6017   78.8   0.788   -8.7  0.4692   29.0  0.4124 -143.5
 5.100  0.6096   77.4   0.770   -9.8  0.4739   27.1  0.3991 -148.0
 5.200  0.6178   76.1   0.752  -11.0  0.4792   25.3  0.3884 -152.7
 5.300  0.6263   74.9   0.735  -12.3  0.4849   23.5  0.3805 -157.7
 5.400  0.6352   73.6   0.718  -13.6  0.4911   21.7  0.3755 -162.9
 5.500  0.6443   72.4   0.701  -15.0  0.4977   20.0  0.3737 -168.1
 5.600  0.6441   71.2   0.695  -15.2  0.5086   19.0  0.3897 -171.4
 5.700  0.6441   70.0   0.689  -15.4  0.5197   18.0  0.4070 -174.4
 5.800  0.6444   68.9   0.683  -15.6  0.5309   17.1  0.4252 -177.2
 5.900  0.6450   67.7   0.677  -15.9  0.5423   16.2  0.4444 -179.7
 6.000  0.6459   66.5   0.671  -16.1  0.5538   15.3  0.4643  178.0
!
!  f       NFmin   Gammaopt  rn/50
! GHz       dB    MAG  ANG    -
!
! noise parameter not available yet for this operation point!
!
! (c) 2015  Infineon Technologies AG, Munich
