! Infineon Technologies  Discrete & RF Semiconductors
! BFR340F
! VCE =  1.5 V,  IC =  12 mA
! Common Emitter S-Parameters:                            Nov 2015
# GHz  S  MA  R  50
!  f         S11            S21            S12            S22
! GHz     MAG   ANG      MAG   ANG      MAG   ANG      MAG   ANG
 0.030  0.7436   -8.3  17.431  174.8  0.0041   83.9  0.9380   -2.6
 0.035  0.7423   -9.6  17.398  173.8  0.0048   83.4  0.9373   -3.1
 0.040  0.7414  -11.0  17.370  172.7  0.0055   83.0  0.9367   -3.6
 0.045  0.7387  -12.3  17.299  171.6  0.0061   82.1  0.9354   -4.1
 0.050  0.7364  -13.7  17.235  170.4  0.0068   81.3  0.9342   -4.7
 0.055  0.7363  -15.0  17.191  169.6  0.0074   81.4  0.9328   -5.1
 0.060  0.7366  -16.3  17.151  168.8  0.0081   81.5  0.9315   -5.6
 0.065  0.7328  -17.8  17.161  167.8  0.0087   80.5  0.9295   -6.1
 0.070  0.7296  -19.4  17.176  166.8  0.0093   79.7  0.9275   -6.6
 0.075  0.7288  -20.7  17.101  166.1  0.0099   79.7  0.9255   -7.0
 0.080  0.7283  -22.0  17.028  165.4  0.0106   79.7  0.9235   -7.5
 0.085  0.7267  -23.3  16.969  164.5  0.0112   78.6  0.9207   -7.9
 0.090  0.7256  -24.7  16.914  163.5  0.0118   77.7  0.9179   -8.4
 0.095  0.7228  -25.8  16.803  162.7  0.0124   77.4  0.9152   -8.8
 0.100  0.7202  -27.0  16.696  161.8  0.0131   77.1  0.9126   -9.3
 0.105  0.7187  -28.3  16.640  161.0  0.0136   76.6  0.9095   -9.7
 0.110  0.7175  -29.6  16.588  160.1  0.0142   76.1  0.9064  -10.1
 0.115  0.7144  -30.9  16.522  159.3  0.0148   75.3  0.9032  -10.5
 0.120  0.7116  -32.3  16.460  158.4  0.0154   74.5  0.9000  -11.0
 0.125  0.7079  -33.5  16.371  157.6  0.0159   74.2  0.8966  -11.4
 0.130  0.7046  -34.7  16.286  156.8  0.0164   73.9  0.8932  -11.8
 0.135  0.7016  -36.0  16.214  156.0  0.0170   73.4  0.8896  -12.2
 0.140  0.6990  -37.3  16.145  155.1  0.0176   72.9  0.8861  -12.6
 0.145  0.6953  -38.5  16.028  154.3  0.0181   72.3  0.8824  -12.9
 0.150  0.6920  -39.8  15.914  153.4  0.0186   71.8  0.8788  -13.3
 0.155  0.6876  -40.9  15.807  152.7  0.0191   71.3  0.8748  -13.6
 0.160  0.6835  -42.0  15.701  152.0  0.0195   70.8  0.8708  -13.9
 0.165  0.6797  -43.1  15.599  151.2  0.0200   70.3  0.8669  -14.2
 0.170  0.6761  -44.3  15.499  150.5  0.0205   69.8  0.8630  -14.5
 0.175  0.6728  -45.4  15.401  149.8  0.0210   69.4  0.8591  -14.9
 0.180  0.6698  -46.6  15.307  149.0  0.0215   69.0  0.8553  -15.2
 0.185  0.6670  -47.7  15.215  148.2  0.0219   68.6  0.8514  -15.5
 0.190  0.6645  -48.9  15.125  147.5  0.0224   68.2  0.8476  -15.8
 0.195  0.6623  -50.1  15.039  146.7  0.0229   67.8  0.8438  -16.2
 0.200  0.6604  -51.3  14.955  145.9  0.0234   67.5  0.8401  -16.5
 0.220  0.6449  -55.3  14.519  143.4  0.0250   65.8  0.8242  -17.5
 0.240  0.6327  -59.5  14.114  140.7  0.0266   64.4  0.8085  -18.5
 0.260  0.6206  -63.5  13.707  138.2  0.0281   63.1  0.7932  -19.3
 0.280  0.6079  -67.2  13.291  136.0  0.0294   62.0  0.7781  -20.1
 0.300  0.5979  -71.1  12.896  133.6  0.0308   61.0  0.7631  -20.8
 0.320  0.5855  -74.5  12.502  131.7  0.0319   60.1  0.7493  -21.3
 0.340  0.5751  -78.0  12.122  129.7  0.0330   59.3  0.7355  -21.9
 0.360  0.5650  -81.3  11.757  127.8  0.0341   58.6  0.7227  -22.4
 0.380  0.5545  -84.3  11.401  126.0  0.0351   57.9  0.7106  -22.8
 0.400  0.5456  -87.4  11.057  124.2  0.0361   57.3  0.6986  -23.2
 0.420  0.5360  -90.1  10.736  122.7  0.0370   56.8  0.6880  -23.5
 0.440  0.5276  -92.9  10.422  121.2  0.0379   56.3  0.6774  -23.8
 0.450  0.5239  -94.3  10.268  120.4  0.0383   56.1  0.6721  -23.9
 0.460  0.5196  -95.5  10.123  119.7  0.0387   56.0  0.6674  -24.0
 0.480  0.5117  -98.1   9.838  118.4  0.0394   55.7  0.6581  -24.1
 0.500  0.5049 -100.7   9.559  116.9  0.0401   55.4  0.6488  -24.3
 0.520  0.4978 -102.8   9.312  115.8  0.0408   55.2  0.6414  -24.4
 0.540  0.4914 -105.0   9.069  114.7  0.0415   55.1  0.6340  -24.5
 0.560  0.4858 -107.2   8.829  113.6  0.0421   54.9  0.6266  -24.6
 0.580  0.4808 -109.5   8.593  112.3  0.0428   54.7  0.6192  -24.7
 0.600  0.4767 -111.8   8.361  111.0  0.0435   54.6  0.6118  -24.8
 0.620  0.4715 -113.6   8.164  110.1  0.0441   54.6  0.6062  -24.9
 0.640  0.4668 -115.5   7.970  109.3  0.0448   54.6  0.6006  -24.9
 0.660  0.4626 -117.3   7.777  108.3  0.0454   54.6  0.5949  -25.0
 0.680  0.4590 -119.3   7.586  107.3  0.0461   54.6  0.5893  -25.0
 0.700  0.4558 -121.2   7.398  106.3  0.0467   54.6  0.5837  -25.1
 0.720  0.4523 -122.7   7.239  105.6  0.0473   54.7  0.5794  -25.1
 0.740  0.4491 -124.3   7.082  104.8  0.0479   54.8  0.5752  -25.2
 0.760  0.4463 -125.9   6.925  104.0  0.0484   54.9  0.5709  -25.2
 0.780  0.4438 -127.5   6.770  103.2  0.0490   55.0  0.5667  -25.3
 0.800  0.4416 -129.1   6.617  102.3  0.0496   55.1  0.5624  -25.3
 0.820  0.4390 -130.5   6.489  101.7  0.0502   55.3  0.5591  -25.3
 0.840  0.4366 -131.8   6.361  101.0  0.0507   55.4  0.5557  -25.3
 0.860  0.4345 -133.2   6.234  100.3  0.0513   55.6  0.5524  -25.4
 0.880  0.4326 -134.6   6.109   99.6  0.0518   55.7  0.5490  -25.4
 0.900  0.4310 -136.0   5.984   98.8  0.0524   55.9  0.5457  -25.4
 0.920  0.4291 -137.2   5.877   98.2  0.0530   56.1  0.5431  -25.5
 0.940  0.4274 -138.4   5.770   97.6  0.0536   56.3  0.5404  -25.5
 0.960  0.4258 -139.6   5.665   97.0  0.0541   56.5  0.5378  -25.6
 0.980  0.4245 -140.8   5.559   96.4  0.0547   56.6  0.5351  -25.6
 1.000  0.4233 -142.0   5.455   95.7  0.0553   56.8  0.5325  -25.7
 1.020  0.4219 -143.0   5.364   95.2  0.0559   57.0  0.5305  -25.7
 1.040  0.4206 -144.0   5.274   94.6  0.0565   57.2  0.5284  -25.8
 1.060  0.4194 -145.0   5.185   94.1  0.0570   57.4  0.5264  -25.8
 1.080  0.4184 -146.1   5.096   93.5  0.0576   57.6  0.5243  -25.9
 1.100  0.4175 -147.1   5.007   92.9  0.0582   57.8  0.5223  -25.9
 1.120  0.4167 -148.0   4.930   92.4  0.0588   58.0  0.5205  -26.0
 1.140  0.4161 -149.0   4.854   91.9  0.0594   58.2  0.5187  -26.1
 1.160  0.4155 -149.9   4.777   91.4  0.0600   58.4  0.5169  -26.1
 1.180  0.4151 -150.9   4.701   90.9  0.0606   58.6  0.5151  -26.2
 1.200  0.4148 -151.8   4.626   90.4  0.0612   58.8  0.5133  -26.3
 1.220  0.4142 -152.6   4.560   90.0  0.0618   59.0  0.5119  -26.4
 1.240  0.4136 -153.4   4.494   89.5  0.0624   59.3  0.5106  -26.5
 1.260  0.4132 -154.3   4.428   89.1  0.0630   59.5  0.5092  -26.6
 1.280  0.4128 -155.1   4.362   88.6  0.0636   59.7  0.5079  -26.7
 1.300  0.4125 -155.9   4.297   88.1  0.0642   59.9  0.5065  -26.8
 1.320  0.4123 -156.6   4.240   87.7  0.0648   60.1  0.5052  -26.9
 1.340  0.4121 -157.4   4.182   87.3  0.0654   60.3  0.5039  -27.0
 1.360  0.4121 -158.1   4.125   86.8  0.0660   60.4  0.5027  -27.1
 1.380  0.4120 -158.9   4.069   86.4  0.0666   60.6  0.5014  -27.2
 1.400  0.4121 -159.6   4.012   85.9  0.0672   60.8  0.5001  -27.3
 1.420  0.4117 -160.3   3.962   85.5  0.0678   61.0  0.4992  -27.4
 1.440  0.4114 -161.0   3.913   85.1  0.0684   61.2  0.4982  -27.5
 1.460  0.4111 -161.7   3.864   84.7  0.0691   61.4  0.4973  -27.7
 1.480  0.4109 -162.4   3.815   84.2  0.0697   61.6  0.4963  -27.8
 1.500  0.4108 -163.1   3.766   83.8  0.0703   61.8  0.4954  -27.9
 1.520  0.4109 -163.7   3.722   83.4  0.0709   62.0  0.4945  -28.0
 1.540  0.4110 -164.3   3.678   83.1  0.0716   62.2  0.4937  -28.2
 1.560  0.4112 -165.0   3.634   82.7  0.0722   62.3  0.4928  -28.3
 1.580  0.4114 -165.6   3.590   82.3  0.0729   62.5  0.4920  -28.5
 1.600  0.4117 -166.2   3.546   81.9  0.0735   62.7  0.4911  -28.6
 1.620  0.4116 -166.8   3.507   81.5  0.0741   62.9  0.4905  -28.7
 1.640  0.4115 -167.4   3.468   81.2  0.0748   63.0  0.4898  -28.9
 1.660  0.4115 -167.9   3.429   80.8  0.0754   63.2  0.4892  -29.0
 1.680  0.4115 -168.5   3.390   80.4  0.0761   63.3  0.4885  -29.2
 1.700  0.4115 -169.1   3.351   80.0  0.0767   63.5  0.4879  -29.3
 1.720  0.4114 -169.6   3.316   79.7  0.0774   63.7  0.4874  -29.4
 1.740  0.4114 -170.0   3.280   79.3  0.0781   63.8  0.4869  -29.6
 1.760  0.4114 -170.5   3.245   79.0  0.0787   64.0  0.4863  -29.7
 1.780  0.4114 -170.9   3.210   78.7  0.0794   64.1  0.4858  -29.9
 1.800  0.4115 -171.4   3.175   78.3  0.0801   64.3  0.4853  -30.0
 1.820  0.4117 -171.9   3.144   78.0  0.0808   64.5  0.4848  -30.2
 1.840  0.4120 -172.5   3.113   77.6  0.0814   64.6  0.4842  -30.4
 1.860  0.4122 -173.0   3.083   77.3  0.0821   64.8  0.4837  -30.5
 1.880  0.4125 -173.6   3.052   77.0  0.0827   64.9  0.4831  -30.7
 1.900  0.4129 -174.1   3.022   76.6  0.0834   65.1  0.4826  -30.9
 1.920  0.4128 -174.5   2.994   76.3  0.0841   65.2  0.4823  -31.0
 1.940  0.4128 -174.9   2.966   75.9  0.0848   65.4  0.4821  -31.2
 1.960  0.4127 -175.3   2.938   75.6  0.0855   65.5  0.4818  -31.3
 1.980  0.4127 -175.7   2.910   75.3  0.0862   65.7  0.4816  -31.5
 2.000  0.4127 -176.1   2.882   74.9  0.0869   65.8  0.4813  -31.6
 2.020  0.4128 -176.5   2.857   74.6  0.0876   65.9  0.4810  -31.8
 2.040  0.4129 -177.0   2.832   74.3  0.0883   66.1  0.4807  -32.0
 2.060  0.4131 -177.4   2.807   74.0  0.0890   66.2  0.4804  -32.1
 2.080  0.4132 -177.8   2.782   73.7  0.0897   66.3  0.4802  -32.3
 2.100  0.4134 -178.3   2.757   73.4  0.0904   66.5  0.4799  -32.5
 2.120  0.4136 -178.7   2.733   73.1  0.0911   66.6  0.4796  -32.7
 2.140  0.4139 -179.1   2.708   72.8  0.0918   66.7  0.4794  -32.9
 2.160  0.4141 -179.5   2.684   72.5  0.0925   66.9  0.4791  -33.0
 2.180  0.4144 -180.0   2.659   72.1  0.0932   67.0  0.4788  -33.2
 2.200  0.4147  179.6   2.635   71.8  0.0939   67.1  0.4786  -33.4
 2.220  0.4149  179.2   2.615   71.5  0.0946   67.2  0.4784  -33.6
 2.240  0.4151  178.8   2.594   71.2  0.0953   67.3  0.4781  -33.8
 2.260  0.4153  178.5   2.574   70.9  0.0961   67.4  0.4779  -33.9
 2.280  0.4156  178.1   2.554   70.7  0.0968   67.6  0.4777  -34.1
 2.300  0.4159  177.7   2.534   70.4  0.0975   67.7  0.4775  -34.3
 2.320  0.4162  177.3   2.514   70.1  0.0982   67.8  0.4773  -34.5
 2.340  0.4165  176.9   2.494   69.8  0.0989   67.9  0.4771  -34.7
 2.360  0.4168  176.6   2.474   69.4  0.0997   68.0  0.4769  -34.8
 2.380  0.4171  176.2   2.454   69.1  0.1004   68.1  0.4767  -35.0
 2.400  0.4175  175.8   2.434   68.8  0.1011   68.2  0.4765  -35.2
 2.420  0.4178  175.4   2.416   68.5  0.1018   68.3  0.4764  -35.4
 2.440  0.4180  175.1   2.399   68.3  0.1026   68.4  0.4762  -35.6
 2.460  0.4183  174.7   2.381   68.0  0.1033   68.5  0.4761  -35.8
 2.480  0.4187  174.3   2.363   67.7  0.1041   68.6  0.4760  -36.0
 2.500  0.4190  173.9   2.346   67.4  0.1048   68.7  0.4758  -36.2
 2.520  0.4193  173.6   2.328   67.1  0.1056   68.8  0.4757  -36.4
 2.540  0.4197  173.2   2.311   66.8  0.1063   68.9  0.4756  -36.6
 2.560  0.4201  172.8   2.294   66.5  0.1071   69.0  0.4755  -36.8
 2.580  0.4205  172.5   2.276   66.2  0.1078   69.1  0.4754  -37.0
 2.600  0.4209  172.1   2.259   65.9  0.1086   69.2  0.4753  -37.2
 2.620  0.4210  171.8   2.244   65.6  0.1094   69.3  0.4753  -37.4
 2.640  0.4212  171.5   2.229   65.4  0.1102   69.3  0.4752  -37.6
 2.660  0.4213  171.2   2.214   65.1  0.1109   69.4  0.4752  -37.8
 2.680  0.4215  170.9   2.199   64.9  0.1117   69.5  0.4752  -38.0
 2.700  0.4217  170.6   2.184   64.6  0.1125   69.6  0.4752  -38.3
 2.720  0.4219  170.3   2.170   64.3  0.1133   69.6  0.4752  -38.5
 2.740  0.4221  170.0   2.155   64.0  0.1141   69.7  0.4752  -38.7
 2.760  0.4223  169.7   2.140   63.8  0.1148   69.8  0.4752  -38.9
 2.780  0.4226  169.4   2.126   63.5  0.1156   69.8  0.4753  -39.1
 2.800  0.4228  169.1   2.111   63.2  0.1164   69.9  0.4753  -39.3
 2.820  0.4230  168.8   2.098   63.0  0.1172   70.0  0.4754  -39.5
 2.840  0.4233  168.5   2.085   62.7  0.1180   70.1  0.4755  -39.7
 2.860  0.4235  168.2   2.072   62.5  0.1188   70.2  0.4756  -39.9
 2.880  0.4238  167.9   2.059   62.2  0.1196   70.2  0.4757  -40.1
 2.900  0.4241  167.6   2.046   62.0  0.1203   70.3  0.4758  -40.4
 2.920  0.4244  167.3   2.033   61.7  0.1211   70.4  0.4759  -40.6
 2.940  0.4247  167.0   2.020   61.5  0.1219   70.5  0.4761  -40.8
 2.960  0.4250  166.7   2.007   61.2  0.1227   70.5  0.4762  -41.0
 2.980  0.4254  166.4   1.994   61.0  0.1235   70.6  0.4764  -41.2
 3.000  0.4257  166.1   1.981   60.7  0.1243   70.7  0.4765  -41.4
 3.100  0.4256  164.7   1.928   59.6  0.1285   70.9  0.4778  -42.4
 3.200  0.4257  163.3   1.876   58.5  0.1327   71.2  0.4792  -43.3
 3.300  0.4260  161.9   1.824   57.4  0.1370   71.4  0.4807  -44.3
 3.400  0.4266  160.5   1.774   56.1  0.1412   71.6  0.4824  -45.3
 3.500  0.4275  159.1   1.724   54.8  0.1454   71.8  0.4842  -46.2
 3.600  0.4276  157.7   1.685   53.8  0.1499   71.9  0.4856  -47.1
 3.700  0.4279  156.3   1.647   52.8  0.1544   72.1  0.4870  -47.9
 3.800  0.4285  154.9   1.609   51.7  0.1589   72.2  0.4886  -48.8
 3.900  0.4293  153.6   1.572   50.6  0.1634   72.3  0.4903  -49.7
 4.000  0.4304  152.2   1.535   49.4  0.1679   72.4  0.4921  -50.5
 4.100  0.4317  150.9   1.506   48.5  0.1728   72.4  0.4919  -51.5
 4.200  0.4333  149.6   1.477   47.6  0.1776   72.4  0.4919  -52.5
 4.300  0.4351  148.3   1.449   46.6  0.1825   72.5  0.4921  -53.5
 4.400  0.4371  147.0   1.421   45.6  0.1873   72.5  0.4924  -54.5
 4.500  0.4393  145.7   1.393   44.5  0.1922   72.5  0.4928  -55.5
 4.600  0.4413  144.4   1.370   43.6  0.1973   72.4  0.4918  -56.6
 4.700  0.4435  143.0   1.347   42.6  0.2025   72.3  0.4911  -57.8
 4.800  0.4459  141.7   1.325   41.7  0.2076   72.2  0.4905  -58.9
 4.900  0.4486  140.4   1.303   40.6  0.2128   72.2  0.4901  -60.1
 5.000  0.4515  139.1   1.282   39.6  0.2179   72.1  0.4899  -61.2
 5.100  0.4537  137.7   1.263   38.7  0.2235   71.9  0.4887  -62.3
 5.200  0.4562  136.3   1.243   37.8  0.2291   71.8  0.4877  -63.4
 5.300  0.4590  135.0   1.225   36.9  0.2346   71.6  0.4868  -64.5
 5.400  0.4620  133.6   1.206   36.0  0.2402   71.4  0.4862  -65.6
 5.500  0.4653  132.3   1.188   35.0  0.2458   71.3  0.4857  -66.7
 5.600  0.4679  131.0   1.171   34.2  0.2520   71.0  0.4837  -68.0
 5.700  0.4708  129.7   1.155   33.4  0.2582   70.7  0.4820  -69.3
 5.800  0.4740  128.4   1.139   32.6  0.2644   70.4  0.4806  -70.6
 5.900  0.4773  127.1   1.123   31.7  0.2706   70.2  0.4794  -71.9
 6.000  0.4809  125.9   1.107   30.8  0.2768   69.9  0.4784  -73.2
!
!  f       NFmin   Gammaopt  rn/50
! GHz       dB    MAG  ANG    -
 0.450      1.62  0.17   -3   0.26
 0.900      1.82  0.15    6   0.31
 1.900      2.52  0.09 -101   0.34
 2.400      2.96  0.14 -129   0.33
!
! (c) 2015  Infineon Technologies AG, Munich
