! Infineon Technologies  Discrete & RF Semiconductors
! BFR35AP
! VCE =  3.0 V,  IC =  9.0 mA
! Common Emitter S-Parameters:                            Nov 2015
# GHz  S  MA  R  50
!  f         S11            S21            S12            S22
! GHz     MAG   ANG      MAG   ANG      MAG   ANG      MAG   ANG
 0.010  0.7240   -5.0  21.388  176.0  0.0027   90.0  0.9850   -2.2
 0.015  0.7192   -7.3  21.353  174.0  0.0040   84.9  0.9776   -3.4
 0.020  0.7157   -9.7  21.345  171.9  0.0053   82.3  0.9707   -4.7
 0.025  0.7094  -12.0  21.181  170.1  0.0066   81.0  0.9654   -5.8
 0.030  0.7042  -14.3  21.037  168.3  0.0078   80.0  0.9604   -6.9
 0.035  0.7003  -16.7  20.914  166.5  0.0091   79.4  0.9559   -8.1
 0.040  0.6975  -19.1  20.813  164.6  0.0104   78.9  0.9517   -9.2
 0.045  0.6960  -21.5  20.734  162.8  0.0116   78.5  0.9478  -10.3
 0.050  0.6957  -23.9  20.677  160.9  0.0129   78.2  0.9444  -11.5
 0.055  0.6837  -25.8  20.374  159.5  0.0140   76.9  0.9343  -12.3
 0.060  0.6725  -27.7  20.083  158.0  0.0151   75.8  0.9245  -13.1
 0.065  0.6621  -29.7  19.805  156.5  0.0162   74.8  0.9148  -14.0
 0.070  0.6525  -31.8  19.541  155.0  0.0173   73.9  0.9053  -14.8
 0.075  0.6438  -33.9  19.292  153.4  0.0184   73.2  0.8960  -15.7
 0.080  0.6359  -36.1  19.058  151.8  0.0195   72.5  0.8869  -16.6
 0.085  0.6290  -38.3  18.839  150.2  0.0206   71.9  0.8781  -17.5
 0.090  0.6231  -40.5  18.636  148.5  0.0217   71.4  0.8695  -18.4
 0.095  0.6182  -42.9  18.449  146.8  0.0228   70.9  0.8611  -19.3
 0.100  0.6143  -45.2  18.280  145.0  0.0239   70.5  0.8529  -20.3
 0.105  0.6030  -46.7  17.983  143.8  0.0247   69.7  0.8429  -20.8
 0.110  0.5921  -48.3  17.693  142.6  0.0255   69.0  0.8329  -21.3
 0.115  0.5816  -49.9  17.412  141.4  0.0263   68.3  0.8230  -21.9
 0.120  0.5717  -51.6  17.139  140.1  0.0271   67.7  0.8132  -22.4
 0.125  0.5622  -53.3  16.874  138.8  0.0280   67.1  0.8035  -23.0
 0.130  0.5533  -55.1  16.619  137.5  0.0288   66.5  0.7938  -23.6
 0.135  0.5449  -56.9  16.373  136.1  0.0296   66.0  0.7842  -24.1
 0.140  0.5371  -58.8  16.138  134.6  0.0304   65.4  0.7747  -24.7
 0.145  0.5299  -60.8  15.913  133.1  0.0313   65.0  0.7653  -25.4
 0.150  0.5234  -62.8  15.699  131.6  0.0321   64.5  0.7560  -26.0
 0.155  0.5160  -64.0  15.455  130.8  0.0327   64.2  0.7481  -26.3
 0.160  0.5088  -65.3  15.215  130.0  0.0333   63.9  0.7402  -26.5
 0.165  0.5018  -66.7  14.977  129.2  0.0339   63.7  0.7323  -26.8
 0.170  0.4952  -68.0  14.743  128.3  0.0345   63.4  0.7244  -27.1
 0.175  0.4888  -69.4  14.512  127.4  0.0351   63.2  0.7165  -27.4
 0.180  0.4827  -70.8  14.285  126.5  0.0358   63.0  0.7087  -27.7
 0.185  0.4769  -72.3  14.061  125.5  0.0364   62.7  0.7009  -28.0
 0.190  0.4715  -73.8  13.842  124.6  0.0370   62.5  0.6930  -28.3
 0.195  0.4664  -75.3  13.627  123.5  0.0376   62.3  0.6853  -28.6
 0.200  0.4616  -76.9  13.416  122.5  0.0382   62.1  0.6775  -28.9
 0.220  0.4376  -81.5  12.642  119.8  0.0403   61.5  0.6529  -29.4
 0.240  0.4168  -86.7  11.900  116.8  0.0424   61.0  0.6283  -30.0
 0.260  0.3978  -91.4  11.243  114.1  0.0444   60.7  0.6068  -30.4
 0.280  0.3796  -95.7  10.656  111.8  0.0465   60.6  0.5884  -30.6
 0.300  0.3637 -100.4  10.087  109.3  0.0485   60.5  0.5700  -30.9
 0.320  0.3502 -103.3   9.652  107.9  0.0502   60.6  0.5574  -30.9
 0.340  0.3376 -106.5   9.222  106.5  0.0520   60.7  0.5447  -30.9
 0.360  0.3262 -109.9   8.800  104.8  0.0537   60.8  0.5321  -30.8
 0.380  0.3160 -113.5   8.385  103.1  0.0555   60.9  0.5194  -30.8
 0.400  0.3071 -117.4   7.979  101.1  0.0572   61.0  0.5068  -30.8
 0.420  0.2991 -119.9   7.677  100.0  0.0590   61.2  0.4993  -30.7
 0.440  0.2917 -122.5   7.379   98.8  0.0609   61.3  0.4918  -30.6
 0.450  0.2883 -123.8   7.231   98.1  0.0618   61.4  0.4880  -30.6
 0.460  0.2850 -125.2   7.084   97.5  0.0627   61.5  0.4842  -30.6
 0.480  0.2789 -128.0   6.793   96.0  0.0646   61.7  0.4767  -30.5
 0.500  0.2735 -131.0   6.506   94.5  0.0664   61.8  0.4692  -30.4
 0.520  0.2686 -133.4   6.310   93.6  0.0683   62.0  0.4647  -30.4
 0.540  0.2643 -135.8   6.117   92.5  0.0703   62.1  0.4603  -30.3
 0.560  0.2604 -138.3   5.925   91.5  0.0722   62.2  0.4558  -30.3
 0.580  0.2570 -140.9   5.735   90.3  0.0742   62.4  0.4514  -30.2
 0.600  0.2542 -143.6   5.548   89.1  0.0761   62.5  0.4469  -30.2
 0.620  0.2510 -145.7   5.400   88.2  0.0780   62.7  0.4436  -30.2
 0.640  0.2481 -147.9   5.253   87.3  0.0798   62.8  0.4403  -30.2
 0.660  0.2456 -150.1   5.107   86.4  0.0817   62.9  0.4369  -30.2
 0.680  0.2435 -152.3   4.963   85.4  0.0835   63.1  0.4336  -30.2
 0.700  0.2417 -154.6   4.821   84.3  0.0854   63.2  0.4303  -30.2
 0.720  0.2404 -156.5   4.704   83.6  0.0874   63.2  0.4277  -30.3
 0.740  0.2393 -158.4   4.588   82.8  0.0894   63.2  0.4252  -30.3
 0.760  0.2385 -160.4   4.473   82.0  0.0914   63.2  0.4226  -30.4
 0.780  0.2380 -162.3   4.359   81.1  0.0934   63.2  0.4201  -30.4
 0.800  0.2378 -164.3   4.246   80.2  0.0954   63.2  0.4175  -30.5
 0.820  0.2365 -166.0   4.156   79.5  0.0974   63.2  0.4155  -30.6
 0.840  0.2354 -167.8   4.067   78.8  0.0994   63.3  0.4135  -30.7
 0.860  0.2346 -169.5   3.979   78.1  0.1013   63.3  0.4116  -30.8
 0.880  0.2339 -171.3   3.891   77.3  0.1033   63.4  0.4096  -30.9
 0.900  0.2335 -173.1   3.804   76.5  0.1053   63.4  0.4076  -31.0
 0.920  0.2336 -174.7   3.734   75.9  0.1073   63.3  0.4063  -31.2
 0.940  0.2338 -176.3   3.664   75.2  0.1093   63.2  0.4049  -31.3
 0.960  0.2343 -177.9   3.595   74.5  0.1112   63.2  0.4036  -31.5
 0.980  0.2349 -179.5   3.526   73.8  0.1132   63.1  0.4022  -31.6
 1.000  0.2357  178.9   3.458   73.0  0.1152   63.0  0.4009  -31.8
 1.020  0.2364  177.5   3.401   72.4  0.1172   63.0  0.3996  -32.0
 1.040  0.2372  176.1   3.345   71.8  0.1192   63.0  0.3983  -32.3
 1.060  0.2381  174.7   3.289   71.2  0.1213   62.9  0.3970  -32.5
 1.080  0.2392  173.4   3.234   70.6  0.1233   62.9  0.3958  -32.8
 1.100  0.2404  172.0   3.179   69.9  0.1253   62.9  0.3945  -33.0
 1.120  0.2408  170.7   3.130   69.3  0.1272   62.8  0.3931  -33.2
 1.140  0.2413  169.4   3.082   68.6  0.1292   62.7  0.3918  -33.4
 1.160  0.2419  168.1   3.034   67.9  0.1311   62.7  0.3904  -33.7
 1.180  0.2426  166.8   2.987   67.2  0.1331   62.6  0.3890  -33.9
 1.200  0.2435  165.5   2.940   66.5  0.1350   62.5  0.3877  -34.1
 1.220  0.2432  164.5   2.896   66.0  0.1371   62.3  0.3867  -34.3
 1.240  0.2430  163.5   2.852   65.4  0.1391   62.2  0.3857  -34.6
 1.260  0.2428  162.5   2.809   64.8  0.1412   62.0  0.3847  -34.8
 1.280  0.2427  161.5   2.766   64.2  0.1432   61.9  0.3838  -35.1
 1.300  0.2427  160.5   2.723   63.6  0.1453   61.7  0.3828  -35.3
 1.320  0.2446  159.0   2.687   63.1  0.1472   61.6  0.3818  -35.6
 1.340  0.2466  157.6   2.650   62.5  0.1491   61.5  0.3808  -35.9
 1.360  0.2488  156.2   2.614   62.0  0.1511   61.5  0.3798  -36.2
 1.380  0.2511  154.8   2.578   61.4  0.1530   61.4  0.3788  -36.5
 1.400  0.2536  153.4   2.543   60.8  0.1549   61.3  0.3778  -36.8
 1.420  0.2538  152.9   2.515   60.3  0.1570   61.1  0.3768  -37.1
 1.440  0.2539  152.4   2.487   59.7  0.1590   60.9  0.3758  -37.4
 1.460  0.2541  151.8   2.460   59.2  0.1611   60.7  0.3748  -37.6
 1.480  0.2544  151.3   2.433   58.6  0.1631   60.6  0.3739  -37.9
 1.500  0.2546  150.8   2.406   58.0  0.1652   60.4  0.3729  -38.2
 1.520  0.2572  149.7   2.377   57.4  0.1672   60.2  0.3714  -38.5
 1.540  0.2600  148.5   2.349   56.8  0.1692   60.1  0.3699  -38.8
 1.560  0.2628  147.4   2.321   56.2  0.1712   59.9  0.3684  -39.2
 1.580  0.2658  146.4   2.293   55.6  0.1732   59.8  0.3670  -39.5
 1.600  0.2688  145.3   2.265   55.0  0.1752   59.6  0.3655  -39.8
 1.620  0.2702  144.4   2.241   54.5  0.1773   59.5  0.3644  -40.1
 1.640  0.2716  143.5   2.218   54.0  0.1794   59.4  0.3633  -40.4
 1.660  0.2732  142.6   2.194   53.5  0.1814   59.2  0.3622  -40.8
 1.680  0.2748  141.8   2.171   52.9  0.1835   59.1  0.3611  -41.1
 1.700  0.2764  140.9   2.148   52.4  0.1856   59.0  0.3600  -41.4
 1.720  0.2780  140.1   2.129   51.9  0.1877   58.8  0.3592  -41.8
 1.740  0.2797  139.4   2.111   51.5  0.1897   58.6  0.3584  -42.2
 1.760  0.2814  138.6   2.092   51.0  0.1918   58.4  0.3577  -42.5
 1.780  0.2832  137.8   2.074   50.5  0.1938   58.2  0.3569  -42.9
 1.800  0.2850  137.1   2.056   50.0  0.1959   58.0  0.3562  -43.3
 1.820  0.2869  136.5   2.037   49.5  0.1979   57.8  0.3549  -43.7
 1.840  0.2889  135.9   2.019   48.9  0.1999   57.6  0.3535  -44.2
 1.860  0.2909  135.3   2.000   48.4  0.2019   57.4  0.3522  -44.6
 1.880  0.2929  134.8   1.982   47.9  0.2039   57.2  0.3510  -45.1
 1.900  0.2950  134.2   1.964   47.3  0.2059   57.0  0.3497  -45.5
 1.920  0.2967  133.4   1.946   46.8  0.2079   56.8  0.3482  -45.9
 1.940  0.2985  132.7   1.928   46.3  0.2098   56.6  0.3467  -46.2
 1.960  0.3003  131.9   1.910   45.8  0.2118   56.4  0.3452  -46.6
 1.980  0.3022  131.1   1.892   45.3  0.2137   56.2  0.3438  -46.9
 2.000  0.3041  130.4   1.874   44.8  0.2157   56.0  0.3423  -47.3
 2.020  0.3054  129.7   1.859   44.3  0.2178   55.8  0.3409  -47.7
 2.040  0.3067  129.1   1.845   43.9  0.2198   55.6  0.3394  -48.1
 2.060  0.3081  128.4   1.831   43.4  0.2219   55.4  0.3380  -48.5
 2.080  0.3095  127.8   1.816   42.9  0.2240   55.2  0.3366  -48.9
 2.100  0.3110  127.2   1.802   42.4  0.2261   55.0  0.3352  -49.4
 2.120  0.3125  126.5   1.788   41.9  0.2282   54.8  0.3339  -49.8
 2.140  0.3140  125.9   1.775   41.4  0.2302   54.6  0.3325  -50.2
 2.160  0.3156  125.3   1.761   40.9  0.2323   54.5  0.3312  -50.6
 2.180  0.3172  124.7   1.747   40.3  0.2344   54.3  0.3299  -51.1
 2.200  0.3188  124.1   1.734   39.8  0.2365   54.1  0.3286  -51.5
 2.220  0.3215  123.5   1.722   39.3  0.2385   53.9  0.3269  -52.0
 2.240  0.3241  122.9   1.710   38.9  0.2405   53.6  0.3253  -52.4
 2.260  0.3269  122.3   1.699   38.4  0.2425   53.4  0.3236  -52.9
 2.280  0.3296  121.7   1.687   38.0  0.2445   53.2  0.3220  -53.4
 2.300  0.3324  121.2   1.676   37.5  0.2466   53.0  0.3204  -53.9
 2.320  0.3352  120.6   1.665   37.0  0.2486   52.7  0.3188  -54.4
 2.340  0.3381  120.1   1.654   36.5  0.2506   52.5  0.3173  -54.9
 2.360  0.3410  119.5   1.643   36.0  0.2526   52.3  0.3158  -55.4
 2.380  0.3439  119.0   1.632   35.5  0.2547   52.1  0.3143  -55.9
 2.400  0.3468  118.5   1.621   35.0  0.2567   51.9  0.3128  -56.4
 2.420  0.3489  118.0   1.611   34.6  0.2587   51.7  0.3111  -56.9
 2.440  0.3510  117.4   1.600   34.1  0.2607   51.4  0.3094  -57.4
 2.460  0.3531  116.9   1.590   33.7  0.2627   51.2  0.3077  -57.9
 2.480  0.3553  116.3   1.580   33.3  0.2647   50.9  0.3061  -58.4
 2.500  0.3575  115.8   1.570   32.8  0.2667   50.7  0.3044  -58.9
 2.520  0.3597  115.3   1.560   32.4  0.2688   50.5  0.3028  -59.5
 2.540  0.3620  114.8   1.550   31.9  0.2708   50.3  0.3013  -60.0
 2.560  0.3642  114.3   1.540   31.4  0.2728   50.0  0.2997  -60.5
 2.580  0.3666  113.8   1.531   31.0  0.2749   49.8  0.2982  -61.1
 2.600  0.3689  113.3   1.521   30.5  0.2769   49.6  0.2967  -61.6
 2.620  0.3712  112.8   1.512   30.1  0.2789   49.3  0.2947  -62.2
 2.640  0.3735  112.4   1.504   29.7  0.2808   49.1  0.2928  -62.7
 2.660  0.3758  112.0   1.495   29.3  0.2828   48.8  0.2909  -63.3
 2.680  0.3781  111.5   1.487   28.9  0.2848   48.6  0.2890  -63.9
 2.700  0.3805  111.1   1.479   28.5  0.2867   48.4  0.2872  -64.5
 2.720  0.3829  110.7   1.470   28.0  0.2887   48.1  0.2853  -65.1
 2.740  0.3853  110.2   1.462   27.6  0.2907   47.9  0.2836  -65.7
 2.760  0.3877  109.8   1.454   27.2  0.2927   47.7  0.2818  -66.3
 2.780  0.3901  109.4   1.446   26.7  0.2947   47.4  0.2801  -67.0
 2.800  0.3926  109.0   1.438   26.3  0.2967   47.2  0.2784  -67.6
 2.820  0.3951  108.6   1.430   25.9  0.2987   46.9  0.2765  -68.2
 2.840  0.3977  108.2   1.422   25.4  0.3006   46.7  0.2746  -68.9
 2.860  0.4002  107.7   1.414   25.0  0.3026   46.4  0.2728  -69.5
 2.880  0.4028  107.3   1.406   24.5  0.3046   46.2  0.2710  -70.2
 2.900  0.4055  106.9   1.398   24.1  0.3066   45.9  0.2693  -70.9
 2.920  0.4081  106.5   1.391   23.6  0.3086   45.7  0.2676  -71.6
 2.940  0.4107  106.1   1.383   23.1  0.3106   45.4  0.2659  -72.3
 2.960  0.4134  105.8   1.376   22.7  0.3126   45.2  0.2643  -73.0
 2.980  0.4161  105.4   1.368   22.2  0.3146   44.9  0.2627  -73.7
 3.000  0.4188  105.0   1.361   21.7  0.3166   44.7  0.2611  -74.4
 3.100  0.4305  103.1   1.326   19.9  0.3254   43.3  0.2496  -78.1
 3.200  0.4426  101.2   1.292   18.0  0.3345   41.9  0.2393  -82.2
 3.300  0.4551   99.5   1.260   16.0  0.3437   40.7  0.2303  -86.6
 3.400  0.4681   97.9   1.230   13.9  0.3531   39.4  0.2227  -91.4
 3.500  0.4814   96.3   1.201   11.7  0.3626   38.3  0.2168  -96.4
 3.600  0.4908   94.7   1.174   10.1  0.3710   36.9  0.2082 -101.9
 3.700  0.5006   93.1   1.149    8.4  0.3797   35.6  0.2016 -107.7
 3.800  0.5108   91.6   1.124    6.6  0.3885   34.3  0.1973 -114.0
 3.900  0.5213   90.1   1.100    4.7  0.3975   33.1  0.1954 -120.4
 4.000  0.5322   88.7   1.078    2.8  0.4067   31.9  0.1960 -126.8
 4.100  0.5423   87.4   1.057    1.3  0.4146   30.4  0.1930 -133.2
 4.200  0.5526   86.2   1.036   -0.3  0.4228   29.0  0.1924 -139.8
 4.300  0.5632   85.0   1.016   -2.0  0.4312   27.7  0.1944 -146.3
 4.400  0.5740   83.8   0.997   -3.7  0.4399   26.4  0.1989 -152.6
 4.500  0.5850   82.7   0.979   -5.5  0.4488   25.1  0.2056 -158.6
 4.600  0.5917   81.5   0.962   -6.8  0.4552   23.6  0.2083 -164.5
 4.700  0.5987   80.3   0.945   -8.2  0.4620   22.2  0.2132 -170.2
 4.800  0.6059   79.1   0.929   -9.7  0.4690   20.8  0.2201 -175.6
 4.900  0.6134   77.9   0.913  -11.2  0.4763   19.4  0.2288  179.4
 5.000  0.6211   76.8   0.898  -12.7  0.4838   18.1  0.2391  174.8
 5.100  0.6292   75.5   0.876  -13.9  0.4858   16.5  0.2385  169.8
 5.200  0.6376   74.3   0.854  -15.1  0.4881   15.0  0.2398  164.8
 5.300  0.6462   73.1   0.832  -16.3  0.4908   13.4  0.2428  159.8
 5.400  0.6552   71.9   0.811  -17.7  0.4939   11.9  0.2476  155.1
 5.500  0.6644   70.8   0.790  -19.1  0.4973   10.4  0.2541  150.5
 5.600  0.6640   69.7   0.783  -19.6  0.5059    9.5  0.2725  149.6
 5.700  0.6638   68.6   0.777  -20.2  0.5145    8.7  0.2910  148.9
 5.800  0.6638   67.5   0.771  -20.8  0.5233    7.9  0.3095  148.2
 5.900  0.6642   66.4   0.764  -21.3  0.5322    7.1  0.3280  147.6
 6.000  0.6647   65.3   0.758  -21.9  0.5412    6.3  0.3466  147.1
!
!  f       NFmin   Gammaopt  rn/50
! GHz       dB    MAG  ANG    -
!
! noise parameter not available yet for this operation point!
!
! (c) 2015  Infineon Technologies AG, Munich
