! Infineon Technologies  Discrete & RF Semiconductors
! BFR35AP
! VCE =  1.0 V,  IC =  5.0 mA
! Common Emitter S-Parameters:                            Nov 2015
# GHz  S  MA  R  50
!  f         S11            S21            S12            S22
! GHz     MAG   ANG      MAG   ANG      MAG   ANG      MAG   ANG
 0.010  0.8074   -4.3  14.191  177.0  0.0038   87.6  0.9852   -2.2
 0.015  0.8018   -6.5  14.187  175.2  0.0057   85.7  0.9794   -3.4
 0.020  0.7973   -8.7  14.197  173.4  0.0077   84.7  0.9741   -4.6
 0.025  0.7933  -10.7  14.101  171.9  0.0096   83.0  0.9702   -5.7
 0.030  0.7902  -12.7  14.014  170.4  0.0115   81.8  0.9667   -6.8
 0.035  0.7881  -14.7  13.938  168.8  0.0134   81.0  0.9636   -7.9
 0.040  0.7870  -16.7  13.872  167.3  0.0154   80.4  0.9608   -9.0
 0.045  0.7869  -18.8  13.816  165.7  0.0173   79.9  0.9584  -10.2
 0.050  0.7878  -20.8  13.771  164.1  0.0192   79.5  0.9564  -11.3
 0.055  0.7778  -22.6  13.635  162.8  0.0208   77.9  0.9480  -12.2
 0.060  0.7685  -24.4  13.506  161.4  0.0224   76.6  0.9399  -13.1
 0.065  0.7600  -26.2  13.385  160.0  0.0241   75.4  0.9320  -14.0
 0.070  0.7524  -28.1  13.271  158.6  0.0257   74.4  0.9244  -15.0
 0.075  0.7455  -30.0  13.166  157.2  0.0274   73.4  0.9170  -16.0
 0.080  0.7395  -32.0  13.069  155.8  0.0290   72.7  0.9099  -16.9
 0.085  0.7344  -34.0  12.980  154.3  0.0307   71.9  0.9031  -17.9
 0.090  0.7302  -36.0  12.900  152.8  0.0324   71.3  0.8965  -18.9
 0.095  0.7270  -38.0  12.829  151.3  0.0340   70.7  0.8902  -20.0
 0.100  0.7246  -40.1  12.767  149.8  0.0357   70.2  0.8842  -21.0
 0.105  0.7142  -41.6  12.599  148.7  0.0370   69.2  0.8746  -21.7
 0.110  0.7043  -43.2  12.437  147.5  0.0383   68.3  0.8652  -22.4
 0.115  0.6950  -44.8  12.279  146.3  0.0396   67.4  0.8559  -23.1
 0.120  0.6862  -46.4  12.127  145.1  0.0409   66.6  0.8468  -23.9
 0.125  0.6779  -48.1  11.981  143.9  0.0422   65.9  0.8378  -24.6
 0.130  0.6703  -49.8  11.840  142.6  0.0435   65.2  0.8289  -25.4
 0.135  0.6633  -51.6  11.706  141.3  0.0448   64.5  0.8202  -26.2
 0.140  0.6570  -53.4  11.577  140.0  0.0461   63.9  0.8117  -27.0
 0.145  0.6513  -55.2  11.455  138.6  0.0475   63.3  0.8033  -27.9
 0.150  0.6463  -57.1  11.340  137.2  0.0488   62.7  0.7951  -28.7
 0.155  0.6386  -58.4  11.196  136.4  0.0498   62.2  0.7869  -29.1
 0.160  0.6313  -59.7  11.055  135.5  0.0507   61.7  0.7787  -29.6
 0.165  0.6243  -61.1  10.917  134.6  0.0517   61.2  0.7706  -30.0
 0.170  0.6177  -62.5  10.781  133.7  0.0526   60.7  0.7626  -30.5
 0.175  0.6115  -63.9  10.648  132.8  0.0536   60.3  0.7545  -31.0
 0.180  0.6056  -65.3  10.517  131.8  0.0546   59.9  0.7466  -31.5
 0.185  0.6001  -66.8  10.390  130.9  0.0556   59.5  0.7387  -32.0
 0.190  0.5951  -68.3  10.266  129.9  0.0565   59.1  0.7308  -32.5
 0.195  0.5904  -69.9  10.145  128.8  0.0575   58.7  0.7230  -33.0
 0.200  0.5862  -71.4  10.027  127.8  0.0585   58.3  0.7153  -33.5
 0.220  0.5579  -76.2   9.535  124.8  0.0611   56.7  0.6861  -34.8
 0.240  0.5340  -81.6   9.073  121.4  0.0638   55.3  0.6574  -36.3
 0.260  0.5136  -86.4   8.642  118.4  0.0664   54.3  0.6312  -37.5
 0.280  0.4949  -90.6   8.229  115.9  0.0689   53.7  0.6072  -38.5
 0.300  0.4792  -95.2   7.833  113.2  0.0713   53.1  0.5835  -39.5
 0.320  0.4628  -98.3   7.515  111.7  0.0734   52.7  0.5671  -39.9
 0.340  0.4479 -101.6   7.202  110.1  0.0756   52.3  0.5507  -40.3
 0.360  0.4346 -105.1   6.896  108.3  0.0777   52.0  0.5344  -40.8
 0.380  0.4230 -108.9   6.597  106.3  0.0799   51.6  0.5181  -41.3
 0.400  0.4133 -112.8   6.307  104.2  0.0820   51.3  0.5018  -41.8
 0.420  0.4032 -115.5   6.080  102.8  0.0838   51.2  0.4905  -42.0
 0.440  0.3941 -118.3   5.856  101.4  0.0856   51.1  0.4793  -42.2
 0.450  0.3899 -119.8   5.746  100.6  0.0865   51.1  0.4736  -42.3
 0.460  0.3859 -121.3   5.636   99.8  0.0874   51.1  0.4680  -42.4
 0.480  0.3789 -124.3   5.422   98.1  0.0892   51.0  0.4567  -42.6
 0.500  0.3729 -127.5   5.212   96.2  0.0910   50.9  0.4455  -42.8
 0.520  0.3665 -130.1   5.060   95.1  0.0928   51.1  0.4376  -42.9
 0.540  0.3609 -132.8   4.911   93.9  0.0945   51.2  0.4296  -43.0
 0.560  0.3561 -135.5   4.763   92.7  0.0963   51.4  0.4217  -43.1
 0.580  0.3521 -138.3   4.618   91.3  0.0980   51.6  0.4137  -43.3
 0.600  0.3490 -141.2   4.476   89.9  0.0998   51.7  0.4058  -43.4
 0.620  0.3446 -143.2   4.360   88.9  0.1016   51.8  0.4004  -43.5
 0.640  0.3406 -145.3   4.246   87.9  0.1034   51.9  0.3950  -43.6
 0.660  0.3371 -147.4   4.133   86.8  0.1052   51.9  0.3895  -43.7
 0.680  0.3341 -149.6   4.022   85.7  0.1070   52.0  0.3841  -43.8
 0.700  0.3315 -151.8   3.912   84.5  0.1088   52.1  0.3787  -43.9
 0.720  0.3301 -153.6   3.818   83.7  0.1107   52.1  0.3745  -44.0
 0.740  0.3291 -155.5   3.726   82.8  0.1126   52.2  0.3702  -44.1
 0.760  0.3284 -157.3   3.634   81.9  0.1145   52.2  0.3660  -44.2
 0.780  0.3280 -159.1   3.543   80.9  0.1164   52.3  0.3617  -44.3
 0.800  0.3280 -161.0   3.453   79.9  0.1183   52.3  0.3575  -44.4
 0.820  0.3250 -162.5   3.382   79.1  0.1204   52.3  0.3548  -44.5
 0.840  0.3221 -163.9   3.313   78.3  0.1224   52.4  0.3521  -44.7
 0.860  0.3195 -165.4   3.243   77.5  0.1245   52.4  0.3493  -44.8
 0.880  0.3172 -167.0   3.175   76.6  0.1265   52.5  0.3466  -45.0
 0.900  0.3150 -168.5   3.107   75.7  0.1286   52.5  0.3439  -45.1
 0.920  0.3149 -170.2   3.051   75.0  0.1305   52.5  0.3416  -45.3
 0.940  0.3151 -172.0   2.995   74.2  0.1323   52.6  0.3392  -45.5
 0.960  0.3156 -173.7   2.940   73.4  0.1342   52.6  0.3369  -45.7
 0.980  0.3164 -175.4   2.886   72.6  0.1360   52.7  0.3345  -45.9
 1.000  0.3174 -177.1   2.832   71.8  0.1379   52.7  0.3322  -46.1
 1.020  0.3173 -178.6   2.787   71.1  0.1399   52.7  0.3299  -46.4
 1.040  0.3175  179.9   2.743   70.4  0.1419   52.7  0.3277  -46.6
 1.060  0.3179  178.4   2.700   69.6  0.1438   52.8  0.3255  -46.9
 1.080  0.3185  176.9   2.657   68.8  0.1458   52.8  0.3232  -47.2
 1.100  0.3193  175.4   2.614   68.0  0.1478   52.8  0.3210  -47.5
 1.120  0.3195  174.1   2.575   67.3  0.1499   52.8  0.3190  -47.7
 1.140  0.3198  172.7   2.536   66.6  0.1519   52.8  0.3169  -48.0
 1.160  0.3203  171.4   2.498   65.9  0.1540   52.7  0.3149  -48.2
 1.180  0.3210  170.1   2.460   65.2  0.1560   52.7  0.3129  -48.5
 1.200  0.3218  168.8   2.423   64.4  0.1581   52.7  0.3109  -48.7
 1.220  0.3218  167.8   2.387   63.8  0.1602   52.6  0.3091  -49.0
 1.240  0.3219  166.9   2.352   63.1  0.1623   52.6  0.3072  -49.3
 1.260  0.3221  165.9   2.317   62.4  0.1643   52.5  0.3054  -49.5
 1.280  0.3224  165.0   2.282   61.7  0.1664   52.5  0.3036  -49.8
 1.300  0.3228  164.0   2.248   61.0  0.1685   52.4  0.3018  -50.1
 1.320  0.3242  162.7   2.219   60.4  0.1705   52.3  0.3004  -50.5
 1.340  0.3257  161.4   2.191   59.8  0.1725   52.3  0.2990  -50.8
 1.360  0.3274  160.2   2.163   59.2  0.1746   52.2  0.2976  -51.2
 1.380  0.3292  158.9   2.135   58.6  0.1766   52.2  0.2963  -51.6
 1.400  0.3312  157.7   2.107   57.9  0.1786   52.1  0.2949  -52.0
 1.420  0.3318  157.0   2.085   57.3  0.1807   52.0  0.2933  -52.3
 1.440  0.3324  156.3   2.063   56.7  0.1829   51.9  0.2917  -52.7
 1.460  0.3331  155.5   2.041   56.1  0.1850   51.8  0.2901  -53.0
 1.480  0.3338  154.8   2.019   55.4  0.1872   51.7  0.2886  -53.4
 1.500  0.3346  154.1   1.998   54.8  0.1893   51.6  0.2870  -53.7
 1.520  0.3367  153.0   1.973   54.2  0.1914   51.5  0.2853  -54.1
 1.540  0.3388  151.8   1.948   53.5  0.1935   51.4  0.2836  -54.5
 1.560  0.3412  150.7   1.924   52.8  0.1956   51.3  0.2819  -54.9
 1.580  0.3436  149.6   1.900   52.1  0.1977   51.2  0.2803  -55.3
 1.600  0.3462  148.5   1.876   51.4  0.1998   51.1  0.2786  -55.7
 1.620  0.3471  147.6   1.857   50.9  0.2017   50.9  0.2773  -56.1
 1.640  0.3480  146.8   1.839   50.3  0.2037   50.8  0.2760  -56.5
 1.660  0.3490  145.9   1.821   49.8  0.2056   50.6  0.2747  -56.9
 1.680  0.3501  145.0   1.803   49.2  0.2076   50.5  0.2735  -57.3
 1.700  0.3513  144.2   1.785   48.6  0.2095   50.3  0.2722  -57.7
 1.720  0.3524  143.4   1.770   48.1  0.2117   50.1  0.2713  -58.2
 1.740  0.3536  142.6   1.754   47.6  0.2138   50.0  0.2703  -58.7
 1.760  0.3549  141.8   1.739   47.1  0.2160   49.8  0.2694  -59.1
 1.780  0.3562  141.1   1.724   46.5  0.2181   49.7  0.2686  -59.6
 1.800  0.3576  140.3   1.709   46.0  0.2203   49.5  0.2677  -60.1
 1.820  0.3600  139.5   1.695   45.4  0.2223   49.4  0.2661  -60.7
 1.840  0.3625  138.8   1.680   44.8  0.2244   49.2  0.2645  -61.2
 1.860  0.3650  138.0   1.666   44.2  0.2264   49.1  0.2629  -61.8
 1.880  0.3676  137.3   1.653   43.5  0.2285   48.9  0.2614  -62.4
 1.900  0.3702  136.6   1.639   42.9  0.2305   48.8  0.2599  -63.0
 1.920  0.3718  135.9   1.625   42.4  0.2327   48.6  0.2582  -63.5
 1.940  0.3735  135.2   1.610   41.9  0.2349   48.4  0.2564  -64.0
 1.960  0.3753  134.5   1.596   41.4  0.2372   48.2  0.2547  -64.5
 1.980  0.3770  133.8   1.582   40.9  0.2394   48.1  0.2531  -65.0
 2.000  0.3789  133.1   1.568   40.4  0.2416   47.9  0.2514  -65.5
 2.020  0.3803  132.4   1.556   39.9  0.2437   47.7  0.2499  -66.1
 2.040  0.3818  131.8   1.544   39.4  0.2458   47.5  0.2484  -66.7
 2.060  0.3834  131.1   1.532   38.9  0.2479   47.3  0.2469  -67.3
 2.080  0.3850  130.5   1.520   38.4  0.2500   47.1  0.2454  -67.9
 2.100  0.3866  129.8   1.508   37.9  0.2521   46.9  0.2440  -68.5
 2.120  0.3883  129.2   1.497   37.3  0.2542   46.7  0.2426  -69.1
 2.140  0.3901  128.6   1.485   36.8  0.2563   46.5  0.2412  -69.8
 2.160  0.3919  127.9   1.474   36.2  0.2585   46.4  0.2399  -70.4
 2.180  0.3937  127.3   1.463   35.7  0.2606   46.2  0.2386  -71.0
 2.200  0.3956  126.7   1.452   35.1  0.2627   46.0  0.2373  -71.7
 2.220  0.3975  126.0   1.443   34.6  0.2648   45.8  0.2354  -72.4
 2.240  0.3995  125.3   1.434   34.1  0.2669   45.6  0.2335  -73.0
 2.260  0.4015  124.6   1.425   33.6  0.2689   45.3  0.2317  -73.7
 2.280  0.4036  123.9   1.417   33.1  0.2710   45.1  0.2299  -74.4
 2.300  0.4058  123.3   1.408   32.5  0.2731   44.9  0.2282  -75.1
 2.320  0.4080  122.6   1.400   32.0  0.2752   44.7  0.2264  -75.8
 2.340  0.4102  121.9   1.391   31.5  0.2773   44.5  0.2247  -76.6
 2.360  0.4125  121.3   1.383   30.9  0.2794   44.3  0.2231  -77.3
 2.380  0.4149  120.6   1.375   30.4  0.2815   44.1  0.2215  -78.0
 2.400  0.4173  120.0   1.367   29.8  0.2836   43.9  0.2199  -78.8
 2.420  0.4195  119.4   1.358   29.4  0.2856   43.7  0.2183  -79.6
 2.440  0.4218  118.8   1.349   28.9  0.2877   43.4  0.2167  -80.3
 2.460  0.4241  118.2   1.340   28.5  0.2898   43.2  0.2152  -81.1
 2.480  0.4264  117.6   1.331   28.1  0.2918   43.0  0.2138  -81.9
 2.500  0.4288  117.0   1.322   27.6  0.2939   42.8  0.2123  -82.7
 2.520  0.4312  116.4   1.313   27.2  0.2960   42.5  0.2109  -83.5
 2.540  0.4337  115.9   1.305   26.7  0.2980   42.3  0.2096  -84.4
 2.560  0.4362  115.3   1.296   26.2  0.3001   42.1  0.2083  -85.2
 2.580  0.4388  114.8   1.287   25.8  0.3022   41.9  0.2070  -86.0
 2.600  0.4414  114.2   1.279   25.3  0.3043   41.7  0.2058  -86.9
 2.620  0.4435  113.7   1.272   24.9  0.3063   41.4  0.2041  -87.8
 2.640  0.4455  113.2   1.265   24.4  0.3083   41.2  0.2025  -88.7
 2.660  0.4477  112.6   1.259   24.0  0.3103   40.9  0.2009  -89.7
 2.680  0.4498  112.1   1.252   23.6  0.3123   40.7  0.1994  -90.7
 2.700  0.4520  111.6   1.246   23.1  0.3143   40.5  0.1980  -91.6
 2.720  0.4542  111.1   1.239   22.7  0.3164   40.2  0.1966  -92.6
 2.740  0.4565  110.6   1.233   22.2  0.3184   40.0  0.1952  -93.6
 2.760  0.4588  110.2   1.226   21.7  0.3204   39.8  0.1940  -94.6
 2.780  0.4611  109.7   1.220   21.3  0.3225   39.5  0.1928  -95.7
 2.800  0.4635  109.2   1.214   20.8  0.3245   39.3  0.1916  -96.7
 2.820  0.4653  108.7   1.207   20.4  0.3264   39.0  0.1902  -97.8
 2.840  0.4672  108.3   1.200   19.9  0.3284   38.8  0.1888  -98.9
 2.860  0.4691  107.8   1.194   19.5  0.3303   38.5  0.1875 -100.0
 2.880  0.4710  107.4   1.187   19.0  0.3323   38.2  0.1863 -101.1
 2.900  0.4730  107.0   1.181   18.6  0.3343   38.0  0.1851 -102.2
 2.920  0.4750  106.5   1.174   18.1  0.3362   37.7  0.1841 -103.4
 2.940  0.4770  106.1   1.168   17.6  0.3382   37.4  0.1830 -104.5
 2.960  0.4790  105.7   1.161   17.2  0.3402   37.2  0.1821 -105.7
 2.980  0.4811  105.2   1.155   16.7  0.3422   36.9  0.1813 -106.9
 3.000  0.4832  104.8   1.149   16.2  0.3442   36.7  0.1805 -108.1
 3.100  0.4939  102.7   1.119   14.5  0.3526   35.2  0.1741 -114.5
 3.200  0.5053  100.6   1.091   12.6  0.3612   33.9  0.1700 -121.2
 3.300  0.5173   98.7   1.063   10.7  0.3700   32.6  0.1684 -128.2
 3.400  0.5298   96.9   1.037    8.6  0.3790   31.3  0.1693 -135.3
 3.500  0.5429   95.1   1.012    6.5  0.3882   30.1  0.1727 -142.1
 3.600  0.5506   93.4   0.990    5.0  0.3958   28.7  0.1742 -149.4
 3.700  0.5588   91.7   0.969    3.4  0.4037   27.3  0.1785 -156.4
 3.800  0.5675   90.0   0.949    1.8  0.4118   26.0  0.1853 -163.0
 3.900  0.5766   88.4   0.930    0.1  0.4200   24.8  0.1943 -169.1
 4.000  0.5862   86.9   0.911   -1.7  0.4285   23.6  0.2054 -174.6
 4.100  0.5944   85.5   0.893   -3.1  0.4351   22.2  0.2127  179.9
 4.200  0.6029   84.1   0.876   -4.5  0.4420   20.7  0.2219  174.7
 4.300  0.6118   82.7   0.859   -6.0  0.4491   19.4  0.2327  170.1
 4.400  0.6211   81.4   0.843   -7.5  0.4565   18.1  0.2450  165.8
 4.500  0.6306   80.1   0.828   -9.1  0.4641   16.8  0.2584  162.0
 4.600  0.6353   78.9   0.814  -10.3  0.4690   15.4  0.2674  158.0
 4.700  0.6403   77.7   0.800  -11.5  0.4742   14.0  0.2776  154.2
 4.800  0.6456   76.6   0.787  -12.8  0.4796   12.7  0.2889  150.7
 4.900  0.6511   75.4   0.774  -14.1  0.4853   11.4  0.3012  147.5
 5.000  0.6569   74.3   0.762  -15.4  0.4913   10.1  0.3143  144.6
 5.100  0.6627   73.1   0.745  -16.3  0.4920    8.6  0.3170  140.9
 5.200  0.6689   71.9   0.728  -17.3  0.4931    7.2  0.3211  137.2
 5.300  0.6753   70.7   0.711  -18.4  0.4944    5.8  0.3264  133.6
 5.400  0.6820   69.5   0.695  -19.5  0.4961    4.3  0.3329  130.2
 5.500  0.6890   68.4   0.679  -20.6  0.4981    2.9  0.3406  126.9
 5.600  0.6876   67.4   0.676  -21.0  0.5056    2.1  0.3562  126.9
 5.700  0.6865   66.4   0.673  -21.3  0.5131    1.3  0.3718  126.8
 5.800  0.6855   65.4   0.671  -21.7  0.5207    0.6  0.3875  126.8
 5.900  0.6847   64.4   0.668  -22.0  0.5285   -0.2  0.4031  126.7
 6.000  0.6842   63.4   0.665  -22.4  0.5363   -0.9  0.4187  126.7
!
!  f       NFmin   Gammaopt  rn/50
! GHz       dB    MAG  ANG    -
!
! noise parameter not available yet for this operation point!
!
! (c) 2015  Infineon Technologies AG, Munich
