! Infineon Technologies  Discrete & RF Semiconductors
! BFR35AP
! VCE =  3.5 V,  IC =  30 mA
! Common Emitter S-Parameters:                            Nov 2015
# GHz  S  MA  R  50
!  f         S11            S21            S12            S22
! GHz     MAG   ANG      MAG   ANG      MAG   ANG      MAG   ANG
 0.010  0.4265  -11.3  34.226  172.8  0.0020   82.2  0.9422   -3.3
 0.015  0.4208  -16.7  33.858  169.3  0.0031   81.5  0.9311   -5.2
 0.020  0.4189  -22.2  33.616  165.8  0.0043   81.2  0.9211   -7.1
 0.025  0.4074  -26.7  32.788  163.1  0.0053   79.3  0.9069   -8.5
 0.030  0.3986  -31.4  32.035  160.3  0.0063   77.9  0.8932   -9.9
 0.035  0.3926  -36.4  31.362  157.4  0.0073   77.0  0.8801  -11.3
 0.040  0.3895  -41.4  30.776  154.3  0.0083   76.2  0.8676  -12.8
 0.045  0.3896  -46.5  30.280  151.2  0.0093   75.7  0.8556  -14.3
 0.050  0.3926  -51.5  29.879  147.9  0.0103   75.2  0.8443  -15.9
 0.055  0.3802  -54.6  28.987  146.4  0.0110   74.1  0.8294  -16.4
 0.060  0.3690  -57.9  28.118  144.7  0.0116   73.2  0.8146  -17.0
 0.065  0.3590  -61.4  27.273  143.0  0.0123   72.4  0.7999  -17.6
 0.070  0.3505  -65.1  26.455  141.1  0.0130   71.6  0.7853  -18.2
 0.075  0.3435  -68.9  25.666  139.2  0.0137   71.0  0.7707  -18.8
 0.080  0.3381  -72.9  24.909  137.1  0.0144   70.3  0.7563  -19.5
 0.085  0.3344  -77.0  24.188  134.9  0.0150   69.8  0.7419  -20.2
 0.090  0.3324  -81.1  23.504  132.5  0.0157   69.3  0.7277  -20.9
 0.095  0.3321  -85.3  22.863  130.0  0.0164   68.8  0.7136  -21.6
 0.100  0.3337  -89.5  22.267  127.4  0.0171   68.4  0.6996  -22.4
 0.105  0.3279  -91.6  21.695  126.4  0.0176   68.2  0.6901  -22.5
 0.110  0.3225  -93.7  21.129  125.4  0.0180   68.0  0.6805  -22.6
 0.115  0.3176  -95.9  20.570  124.3  0.0185   67.8  0.6710  -22.7
 0.120  0.3132  -98.2  20.019  123.2  0.0190   67.6  0.6615  -22.8
 0.125  0.3093 -100.6  19.476  122.0  0.0194   67.4  0.6520  -22.9
 0.130  0.3059 -103.0  18.942  120.7  0.0199   67.2  0.6425  -23.0
 0.135  0.3031 -105.4  18.418  119.4  0.0204   67.1  0.6329  -23.1
 0.140  0.3009 -107.9  17.904  118.0  0.0209   66.9  0.6234  -23.2
 0.145  0.2992 -110.5  17.402  116.5  0.0213   66.7  0.6139  -23.3
 0.150  0.2981 -113.0  16.913  114.9  0.0218   66.6  0.6044  -23.4
 0.155  0.2957 -114.5  16.552  114.3  0.0223   66.7  0.5993  -23.3
 0.160  0.2935 -116.1  16.194  113.6  0.0228   66.8  0.5943  -23.2
 0.165  0.2915 -117.7  15.838  112.9  0.0233   66.9  0.5892  -23.1
 0.170  0.2898 -119.3  15.484  112.2  0.0238   67.0  0.5842  -23.1
 0.175  0.2883 -121.0  15.132  111.5  0.0243   67.1  0.5791  -23.0
 0.180  0.2870 -122.6  14.783  110.7  0.0248   67.2  0.5741  -22.9
 0.185  0.2860 -124.3  14.437  109.9  0.0253   67.3  0.5690  -22.8
 0.190  0.2852 -125.9  14.095  109.0  0.0258   67.3  0.5640  -22.7
 0.195  0.2847 -127.6  13.755  108.1  0.0263   67.4  0.5589  -22.6
 0.200  0.2844 -129.3  13.419  107.2  0.0268   67.5  0.5539  -22.5
 0.220  0.2796 -134.3  12.436  105.3  0.0286   68.2  0.5410  -22.1
 0.240  0.2771 -139.4  11.470  103.0  0.0303   68.8  0.5280  -21.7
 0.260  0.2747 -143.7  10.662  101.0  0.0323   69.5  0.5178  -21.4
 0.280  0.2716 -147.3  10.005   99.3  0.0344   70.1  0.5103  -21.1
 0.300  0.2696 -150.9   9.356   97.5  0.0365   70.7  0.5028  -20.8
 0.320  0.2672 -153.5   8.915   96.6  0.0384   71.1  0.4982  -20.6
 0.340  0.2654 -156.2   8.476   95.5  0.0404   71.4  0.4936  -20.5
 0.360  0.2642 -158.9   8.040   94.4  0.0423   71.7  0.4890  -20.3
 0.380  0.2635 -161.6   7.608   93.1  0.0443   72.0  0.4845  -20.2
 0.400  0.2635 -164.3   7.180   91.7  0.0462   72.2  0.4799  -20.0
 0.420  0.2648 -166.2   6.892   90.8  0.0481   72.4  0.4770  -20.0
 0.440  0.2664 -168.1   6.605   89.8  0.0501   72.5  0.4741  -20.0
 0.450  0.2672 -169.1   6.463   89.3  0.0510   72.6  0.4727  -20.0
 0.460  0.2682 -170.0   6.321   88.8  0.0520   72.7  0.4712  -20.0
 0.480  0.2704 -171.9   6.039   87.6  0.0540   72.8  0.4683  -20.0
 0.500  0.2728 -173.7   5.760   86.3  0.0559   72.9  0.4654  -20.0
 0.520  0.2728 -175.1   5.575   85.6  0.0580   72.9  0.4643  -20.1
 0.540  0.2729 -176.5   5.392   84.8  0.0600   72.9  0.4632  -20.2
 0.560  0.2732 -177.9   5.209   84.0  0.0621   72.8  0.4621  -20.2
 0.580  0.2736 -179.3   5.028   83.1  0.0641   72.8  0.4610  -20.3
 0.600  0.2742  179.3   4.848   82.1  0.0662   72.8  0.4599  -20.4
 0.620  0.2739  178.0   4.718   81.4  0.0682   72.8  0.4586  -20.6
 0.640  0.2738  176.7   4.589   80.6  0.0701   72.8  0.4573  -20.8
 0.660  0.2738  175.4   4.461   79.8  0.0721   72.9  0.4560  -20.9
 0.680  0.2739  174.1   4.334   79.0  0.0740   72.9  0.4548  -21.1
 0.700  0.2742  172.8   4.208   78.1  0.0760   72.9  0.4535  -21.3
 0.720  0.2754  171.6   4.104   77.5  0.0781   72.7  0.4524  -21.5
 0.740  0.2767  170.4   4.000   76.8  0.0803   72.6  0.4512  -21.7
 0.760  0.2782  169.3   3.897   76.2  0.0824   72.4  0.4501  -22.0
 0.780  0.2797  168.1   3.794   75.5  0.0846   72.2  0.4490  -22.2
 0.800  0.2814  167.0   3.692   74.7  0.0867   72.1  0.4479  -22.4
 0.820  0.2812  165.9   3.613   74.1  0.0888   72.0  0.4469  -22.7
 0.840  0.2810  164.8   3.535   73.4  0.0910   71.9  0.4460  -22.9
 0.860  0.2810  163.6   3.457   72.8  0.0931   71.8  0.4451  -23.2
 0.880  0.2811  162.5   3.379   72.0  0.0953   71.8  0.4441  -23.4
 0.900  0.2813  161.4   3.302   71.3  0.0974   71.7  0.4432  -23.7
 0.920  0.2822  160.4   3.239   70.7  0.0993   71.6  0.4424  -24.0
 0.940  0.2832  159.4   3.177   70.2  0.1013   71.4  0.4416  -24.3
 0.960  0.2842  158.4   3.115   69.6  0.1032   71.3  0.4408  -24.5
 0.980  0.2854  157.5   3.053   68.9  0.1052   71.2  0.4400  -24.8
 1.000  0.2866  156.5   2.992   68.3  0.1071   71.1  0.4392  -25.1
 1.020  0.2886  155.7   2.943   67.8  0.1092   71.0  0.4385  -25.5
 1.040  0.2906  154.9   2.895   67.2  0.1113   70.8  0.4378  -25.8
 1.060  0.2927  154.1   2.847   66.6  0.1133   70.7  0.4371  -26.2
 1.080  0.2948  153.3   2.799   66.0  0.1154   70.6  0.4364  -26.5
 1.100  0.2970  152.5   2.751   65.4  0.1175   70.5  0.4358  -26.9
 1.120  0.2980  151.6   2.708   64.8  0.1196   70.3  0.4350  -27.2
 1.140  0.2990  150.8   2.665   64.1  0.1217   70.2  0.4342  -27.5
 1.160  0.3001  149.9   2.622   63.5  0.1239   70.0  0.4334  -27.9
 1.180  0.3013  149.0   2.580   62.8  0.1260   69.8  0.4326  -28.2
 1.200  0.3025  148.2   2.538   62.1  0.1281   69.7  0.4318  -28.5
 1.220  0.3033  147.4   2.499   61.6  0.1301   69.5  0.4312  -28.8
 1.240  0.3041  146.7   2.460   61.1  0.1321   69.3  0.4306  -29.1
 1.260  0.3050  145.9   2.421   60.6  0.1341   69.1  0.4300  -29.5
 1.280  0.3060  145.2   2.382   60.1  0.1361   68.9  0.4295  -29.8
 1.300  0.3070  144.4   2.344   59.5  0.1381   68.7  0.4289  -30.1
 1.320  0.3080  143.6   2.315   59.0  0.1401   68.6  0.4282  -30.5
 1.340  0.3091  142.8   2.286   58.4  0.1421   68.4  0.4276  -30.8
 1.360  0.3102  142.0   2.258   57.9  0.1442   68.3  0.4269  -31.2
 1.380  0.3114  141.3   2.229   57.3  0.1462   68.1  0.4263  -31.5
 1.400  0.3127  140.5   2.201   56.7  0.1482   68.0  0.4257  -31.9
 1.420  0.3133  140.1   2.176   56.2  0.1503   67.7  0.4246  -32.3
 1.440  0.3140  139.6   2.151   55.7  0.1523   67.5  0.4234  -32.7
 1.460  0.3147  139.2   2.126   55.2  0.1544   67.3  0.4223  -33.2
 1.480  0.3154  138.7   2.101   54.7  0.1564   67.0  0.4213  -33.6
 1.500  0.3161  138.3   2.077   54.2  0.1585   66.8  0.4202  -34.0
 1.520  0.3185  137.6   2.052   53.6  0.1606   66.6  0.4190  -34.4
 1.540  0.3210  136.9   2.028   53.1  0.1627   66.4  0.4179  -34.8
 1.560  0.3236  136.2   2.004   52.5  0.1649   66.2  0.4167  -35.1
 1.580  0.3262  135.6   1.980   51.9  0.1670   66.0  0.4156  -35.5
 1.600  0.3288  134.9   1.956   51.3  0.1691   65.8  0.4145  -35.9
 1.620  0.3302  134.1   1.937   50.8  0.1710   65.6  0.4135  -36.3
 1.640  0.3317  133.3   1.917   50.3  0.1730   65.4  0.4126  -36.6
 1.660  0.3332  132.5   1.898   49.7  0.1749   65.2  0.4117  -37.0
 1.680  0.3348  131.8   1.880   49.2  0.1769   65.1  0.4108  -37.3
 1.700  0.3364  131.0   1.861   48.6  0.1788   64.9  0.4099  -37.7
 1.720  0.3392  130.4   1.844   48.2  0.1810   64.7  0.4091  -38.2
 1.740  0.3420  129.9   1.826   47.7  0.1832   64.4  0.4084  -38.6
 1.760  0.3449  129.3   1.809   47.2  0.1853   64.2  0.4077  -39.1
 1.780  0.3478  128.7   1.792   46.8  0.1875   64.0  0.4070  -39.5
 1.800  0.3507  128.2   1.775   46.3  0.1897   63.8  0.4064  -40.0
 1.820  0.3526  127.6   1.759   45.8  0.1918   63.6  0.4051  -40.5
 1.840  0.3545  127.0   1.744   45.3  0.1939   63.3  0.4039  -40.9
 1.860  0.3565  126.4   1.728   44.8  0.1959   63.1  0.4027  -41.4
 1.880  0.3585  125.9   1.713   44.2  0.1980   62.9  0.4015  -41.8
 1.900  0.3605  125.3   1.698   43.7  0.2001   62.7  0.4003  -42.3
 1.920  0.3619  124.8   1.681   43.3  0.2022   62.5  0.3989  -42.7
 1.940  0.3633  124.2   1.664   42.9  0.2043   62.2  0.3974  -43.2
 1.960  0.3647  123.7   1.647   42.5  0.2063   62.0  0.3960  -43.6
 1.980  0.3662  123.1   1.631   42.0  0.2084   61.8  0.3947  -44.1
 2.000  0.3677  122.6   1.614   41.6  0.2105   61.6  0.3933  -44.5
 2.020  0.3690  122.1   1.602   41.2  0.2126   61.4  0.3919  -44.9
 2.040  0.3703  121.6   1.591   40.7  0.2147   61.1  0.3906  -45.4
 2.060  0.3716  121.1   1.580   40.3  0.2169   60.9  0.3892  -45.8
 2.080  0.3730  120.6   1.568   39.8  0.2190   60.7  0.3879  -46.3
 2.100  0.3744  120.1   1.557   39.3  0.2211   60.4  0.3866  -46.7
 2.120  0.3758  119.6   1.546   38.9  0.2232   60.2  0.3853  -47.2
 2.140  0.3773  119.1   1.535   38.4  0.2254   60.0  0.3841  -47.6
 2.160  0.3788  118.7   1.524   37.9  0.2275   59.8  0.3829  -48.1
 2.180  0.3803  118.2   1.514   37.4  0.2297   59.6  0.3817  -48.5
 2.200  0.3818  117.7   1.503   36.9  0.2318   59.4  0.3805  -49.0
 2.220  0.3841  117.1   1.493   36.4  0.2339   59.2  0.3789  -49.5
 2.240  0.3863  116.5   1.482   36.0  0.2360   58.9  0.3773  -50.0
 2.260  0.3887  115.9   1.472   35.5  0.2381   58.7  0.3757  -50.5
 2.280  0.3910  115.3   1.462   35.0  0.2402   58.4  0.3742  -51.0
 2.300  0.3935  114.8   1.452   34.5  0.2424   58.2  0.3727  -51.5
 2.320  0.3959  114.2   1.442   34.0  0.2445   58.0  0.3712  -52.1
 2.340  0.3984  113.6   1.433   33.5  0.2466   57.7  0.3697  -52.6
 2.360  0.4009  113.1   1.423   33.0  0.2487   57.5  0.3683  -53.1
 2.380  0.4035  112.5   1.413   32.5  0.2509   57.3  0.3669  -53.7
 2.400  0.4061  112.0   1.404   32.0  0.2530   57.1  0.3656  -54.2
 2.420  0.4082  111.6   1.395   31.6  0.2551   56.8  0.3638  -54.7
 2.440  0.4103  111.1   1.387   31.2  0.2572   56.6  0.3620  -55.2
 2.460  0.4125  110.7   1.379   30.8  0.2593   56.3  0.3602  -55.8
 2.480  0.4146  110.3   1.370   30.3  0.2613   56.1  0.3584  -56.3
 2.500  0.4168  109.8   1.362   29.9  0.2634   55.9  0.3567  -56.8
 2.520  0.4190  109.4   1.354   29.5  0.2655   55.6  0.3550  -57.4
 2.540  0.4213  109.0   1.346   29.0  0.2677   55.4  0.3534  -57.9
 2.560  0.4235  108.6   1.338   28.6  0.2698   55.2  0.3517  -58.5
 2.580  0.4258  108.2   1.330   28.2  0.2719   54.9  0.3502  -59.0
 2.600  0.4281  107.8   1.322   27.7  0.2740   54.7  0.3486  -59.6
 2.620  0.4300  107.3   1.314   27.4  0.2761   54.4  0.3466  -60.2
 2.640  0.4319  106.8   1.305   27.0  0.2782   54.1  0.3447  -60.8
 2.660  0.4339  106.3   1.297   26.7  0.2803   53.9  0.3428  -61.4
 2.680  0.4359  105.9   1.289   26.3  0.2824   53.6  0.3409  -62.0
 2.700  0.4379  105.4   1.281   26.0  0.2845   53.4  0.3391  -62.6
 2.720  0.4399  104.9   1.273   25.6  0.2867   53.1  0.3373  -63.2
 2.740  0.4420  104.5   1.265   25.2  0.2888   52.8  0.3355  -63.9
 2.760  0.4441  104.0   1.257   24.9  0.2909   52.6  0.3338  -64.5
 2.780  0.4462  103.6   1.249   24.5  0.2931   52.3  0.3321  -65.2
 2.800  0.4484  103.1   1.241   24.1  0.2952   52.1  0.3305  -65.8
 2.820  0.4507  102.8   1.234   23.7  0.2973   51.8  0.3286  -66.5
 2.840  0.4529  102.4   1.228   23.2  0.2995   51.5  0.3268  -67.1
 2.860  0.4552  102.1   1.221   22.7  0.3016   51.2  0.3251  -67.8
 2.880  0.4575  101.8   1.214   22.3  0.3038   51.0  0.3233  -68.5
 2.900  0.4598  101.5   1.208   21.8  0.3059   50.7  0.3217  -69.2
 2.920  0.4621  101.1   1.202   21.3  0.3081   50.4  0.3200  -69.9
 2.940  0.4645  100.8   1.195   20.9  0.3102   50.2  0.3185  -70.6
 2.960  0.4668  100.5   1.189   20.4  0.3124   49.9  0.3169  -71.3
 2.980  0.4692  100.2   1.183   19.9  0.3146   49.7  0.3154  -72.0
 3.000  0.4716   99.9   1.177   19.4  0.3168   49.4  0.3140  -72.7
 3.100  0.4823   98.2   1.147   17.7  0.3264   47.9  0.3017  -76.4
 3.200  0.4934   96.5   1.119   15.8  0.3362   46.4  0.2908  -80.3
 3.300  0.5049   94.9   1.091   13.9  0.3462   45.1  0.2813  -84.6
 3.400  0.5168   93.4   1.065   11.9  0.3564   43.8  0.2735  -89.1
 3.500  0.5291   91.9   1.040    9.8  0.3668   42.6  0.2675  -93.8
 3.600  0.5372   90.3   1.018    8.4  0.3762   41.1  0.2576  -98.9
 3.700  0.5457   88.8   0.996    6.9  0.3858   39.6  0.2500 -104.4
 3.800  0.5546   87.3   0.975    5.3  0.3956   38.3  0.2447 -110.1
 3.900  0.5639   85.8   0.955    3.7  0.4056   36.9  0.2420 -116.1
 4.000  0.5735   84.4   0.936    2.0  0.4159   35.7  0.2420 -122.1
 4.100  0.5813   83.1   0.918    0.7  0.4246   34.0  0.2369 -128.1
 4.200  0.5894   81.9   0.900   -0.6  0.4336   32.5  0.2346 -134.2
 4.300  0.5978   80.6   0.882   -2.0  0.4429   30.9  0.2349 -140.5
 4.400  0.6065   79.5   0.865   -3.5  0.4525   29.5  0.2380 -146.6
 4.500  0.6154   78.3   0.849   -5.0  0.4624   28.1  0.2438 -152.5
 4.600  0.6212   77.1   0.835   -6.3  0.4692   26.5  0.2445 -158.2
 4.700  0.6272   76.0   0.821   -7.7  0.4763   24.9  0.2475 -163.9
 4.800  0.6334   74.9   0.807   -9.1  0.4838   23.3  0.2530 -169.4
 4.900  0.6399   73.8   0.794  -10.5  0.4916   21.8  0.2606 -174.5
 5.000  0.6466   72.7   0.782  -12.0  0.4998   20.4  0.2702 -179.4
 5.100  0.6525   71.5   0.764  -12.9  0.5020   18.7  0.2679  175.4
 5.200  0.6588   70.4   0.746  -13.9  0.5047   17.0  0.2679  170.2
 5.300  0.6652   69.3   0.728  -15.0  0.5078   15.4  0.2700  165.1
 5.400  0.6719   68.2   0.711  -16.1  0.5113   13.7  0.2743  160.0
 5.500  0.6789   67.1   0.694  -17.2  0.5152   12.1  0.2806  155.2
 5.600  0.6778   66.1   0.691  -17.6  0.5236   11.1  0.2983  153.8
 5.700  0.6769   65.2   0.689  -18.0  0.5322   10.2  0.3161  152.5
 5.800  0.6762   64.2   0.686  -18.4  0.5409    9.3  0.3341  151.4
 5.900  0.6756   63.3   0.684  -18.8  0.5497    8.4  0.3522  150.4
 6.000  0.6753   62.3   0.681  -19.2  0.5587    7.6  0.3704  149.5
!
!  f       NFmin   Gammaopt  rn/50
! GHz       dB    MAG  ANG    -
!
! noise parameter not available yet for this operation point!
!
! (c) 2015  Infineon Technologies AG, Munich
