! Infineon Technologies  Discrete & RF Semiconductors
! BFR35AP
! VCE =  2.5 V,  IC =  5.0 mA
! Common Emitter S-Parameters:                            Nov 2015
# GHz  S  MA  R  50
!  f         S11            S21            S12            S22
! GHz     MAG   ANG      MAG   ANG      MAG   ANG      MAG   ANG
 0.010  0.8197   -3.7  14.110  177.2  0.0028   91.1  0.9914   -1.7
 0.015  0.8192   -5.5  14.117  175.6  0.0044   87.2  0.9861   -2.5
 0.020  0.8196   -7.4  14.135  174.0  0.0061   85.4  0.9810   -3.4
 0.025  0.8151   -9.1  14.095  172.6  0.0076   84.1  0.9783   -4.3
 0.030  0.8113  -10.7  14.063  171.3  0.0090   83.3  0.9758   -5.1
 0.035  0.8082  -12.4  14.039  169.9  0.0105   82.6  0.9735   -6.0
 0.040  0.8058  -14.1  14.024  168.5  0.0120   82.2  0.9714   -6.9
 0.045  0.8041  -15.8  14.016  167.2  0.0134   81.8  0.9696   -7.7
 0.050  0.8031  -17.5  14.016  165.8  0.0149   81.5  0.9680   -8.6
 0.055  0.7944  -19.0  13.890  164.6  0.0162   80.1  0.9619   -9.3
 0.060  0.7864  -20.6  13.771  163.4  0.0176   79.0  0.9559  -10.0
 0.065  0.7789  -22.2  13.658  162.2  0.0189   78.0  0.9501  -10.8
 0.070  0.7721  -23.9  13.551  160.9  0.0203   77.1  0.9445  -11.5
 0.075  0.7659  -25.5  13.451  159.6  0.0216   76.4  0.9390  -12.3
 0.080  0.7604  -27.2  13.358  158.3  0.0230   75.7  0.9337  -13.1
 0.085  0.7555  -28.9  13.272  157.0  0.0243   75.1  0.9285  -13.8
 0.090  0.7513  -30.7  13.192  155.7  0.0257   74.6  0.9235  -14.6
 0.095  0.7479  -32.4  13.120  154.4  0.0270   74.1  0.9187  -15.4
 0.100  0.7451  -34.2  13.055  153.0  0.0284   73.7  0.9141  -16.2
 0.105  0.7361  -35.5  12.915  151.9  0.0294   72.7  0.9068  -16.8
 0.110  0.7274  -36.8  12.779  150.7  0.0305   71.8  0.8995  -17.3
 0.115  0.7192  -38.2  12.649  149.6  0.0315   71.0  0.8924  -17.9
 0.120  0.7113  -39.6  12.524  148.4  0.0326   70.2  0.8853  -18.5
 0.125  0.7039  -41.0  12.405  147.2  0.0336   69.4  0.8783  -19.1
 0.130  0.6969  -42.4  12.291  146.0  0.0347   68.7  0.8715  -19.7
 0.135  0.6904  -43.9  12.183  144.7  0.0358   68.1  0.8647  -20.3
 0.140  0.6844  -45.4  12.081  143.4  0.0368   67.4  0.8580  -20.9
 0.145  0.6788  -46.9  11.985  142.1  0.0379   66.9  0.8515  -21.6
 0.150  0.6737  -48.5  11.895  140.8  0.0390   66.3  0.8450  -22.2
 0.155  0.6660  -49.7  11.764  140.0  0.0398   65.8  0.8378  -22.6
 0.160  0.6587  -50.9  11.636  139.1  0.0407   65.3  0.8307  -23.0
 0.165  0.6516  -52.2  11.510  138.3  0.0415   64.9  0.8236  -23.4
 0.170  0.6449  -53.5  11.387  137.4  0.0424   64.4  0.8165  -23.8
 0.175  0.6385  -54.8  11.266  136.5  0.0432   64.0  0.8095  -24.2
 0.180  0.6324  -56.1  11.149  135.6  0.0441   63.6  0.8026  -24.6
 0.185  0.6267  -57.5  11.034  134.6  0.0449   63.2  0.7956  -25.0
 0.190  0.6213  -58.9  10.923  133.7  0.0458   62.8  0.7887  -25.4
 0.195  0.6163  -60.3  10.814  132.7  0.0466   62.5  0.7819  -25.9
 0.200  0.6117  -61.7  10.709  131.7  0.0475   62.1  0.7751  -26.3
 0.220  0.5847  -65.8  10.200  128.8  0.0503   60.7  0.7505  -27.4
 0.240  0.5611  -70.3   9.719  125.7  0.0531   59.4  0.7262  -28.5
 0.260  0.5389  -74.4   9.283  122.8  0.0556   58.4  0.7044  -29.5
 0.280  0.5172  -78.1   8.882  120.3  0.0579   57.7  0.6850  -30.2
 0.300  0.4978  -82.1   8.500  117.5  0.0601   57.0  0.6658  -31.0
 0.320  0.4775  -85.1   8.181  115.9  0.0619   56.6  0.6497  -31.3
 0.340  0.4586  -88.3   7.869  114.1  0.0638   56.2  0.6336  -31.7
 0.360  0.4414  -91.9   7.565  112.2  0.0656   55.9  0.6175  -32.0
 0.380  0.4259  -95.6   7.271  110.1  0.0675   55.5  0.6014  -32.4
 0.400  0.4124  -99.7   6.986  107.9  0.0693   55.2  0.5854  -32.8
 0.420  0.4001 -102.2   6.738  106.5  0.0709   55.1  0.5748  -32.9
 0.440  0.3887 -104.9   6.495  105.1  0.0726   55.0  0.5642  -33.1
 0.450  0.3834 -106.3   6.374  104.3  0.0734   55.0  0.5589  -33.2
 0.460  0.3782 -107.8   6.255  103.5  0.0742   54.9  0.5536  -33.3
 0.480  0.3687 -110.8   6.021  101.8  0.0759   54.9  0.5430  -33.4
 0.500  0.3602 -113.9   5.793  100.0  0.0775   54.8  0.5324  -33.6
 0.520  0.3527 -116.0   5.627   98.9  0.0792   54.8  0.5260  -33.7
 0.540  0.3456 -118.3   5.463   97.7  0.0810   54.8  0.5196  -33.8
 0.560  0.3392 -120.6   5.302   96.5  0.0827   54.7  0.5133  -33.8
 0.580  0.3333 -123.0   5.143   95.2  0.0845   54.7  0.5069  -33.9
 0.600  0.3280 -125.5   4.987   93.8  0.0862   54.7  0.5005  -34.0
 0.620  0.3216 -127.7   4.863   92.8  0.0877   54.8  0.4956  -34.1
 0.640  0.3157 -130.0   4.742   91.8  0.0893   55.0  0.4906  -34.2
 0.660  0.3104 -132.4   4.621   90.7  0.0908   55.1  0.4857  -34.2
 0.680  0.3056 -134.9   4.503   89.5  0.0924   55.2  0.4807  -34.3
 0.700  0.3014 -137.4   4.386   88.3  0.0939   55.3  0.4758  -34.4
 0.720  0.2981 -139.4   4.283   87.4  0.0956   55.4  0.4719  -34.5
 0.740  0.2951 -141.5   4.181   86.5  0.0973   55.4  0.4681  -34.6
 0.760  0.2926 -143.6   4.079   85.6  0.0991   55.5  0.4642  -34.6
 0.780  0.2904 -145.7   3.980   84.6  0.1008   55.5  0.4604  -34.7
 0.800  0.2887 -147.9   3.881   83.5  0.1025   55.6  0.4565  -34.8
 0.820  0.2845 -149.9   3.801   82.7  0.1043   55.7  0.4533  -34.9
 0.840  0.2806 -151.9   3.722   81.9  0.1061   55.8  0.4501  -35.0
 0.860  0.2770 -154.0   3.644   81.0  0.1079   55.8  0.4469  -35.1
 0.880  0.2739 -156.1   3.566   80.1  0.1097   55.9  0.4437  -35.2
 0.900  0.2711 -158.3   3.490   79.2  0.1115   56.0  0.4405  -35.3
 0.920  0.2702 -159.9   3.427   78.5  0.1131   56.1  0.4383  -35.5
 0.940  0.2696 -161.5   3.365   77.8  0.1148   56.1  0.4362  -35.6
 0.960  0.2691 -163.1   3.304   77.0  0.1164   56.2  0.4340  -35.8
 0.980  0.2689 -164.8   3.243   76.2  0.1181   56.2  0.4319  -35.9
 1.000  0.2689 -166.4   3.183   75.4  0.1197   56.3  0.4297  -36.1
 1.020  0.2683 -168.1   3.131   74.7  0.1215   56.3  0.4278  -36.3
 1.040  0.2678 -169.7   3.080   74.0  0.1233   56.4  0.4259  -36.5
 1.060  0.2676 -171.4   3.030   73.3  0.1252   56.4  0.4240  -36.8
 1.080  0.2676 -173.0   2.980   72.6  0.1270   56.5  0.4222  -37.0
 1.100  0.2679 -174.7   2.930   71.8  0.1288   56.5  0.4203  -37.2
 1.120  0.2677 -176.2   2.886   71.1  0.1306   56.5  0.4185  -37.4
 1.140  0.2677 -177.7   2.842   70.4  0.1324   56.5  0.4168  -37.6
 1.160  0.2679 -179.3   2.798   69.7  0.1342   56.4  0.4151  -37.8
 1.180  0.2682  179.2   2.755   69.0  0.1360   56.4  0.4133  -38.0
 1.200  0.2688  177.7   2.713   68.2  0.1378   56.4  0.4116  -38.2
 1.220  0.2688  176.5   2.674   67.6  0.1397   56.4  0.4102  -38.4
 1.240  0.2689  175.3   2.634   67.0  0.1416   56.3  0.4089  -38.7
 1.260  0.2692  174.2   2.596   66.3  0.1434   56.3  0.4075  -38.9
 1.280  0.2695  173.0   2.557   65.7  0.1453   56.2  0.4061  -39.2
 1.300  0.2700  171.8   2.519   65.0  0.1472   56.2  0.4048  -39.4
 1.320  0.2697  170.4   2.486   64.4  0.1490   56.1  0.4037  -39.7
 1.340  0.2696  169.1   2.453   63.8  0.1507   56.1  0.4025  -40.0
 1.360  0.2696  167.7   2.420   63.2  0.1525   56.0  0.4014  -40.3
 1.380  0.2698  166.4   2.387   62.6  0.1542   56.0  0.4003  -40.6
 1.400  0.2701  165.0   2.355   61.9  0.1560   55.9  0.3992  -40.9
 1.420  0.2705  163.9   2.330   61.3  0.1579   55.8  0.3978  -41.2
 1.440  0.2711  162.9   2.305   60.7  0.1598   55.7  0.3965  -41.5
 1.460  0.2717  161.8   2.280   60.1  0.1616   55.7  0.3951  -41.7
 1.480  0.2724  160.7   2.256   59.5  0.1635   55.6  0.3937  -42.0
 1.500  0.2732  159.7   2.232   58.9  0.1654   55.5  0.3924  -42.3
 1.520  0.2757  158.4   2.205   58.3  0.1672   55.4  0.3907  -42.6
 1.540  0.2783  157.1   2.179   57.6  0.1691   55.3  0.3891  -42.9
 1.560  0.2810  155.8   2.153   57.0  0.1709   55.3  0.3874  -43.3
 1.580  0.2839  154.6   2.127   56.3  0.1728   55.2  0.3858  -43.6
 1.600  0.2869  153.4   2.102   55.6  0.1746   55.1  0.3842  -43.9
 1.620  0.2883  152.4   2.081   55.1  0.1766   55.0  0.3828  -44.2
 1.640  0.2898  151.4   2.061   54.5  0.1786   55.0  0.3813  -44.5
 1.660  0.2913  150.4   2.041   54.0  0.1806   54.9  0.3799  -44.9
 1.680  0.2930  149.4   2.021   53.4  0.1826   54.9  0.3785  -45.2
 1.700  0.2947  148.4   2.001   52.8  0.1846   54.8  0.3771  -45.5
 1.720  0.2954  147.5   1.982   52.3  0.1865   54.7  0.3760  -45.8
 1.740  0.2962  146.6   1.963   51.8  0.1884   54.6  0.3750  -46.2
 1.760  0.2971  145.7   1.945   51.3  0.1904   54.4  0.3739  -46.5
 1.780  0.2980  144.9   1.926   50.7  0.1923   54.3  0.3729  -46.9
 1.800  0.2990  144.0   1.908   50.2  0.1942   54.2  0.3719  -47.2
 1.820  0.3012  143.2   1.892   49.7  0.1962   54.1  0.3705  -47.6
 1.840  0.3035  142.4   1.875   49.1  0.1981   54.0  0.3691  -48.1
 1.860  0.3059  141.7   1.859   48.5  0.2001   53.8  0.3677  -48.5
 1.880  0.3083  140.9   1.844   48.0  0.2020   53.7  0.3663  -49.0
 1.900  0.3107  140.2   1.828   47.4  0.2040   53.6  0.3650  -49.4
 1.920  0.3119  139.3   1.811   46.9  0.2060   53.4  0.3636  -49.8
 1.940  0.3131  138.4   1.795   46.3  0.2080   53.3  0.3621  -50.2
 1.960  0.3144  137.5   1.778   45.8  0.2100   53.1  0.3607  -50.6
 1.980  0.3158  136.7   1.762   45.3  0.2120   53.0  0.3594  -51.0
 2.000  0.3173  135.8   1.746   44.7  0.2140   52.8  0.3580  -51.4
 2.020  0.3189  135.1   1.732   44.2  0.2160   52.6  0.3566  -51.8
 2.040  0.3205  134.3   1.719   43.7  0.2179   52.5  0.3551  -52.2
 2.060  0.3221  133.6   1.706   43.2  0.2199   52.3  0.3537  -52.7
 2.080  0.3238  132.9   1.693   42.7  0.2219   52.2  0.3524  -53.1
 2.100  0.3256  132.2   1.680   42.2  0.2239   52.0  0.3510  -53.5
 2.120  0.3274  131.5   1.667   41.7  0.2259   51.9  0.3497  -53.9
 2.140  0.3293  130.8   1.654   41.1  0.2278   51.7  0.3483  -54.4
 2.160  0.3312  130.1   1.642   40.6  0.2298   51.6  0.3470  -54.8
 2.180  0.3331  129.5   1.629   40.1  0.2318   51.4  0.3458  -55.3
 2.200  0.3351  128.8   1.617   39.5  0.2338   51.3  0.3445  -55.7
 2.220  0.3373  128.1   1.606   39.0  0.2358   51.1  0.3427  -56.2
 2.240  0.3395  127.4   1.596   38.5  0.2378   50.9  0.3410  -56.7
 2.260  0.3418  126.8   1.585   38.0  0.2398   50.8  0.3393  -57.1
 2.280  0.3441  126.1   1.575   37.5  0.2418   50.6  0.3376  -57.6
 2.300  0.3464  125.4   1.565   37.0  0.2438   50.4  0.3359  -58.1
 2.320  0.3488  124.8   1.555   36.5  0.2458   50.2  0.3342  -58.6
 2.340  0.3513  124.2   1.545   36.0  0.2478   50.1  0.3326  -59.1
 2.360  0.3538  123.5   1.535   35.5  0.2498   49.9  0.3310  -59.7
 2.380  0.3563  122.9   1.526   34.9  0.2518   49.8  0.3294  -60.2
 2.400  0.3589  122.3   1.516   34.4  0.2538   49.6  0.3279  -60.7
 2.420  0.3614  121.7   1.507   34.0  0.2558   49.4  0.3262  -61.2
 2.440  0.3639  121.1   1.497   33.6  0.2577   49.2  0.3245  -61.7
 2.460  0.3664  120.5   1.488   33.1  0.2597   49.0  0.3228  -62.3
 2.480  0.3690  119.9   1.479   32.7  0.2617   48.8  0.3212  -62.8
 2.500  0.3717  119.3   1.469   32.3  0.2637   48.6  0.3196  -63.3
 2.520  0.3743  118.7   1.460   31.8  0.2656   48.4  0.3180  -63.9
 2.540  0.3771  118.2   1.451   31.4  0.2676   48.2  0.3165  -64.4
 2.560  0.3798  117.6   1.442   30.9  0.2696   48.0  0.3149  -65.0
 2.580  0.3826  117.0   1.434   30.5  0.2716   47.8  0.3135  -65.5
 2.600  0.3854  116.5   1.425   30.0  0.2736   47.6  0.3120  -66.1
 2.620  0.3874  116.0   1.417   29.6  0.2756   47.4  0.3100  -66.7
 2.640  0.3894  115.4   1.409   29.1  0.2777   47.2  0.3081  -67.3
 2.660  0.3914  114.9   1.401   28.7  0.2797   46.9  0.3062  -67.9
 2.680  0.3934  114.4   1.393   28.3  0.2818   46.7  0.3043  -68.5
 2.700  0.3955  113.8   1.385   27.8  0.2838   46.5  0.3025  -69.2
 2.720  0.3977  113.3   1.378   27.4  0.2859   46.3  0.3007  -69.8
 2.740  0.3998  112.8   1.370   26.9  0.2879   46.1  0.2989  -70.4
 2.760  0.4020  112.3   1.363   26.4  0.2900   45.9  0.2972  -71.1
 2.780  0.4042  111.8   1.355   26.0  0.2920   45.7  0.2955  -71.7
 2.800  0.4065  111.3   1.348   25.5  0.2941   45.5  0.2939  -72.4
 2.820  0.4087  110.8   1.341   25.1  0.2960   45.3  0.2922  -73.1
 2.840  0.4109  110.4   1.333   24.6  0.2980   45.0  0.2905  -73.8
 2.860  0.4131  109.9   1.326   24.2  0.2999   44.8  0.2888  -74.5
 2.880  0.4154  109.5   1.319   23.7  0.3018   44.5  0.2872  -75.2
 2.900  0.4177  109.0   1.311   23.3  0.3038   44.3  0.2856  -75.9
 2.920  0.4200  108.6   1.304   22.8  0.3057   44.1  0.2841  -76.6
 2.940  0.4223  108.2   1.297   22.3  0.3077   43.9  0.2826  -77.4
 2.960  0.4247  107.7   1.291   21.9  0.3097   43.6  0.2812  -78.1
 2.980  0.4271  107.3   1.284   21.4  0.3116   43.4  0.2798  -78.8
 3.000  0.4295  106.9   1.277   20.9  0.3136   43.2  0.2785  -79.6
 3.100  0.4409  104.7   1.244   19.1  0.3227   41.8  0.2675  -83.5
 3.200  0.4529  102.6   1.212   17.2  0.3320   40.6  0.2579  -87.7
 3.300  0.4655  100.6   1.181   15.2  0.3414   39.3  0.2497  -92.2
 3.400  0.4786   98.7   1.152   13.1  0.3510   38.2  0.2432  -97.0
 3.500  0.4922   96.9   1.125   10.9  0.3607   37.1  0.2385 -102.0
 3.600  0.5020   95.2   1.100    9.3  0.3694   35.7  0.2309 -107.5
 3.700  0.5123   93.6   1.077    7.5  0.3784   34.4  0.2255 -113.3
 3.800  0.5230   92.0   1.054    5.7  0.3875   33.2  0.2226 -119.4
 3.900  0.5340   90.5   1.032    3.9  0.3968   32.0  0.2222 -125.5
 4.000  0.5454   89.1   1.012    1.9  0.4063   30.9  0.2243 -131.6
 4.100  0.5538   87.7   0.992    0.5  0.4144   29.4  0.2218 -137.7
 4.200  0.5625   86.3   0.972   -1.0  0.4228   28.0  0.2220 -143.9
 4.300  0.5716   85.0   0.953   -2.5  0.4314   26.7  0.2247 -150.0
 4.400  0.5810   83.7   0.935   -4.1  0.4403   25.4  0.2298 -155.9
 4.500  0.5906   82.4   0.917   -5.7  0.4494   24.1  0.2373 -161.5
 4.600  0.5975   81.1   0.901   -7.1  0.4561   22.6  0.2405 -167.1
 4.700  0.6047   79.9   0.886   -8.5  0.4631   21.1  0.2459 -172.4
 4.800  0.6122   78.7   0.871  -10.0  0.4704   19.7  0.2533 -177.5
 4.900  0.6199   77.5   0.857  -11.5  0.4780   18.3  0.2626  177.7
 5.000  0.6279   76.3   0.844  -13.1  0.4858   17.0  0.2736  173.3
 5.100  0.6352   75.1   0.823  -14.2  0.4876   15.4  0.2726  168.5
 5.200  0.6428   73.9   0.803  -15.4  0.4897   13.8  0.2735  163.7
 5.300  0.6506   72.7   0.783  -16.6  0.4923   12.3  0.2763  159.0
 5.400  0.6587   71.6   0.763  -17.9  0.4952   10.7  0.2809  154.4
 5.500  0.6671   70.5   0.744  -19.3  0.4984    9.2  0.2873  150.0
 5.600  0.6658   69.4   0.739  -19.7  0.5069    8.3  0.3056  148.9
 5.700  0.6647   68.3   0.734  -20.1  0.5156    7.5  0.3240  148.0
 5.800  0.6639   67.3   0.729  -20.5  0.5243    6.7  0.3424  147.1
 5.900  0.6633   66.2   0.725  -21.0  0.5332    5.9  0.3609  146.4
 6.000  0.6629   65.1   0.720  -21.4  0.5421    5.2  0.3795  145.7
!
!  f       NFmin   Gammaopt  rn/50
! GHz       dB    MAG  ANG    -
 0.450      1.50  0.28   29   0.34
 0.900      1.80  0.25   59   0.34
!
! (c) 2015  Infineon Technologies AG, Munich
