! Infineon Technologies  Discrete & RF Semiconductors
! BFR35AP
! VCE = 0.75 V,  IC =  9.0 mA
! Common Emitter S-Parameters:                            Nov 2015
# GHz  S  MA  R  50
!  f         S11            S21            S12            S22
! GHz     MAG   ANG      MAG   ANG      MAG   ANG      MAG   ANG
 0.010  0.6839   -7.3  21.305  175.1  0.0039   85.9  0.9619   -3.7
 0.015  0.6809  -10.6  21.161  172.6  0.0063   82.1  0.9543   -5.7
 0.020  0.6802  -13.9  21.058  170.1  0.0087   80.4  0.9479   -7.7
 0.025  0.6698  -17.0  20.792  167.9  0.0105   78.6  0.9371   -9.4
 0.030  0.6615  -20.3  20.556  165.7  0.0123   77.3  0.9271  -11.1
 0.035  0.6553  -23.6  20.352  163.5  0.0141   76.4  0.9180  -12.9
 0.040  0.6514  -26.9  20.179  161.2  0.0159   75.7  0.9098  -14.6
 0.045  0.6497  -30.3  20.040  158.9  0.0177   75.1  0.9024  -16.5
 0.050  0.6503  -33.7  19.934  156.5  0.0195   74.6  0.8960  -18.3
 0.055  0.6348  -36.2  19.542  154.9  0.0209   72.9  0.8804  -19.4
 0.060  0.6205  -38.7  19.166  153.3  0.0224   71.4  0.8652  -20.6
 0.065  0.6076  -41.4  18.806  151.6  0.0238   70.1  0.8503  -21.8
 0.070  0.5960  -44.2  18.463  149.8  0.0253   68.9  0.8359  -23.1
 0.075  0.5859  -47.1  18.139  148.0  0.0268   67.9  0.8218  -24.3
 0.080  0.5774  -50.1  17.833  146.1  0.0283   67.0  0.8082  -25.7
 0.085  0.5705  -53.2  17.548  144.1  0.0298   66.2  0.7950  -27.1
 0.090  0.5653  -56.4  17.284  142.1  0.0313   65.4  0.7823  -28.5
 0.095  0.5618  -59.6  17.042  140.0  0.0328   64.7  0.7702  -30.0
 0.100  0.5601  -62.8  16.823  137.9  0.0343   64.1  0.7585  -31.5
 0.105  0.5498  -64.7  16.475  136.8  0.0352   63.3  0.7453  -32.2
 0.110  0.5401  -66.6  16.134  135.6  0.0362   62.5  0.7323  -32.9
 0.115  0.5310  -68.6  15.800  134.4  0.0372   61.8  0.7194  -33.6
 0.120  0.5226  -70.6  15.473  133.2  0.0381   61.1  0.7066  -34.4
 0.125  0.5149  -72.8  15.153  131.8  0.0391   60.4  0.6939  -35.1
 0.130  0.5079  -74.9  14.842  130.5  0.0401   59.8  0.6813  -35.9
 0.135  0.5017  -77.2  14.540  129.0  0.0410   59.2  0.6689  -36.8
 0.140  0.4962  -79.5  14.248  127.6  0.0420   58.6  0.6566  -37.7
 0.145  0.4916  -81.8  13.965  126.0  0.0430   58.0  0.6445  -38.6
 0.150  0.4878  -84.2  13.693  124.4  0.0440   57.5  0.6326  -39.5
 0.155  0.4813  -85.8  13.448  123.6  0.0446   57.3  0.6230  -39.9
 0.160  0.4751  -87.4  13.206  122.8  0.0453   57.1  0.6134  -40.2
 0.165  0.4693  -89.0  12.967  122.0  0.0459   56.9  0.6039  -40.6
 0.170  0.4640  -90.7  12.730  121.1  0.0465   56.7  0.5943  -41.0
 0.175  0.4590  -92.4  12.497  120.2  0.0471   56.5  0.5848  -41.4
 0.180  0.4544  -94.2  12.267  119.3  0.0478   56.3  0.5754  -41.8
 0.185  0.4503  -96.0  12.040  118.3  0.0484   56.1  0.5659  -42.2
 0.190  0.4466  -97.8  11.816  117.3  0.0490   55.9  0.5565  -42.7
 0.195  0.4434  -99.6  11.597  116.3  0.0497   55.8  0.5471  -43.1
 0.200  0.4407 -101.5  11.381  115.2  0.0503   55.6  0.5378  -43.6
 0.220  0.4228 -106.8  10.634  112.7  0.0527   55.3  0.5085  -44.5
 0.240  0.4087 -112.4   9.911  109.7  0.0552   54.9  0.4792  -45.5
 0.260  0.3987 -117.4   9.289  107.2  0.0575   54.9  0.4546  -46.2
 0.280  0.3909 -121.5   8.756  105.2  0.0596   55.2  0.4344  -46.6
 0.300  0.3852 -125.8   8.234  103.0  0.0618   55.4  0.4142  -47.0
 0.320  0.3761 -129.1   7.860  101.7  0.0640   55.6  0.4015  -47.1
 0.340  0.3683 -132.6   7.490  100.4  0.0662   55.7  0.3888  -47.2
 0.360  0.3619 -136.2   7.125   98.9  0.0685   55.8  0.3760  -47.3
 0.380  0.3570 -140.0   6.766   97.2  0.0707   56.0  0.3633  -47.4
 0.400  0.3537 -143.8   6.413   95.3  0.0729   56.1  0.3506  -47.5
 0.420  0.3501 -146.2   6.164   94.2  0.0751   56.4  0.3421  -47.5
 0.440  0.3470 -148.6   5.918   93.0  0.0773   56.7  0.3335  -47.4
 0.450  0.3457 -149.8   5.795   92.4  0.0783   56.8  0.3292  -47.4
 0.460  0.3446 -151.1   5.674   91.7  0.0794   56.9  0.3250  -47.4
 0.480  0.3429 -153.6   5.433   90.3  0.0816   57.2  0.3164  -47.3
 0.500  0.3418 -156.1   5.196   88.8  0.0838   57.4  0.3079  -47.3
 0.520  0.3396 -158.0   5.035   87.9  0.0861   57.6  0.3025  -47.3
 0.540  0.3379 -159.9   4.876   86.9  0.0884   57.8  0.2971  -47.3
 0.560  0.3365 -161.8   4.718   85.8  0.0908   58.0  0.2917  -47.3
 0.580  0.3354 -163.8   4.561   84.7  0.0931   58.2  0.2863  -47.3
 0.600  0.3348 -165.7   4.407   83.5  0.0954   58.4  0.2809  -47.3
 0.620  0.3345 -167.5   4.289   82.7  0.0978   58.6  0.2774  -47.3
 0.640  0.3345 -169.3   4.171   81.8  0.1001   58.7  0.2739  -47.3
 0.660  0.3348 -171.1   4.055   80.9  0.1025   58.8  0.2703  -47.4
 0.680  0.3354 -172.8   3.939   79.9  0.1048   59.0  0.2668  -47.4
 0.700  0.3364 -174.6   3.825   78.9  0.1072   59.1  0.2633  -47.4
 0.720  0.3357 -175.9   3.731   78.2  0.1096   59.0  0.2605  -47.5
 0.740  0.3352 -177.3   3.638   77.4  0.1120   59.0  0.2577  -47.6
 0.760  0.3349 -178.6   3.546   76.6  0.1144   58.9  0.2549  -47.7
 0.780  0.3348 -180.0   3.454   75.7  0.1168   58.9  0.2521  -47.8
 0.800  0.3348  178.7   3.363   74.8  0.1192   58.8  0.2493  -47.9
 0.820  0.3343  177.5   3.293   74.1  0.1217   58.8  0.2472  -48.0
 0.840  0.3339  176.3   3.224   73.3  0.1242   58.8  0.2451  -48.1
 0.860  0.3336  175.2   3.155   72.6  0.1268   58.8  0.2430  -48.3
 0.880  0.3335  174.0   3.087   71.7  0.1293   58.8  0.2409  -48.4
 0.900  0.3335  172.8   3.020   70.9  0.1318   58.8  0.2388  -48.5
 0.920  0.3341  171.5   2.964   70.2  0.1340   58.7  0.2371  -48.7
 0.940  0.3349  170.2   2.909   69.5  0.1363   58.7  0.2353  -48.9
 0.960  0.3359  168.9   2.854   68.8  0.1385   58.6  0.2336  -49.2
 0.980  0.3370  167.6   2.799   68.1  0.1408   58.6  0.2318  -49.4
 1.000  0.3383  166.3   2.745   67.3  0.1430   58.5  0.2301  -49.6
 1.020  0.3398  165.2   2.701   66.6  0.1455   58.4  0.2285  -50.0
 1.040  0.3413  164.1   2.657   66.0  0.1480   58.3  0.2269  -50.3
 1.060  0.3430  163.1   2.613   65.3  0.1504   58.2  0.2253  -50.7
 1.080  0.3449  162.0   2.570   64.5  0.1529   58.1  0.2237  -51.1
 1.100  0.3468  161.0   2.527   63.8  0.1554   58.0  0.2221  -51.5
 1.120  0.3478  160.0   2.489   63.2  0.1578   57.8  0.2205  -51.8
 1.140  0.3490  159.0   2.451   62.5  0.1603   57.7  0.2188  -52.1
 1.160  0.3503  158.0   2.414   61.8  0.1627   57.5  0.2172  -52.4
 1.180  0.3516  157.0   2.377   61.1  0.1652   57.4  0.2156  -52.8
 1.200  0.3531  156.0   2.340   60.4  0.1676   57.2  0.2140  -53.1
 1.220  0.3534  155.2   2.305   59.8  0.1701   57.0  0.2126  -53.5
 1.240  0.3539  154.4   2.271   59.2  0.1726   56.9  0.2113  -53.8
 1.260  0.3543  153.7   2.237   58.6  0.1750   56.7  0.2099  -54.2
 1.280  0.3549  152.9   2.203   58.0  0.1775   56.6  0.2085  -54.5
 1.300  0.3555  152.1   2.170   57.3  0.1800   56.4  0.2072  -54.9
 1.320  0.3564  151.1   2.142   56.8  0.1823   56.2  0.2061  -55.4
 1.340  0.3574  150.2   2.113   56.2  0.1847   56.0  0.2050  -55.8
 1.360  0.3585  149.3   2.085   55.6  0.1870   55.8  0.2040  -56.3
 1.380  0.3596  148.3   2.058   55.0  0.1894   55.7  0.2029  -56.8
 1.400  0.3609  147.4   2.030   54.4  0.1917   55.5  0.2019  -57.3
 1.420  0.3616  146.8   2.009   53.8  0.1940   55.3  0.2007  -57.7
 1.440  0.3623  146.2   1.989   53.2  0.1962   55.1  0.1995  -58.2
 1.460  0.3631  145.5   1.969   52.6  0.1985   54.9  0.1983  -58.7
 1.480  0.3639  144.9   1.949   52.0  0.2007   54.7  0.1972  -59.1
 1.500  0.3648  144.3   1.929   51.4  0.2030   54.5  0.1960  -59.6
 1.520  0.3673  143.5   1.905   50.8  0.2055   54.3  0.1945  -60.1
 1.540  0.3699  142.7   1.881   50.2  0.2079   54.1  0.1931  -60.7
 1.560  0.3726  141.9   1.857   49.5  0.2104   53.9  0.1916  -61.3
 1.580  0.3753  141.2   1.834   48.9  0.2128   53.7  0.1902  -61.8
 1.600  0.3781  140.4   1.811   48.2  0.2153   53.5  0.1888  -62.4
 1.620  0.3796  139.6   1.793   47.6  0.2176   53.2  0.1876  -62.9
 1.640  0.3811  138.7   1.776   47.0  0.2198   53.0  0.1864  -63.3
 1.660  0.3828  137.9   1.758   46.4  0.2221   52.8  0.1852  -63.8
 1.680  0.3845  137.1   1.741   45.8  0.2244   52.5  0.1840  -64.3
 1.700  0.3863  136.3   1.724   45.2  0.2267   52.3  0.1828  -64.8
 1.720  0.3876  135.6   1.709   44.7  0.2291   52.0  0.1820  -65.4
 1.740  0.3889  134.9   1.694   44.3  0.2315   51.8  0.1812  -66.1
 1.760  0.3903  134.2   1.679   43.8  0.2339   51.6  0.1805  -66.8
 1.780  0.3917  133.5   1.665   43.3  0.2364   51.3  0.1798  -67.4
 1.800  0.3932  132.8   1.650   42.8  0.2388   51.1  0.1791  -68.1
 1.820  0.3952  132.2   1.636   42.3  0.2410   50.9  0.1776  -68.9
 1.840  0.3973  131.7   1.622   41.7  0.2433   50.6  0.1762  -69.7
 1.860  0.3994  131.2   1.608   41.2  0.2455   50.4  0.1749  -70.5
 1.880  0.4015  130.6   1.594   40.7  0.2478   50.2  0.1735  -71.4
 1.900  0.4037  130.1   1.580   40.1  0.2500   50.0  0.1722  -72.2
 1.920  0.4050  129.5   1.566   39.6  0.2523   49.7  0.1706  -72.9
 1.940  0.4063  128.9   1.552   39.0  0.2545   49.5  0.1689  -73.6
 1.960  0.4077  128.3   1.538   38.5  0.2568   49.2  0.1673  -74.3
 1.980  0.4091  127.7   1.524   38.0  0.2591   49.0  0.1657  -75.0
 2.000  0.4106  127.1   1.510   37.4  0.2614   48.7  0.1642  -75.7
 2.020  0.4121  126.5   1.499   36.9  0.2636   48.4  0.1629  -76.5
 2.040  0.4135  125.9   1.487   36.4  0.2658   48.1  0.1617  -77.3
 2.060  0.4151  125.3   1.476   35.9  0.2681   47.9  0.1605  -78.2
 2.080  0.4167  124.8   1.465   35.5  0.2703   47.6  0.1594  -79.0
 2.100  0.4183  124.2   1.454   34.9  0.2725   47.3  0.1583  -79.9
 2.120  0.4199  123.6   1.443   34.4  0.2748   47.1  0.1572  -80.7
 2.140  0.4216  123.1   1.432   33.9  0.2770   46.8  0.1561  -81.6
 2.160  0.4234  122.5   1.422   33.4  0.2793   46.6  0.1551  -82.5
 2.180  0.4252  121.9   1.411   32.8  0.2815   46.3  0.1541  -83.4
 2.200  0.4270  121.4   1.401   32.3  0.2838   46.1  0.1532  -84.3
 2.220  0.4291  120.8   1.392   31.8  0.2860   45.8  0.1515  -85.3
 2.240  0.4312  120.2   1.383   31.3  0.2882   45.5  0.1498  -86.3
 2.260  0.4333  119.5   1.374   30.8  0.2904   45.2  0.1482  -87.3
 2.280  0.4355  118.9   1.365   30.3  0.2926   45.0  0.1466  -88.4
 2.300  0.4378  118.3   1.356   29.8  0.2948   44.7  0.1451  -89.5
 2.320  0.4401  117.7   1.348   29.3  0.2970   44.4  0.1436  -90.6
 2.340  0.4425  117.1   1.339   28.8  0.2992   44.2  0.1422  -91.7
 2.360  0.4449  116.5   1.331   28.3  0.3014   43.9  0.1408  -92.8
 2.380  0.4473  116.0   1.322   27.7  0.3037   43.7  0.1395  -94.0
 2.400  0.4498  115.4   1.314   27.2  0.3059   43.4  0.1383  -95.2
 2.420  0.4518  114.9   1.305   26.8  0.3079   43.1  0.1373  -96.4
 2.440  0.4538  114.4   1.297   26.3  0.3099   42.8  0.1363  -97.5
 2.460  0.4559  113.9   1.289   25.9  0.3119   42.6  0.1354  -98.7
 2.480  0.4580  113.4   1.280   25.5  0.3140   42.3  0.1345  -99.9
 2.500  0.4601  112.9   1.272   25.0  0.3160   42.0  0.1337 -101.1
 2.520  0.4623  112.4   1.264   24.6  0.3181   41.7  0.1329 -102.4
 2.540  0.4645  111.9   1.256   24.1  0.3201   41.5  0.1323 -103.6
 2.560  0.4667  111.4   1.248   23.6  0.3222   41.2  0.1316 -104.9
 2.580  0.4690  111.0   1.240   23.2  0.3242   41.0  0.1311 -106.1
 2.600  0.4713  110.5   1.232   22.7  0.3263   40.7  0.1306 -107.4
 2.620  0.4732  110.0   1.225   22.3  0.3283   40.4  0.1295 -108.9
 2.640  0.4751  109.5   1.218   21.9  0.3303   40.1  0.1285 -110.4
 2.660  0.4771  109.0   1.212   21.5  0.3324   39.8  0.1276 -111.9
 2.680  0.4791  108.5   1.205   21.0  0.3344   39.5  0.1268 -113.4
 2.700  0.4811  108.0   1.199   20.6  0.3364   39.3  0.1261 -114.9
 2.720  0.4832  107.6   1.192   20.2  0.3385   39.0  0.1255 -116.5
 2.740  0.4853  107.1   1.186   19.7  0.3406   38.7  0.1249 -118.1
 2.760  0.4874  106.6   1.179   19.3  0.3426   38.4  0.1245 -119.7
 2.780  0.4896  106.2   1.173   18.9  0.3447   38.2  0.1241 -121.3
 2.800  0.4918  105.7   1.167   18.4  0.3468   37.9  0.1239 -122.9
 2.820  0.4939  105.3   1.161   18.0  0.3487   37.6  0.1236 -124.5
 2.840  0.4960  104.9   1.154   17.6  0.3506   37.3  0.1235 -126.1
 2.860  0.4981  104.5   1.148   17.1  0.3525   37.0  0.1234 -127.6
 2.880  0.5002  104.1   1.141   16.7  0.3544   36.7  0.1234 -129.2
 2.900  0.5024  103.8   1.135   16.3  0.3563   36.4  0.1235 -130.8
 2.920  0.5046  103.4   1.129   15.8  0.3583   36.1  0.1237 -132.4
 2.940  0.5068  103.0   1.123   15.4  0.3602   35.8  0.1240 -133.9
 2.960  0.5090  102.6   1.117   14.9  0.3622   35.5  0.1244 -135.5
 2.980  0.5112  102.3   1.111   14.5  0.3641   35.2  0.1248 -137.1
 3.000  0.5135  101.9   1.105   14.0  0.3661   34.9  0.1254 -138.6
 3.100  0.5230  100.0   1.077   12.3  0.3740   33.3  0.1263 -147.3
 3.200  0.5331   98.1   1.049   10.5  0.3821   31.8  0.1301 -155.6
 3.300  0.5437   96.3   1.023    8.6  0.3905   30.4  0.1364 -163.3
 3.400  0.5549   94.6   0.998    6.6  0.3991   29.0  0.1450 -170.2
 3.500  0.5665   92.9   0.974    4.5  0.4079   27.7  0.1554 -176.3
 3.600  0.5739   91.3   0.953    3.1  0.4144   26.2  0.1645  177.4
 3.700  0.5817   89.6   0.932    1.5  0.4212   24.8  0.1754  171.8
 3.800  0.5899   88.1   0.912   -0.0  0.4283   23.4  0.1878  166.9
 3.900  0.5986   86.6   0.893   -1.7  0.4356   22.1  0.2014  162.6
 4.000  0.6077   85.1   0.874   -3.4  0.4431   20.8  0.2159  158.9
 4.100  0.6144   83.6   0.858   -4.7  0.4486   19.3  0.2267  154.9
 4.200  0.6216   82.2   0.842   -6.0  0.4545   17.9  0.2386  151.3
 4.300  0.6291   80.8   0.826   -7.4  0.4605   16.5  0.2513  148.0
 4.400  0.6370   79.4   0.811   -8.9  0.4669   15.2  0.2647  145.1
 4.500  0.6452   78.1   0.797  -10.4  0.4735   13.9  0.2788  142.4
 4.600  0.6497   77.0   0.784  -11.5  0.4775   12.6  0.2888  139.5
 4.700  0.6545   76.0   0.772  -12.6  0.4818   11.2  0.2995  136.8
 4.800  0.6594   74.9   0.759  -13.8  0.4863    9.9  0.3109  134.2
 4.900  0.6646   73.9   0.748  -15.0  0.4911    8.7  0.3228  131.9
 5.000  0.6700   72.9   0.736  -16.3  0.4961    7.4  0.3352  129.7
 5.100  0.6752   71.7   0.720  -17.2  0.4963    6.0  0.3393  126.6
 5.200  0.6807   70.6   0.704  -18.1  0.4967    4.7  0.3443  123.7
 5.300  0.6865   69.4   0.688  -19.0  0.4974    3.3  0.3502  120.8
 5.400  0.6925   68.3   0.672  -20.1  0.4984    2.0  0.3569  118.0
 5.500  0.6988   67.2   0.657  -21.1  0.4997    0.6  0.3645  115.3
 5.600  0.6974   66.2   0.655  -21.4  0.5066   -0.2  0.3779  115.6
 5.700  0.6961   65.3   0.652  -21.8  0.5135   -1.0  0.3913  115.9
 5.800  0.6950   64.3   0.650  -22.1  0.5206   -1.7  0.4047  116.2
 5.900  0.6942   63.4   0.647  -22.5  0.5278   -2.5  0.4181  116.5
 6.000  0.6935   62.4   0.645  -22.8  0.5350   -3.2  0.4315  116.7
!
!  f       NFmin   Gammaopt  rn/50
! GHz       dB    MAG  ANG    -
!
! noise parameter not available yet for this operation point!
!
! (c) 2015  Infineon Technologies AG, Munich
