! Infineon Technologies  Discrete & RF Semiconductors
! BFR35AP
! VCE =  1.5 V,  IC =  12 mA
! Common Emitter S-Parameters:                            Nov 2015
# GHz  S  MA  R  50
!  f         S11            S21            S12            S22
! GHz     MAG   ANG      MAG   ANG      MAG   ANG      MAG   ANG
 0.010  0.6290   -7.2  25.384  175.0  0.0031   86.7  0.9707   -3.2
 0.015  0.6221  -10.5  25.264  172.4  0.0046   84.8  0.9619   -5.0
 0.020  0.6173  -13.8  25.196  169.8  0.0061   83.9  0.9541   -6.8
 0.025  0.6089  -16.9  24.868  167.7  0.0076   81.4  0.9442   -8.3
 0.030  0.6023  -20.0  24.576  165.4  0.0091   79.7  0.9349   -9.9
 0.035  0.5975  -23.2  24.321  163.2  0.0106   78.5  0.9264  -11.4
 0.040  0.5945  -26.4  24.105  160.9  0.0121   77.6  0.9185  -13.0
 0.045  0.5935  -29.6  23.928  158.6  0.0136   76.9  0.9114  -14.6
 0.050  0.5944  -32.9  23.791  156.2  0.0151   76.3  0.9050  -16.3
 0.055  0.5801  -35.3  23.306  154.7  0.0162   74.7  0.8903  -17.3
 0.060  0.5669  -37.7  22.839  153.1  0.0173   73.3  0.8759  -18.2
 0.065  0.5548  -40.3  22.390  151.4  0.0184   72.1  0.8618  -19.3
 0.070  0.5439  -43.0  21.962  149.6  0.0195   71.0  0.8480  -20.3
 0.075  0.5342  -45.8  21.554  147.8  0.0206   70.0  0.8344  -21.4
 0.080  0.5258  -48.7  21.168  146.0  0.0217   69.1  0.8212  -22.5
 0.085  0.5188  -51.7  20.807  144.0  0.0228   68.4  0.8082  -23.7
 0.090  0.5133  -54.7  20.469  142.0  0.0239   67.6  0.7957  -24.9
 0.095  0.5092  -57.8  20.158  139.9  0.0251   67.0  0.7834  -26.1
 0.100  0.5067  -61.0  19.874  137.8  0.0262   66.4  0.7716  -27.4
 0.105  0.4963  -62.8  19.464  136.7  0.0269   65.8  0.7592  -27.9
 0.110  0.4865  -64.7  19.063  135.5  0.0276   65.2  0.7469  -28.4
 0.115  0.4772  -66.7  18.669  134.3  0.0284   64.7  0.7346  -29.0
 0.120  0.4686  -68.8  18.285  133.0  0.0291   64.2  0.7224  -29.5
 0.125  0.4605  -70.9  17.910  131.7  0.0298   63.7  0.7102  -30.1
 0.130  0.4531  -73.1  17.545  130.3  0.0306   63.2  0.6981  -30.7
 0.135  0.4464  -75.4  17.191  128.8  0.0313   62.8  0.6862  -31.3
 0.140  0.4404  -77.7  16.849  127.3  0.0320   62.4  0.6742  -32.0
 0.145  0.4352  -80.1  16.518  125.7  0.0328   62.0  0.6624  -32.6
 0.150  0.4308  -82.6  16.201  124.1  0.0335   61.6  0.6507  -33.3
 0.155  0.4247  -84.0  15.905  123.4  0.0341   61.5  0.6420  -33.5
 0.160  0.4189  -85.5  15.611  122.6  0.0347   61.4  0.6334  -33.7
 0.165  0.4133  -87.1  15.320  121.8  0.0353   61.3  0.6247  -34.0
 0.170  0.4081  -88.6  15.032  121.0  0.0359   61.2  0.6160  -34.2
 0.175  0.4032  -90.2  14.748  120.1  0.0365   61.2  0.6074  -34.5
 0.180  0.3986  -91.9  14.467  119.2  0.0371   61.1  0.5988  -34.7
 0.185  0.3944  -93.6  14.189  118.3  0.0377   61.0  0.5902  -35.0
 0.190  0.3904  -95.3  13.916  117.3  0.0383   60.9  0.5816  -35.2
 0.195  0.3869  -97.0  13.646  116.3  0.0389   60.9  0.5730  -35.5
 0.200  0.3837  -98.8  13.381  115.3  0.0395   60.8  0.5644  -35.8
 0.220  0.3667 -103.9  12.501  112.9  0.0417   60.6  0.5396  -36.2
 0.240  0.3528 -109.4  11.647  110.1  0.0439   60.5  0.5148  -36.6
 0.260  0.3410 -114.5  10.909  107.7  0.0460   60.6  0.4936  -36.8
 0.280  0.3302 -119.3  10.275  105.7  0.0481   60.9  0.4759  -36.8
 0.300  0.3219 -124.3   9.655  103.4  0.0502   61.2  0.4583  -36.8
 0.320  0.3145 -127.4   9.217  102.2  0.0522   61.5  0.4470  -36.7
 0.340  0.3081 -130.7   8.784  100.9  0.0543   61.8  0.4357  -36.5
 0.360  0.3028 -134.2   8.355   99.4  0.0563   62.0  0.4244  -36.3
 0.380  0.2986 -137.7   7.933   97.8  0.0584   62.3  0.4131  -36.2
 0.400  0.2955 -141.3   7.518   96.0  0.0604   62.5  0.4018  -36.0
 0.420  0.2928 -143.7   7.226   95.0  0.0625   62.8  0.3952  -35.8
 0.440  0.2906 -146.1   6.937   93.9  0.0647   63.0  0.3886  -35.7
 0.450  0.2897 -147.4   6.794   93.3  0.0657   63.1  0.3853  -35.6
 0.460  0.2889 -148.6   6.651   92.7  0.0668   63.3  0.3820  -35.5
 0.480  0.2878 -151.1   6.368   91.4  0.0690   63.5  0.3755  -35.3
 0.500  0.2872 -153.6   6.088   90.0  0.0711   63.7  0.3689  -35.1
 0.520  0.2845 -155.7   5.898   89.1  0.0734   63.8  0.3649  -35.0
 0.540  0.2822 -157.9   5.709   88.2  0.0756   63.9  0.3609  -34.9
 0.560  0.2803 -160.1   5.522   87.1  0.0779   64.0  0.3568  -34.9
 0.580  0.2789 -162.3   5.336   86.1  0.0801   64.0  0.3528  -34.8
 0.600  0.2778 -164.5   5.153   84.9  0.0824   64.1  0.3488  -34.7
 0.620  0.2777 -166.3   5.013   84.1  0.0846   64.2  0.3459  -34.7
 0.640  0.2780 -168.1   4.874   83.3  0.0868   64.3  0.3430  -34.7
 0.660  0.2784 -169.9   4.737   82.4  0.0889   64.4  0.3400  -34.8
 0.680  0.2792 -171.6   4.600   81.5  0.0911   64.4  0.3371  -34.8
 0.700  0.2802 -173.4   4.465   80.5  0.0933   64.5  0.3342  -34.8
 0.720  0.2802 -174.8   4.355   79.8  0.0955   64.5  0.3319  -34.8
 0.740  0.2804 -176.1   4.246   79.1  0.0977   64.4  0.3296  -34.9
 0.760  0.2807 -177.5   4.138   78.3  0.1000   64.4  0.3273  -34.9
 0.780  0.2812 -178.8   4.031   77.5  0.1022   64.3  0.3250  -35.0
 0.800  0.2818  179.8   3.924   76.6  0.1044   64.3  0.3227  -35.0
 0.820  0.2807  178.6   3.842   75.9  0.1068   64.3  0.3210  -35.1
 0.840  0.2797  177.3   3.761   75.2  0.1092   64.2  0.3193  -35.2
 0.860  0.2788  176.1   3.680   74.5  0.1117   64.2  0.3177  -35.4
 0.880  0.2781  174.9   3.600   73.7  0.1141   64.1  0.3160  -35.5
 0.900  0.2775  173.6   3.520   72.9  0.1165   64.1  0.3143  -35.6
 0.920  0.2786  172.3   3.455   72.3  0.1186   64.0  0.3131  -35.8
 0.940  0.2798  171.0   3.390   71.7  0.1208   63.8  0.3119  -36.0
 0.960  0.2811  169.8   3.326   71.1  0.1229   63.7  0.3107  -36.2
 0.980  0.2826  168.5   3.262   70.4  0.1251   63.6  0.3096  -36.4
 1.000  0.2842  167.3   3.198   69.7  0.1272   63.5  0.3084  -36.6
 1.020  0.2857  166.2   3.145   69.1  0.1295   63.4  0.3070  -36.9
 1.040  0.2874  165.2   3.093   68.4  0.1318   63.3  0.3057  -37.2
 1.060  0.2891  164.1   3.041   67.8  0.1340   63.2  0.3043  -37.5
 1.080  0.2910  163.1   2.989   67.1  0.1363   63.1  0.3029  -37.8
 1.100  0.2929  162.1   2.938   66.4  0.1386   63.0  0.3016  -38.1
 1.120  0.2937  161.0   2.893   65.8  0.1409   62.8  0.3003  -38.3
 1.140  0.2946  160.0   2.849   65.2  0.1433   62.6  0.2989  -38.6
 1.160  0.2955  158.9   2.804   64.5  0.1456   62.4  0.2976  -38.8
 1.180  0.2966  157.8   2.760   63.9  0.1480   62.3  0.2963  -39.1
 1.200  0.2978  156.8   2.717   63.2  0.1503   62.1  0.2950  -39.3
 1.220  0.2977  155.9   2.676   62.6  0.1526   61.9  0.2939  -39.6
 1.240  0.2977  154.9   2.636   62.1  0.1548   61.7  0.2929  -39.9
 1.260  0.2977  154.0   2.596   61.5  0.1571   61.5  0.2919  -40.1
 1.280  0.2979  153.0   2.556   60.8  0.1593   61.4  0.2908  -40.4
 1.300  0.2981  152.1   2.516   60.2  0.1616   61.2  0.2898  -40.7
 1.320  0.2998  151.1   2.482   59.7  0.1638   61.0  0.2888  -41.1
 1.340  0.3016  150.2   2.449   59.1  0.1660   60.8  0.2878  -41.4
 1.360  0.3035  149.2   2.416   58.6  0.1682   60.6  0.2868  -41.8
 1.380  0.3055  148.3   2.383   58.0  0.1704   60.5  0.2858  -42.1
 1.400  0.3075  147.4   2.350   57.4  0.1726   60.3  0.2848  -42.5
 1.420  0.3083  146.8   2.324   56.9  0.1748   60.1  0.2837  -42.9
 1.440  0.3092  146.1   2.299   56.3  0.1770   59.9  0.2826  -43.2
 1.460  0.3101  145.5   2.273   55.8  0.1793   59.7  0.2816  -43.6
 1.480  0.3111  144.8   2.248   55.2  0.1815   59.5  0.2805  -43.9
 1.500  0.3121  144.2   2.223   54.6  0.1837   59.3  0.2795  -44.3
 1.520  0.3146  143.3   2.196   54.0  0.1860   59.1  0.2780  -44.7
 1.540  0.3171  142.4   2.168   53.4  0.1884   58.9  0.2765  -45.1
 1.560  0.3197  141.6   2.141   52.8  0.1907   58.7  0.2750  -45.5
 1.580  0.3224  140.7   2.114   52.2  0.1931   58.5  0.2735  -45.9
 1.600  0.3252  139.9   2.088   51.5  0.1954   58.3  0.2720  -46.3
 1.620  0.3266  139.2   2.067   51.0  0.1975   58.1  0.2708  -46.7
 1.640  0.3281  138.5   2.047   50.5  0.1997   57.9  0.2696  -47.0
 1.660  0.3296  137.8   2.026   50.0  0.2018   57.7  0.2684  -47.4
 1.680  0.3312  137.1   2.006   49.4  0.2040   57.5  0.2672  -47.8
 1.700  0.3328  136.4   1.986   48.9  0.2061   57.3  0.2660  -48.2
 1.720  0.3343  135.7   1.968   48.4  0.2084   57.0  0.2652  -48.7
 1.740  0.3359  135.1   1.950   48.0  0.2106   56.8  0.2645  -49.2
 1.760  0.3375  134.4   1.932   47.5  0.2129   56.5  0.2638  -49.6
 1.780  0.3392  133.7   1.915   47.0  0.2152   56.2  0.2631  -50.1
 1.800  0.3409  133.1   1.897   46.5  0.2175   56.0  0.2624  -50.6
 1.820  0.3424  132.5   1.880   46.0  0.2196   55.8  0.2608  -51.1
 1.840  0.3439  131.9   1.864   45.4  0.2218   55.5  0.2593  -51.7
 1.860  0.3455  131.3   1.848   44.9  0.2239   55.3  0.2577  -52.2
 1.880  0.3471  130.8   1.832   44.4  0.2261   55.1  0.2562  -52.7
 1.900  0.3487  130.2   1.816   43.8  0.2282   54.9  0.2547  -53.3
 1.920  0.3508  129.6   1.799   43.3  0.2304   54.7  0.2531  -53.7
 1.940  0.3529  128.9   1.782   42.8  0.2325   54.4  0.2516  -54.2
 1.960  0.3550  128.3   1.766   42.3  0.2347   54.2  0.2501  -54.7
 1.980  0.3572  127.7   1.749   41.7  0.2368   53.9  0.2486  -55.1
 2.000  0.3594  127.1   1.733   41.2  0.2390   53.7  0.2471  -55.6
 2.020  0.3610  126.5   1.719   40.7  0.2412   53.4  0.2456  -56.1
 2.040  0.3627  125.9   1.706   40.3  0.2434   53.2  0.2441  -56.7
 2.060  0.3644  125.3   1.692   39.8  0.2456   52.9  0.2427  -57.2
 2.080  0.3661  124.8   1.679   39.3  0.2478   52.6  0.2413  -57.8
 2.100  0.3678  124.2   1.665   38.8  0.2500   52.4  0.2399  -58.3
 2.120  0.3696  123.6   1.652   38.3  0.2522   52.1  0.2385  -58.9
 2.140  0.3715  123.1   1.639   37.8  0.2544   51.9  0.2371  -59.5
 2.160  0.3734  122.5   1.626   37.3  0.2566   51.7  0.2358  -60.0
 2.180  0.3753  121.9   1.614   36.7  0.2589   51.4  0.2345  -60.6
 2.200  0.3772  121.4   1.601   36.2  0.2611   51.2  0.2332  -61.2
 2.220  0.3790  120.8   1.591   35.7  0.2632   50.9  0.2313  -61.8
 2.240  0.3809  120.3   1.580   35.3  0.2653   50.7  0.2295  -62.4
 2.260  0.3827  119.7   1.570   34.8  0.2674   50.4  0.2277  -63.0
 2.280  0.3847  119.1   1.560   34.3  0.2695   50.2  0.2259  -63.6
 2.300  0.3866  118.6   1.550   33.8  0.2716   49.9  0.2242  -64.3
 2.320  0.3886  118.0   1.540   33.3  0.2737   49.7  0.2224  -64.9
 2.340  0.3906  117.5   1.530   32.8  0.2758   49.4  0.2207  -65.6
 2.360  0.3927  117.0   1.521   32.3  0.2779   49.2  0.2191  -66.2
 2.380  0.3948  116.4   1.511   31.7  0.2801   48.9  0.2174  -66.9
 2.400  0.3969  115.9   1.502   31.2  0.2822   48.7  0.2158  -67.6
 2.420  0.3992  115.4   1.492   30.8  0.2843   48.4  0.2141  -68.3
 2.440  0.4016  114.9   1.482   30.4  0.2863   48.1  0.2124  -69.0
 2.460  0.4040  114.4   1.472   29.9  0.2884   47.8  0.2108  -69.7
 2.480  0.4064  114.0   1.463   29.5  0.2905   47.6  0.2092  -70.4
 2.500  0.4088  113.5   1.453   29.1  0.2926   47.3  0.2076  -71.1
 2.520  0.4113  113.0   1.443   28.6  0.2947   47.0  0.2060  -71.8
 2.540  0.4138  112.6   1.434   28.2  0.2968   46.8  0.2045  -72.6
 2.560  0.4163  112.1   1.425   27.7  0.2989   46.5  0.2030  -73.4
 2.580  0.4188  111.6   1.415   27.3  0.3010   46.3  0.2016  -74.1
 2.600  0.4214  111.2   1.406   26.8  0.3031   46.0  0.2002  -74.9
 2.620  0.4237  110.7   1.398   26.4  0.3051   45.7  0.1983  -75.7
 2.640  0.4260  110.3   1.391   26.0  0.3071   45.5  0.1964  -76.5
 2.660  0.4283  109.8   1.383   25.6  0.3092   45.2  0.1945  -77.4
 2.680  0.4307  109.3   1.376   25.2  0.3112   44.9  0.1927  -78.2
 2.700  0.4331  108.9   1.368   24.8  0.3133   44.7  0.1909  -79.1
 2.720  0.4355  108.4   1.361   24.3  0.3153   44.4  0.1892  -80.0
 2.740  0.4379  108.0   1.353   23.9  0.3174   44.1  0.1875  -80.9
 2.760  0.4404  107.6   1.346   23.5  0.3194   43.9  0.1859  -81.8
 2.780  0.4429  107.1   1.339   23.0  0.3215   43.6  0.1843  -82.7
 2.800  0.4454  106.7   1.332   22.6  0.3236   43.4  0.1828  -83.7
 2.820  0.4474  106.3   1.324   22.2  0.3255   43.1  0.1812  -84.7
 2.840  0.4494  105.9   1.316   21.7  0.3275   42.8  0.1796  -85.7
 2.860  0.4515  105.5   1.309   21.3  0.3294   42.5  0.1781  -86.7
 2.880  0.4535  105.1   1.301   20.9  0.3314   42.2  0.1766  -87.7
 2.900  0.4556  104.7   1.294   20.4  0.3333   41.9  0.1752  -88.7
 2.920  0.4577  104.3   1.286   20.0  0.3353   41.6  0.1738  -89.8
 2.940  0.4599  103.9   1.279   19.5  0.3373   41.3  0.1725  -90.9
 2.960  0.4620  103.5   1.271   19.0  0.3393   41.1  0.1713  -92.0
 2.980  0.4642  103.1   1.264   18.6  0.3413   40.8  0.1701  -93.1
 3.000  0.4664  102.7   1.257   18.1  0.3433   40.5  0.1690  -94.2
 3.100  0.4777  100.8   1.224   16.4  0.3516   39.0  0.1599 -100.2
 3.200  0.4894   99.0   1.193   14.5  0.3602   37.5  0.1528 -106.8
 3.300  0.5016   97.4   1.162   12.6  0.3691   36.1  0.1478 -114.0
 3.400  0.5143   95.7   1.133   10.5  0.3781   34.8  0.1454 -121.5
 3.500  0.5273   94.2   1.106    8.4  0.3873   33.5  0.1455 -129.2
 3.600  0.5358   92.6   1.081    6.8  0.3950   32.1  0.1443 -137.3
 3.700  0.5447   91.0   1.057    5.2  0.4029   30.7  0.1459 -145.3
 3.800  0.5540   89.4   1.034    3.5  0.4110   29.3  0.1503 -153.1
 3.900  0.5637   87.9   1.012    1.8  0.4193   28.0  0.1573 -160.2
 4.000  0.5738   86.5   0.991   -0.1  0.4279   26.8  0.1665 -166.7
 4.100  0.5827   85.2   0.972   -1.5  0.4346   25.3  0.1725 -173.2
 4.200  0.5920   83.9   0.953   -3.0  0.4417   23.9  0.1805 -179.1
 4.300  0.6015   82.6   0.935   -4.5  0.4489   22.5  0.1903  175.4
 4.400  0.6113   81.4   0.918   -6.1  0.4565   21.1  0.2017  170.6
 4.500  0.6214   80.2   0.901   -7.7  0.4643   19.8  0.2143  166.3
 4.600  0.6267   79.0   0.885   -9.0  0.4694   18.3  0.2230  161.8
 4.700  0.6322   77.9   0.870  -10.3  0.4748   16.9  0.2330  157.7
 4.800  0.6379   76.7   0.855  -11.6  0.4805   15.5  0.2441  153.9
 4.900  0.6439   75.6   0.841  -13.0  0.4865   14.1  0.2562  150.5
 5.000  0.6502   74.5   0.827  -14.5  0.4928   12.8  0.2691  147.4
 5.100  0.6568   73.3   0.807  -15.6  0.4937   11.3  0.2725  143.4
 5.200  0.6637   72.1   0.787  -16.7  0.4950    9.9  0.2771  139.6
 5.300  0.6708   70.9   0.768  -17.9  0.4965    8.5  0.2829  135.9
 5.400  0.6783   69.7   0.749  -19.1  0.4984    7.0  0.2899  132.4
 5.500  0.6860   68.6   0.730  -20.4  0.5006    5.6  0.2979  129.0
 5.600  0.6846   67.6   0.726  -20.8  0.5084    4.7  0.3137  129.1
 5.700  0.6835   66.6   0.722  -21.2  0.5163    3.9  0.3295  129.3
 5.800  0.6825   65.7   0.718  -21.6  0.5243    3.1  0.3453  129.4
 5.900  0.6818   64.7   0.714  -22.0  0.5324    2.4  0.3611  129.5
 6.000  0.6812   63.7   0.710  -22.4  0.5406    1.6  0.3769  129.6
!
!  f       NFmin   Gammaopt  rn/50
! GHz       dB    MAG  ANG    -
!
! noise parameter not available yet for this operation point!
!
! (c) 2015  Infineon Technologies AG, Munich
