! Infineon Technologies  Discrete & RF Semiconductors
! BFR35AP
! VCE =  1.5 V,  IC =  4.0 mA
! Common Emitter S-Parameters:                            Nov 2015
# GHz  S  MA  R  50
!  f         S11            S21            S12            S22
! GHz     MAG   ANG      MAG   ANG      MAG   ANG      MAG   ANG
 0.010  0.8422   -3.7  11.974  177.5  0.0033   88.2  0.9917   -1.7
 0.015  0.8427   -5.1  11.885  176.0  0.0050   87.5  0.9854   -2.6
 0.020  0.8437   -6.5  11.805  174.5  0.0068   87.2  0.9794   -3.5
 0.025  0.8401   -8.1  11.775  173.2  0.0085   85.5  0.9777   -4.4
 0.030  0.8372   -9.8  11.750  171.9  0.0103   84.5  0.9762   -5.2
 0.035  0.8349  -11.4  11.731  170.7  0.0120   83.7  0.9749   -6.1
 0.040  0.8334  -13.1  11.719  169.4  0.0138   83.1  0.9739   -7.0
 0.045  0.8325  -14.7  11.712  168.1  0.0155   82.7  0.9731   -7.8
 0.050  0.8324  -16.4  11.711  166.8  0.0173   82.3  0.9725   -8.7
 0.055  0.8241  -17.9  11.635  165.6  0.0189   80.6  0.9666   -9.4
 0.060  0.8163  -19.5  11.563  164.4  0.0205   79.2  0.9609  -10.2
 0.065  0.8092  -21.0  11.497  163.2  0.0221   78.0  0.9553  -10.9
 0.070  0.8027  -22.6  11.436  162.0  0.0237   77.0  0.9499  -11.7
 0.075  0.7968  -24.3  11.380  160.8  0.0253   76.0  0.9447  -12.4
 0.080  0.7916  -25.9  11.330  159.6  0.0269   75.2  0.9396  -13.2
 0.085  0.7871  -27.6  11.284  158.3  0.0285   74.5  0.9347  -14.0
 0.090  0.7832  -29.3  11.244  157.0  0.0301   73.9  0.9300  -14.8
 0.095  0.7800  -31.0  11.210  155.8  0.0318   73.3  0.9255  -15.6
 0.100  0.7775  -32.7  11.181  154.5  0.0334   72.8  0.9211  -16.4
 0.105  0.7691  -34.0  11.061  153.4  0.0347   71.9  0.9143  -17.0
 0.110  0.7611  -35.3  10.945  152.4  0.0359   71.0  0.9076  -17.6
 0.115  0.7536  -36.7  10.833  151.3  0.0372   70.2  0.9010  -18.2
 0.120  0.7465  -38.1  10.725  150.2  0.0385   69.4  0.8945  -18.9
 0.125  0.7398  -39.5  10.621  149.0  0.0398   68.7  0.8881  -19.5
 0.130  0.7336  -40.9  10.522  147.9  0.0411   68.0  0.8818  -20.1
 0.135  0.7278  -42.4  10.427  146.7  0.0424   67.4  0.8756  -20.8
 0.140  0.7226  -43.9  10.336  145.5  0.0438   66.8  0.8696  -21.4
 0.145  0.7178  -45.4  10.250  144.2  0.0451   66.2  0.8636  -22.1
 0.150  0.7135  -46.9  10.169  143.0  0.0464   65.7  0.8578  -22.8
 0.155  0.7059  -48.1  10.073  142.1  0.0474   65.2  0.8509  -23.2
 0.160  0.6987  -49.3   9.979  141.3  0.0484   64.6  0.8441  -23.7
 0.165  0.6917  -50.5   9.887  140.4  0.0494   64.1  0.8374  -24.2
 0.170  0.6851  -51.7   9.798  139.5  0.0504   63.6  0.8307  -24.6
 0.175  0.6788  -53.0   9.711  138.6  0.0515   63.2  0.8241  -25.1
 0.180  0.6728  -54.3   9.627  137.6  0.0525   62.7  0.8175  -25.6
 0.185  0.6672  -55.6   9.545  136.7  0.0535   62.3  0.8110  -26.1
 0.190  0.6619  -57.0   9.466  135.7  0.0545   61.9  0.8045  -26.6
 0.195  0.6570  -58.3   9.390  134.7  0.0556   61.5  0.7981  -27.1
 0.200  0.6525  -59.7   9.317  133.7  0.0566   61.1  0.7918  -27.6
 0.220  0.6256  -64.1   8.930  130.7  0.0598   59.4  0.7647  -29.0
 0.240  0.6028  -68.9   8.570  127.4  0.0631   57.9  0.7381  -30.4
 0.260  0.5820  -73.2   8.220  124.4  0.0660   56.7  0.7142  -31.7
 0.280  0.5618  -77.1   7.867  122.0  0.0686   55.8  0.6928  -32.7
 0.300  0.5445  -81.3   7.529  119.3  0.0712   54.9  0.6716  -33.7
 0.320  0.5244  -84.3   7.254  117.6  0.0733   54.2  0.6554  -34.2
 0.340  0.5058  -87.5   6.985  115.7  0.0754   53.5  0.6392  -34.7
 0.360  0.4889  -90.9   6.725  113.8  0.0775   52.8  0.6231  -35.3
 0.380  0.4738  -94.6   6.473  111.6  0.0796   52.2  0.6071  -35.9
 0.400  0.4609  -98.5   6.231  109.3  0.0817   51.6  0.5911  -36.5
 0.420  0.4472 -101.1   6.020  107.8  0.0834   51.4  0.5786  -36.8
 0.440  0.4345 -103.9   5.814  106.2  0.0852   51.2  0.5661  -37.1
 0.450  0.4285 -105.3   5.712  105.4  0.0860   51.1  0.5598  -37.2
 0.460  0.4228 -106.8   5.612  104.5  0.0869   51.0  0.5536  -37.4
 0.480  0.4123 -109.9   5.416  102.7  0.0887   50.9  0.5411  -37.7
 0.500  0.4031 -113.1   5.226  100.7  0.0904   50.7  0.5286  -38.0
 0.520  0.3951 -115.5   5.080   99.5  0.0920   50.7  0.5202  -38.2
 0.540  0.3879 -118.0   4.936   98.3  0.0936   50.6  0.5117  -38.3
 0.560  0.3814 -120.6   4.794   97.0  0.0953   50.6  0.5033  -38.5
 0.580  0.3758 -123.3   4.655   95.6  0.0969   50.5  0.4949  -38.7
 0.600  0.3710 -126.1   4.519   94.1  0.0985   50.5  0.4865  -38.9
 0.620  0.3646 -128.2   4.405   93.1  0.1000   50.5  0.4808  -39.0
 0.640  0.3588 -130.3   4.293   92.0  0.1016   50.5  0.4751  -39.2
 0.660  0.3534 -132.6   4.182   90.9  0.1031   50.6  0.4694  -39.3
 0.680  0.3486 -134.9   4.072   89.7  0.1047   50.6  0.4637  -39.5
 0.700  0.3444 -137.2   3.965   88.5  0.1062   50.6  0.4580  -39.6
 0.720  0.3403 -139.0   3.873   87.6  0.1080   50.6  0.4536  -39.7
 0.740  0.3366 -140.9   3.782   86.6  0.1098   50.6  0.4492  -39.8
 0.760  0.3332 -142.8   3.692   85.6  0.1115   50.6  0.4448  -40.0
 0.780  0.3302 -144.8   3.603   84.6  0.1133   50.6  0.4404  -40.1
 0.800  0.3276 -146.8   3.516   83.5  0.1151   50.6  0.4360  -40.2
 0.820  0.3236 -148.7   3.445   82.7  0.1167   50.6  0.4326  -40.3
 0.840  0.3200 -150.6   3.375   81.8  0.1184   50.6  0.4292  -40.5
 0.860  0.3168 -152.6   3.306   80.9  0.1200   50.7  0.4258  -40.6
 0.880  0.3140 -154.6   3.238   79.9  0.1217   50.7  0.4224  -40.8
 0.900  0.3115 -156.6   3.171   78.9  0.1233   50.7  0.4190  -40.9
 0.920  0.3096 -158.4   3.116   78.1  0.1249   50.8  0.4162  -41.1
 0.940  0.3080 -160.2   3.061   77.3  0.1265   50.9  0.4133  -41.3
 0.960  0.3067 -162.0   3.007   76.5  0.1281   50.9  0.4105  -41.4
 0.980  0.3057 -163.9   2.954   75.7  0.1297   51.0  0.4076  -41.6
 1.000  0.3050 -165.7   2.901   74.8  0.1313   51.1  0.4048  -41.8
 1.020  0.3050 -167.3   2.856   74.1  0.1330   51.2  0.4023  -42.1
 1.040  0.3053 -168.9   2.811   73.3  0.1348   51.2  0.3999  -42.3
 1.060  0.3058 -170.5   2.767   72.5  0.1365   51.3  0.3974  -42.6
 1.080  0.3065 -172.1   2.724   71.7  0.1383   51.3  0.3949  -42.8
 1.100  0.3075 -173.7   2.681   70.9  0.1400   51.4  0.3925  -43.1
 1.120  0.3058 -175.3   2.641   70.2  0.1417   51.4  0.3902  -43.3
 1.140  0.3043 -176.9   2.602   69.4  0.1435   51.5  0.3880  -43.5
 1.160  0.3031 -178.5   2.563   68.7  0.1452   51.5  0.3857  -43.8
 1.180  0.3021  179.8   2.524   67.9  0.1470   51.6  0.3834  -44.0
 1.200  0.3014  178.2   2.486   67.1  0.1487   51.6  0.3812  -44.2
 1.220  0.3013  177.1   2.450   66.5  0.1506   51.6  0.3795  -44.5
 1.240  0.3014  176.0   2.415   65.8  0.1526   51.6  0.3778  -44.7
 1.260  0.3015  174.8   2.379   65.2  0.1545   51.6  0.3761  -45.0
 1.280  0.3018  173.7   2.345   64.5  0.1565   51.6  0.3744  -45.2
 1.300  0.3022  172.6   2.310   63.8  0.1584   51.6  0.3727  -45.5
 1.320  0.3033  171.2   2.279   63.2  0.1601   51.6  0.3712  -45.8
 1.340  0.3046  169.8   2.249   62.6  0.1618   51.6  0.3698  -46.1
 1.360  0.3060  168.4   2.219   61.9  0.1636   51.5  0.3683  -46.4
 1.380  0.3077  167.1   2.189   61.3  0.1653   51.5  0.3669  -46.7
 1.400  0.3095  165.7   2.159   60.6  0.1670   51.5  0.3655  -47.0
 1.420  0.3101  164.8   2.137   60.0  0.1689   51.5  0.3639  -47.3
 1.440  0.3107  163.8   2.114   59.4  0.1707   51.4  0.3624  -47.6
 1.460  0.3114  162.9   2.092   58.8  0.1726   51.4  0.3608  -48.0
 1.480  0.3122  162.0   2.070   58.1  0.1744   51.3  0.3593  -48.3
 1.500  0.3131  161.1   2.049   57.5  0.1763   51.3  0.3578  -48.6
 1.520  0.3143  159.9   2.024   56.8  0.1781   51.2  0.3561  -49.0
 1.540  0.3157  158.7   1.999   56.2  0.1799   51.1  0.3544  -49.3
 1.560  0.3172  157.6   1.974   55.5  0.1818   51.1  0.3527  -49.7
 1.580  0.3188  156.4   1.949   54.7  0.1836   51.0  0.3510  -50.0
 1.600  0.3205  155.3   1.925   54.0  0.1854   50.9  0.3493  -50.4
 1.620  0.3215  154.1   1.907   53.4  0.1873   50.8  0.3479  -50.8
 1.640  0.3227  153.0   1.889   52.9  0.1892   50.7  0.3466  -51.1
 1.660  0.3239  151.8   1.872   52.3  0.1910   50.6  0.3452  -51.5
 1.680  0.3254  150.6   1.854   51.7  0.1929   50.5  0.3439  -51.8
 1.700  0.3269  149.5   1.837   51.1  0.1948   50.4  0.3426  -52.2
 1.720  0.3280  148.5   1.821   50.6  0.1968   50.3  0.3415  -52.6
 1.740  0.3293  147.5   1.805   50.0  0.1988   50.2  0.3405  -53.0
 1.760  0.3306  146.5   1.789   49.4  0.2008   50.2  0.3394  -53.4
 1.780  0.3321  145.6   1.773   48.9  0.2028   50.1  0.3384  -53.8
 1.800  0.3336  144.6   1.758   48.3  0.2048   50.0  0.3374  -54.2
 1.820  0.3356  144.0   1.744   47.8  0.2068   49.9  0.3357  -54.7
 1.840  0.3377  143.4   1.730   47.2  0.2088   49.8  0.3340  -55.1
 1.860  0.3398  142.8   1.716   46.6  0.2108   49.7  0.3323  -55.6
 1.880  0.3419  142.2   1.702   46.1  0.2128   49.6  0.3307  -56.1
 1.900  0.3441  141.6   1.688   45.5  0.2148   49.5  0.3291  -56.6
 1.920  0.3456  140.7   1.672   45.0  0.2168   49.4  0.3274  -57.0
 1.940  0.3472  139.8   1.657   44.5  0.2188   49.3  0.3257  -57.4
 1.960  0.3488  138.9   1.641   43.9  0.2208   49.1  0.3240  -57.8
 1.980  0.3506  138.0   1.626   43.4  0.2228   49.0  0.3223  -58.2
 2.000  0.3524  137.1   1.611   42.8  0.2248   48.9  0.3206  -58.6
 2.020  0.3537  136.4   1.598   42.3  0.2268   48.7  0.3192  -59.1
 2.040  0.3551  135.6   1.585   41.8  0.2287   48.6  0.3179  -59.6
 2.060  0.3566  134.9   1.572   41.3  0.2307   48.4  0.3165  -60.1
 2.080  0.3581  134.2   1.560   40.7  0.2327   48.2  0.3152  -60.6
 2.100  0.3596  133.5   1.547   40.2  0.2347   48.1  0.3139  -61.1
 2.120  0.3612  132.8   1.535   39.7  0.2367   47.9  0.3127  -61.7
 2.140  0.3629  132.1   1.523   39.1  0.2386   47.8  0.3114  -62.2
 2.160  0.3646  131.4   1.511   38.6  0.2406   47.6  0.3102  -62.7
 2.180  0.3664  130.7   1.499   38.0  0.2426   47.4  0.3091  -63.3
 2.200  0.3682  130.0   1.487   37.4  0.2446   47.3  0.3079  -63.8
 2.220  0.3703  129.2   1.478   36.9  0.2467   47.1  0.3058  -64.3
 2.240  0.3725  128.4   1.469   36.4  0.2487   47.0  0.3038  -64.9
 2.260  0.3747  127.7   1.461   35.9  0.2508   46.8  0.3018  -65.5
 2.280  0.3770  126.9   1.452   35.4  0.2529   46.7  0.2999  -66.0
 2.300  0.3794  126.1   1.443   34.8  0.2549   46.5  0.2979  -66.6
 2.320  0.3818  125.4   1.435   34.3  0.2570   46.4  0.2960  -67.2
 2.340  0.3843  124.6   1.427   33.8  0.2591   46.2  0.2941  -67.8
 2.360  0.3869  123.9   1.419   33.2  0.2611   46.1  0.2923  -68.4
 2.380  0.3895  123.2   1.411   32.7  0.2632   45.9  0.2905  -69.0
 2.400  0.3922  122.5   1.403   32.1  0.2653   45.8  0.2887  -69.6
 2.420  0.3945  121.9   1.394   31.7  0.2672   45.6  0.2871  -70.2
 2.440  0.3968  121.3   1.384   31.2  0.2692   45.4  0.2856  -70.8
 2.460  0.3992  120.7   1.375   30.8  0.2711   45.2  0.2841  -71.4
 2.480  0.4017  120.2   1.366   30.3  0.2731   45.0  0.2826  -72.0
 2.500  0.4041  119.6   1.357   29.9  0.2750   44.8  0.2811  -72.7
 2.520  0.4066  119.1   1.348   29.4  0.2770   44.6  0.2797  -73.3
 2.540  0.4092  118.5   1.339   28.9  0.2789   44.4  0.2783  -73.9
 2.560  0.4117  118.0   1.330   28.5  0.2809   44.3  0.2770  -74.6
 2.580  0.4144  117.4   1.322   28.0  0.2828   44.1  0.2757  -75.2
 2.600  0.4170  116.9   1.313   27.5  0.2848   43.9  0.2744  -75.9
 2.620  0.4188  116.3   1.306   27.1  0.2869   43.7  0.2724  -76.6
 2.640  0.4206  115.7   1.299   26.6  0.2889   43.5  0.2704  -77.3
 2.660  0.4224  115.2   1.293   26.2  0.2910   43.2  0.2685  -78.1
 2.680  0.4243  114.6   1.286   25.8  0.2931   43.0  0.2666  -78.8
 2.700  0.4263  114.0   1.280   25.3  0.2952   42.8  0.2648  -79.6
 2.720  0.4283  113.5   1.273   24.9  0.2972   42.6  0.2630  -80.3
 2.740  0.4303  112.9   1.267   24.4  0.2993   42.4  0.2613  -81.1
 2.760  0.4324  112.4   1.260   23.9  0.3014   42.2  0.2596  -81.9
 2.780  0.4345  111.8   1.254   23.5  0.3035   42.0  0.2580  -82.7
 2.800  0.4366  111.3   1.248   23.0  0.3056   41.8  0.2564  -83.5
 2.820  0.4389  110.8   1.241   22.6  0.3075   41.5  0.2548  -84.3
 2.840  0.4413  110.3   1.234   22.1  0.3095   41.3  0.2533  -85.2
 2.860  0.4437  109.9   1.227   21.7  0.3114   41.0  0.2518  -86.0
 2.880  0.4461  109.4   1.220   21.2  0.3134   40.8  0.2504  -86.9
 2.900  0.4486  108.9   1.213   20.8  0.3153   40.6  0.2491  -87.7
 2.920  0.4511  108.5   1.206   20.3  0.3173   40.3  0.2478  -88.6
 2.940  0.4536  108.0   1.200   19.8  0.3193   40.1  0.2465  -89.5
 2.960  0.4561  107.6   1.193   19.4  0.3212   39.9  0.2454  -90.4
 2.980  0.4587  107.1   1.186   18.9  0.3232   39.6  0.2443  -91.3
 3.000  0.4613  106.7   1.180   18.4  0.3252   39.4  0.2432  -92.2
 3.100  0.4726  104.5   1.149   16.6  0.3342   38.1  0.2338  -97.0
 3.200  0.4846  102.4   1.120   14.7  0.3433   36.8  0.2261 -102.2
 3.300  0.4971  100.5   1.092   12.7  0.3526   35.6  0.2204 -107.6
 3.400  0.5103   98.6   1.065   10.6  0.3620   34.5  0.2168 -113.4
 3.500  0.5239   96.8   1.040    8.4  0.3716   33.4  0.2154 -119.2
 3.600  0.5323   95.0   1.018    6.8  0.3801   32.0  0.2111 -125.6
 3.700  0.5411   93.2   0.996    5.2  0.3888   30.7  0.2095 -132.2
 3.800  0.5505   91.5   0.976    3.5  0.3977   29.5  0.2106 -138.7
 3.900  0.5604   89.8   0.956    1.7  0.4068   28.2  0.2145 -145.2
 4.000  0.5707   88.2   0.937   -0.2  0.4160   27.1  0.2210 -151.3
 4.100  0.5786   86.7   0.919   -1.6  0.4235   25.6  0.2232 -157.4
 4.200  0.5869   85.3   0.901   -3.0  0.4313   24.2  0.2278 -163.3
 4.300  0.5956   83.9   0.884   -4.5  0.4393   22.8  0.2347 -168.9
 4.400  0.6046   82.5   0.868   -6.0  0.4476   21.5  0.2438 -174.2
 4.500  0.6139   81.2   0.852   -7.6  0.4561   20.2  0.2547 -179.0
 4.600  0.6196   80.0   0.837   -8.8  0.4621   18.7  0.2613  176.1
 4.700  0.6257   78.8   0.822  -10.1  0.4683   17.3  0.2697  171.4
 4.800  0.6319   77.6   0.807  -11.5  0.4748   15.9  0.2798  167.1
 4.900  0.6385   76.4   0.793  -12.9  0.4816   14.6  0.2914  163.1
 5.000  0.6453   75.3   0.780  -14.3  0.4887   13.3  0.3043  159.4
 5.100  0.6513   74.1   0.762  -15.3  0.4900   11.8  0.3050  155.1
 5.200  0.6576   72.8   0.744  -16.4  0.4916   10.3  0.3073  150.8
 5.300  0.6642   71.6   0.727  -17.5  0.4935    8.8  0.3114  146.6
 5.400  0.6710   70.5   0.710  -18.7  0.4958    7.3  0.3170  142.6
 5.500  0.6782   69.3   0.693  -19.9  0.4984    5.8  0.3242  138.7
 5.600  0.6775   68.3   0.689  -20.2  0.5065    4.9  0.3412  138.1
 5.700  0.6769   67.3   0.686  -20.5  0.5146    4.1  0.3583  137.5
 5.800  0.6766   66.2   0.682  -20.8  0.5229    3.3  0.3754  137.0
 5.900  0.6765   65.2   0.679  -21.2  0.5312    2.5  0.3925  136.5
 6.000  0.6766   64.2   0.675  -21.5  0.5397    1.8  0.4096  136.1
!
!  f       NFmin   Gammaopt  rn/50
! GHz       dB    MAG  ANG    -
!
! noise parameter not available yet for this operation point!
!
! (c) 2015  Infineon Technologies AG, Munich
