! Infineon Technologies  Discrete & RF Semiconductors
! BFR740L3RH
! VCE =  2.0 V,  IC =  4.0 mA
! Common Emitter S-Parameters:                            May 2012
# GHz  S  MA  R  50
!  f         S11            S21            S12            S22
! GHz     MAG   ANG      MAG   ANG      MAG   ANG      MAG   ANG
 0.450  0.9543  -23.3  11.756  164.4  0.0269   69.6  0.9780  -15.5
 0.500  0.9469  -25.6  11.697  162.5  0.0297   70.9  0.9716  -17.1
 0.600  0.9375  -30.4  11.581  158.9  0.0344   70.7  0.9596  -20.4
 0.700  0.9308  -35.3  11.432  155.5  0.0391   67.7  0.9473  -23.7
 0.800  0.9226  -40.0  11.252  152.2  0.0444   64.5  0.9341  -26.8
 0.900  0.9142  -44.6  11.061  149.1  0.0494   62.2  0.9200  -29.8
 1.000  0.9059  -49.1  10.865  146.0  0.0537   59.7  0.9056  -32.7
 1.100  0.8981  -53.4  10.664  143.1  0.0575   57.0  0.8905  -35.6
 1.200  0.8898  -57.6  10.458  140.2  0.0616   54.5  0.8743  -38.5
 1.300  0.8809  -61.9  10.242  137.3  0.0656   52.0  0.8576  -41.2
 1.400  0.8724  -66.0  10.020  134.5  0.0690   49.7  0.8413  -43.9
 1.500  0.8643  -69.8   9.796  131.8  0.0722   47.2  0.8257  -46.6
 1.600  0.8567  -73.6   9.577  129.2  0.0752   44.8  0.8100  -49.2
 1.700  0.8476  -77.5   9.350  126.6  0.0783   42.8  0.7933  -51.6
 1.800  0.8383  -81.3   9.124  124.1  0.0812   40.7  0.7758  -53.9
 1.900  0.8313  -84.8   8.913  121.7  0.0833   38.6  0.7593  -56.2
 2.000  0.8233  -88.3   8.697  119.3  0.0852   36.8  0.7439  -58.5
 2.100  0.8151  -91.6   8.483  117.1  0.0870   34.9  0.7277  -60.6
 2.200  0.8085  -94.7   8.276  115.0  0.0890   33.2  0.7123  -62.6
 2.300  0.8009  -97.7   8.069  113.0  0.0910   31.4  0.6992  -64.7
 2.400  0.7929 -100.8   7.867  110.9  0.0922   29.7  0.6863  -66.7
 2.500  0.7865 -103.6   7.679  109.0  0.0932   28.2  0.6725  -68.6
 2.600  0.7810 -106.2   7.500  107.1  0.0945   26.6  0.6591  -70.5
 2.700  0.7754 -109.0   7.322  105.2  0.0956   24.9  0.6468  -72.3
 2.800  0.7698 -111.6   7.148  103.4  0.0968   23.6  0.6351  -74.0
 2.900  0.7647 -114.2   6.984  101.6  0.0982   22.4  0.6237  -75.7
 3.000  0.7590 -116.8   6.822   99.8  0.0989   21.0  0.6126  -77.4
 3.100  0.7538 -119.1   6.662   98.1  0.0988   19.6  0.6016  -79.0
 3.200  0.7506 -121.5   6.511   96.5  0.0991   18.3  0.5917  -80.7
 3.300  0.7459 -123.9   6.366   94.8  0.0999   17.1  0.5818  -82.3
 3.400  0.7404 -126.1   6.224   93.2  0.1007   15.9  0.5717  -84.0
 3.500  0.7360 -128.2   6.081   91.6  0.1014   14.5  0.5627  -85.6
 3.600  0.7319 -130.3   5.939   90.1  0.1017   13.3  0.5538  -87.1
 3.700  0.7278 -132.4   5.806   88.6  0.1023   12.1  0.5452  -88.6
 3.800  0.7246 -134.3   5.681   87.1  0.1033   11.0  0.5370  -89.9
 3.900  0.7222 -136.2   5.567   85.7  0.1034   10.2  0.5301  -91.2
 4.000  0.7207 -138.0   5.461   84.4  0.1030    9.5  0.5244  -92.6
 4.100  0.7195 -139.8   5.349   83.0  0.1031    8.8  0.5183  -94.0
 4.200  0.7176 -141.5   5.232   81.6  0.1031    7.8  0.5123  -95.3
 4.300  0.7160 -143.2   5.122   80.3  0.1035    6.6  0.5066  -96.8
 4.400  0.7144 -144.9   5.018   79.0  0.1043    5.5  0.5007  -98.3
 4.500  0.7117 -146.6   4.919   77.7  0.1045    4.8  0.4949  -99.6
 4.600  0.7082 -148.3   4.823   76.4  0.1044    4.1  0.4893 -100.9
 4.700  0.7056 -150.0   4.730   75.1  0.1042    3.0  0.4838 -102.2
 4.800  0.7037 -151.6   4.643   74.0  0.1037    1.9  0.4780 -103.6
 4.900  0.7020 -153.1   4.561   72.8  0.1036    1.0  0.4728 -104.9
 5.000  0.7014 -154.7   4.479   71.6  0.1037    0.2  0.4679 -106.2
 5.100  0.7007 -156.1   4.397   70.4  0.1032   -0.7  0.4633 -107.4
 5.200  0.6988 -157.5   4.313   69.1  0.1028   -1.4  0.4597 -108.5
 5.300  0.6974 -158.9   4.233   68.0  0.1028   -2.3  0.4564 -109.7
 5.400  0.6964 -160.3   4.161   66.9  0.1029   -3.3  0.4533 -111.0
 5.500  0.6957 -161.6   4.093   65.8  0.1027   -3.9  0.4502 -112.2
 5.600  0.6954 -162.9   4.024   64.7  0.1022   -4.2  0.4470 -113.4
 5.700  0.6948 -164.2   3.951   63.5  0.1014   -5.0  0.4439 -114.8
 5.800  0.6943 -165.4   3.881   62.4  0.1006   -5.8  0.4407 -116.1
 5.900  0.6936 -166.7   3.820   61.3  0.1003   -6.5  0.4377 -117.2
 6.000  0.6930 -167.8   3.758   60.2  0.1002   -7.3  0.4357 -118.2
 6.100  0.6928 -168.9   3.696   59.2  0.1001   -8.3  0.4345 -119.4
 6.200  0.6927 -170.2   3.636   58.1  0.1001   -9.1  0.4327 -120.7
 6.300  0.6921 -171.5   3.577   57.0  0.0997   -9.7  0.4304 -121.8
 6.400  0.6910 -172.7   3.520   56.1  0.0993  -10.2  0.4281 -123.0
 6.500  0.6899 -173.8   3.464   55.1  0.0987  -10.6  0.4257 -124.2
 6.600  0.6896 -175.0   3.408   54.0  0.0982  -11.0  0.4240 -125.4
 6.700  0.6900 -176.2   3.358   53.0  0.0981  -11.8  0.4231 -126.6
 6.800  0.6905 -177.3   3.310   51.9  0.0979  -12.8  0.4215 -127.8
 6.900  0.6908 -178.3   3.255   50.9  0.0972  -13.5  0.4195 -128.9
 7.000  0.6907 -179.3   3.200   49.9  0.0963  -14.0  0.4181 -129.9
 7.100  0.6903  179.7   3.147   48.9  0.0956  -14.6  0.4167 -131.1
 7.200  0.6904  178.6   3.100   48.0  0.0948  -15.3  0.4159 -132.3
 7.300  0.6905  177.8   3.059   47.1  0.0940  -16.0  0.4149 -133.5
 7.400  0.6908  176.8   3.019   46.1  0.0936  -16.6  0.4135 -134.7
 7.500  0.6922  175.9   2.973   45.2  0.0934  -17.2  0.4131 -135.7
 7.600  0.6936  174.9   2.927   44.4  0.0933  -17.6  0.4130 -136.7
 7.700  0.6950  173.9   2.890   43.6  0.0926  -18.0  0.4120 -137.9
 7.800  0.6970  172.9   2.857   42.7  0.0919  -18.7  0.4108 -139.2
 7.900  0.6971  171.8   2.822   41.7  0.0912  -19.2  0.4097 -140.3
 8.000  0.6954  170.7   2.788   40.7  0.0901  -19.4  0.4085 -141.2
 8.500  0.6967  165.7   2.605   35.8  0.0893  -23.8  0.4078 -146.3
 9.000  0.6924  161.5   2.427   31.3  0.0840  -27.1  0.4077 -151.5
 9.500  0.6933  157.6   2.285   26.9  0.0790  -29.7  0.4094 -156.1
10.000  0.6884  153.8   2.133   22.6  0.0745  -32.2  0.4105 -160.8
10.500  0.6845  150.9   2.007   18.5  0.0683  -33.5  0.4160 -164.8
11.000  0.6979  148.0   1.897   15.1  0.0610  -36.0  0.4202 -169.1
11.500  0.6959  144.6   1.806   11.1  0.0560  -35.7  0.4276 -172.9
12.000  0.6991  142.0   1.704    7.2  0.0509  -36.0  0.4367 -176.4
!
!  f       NFmin   Gammaopt  rn/50
! GHz       dB    MAG  ANG    -
 0.450      0.35  0.51    4   0.17
 0.900      0.37  0.50   16   0.17
 1.500      0.40  0.51   30   0.15
 1.900      0.43  0.52   38   0.15
 2.400      0.48  0.51   47   0.15
 3.500      0.58  0.51   68   0.13
 5.500      0.80  0.56   99   0.10
 8.000      1.08  0.50  137   0.08
10.000      1.29  0.51  162   0.05
12.000      1.50  0.56 -163   0.04
!
! (c) 2012  Infineon Technologies AG, Munich
