! Infineon Technologies  Discrete & RF Semiconductors
! BFR740L3RH
! VCE =  2.0 V,  IC =  40 mA
! Common Emitter S-Parameters:                            May 2012
# GHz  S  MA  R  50
!  f         S11            S21            S12            S22
! GHz     MAG   ANG      MAG   ANG      MAG   ANG      MAG   ANG
 0.450  0.6588  -91.9  21.770  137.8  0.0193   39.7  0.5521  -36.6
 0.500  0.6632  -98.1  20.816  134.6  0.0214   41.8  0.5297  -39.1
 0.600  0.6854 -109.1  19.071  128.4  0.0242   41.8  0.4889  -44.0
 0.700  0.7072 -117.9  17.475  123.1  0.0256   38.2  0.4528  -48.0
 0.800  0.7233 -125.2  16.039  118.4  0.0270   34.6  0.4206  -51.3
 0.900  0.7364 -131.4  14.779  114.4  0.0283   31.7  0.3929  -54.1
 1.000  0.7476 -136.7  13.672  110.8  0.0292   30.4  0.3701  -56.5
 1.100  0.7565 -141.3  12.698  107.7  0.0295   29.5  0.3501  -58.6
 1.200  0.7632 -145.3  11.836  104.7  0.0299   28.1  0.3322  -60.5
 1.300  0.7685 -148.9  11.064  102.0  0.0303   27.1  0.3169  -62.2
 1.400  0.7732 -152.1  10.381   99.6  0.0302   25.8  0.3039  -63.7
 1.500  0.7767 -154.9   9.777   97.4  0.0308   24.5  0.2925  -65.3
 1.600  0.7798 -157.5   9.224   95.3  0.0315   24.1  0.2826  -66.8
 1.700  0.7825 -159.9   8.709   93.4  0.0314   24.2  0.2735  -68.1
 1.800  0.7849 -162.2   8.250   91.5  0.0312   24.1  0.2651  -69.2
 1.900  0.7873 -164.2   7.848   89.8  0.0312   23.0  0.2583  -70.4
 2.000  0.7881 -166.0   7.474   88.1  0.0315   21.9  0.2524  -71.6
 2.100  0.7887 -167.9   7.130   86.6  0.0319   22.1  0.2466  -72.7
 2.200  0.7907 -169.6   6.820   85.1  0.0321   22.5  0.2416  -73.9
 2.300  0.7920 -171.1   6.530   83.7  0.0322   22.4  0.2380  -75.2
 2.400  0.7926 -172.5   6.259   82.4  0.0323   21.5  0.2346  -76.4
 2.500  0.7930 -173.9   6.021   81.1  0.0328   21.0  0.2315  -77.5
 2.600  0.7930 -175.3   5.802   79.7  0.0333   21.4  0.2287  -78.5
 2.700  0.7938 -176.7   5.587   78.4  0.0330   21.6  0.2261  -79.6
 2.800  0.7948 -177.9   5.385   77.1  0.0329   21.6  0.2242  -80.8
 2.900  0.7951 -179.1   5.200   75.9  0.0330   21.8  0.2224  -81.9
 3.000  0.7954  179.7   5.026   74.7  0.0330   22.1  0.2205  -83.1
 3.100  0.7957  178.6   4.863   73.6  0.0334   22.2  0.2191  -84.3
 3.200  0.7960  177.5   4.709   72.4  0.0337   22.5  0.2180  -85.5
 3.300  0.7960  176.5   4.564   71.3  0.0336   22.8  0.2165  -86.7
 3.400  0.7960  175.4   4.427   70.2  0.0331   22.4  0.2157  -88.2
 3.500  0.7963  174.4   4.295   69.1  0.0332   22.3  0.2157  -89.5
 3.600  0.7966  173.4   4.169   68.0  0.0337   22.6  0.2151  -90.7
 3.700  0.7966  172.6   4.052   67.0  0.0337   23.2  0.2145  -91.8
 3.800  0.7959  171.7   3.940   65.9  0.0337   24.3  0.2143  -92.8
 3.900  0.7955  170.8   3.838   64.9  0.0340   24.4  0.2147  -93.8
 4.000  0.7963  170.0   3.744   64.0  0.0340   24.4  0.2156  -95.0
 4.100  0.7971  169.1   3.649   63.0  0.0342   24.5  0.2160  -96.2
 4.200  0.7976  168.3   3.554   61.9  0.0344   24.1  0.2167  -97.5
 4.300  0.7980  167.6   3.465   60.9  0.0345   24.2  0.2176  -98.9
 4.400  0.7984  166.8   3.381   59.9  0.0347   24.9  0.2180 -100.3
 4.500  0.7990  165.9   3.302   59.0  0.0350   25.9  0.2184 -101.6
 4.600  0.7996  165.0   3.228   58.0  0.0355   26.1  0.2192 -102.9
 4.700  0.7994  164.2   3.154   57.1  0.0358   25.8  0.2199 -104.1
 4.800  0.7992  163.4   3.085   56.2  0.0359   25.9  0.2197 -105.3
 4.900  0.7997  162.6   3.020   55.3  0.0358   26.2  0.2202 -106.6
 5.000  0.8001  161.8   2.957   54.4  0.0356   26.3  0.2215 -107.9
 5.100  0.8002  161.2   2.894   53.4  0.0359   26.3  0.2223 -109.1
 5.200  0.8002  160.4   2.832   52.5  0.0365   26.7  0.2230 -110.2
 5.300  0.7999  159.8   2.772   51.6  0.0366   26.8  0.2245 -111.5
 5.400  0.7998  159.0   2.716   50.7  0.0365   25.9  0.2266 -112.8
 5.500  0.8003  158.4   2.665   49.8  0.0368   25.8  0.2286 -113.9
 5.600  0.8001  157.8   2.615   48.9  0.0370   26.7  0.2307 -115.1
 5.700  0.8000  157.0   2.563   48.0  0.0371   27.5  0.2324 -116.6
 5.800  0.8010  156.4   2.513   47.1  0.0374   26.9  0.2339 -118.0
 5.900  0.8012  155.8   2.468   46.2  0.0379   26.3  0.2352 -119.1
 6.000  0.8006  155.1   2.424   45.4  0.0376   27.1  0.2358 -120.3
 6.100  0.8007  154.4   2.380   44.5  0.0372   27.6  0.2374 -121.6
 6.200  0.8008  153.8   2.337   43.6  0.0376   26.7  0.2396 -122.8
 6.300  0.8008  153.1   2.296   42.7  0.0378   27.0  0.2413 -124.1
 6.400  0.8011  152.4   2.255   41.9  0.0380   28.3  0.2430 -125.3
 6.500  0.8017  151.7   2.215   41.1  0.0384   28.9  0.2448 -126.5
 6.600  0.8020  151.1   2.177   40.2  0.0387   28.5  0.2470 -127.7
 6.700  0.8021  150.5   2.142   39.4  0.0386   27.8  0.2495 -129.0
 6.800  0.8026  149.8   2.108   38.5  0.0386   28.0  0.2512 -130.3
 6.900  0.8028  149.3   2.070   37.7  0.0387   28.5  0.2527 -131.4
 7.000  0.8028  148.7   2.032   36.9  0.0387   28.6  0.2553 -132.4
 7.100  0.8032  148.1   1.996   36.1  0.0385   29.2  0.2576 -133.6
 7.200  0.8028  147.6   1.963   35.2  0.0386   29.4  0.2594 -134.9
 7.300  0.8017  147.0   1.935   34.5  0.0389   29.5  0.2613 -136.2
 7.400  0.8018  146.4   1.908   33.7  0.0391   30.4  0.2629 -137.4
 7.500  0.8030  145.9   1.879   32.9  0.0394   31.2  0.2649 -138.4
 7.600  0.8045  145.4   1.849   32.2  0.0400   30.8  0.2675 -139.5
 7.700  0.8063  144.8   1.822   31.5  0.0405   30.3  0.2697 -140.8
 7.800  0.8077  144.2   1.798   30.7  0.0402   31.3  0.2709 -142.2
 7.900  0.8090  143.6   1.774   29.8  0.0403   32.3  0.2723 -143.3
 8.000  0.8108  142.9   1.751   29.0  0.0409   32.2  0.2739 -144.2
 8.500  0.8093  139.5   1.626   24.8  0.0409   31.5  0.2854 -149.4
 9.000  0.8052  137.0   1.509   20.9  0.0415   32.6  0.2984 -154.6
 9.500  0.8045  134.2   1.418   17.1  0.0422   36.9  0.3103 -159.3
10.000  0.7995  131.9   1.318   13.4  0.0427   35.3  0.3208 -163.9
10.500  0.7917  129.6   1.238    9.7  0.0436   37.2  0.3372 -168.1
11.000  0.8049  127.8   1.166    6.7  0.0457   43.8  0.3496 -172.2
11.500  0.8027  125.4   1.108    3.3  0.0496   44.4  0.3635 -176.1
12.000  0.8026  123.6   1.044   -0.2  0.0541   45.4  0.3767 -179.6
!
!  f       NFmin   Gammaopt  rn/50
! GHz       dB    MAG  ANG    -
 0.450      1.40  0.19  180   0.12
 0.900      1.41  0.20  179   0.12
 1.500      1.46  0.25  179   0.10
 1.900      1.49  0.27 -179   0.11
 2.400      1.55  0.29 -176   0.11
 3.500      1.70  0.31 -173   0.11
 5.500      2.05  0.35 -163   0.12
 8.000      2.50  0.38 -152   0.19
10.000      2.86  0.45 -133   0.30
12.000      3.20  0.49 -121   0.51
!
! (c) 2012  Infineon Technologies AG, Munich
