! Infineon Technologies  Discrete & RF Semiconductors
! BFR740L3RH
! VCE =  2.0 V,  IC =  15 mA
! Common Emitter S-Parameters:                            May 2012
# GHz  S  MA  R  50
!  f         S11            S21            S12            S22
! GHz     MAG   ANG      MAG   ANG      MAG   ANG      MAG   ANG
 0.450  0.8481  -45.8  28.608  153.2  0.0254   70.6  0.9173  -29.6
 0.500  0.8353  -50.4  28.026  150.5  0.0261   66.4  0.8973  -32.3
 0.600  0.8213  -59.3  26.932  145.2  0.0291   59.4  0.8609  -37.9
 0.700  0.8114  -67.5  25.789  140.3  0.0329   54.7  0.8260  -43.1
 0.800  0.8013  -75.1  24.607  135.9  0.0357   50.2  0.7904  -48.0
 0.900  0.7925  -82.1  23.457  131.8  0.0383   46.4  0.7559  -52.5
 1.000  0.7843  -88.6  22.355  128.0  0.0407   44.0  0.7240  -56.7
 1.100  0.7775  -94.6  21.307  124.5  0.0426   41.7  0.6933  -60.6
 1.200  0.7712 -100.1  20.311  121.2  0.0441   39.6  0.6637  -64.3
 1.300  0.7644 -105.3  19.352  118.1  0.0455   37.6  0.6359  -67.8
 1.400  0.7581 -110.0  18.456  115.3  0.0471   35.6  0.6104  -71.0
 1.500  0.7534 -114.3  17.633  112.7  0.0483   33.6  0.5873  -74.3
 1.600  0.7505 -118.5  16.856  110.2  0.0492   31.9  0.5659  -77.3
 1.700  0.7464 -122.5  16.098  107.7  0.0499   30.3  0.5452  -80.0
 1.800  0.7414 -126.2  15.394  105.5  0.0505   29.0  0.5250  -82.6
 1.900  0.7385 -129.6  14.762  103.4  0.0511   27.7  0.5063  -85.1
 2.000  0.7356 -132.8  14.158  101.3  0.0519   26.1  0.4901  -87.6
 2.100  0.7325 -135.7  13.592   99.4  0.0522   25.3  0.4748  -89.9
 2.200  0.7302 -138.3  13.080   97.7  0.0524   24.7  0.4603  -92.0
 2.300  0.7278 -140.9  12.588   96.1  0.0534   23.5  0.4482  -94.2
 2.400  0.7254 -143.4  12.121   94.4  0.0535   22.4  0.4370  -96.4
 2.500  0.7231 -145.8  11.704   92.9  0.0529   21.6  0.4253  -98.4
 2.600  0.7211 -147.9  11.318   91.4  0.0533   20.7  0.4143 -100.2
 2.700  0.7195 -150.0  10.938   89.9  0.0541   19.7  0.4049 -102.0
 2.800  0.7177 -152.1  10.579   88.4  0.0546   19.3  0.3965 -103.8
 2.900  0.7162 -154.2  10.247   87.0  0.0542   19.1  0.3888 -105.7
 3.000  0.7149 -156.1   9.929   85.7  0.0540   18.5  0.3809 -107.4
 3.100  0.7139 -157.8   9.625   84.4  0.0548   17.5  0.3736 -109.0
 3.200  0.7134 -159.6   9.341   83.1  0.0555   16.7  0.3678 -110.7
 3.300  0.7125 -161.3   9.073   81.8  0.0551   16.3  0.3619 -112.4
 3.400  0.7110 -163.0   8.817   80.6  0.0546   15.7  0.3563 -114.1
 3.500  0.7093 -164.5   8.567   79.4  0.0547   15.0  0.3515 -115.7
 3.600  0.7081 -166.0   8.326   78.2  0.0547   14.6  0.3458 -117.3
 3.700  0.7073 -167.3   8.102   77.1  0.0546   14.3  0.3404 -118.8
 3.800  0.7064 -168.6   7.890   76.0  0.0548   14.1  0.3357 -120.1
 3.900  0.7058 -169.9   7.698   74.9  0.0552   13.8  0.3317 -121.2
 4.000  0.7060 -171.2   7.521   73.9  0.0554   13.7  0.3292 -122.3
 4.100  0.7066 -172.3   7.340   72.8  0.0549   13.6  0.3271 -123.7
 4.200  0.7074 -173.5   7.155   71.7  0.0548   13.4  0.3250 -125.0
 4.300  0.7079 -174.7   6.980   70.7  0.0553   12.9  0.3231 -126.4
 4.400  0.7078 -175.9   6.816   69.6  0.0558   12.6  0.3210 -127.8
 4.500  0.7074 -177.1   6.662   68.7  0.0557   12.6  0.3188 -129.1
 4.600  0.7070 -178.3   6.516   67.7  0.0555   12.0  0.3173 -130.5
 4.700  0.7064 -179.4   6.374   66.8  0.0553   11.3  0.3157 -132.0
 4.800  0.7057  179.4   6.242   65.9  0.0554   11.4  0.3129 -133.5
 4.900  0.7058  178.2   6.118   65.0  0.0556   11.4  0.3104 -134.8
 5.000  0.7067  177.2   5.995   64.0  0.0553   11.0  0.3088 -136.0
 5.100  0.7066  176.3   5.874   63.0  0.0549   10.5  0.3074 -137.1
 5.200  0.7059  175.3   5.752   62.1  0.0552   10.0  0.3061 -138.1
 5.300  0.7060  174.3   5.635   61.2  0.0552    9.6  0.3052 -139.2
 5.400  0.7064  173.5   5.528   60.3  0.0550    9.6  0.3049 -140.5
 5.500  0.7067  172.5   5.429   59.4  0.0551   10.2  0.3042 -141.6
 5.600  0.7070  171.6   5.329   58.5  0.0554   10.4  0.3033 -142.6
 5.700  0.7071  170.7   5.225   57.6  0.0550    9.7  0.3037 -143.9
 5.800  0.7074  169.8   5.125   56.7  0.0546    9.3  0.3041 -145.0
 5.900  0.7070  169.0   5.037   55.8  0.0548    9.0  0.3036 -146.1
 6.000  0.7071  168.2   4.951   55.0  0.0549    8.3  0.3033 -147.1
 6.100  0.7081  167.3   4.864   54.2  0.0547    7.8  0.3038 -148.2
 6.200  0.7083  166.5   4.781   53.3  0.0549    7.6  0.3044 -149.3
 6.300  0.7084  165.6   4.698   52.4  0.0552    7.9  0.3045 -150.3
 6.400  0.7087  164.8   4.619   51.6  0.0556    8.1  0.3044 -151.3
 6.500  0.7083  163.9   4.542   50.8  0.0558    7.9  0.3040 -152.5
 6.600  0.7083  163.1   4.466   50.0  0.0555    7.7  0.3045 -153.7
 6.700  0.7093  162.3   4.396   49.2  0.0548    7.4  0.3062 -154.8
 6.800  0.7106  161.5   4.327   48.3  0.0539    7.0  0.3070 -155.8
 6.900  0.7116  160.8   4.252   47.5  0.0537    7.0  0.3071 -156.8
 7.000  0.7119  160.1   4.177   46.7  0.0543    7.0  0.3080 -157.7
 7.100  0.7118  159.3   4.106   45.9  0.0543    7.0  0.3089 -158.7
 7.200  0.7119  158.6   4.042   45.1  0.0537    7.3  0.3096 -159.8
 7.300  0.7118  158.0   3.984   44.3  0.0534    7.1  0.3109 -160.9
 7.400  0.7124  157.3   3.928   43.5  0.0531    6.4  0.3118 -161.8
 7.500  0.7138  156.8   3.868   42.8  0.0532    6.4  0.3125 -162.7
 7.600  0.7159  156.1   3.808   42.2  0.0535    7.2  0.3135 -163.6
 7.700  0.7185  155.4   3.756   41.6  0.0533    7.6  0.3150 -164.8
 7.800  0.7209  154.6   3.711   40.8  0.0527    7.1  0.3163 -166.1
 7.900  0.7232  153.8   3.667   40.0  0.0527    6.8  0.3164 -167.1
 8.000  0.7253  153.0   3.623   39.2  0.0532    6.8  0.3156 -168.0
 8.500  0.7245  148.8   3.382   34.9  0.0519    5.2  0.3197 -172.3
 9.000  0.7231  145.6   3.147   31.2  0.0495    5.7  0.3242 -176.5
 9.500  0.7193  142.5   2.963   27.4  0.0491    6.2  0.3290  179.9
10.000  0.7143  139.4   2.767   23.8  0.0488    9.3  0.3325  176.3
10.500  0.7050  137.3   2.600   20.2  0.0462    7.3  0.3412  173.6
11.000  0.7227  135.4   2.461   17.5  0.0444   11.7  0.3497  170.2
11.500  0.7191  132.6   2.349   14.0  0.0467   15.8  0.3566  167.7
12.000  0.7185  130.3   2.226   10.7  0.0466   18.8  0.3664  165.1
!
!  f       NFmin   Gammaopt  rn/50
! GHz       dB    MAG  ANG    -
 0.450      0.72  0.11    6   0.11
 0.900      0.73  0.11   24   0.11
 1.500      0.75  0.13   46   0.10
 1.900      0.76  0.15   59   0.10
 2.400      0.78  0.16   69   0.10
 3.500      0.84  0.18   90   0.10
 5.500      0.99  0.22  120   0.09
 8.000      1.21  0.28  155   0.08
10.000      1.39  0.32 -176   0.07
12.000      1.57  0.35 -150   0.09
!
! (c) 2012  Infineon Technologies AG, Munich
