! Infineon Technologies  Discrete & RF Semiconductors
! BFR740L3RH
! VCE =  2.0 V,  IC =  45 mA
! Common Emitter S-Parameters:                            May 2012
# GHz  S  MA  R  50
!  f         S11            S21            S12            S22
! GHz     MAG   ANG      MAG   ANG      MAG   ANG      MAG   ANG
 0.450  0.6083 -102.2  16.385  136.7  0.0187   38.2  0.4577  -34.2
 0.500  0.6233 -108.1  15.653  133.5  0.0206   39.0  0.4391  -36.5
 0.600  0.6594 -118.1  14.310  127.3  0.0230   38.7  0.4063  -40.7
 0.700  0.6899 -126.1  13.085  121.9  0.0244   36.6  0.3783  -44.2
 0.800  0.7137 -132.7  11.990  117.2  0.0258   34.0  0.3534  -47.0
 0.900  0.7327 -138.3  11.034  113.2  0.0266   32.0  0.3321  -49.2
 1.000  0.7476 -143.1  10.198  109.6  0.0273   30.7  0.3148  -51.1
 1.100  0.7595 -147.2   9.464  106.4  0.0278   28.7  0.3001  -52.9
 1.200  0.7687 -150.7   8.814  103.4  0.0279   27.2  0.2869  -54.5
 1.300  0.7759 -154.0   8.230  100.8  0.0283   26.2  0.2754  -55.9
 1.400  0.7819 -156.9   7.714   98.3  0.0291   24.5  0.2659  -57.3
 1.500  0.7871 -159.4   7.262   96.1  0.0294   23.6  0.2579  -58.7
 1.600  0.7919 -161.8   6.850   94.0  0.0290   23.7  0.2510  -60.0
 1.700  0.7956 -164.0   6.469   92.0  0.0292   24.3  0.2447  -61.2
 1.800  0.7980 -166.0   6.127   90.1  0.0302   24.4  0.2389  -62.3
 1.900  0.8002 -167.9   5.825   88.3  0.0305   24.4  0.2344  -63.4
 2.000  0.8019 -169.6   5.546   86.6  0.0299   24.3  0.2307  -64.6
 2.100  0.8033 -171.2   5.291   85.0  0.0291   23.5  0.2264  -65.8
 2.200  0.8052 -172.7   5.062   83.5  0.0290   22.9  0.2228  -66.9
 2.300  0.8072 -174.1   4.847   82.1  0.0297   23.3  0.2207  -68.1
 2.400  0.8082 -175.5   4.646   80.7  0.0300   23.0  0.2187  -69.3
 2.500  0.8088 -176.7   4.467   79.4  0.0301   22.5  0.2169  -70.4
 2.600  0.8092 -178.0   4.302   78.0  0.0307   23.3  0.2153  -71.5
 2.700  0.8103 -179.2   4.143   76.7  0.0313   23.2  0.2139  -72.6
 2.800  0.8112  179.6   3.995   75.4  0.0315   22.6  0.2130  -73.8
 2.900  0.8116  178.4   3.858   74.1  0.0313   23.3  0.2120  -75.0
 3.000  0.8123  177.4   3.729   72.8  0.0312   23.8  0.2108  -76.2
 3.100  0.8129  176.3   3.606   71.7  0.0314   23.6  0.2101  -77.4
 3.200  0.8134  175.3   3.490   70.5  0.0316   23.6  0.2097  -78.7
 3.300  0.8137  174.3   3.382   69.3  0.0314   23.8  0.2091  -80.0
 3.400  0.8139  173.2   3.282   68.1  0.0316   23.2  0.2091  -81.5
 3.500  0.8142  172.3   3.184   67.0  0.0321   23.4  0.2095  -82.9
 3.600  0.8144  171.4   3.091   65.9  0.0322   24.9  0.2097  -84.2
 3.700  0.8149  170.6   3.003   64.8  0.0321   25.2  0.2101  -85.4
 3.800  0.8149  169.8   2.920   63.7  0.0323   24.4  0.2105  -86.8
 3.900  0.8146  168.9   2.844   62.6  0.0328   24.5  0.2111  -87.9
 4.000  0.8148  168.1   2.776   61.6  0.0329   24.9  0.2127  -89.0
 4.100  0.8156  167.4   2.706   60.6  0.0327   25.5  0.2138  -90.3
 4.200  0.8165  166.6   2.635   59.5  0.0328   26.3  0.2142  -91.8
 4.300  0.8165  165.8   2.569   58.4  0.0329   26.4  0.2150  -93.4
 4.400  0.8162  164.9   2.506   57.3  0.0329   25.9  0.2159  -94.8
 4.500  0.8163  164.2   2.447   56.3  0.0331   26.6  0.2166  -96.0
 4.600  0.8163  163.3   2.393   55.3  0.0334   27.0  0.2175  -97.4
 4.700  0.8166  162.5   2.338   54.4  0.0340   26.7  0.2185  -98.8
 4.800  0.8170  161.7   2.286   53.5  0.0345   27.0  0.2190 -100.1
 4.900  0.8174  160.9   2.237   52.5  0.0342   27.0  0.2199 -101.5
 5.000  0.8181  160.3   2.189   51.5  0.0342   26.9  0.2212 -102.8
 5.100  0.8187  159.6   2.143   50.5  0.0347   28.0  0.2226 -104.0
 5.200  0.8188  158.9   2.097   49.5  0.0352   28.5  0.2240 -105.2
 5.300  0.8183  158.2   2.052   48.6  0.0354   28.5  0.2256 -106.7
 5.400  0.8182  157.5   2.012   47.7  0.0359   28.9  0.2276 -108.0
 5.500  0.8188  156.8   1.974   46.8  0.0363   28.6  0.2294 -109.2
 5.600  0.8190  156.2   1.935   45.8  0.0364   28.7  0.2308 -110.5
 5.700  0.8188  155.6   1.896   44.9  0.0363   29.3  0.2325 -112.0
 5.800  0.8182  155.1   1.859   43.9  0.0360   29.3  0.2350 -113.6
 5.900  0.8177  154.5   1.826   43.0  0.0360   29.2  0.2367 -114.9
 6.000  0.8176  153.7   1.794   42.1  0.0364   29.4  0.2378 -116.0
 6.100  0.8181  153.0   1.760   41.2  0.0365   30.1  0.2397 -117.3
 6.200  0.8191  152.3   1.728   40.2  0.0366   30.6  0.2417 -118.6
 6.300  0.8194  151.7   1.698   39.3  0.0367   30.5  0.2436 -119.8
 6.400  0.8187  151.1   1.668   38.5  0.0367   30.4  0.2459 -121.2
 6.500  0.8184  150.4   1.638   37.6  0.0369   30.0  0.2481 -122.6
 6.600  0.8188  149.8   1.610   36.7  0.0370   30.0  0.2504 -123.8
 6.700  0.8197  149.1   1.584   35.8  0.0370   30.7  0.2527 -125.0
 6.800  0.8206  148.4   1.558   34.9  0.0373   31.1  0.2547 -126.3
 6.900  0.8204  147.9   1.529   34.1  0.0377   30.6  0.2565 -127.5
 7.000  0.8196  147.4   1.501   33.3  0.0374   30.9  0.2585 -128.7
 7.100  0.8191  146.9   1.475   32.4  0.0375   32.1  0.2607 -130.0
 7.200  0.8189  146.3   1.450   31.5  0.0382   31.8  0.2628 -131.3
 7.300  0.8185  145.7   1.429   30.7  0.0385   31.3  0.2651 -132.5
 7.400  0.8187  145.2   1.408   29.9  0.0385   32.0  0.2678 -133.7
 7.500  0.8205  144.7   1.387   29.0  0.0386   32.9  0.2701 -134.9
 7.600  0.8220  144.2   1.364   28.3  0.0387   33.8  0.2721 -136.1
 7.700  0.8228  143.6   1.344   27.6  0.0386   34.2  0.2742 -137.4
 7.800  0.8239  143.0   1.326   26.8  0.0388   34.1  0.2760 -138.8
 7.900  0.8245  142.4   1.309   25.8  0.0399   33.9  0.2781 -139.9
 8.000  0.8243  141.7   1.290   24.9  0.0414   33.6  0.2806 -140.6
 8.500  0.8242  138.5   1.198   20.6  0.0397   34.4  0.2922 -146.2
 9.000  0.8214  136.1   1.111   16.7  0.0410   37.2  0.3063 -151.7
 9.500  0.8197  133.2   1.041   12.8  0.0428   38.3  0.3183 -156.7
10.000  0.8158  130.9   0.968    8.8  0.0415   40.5  0.3309 -161.5
10.500  0.8086  128.7   0.905    5.0  0.0440   40.2  0.3467 -166.0
11.000  0.8189  127.0   0.850    1.9  0.0459   45.4  0.3604 -170.2
11.500  0.8182  124.6   0.807   -1.5  0.0507   46.7  0.3754 -174.7
12.000  0.8192  122.7   0.758   -5.1  0.0545   44.8  0.3905 -178.5
!
!  f       NFmin   Gammaopt  rn/50
! GHz       dB    MAG  ANG    -
 0.450      1.51  0.26  180   0.12
 0.900      1.55  0.26  180   0.11
 1.500      1.64  0.28  180   0.11
 1.900      1.72  0.29 -179   0.12
 2.400      1.83  0.31 -176   0.12
 3.500      2.12  0.34 -172   0.12
 5.500      2.68  0.43 -158   0.15
 8.000      3.35  0.46 -146   0.28
10.000      3.84  0.54 -130   0.47
12.000      4.29  0.57 -119   0.80
!
! (c) 2012  Infineon Technologies AG, Munich
