! Infineon Technologies  Discrete & RF Semiconductors
! BFR740L3RH
! VCE =  2.5 V,  IC =  35 mA
! Common Emitter S-Parameters:                            May 2012
# GHz  S  MA  R  50
!  f         S11            S21            S12            S22
! GHz     MAG   ANG      MAG   ANG      MAG   ANG      MAG   ANG
 0.450  0.7279  -73.5  35.224  142.6  0.0210   48.7  0.7993  -38.4
 0.500  0.7181  -79.2  33.955  139.5  0.0225   50.2  0.7698  -41.4
 0.600  0.7164  -90.1  31.605  133.5  0.0248   49.4  0.7159  -47.4
 0.700  0.7221  -99.6  29.357  128.2  0.0262   45.5  0.6670  -52.8
 0.800  0.7254 -107.7  27.245  123.5  0.0277   41.6  0.6224  -57.6
 0.900  0.7293 -114.7  25.336  119.4  0.0294   38.3  0.5819  -61.7
 1.000  0.7323 -121.0  23.621  115.7  0.0305   35.7  0.5455  -65.4
 1.100  0.7347 -126.4  22.088  112.4  0.0311   33.5  0.5130  -68.8
 1.200  0.7368 -131.2  20.705  109.4  0.0316   31.8  0.4840  -72.0
 1.300  0.7381 -135.5  19.437  106.6  0.0324   30.7  0.4581  -74.7
 1.400  0.7389 -139.5  18.296  104.1  0.0327   29.4  0.4355  -77.2
 1.500  0.7396 -143.0  17.284  101.8  0.0326   28.3  0.4158  -79.8
 1.600  0.7408 -146.2  16.357   99.6  0.0331   27.2  0.3981  -82.2
 1.700  0.7413 -149.2  15.486   97.5  0.0342   25.5  0.3818  -84.3
 1.800  0.7417 -152.0  14.696   95.6  0.0351   24.8  0.3662  -86.2
 1.900  0.7427 -154.5  13.997   93.8  0.0350   25.3  0.3525  -88.2
 2.000  0.7427 -156.7  13.347   92.1  0.0350   25.8  0.3408  -90.1
 2.100  0.7422 -158.8  12.747   90.5  0.0354   25.2  0.3291  -91.8
 2.200  0.7428 -160.8  12.210   89.0  0.0354   24.5  0.3185  -93.5
 2.300  0.7433 -162.7  11.705   87.6  0.0353   23.9  0.3105  -95.2
 2.400  0.7433 -164.4  11.232   86.3  0.0352   22.8  0.3031  -96.8
 2.500  0.7430 -166.1  10.810   85.0  0.0353   22.8  0.2952  -98.4
 2.600  0.7421 -167.7  10.419   83.7  0.0354   23.9  0.2875  -99.7
 2.700  0.7419 -169.3  10.039   82.4  0.0356   23.3  0.2815 -101.0
 2.800  0.7427 -170.7   9.685   81.1  0.0366   22.7  0.2772 -102.5
 2.900  0.7432 -172.2   9.361   79.9  0.0371   23.5  0.2726 -103.9
 3.000  0.7433 -173.5   9.053   78.7  0.0367   24.4  0.2672 -105.1
 3.100  0.7431 -174.8   8.760   77.6  0.0364   23.8  0.2630 -106.5
 3.200  0.7431 -176.1   8.485   76.5  0.0369   22.7  0.2604 -108.0
 3.300  0.7434 -177.4   8.226   75.3  0.0376   23.2  0.2572 -109.4
 3.400  0.7427 -178.6   7.984   74.2  0.0377   23.4  0.2537 -110.9
 3.500  0.7414 -179.7   7.749   73.2  0.0372   22.5  0.2507 -112.3
 3.600  0.7413  179.2   7.524   72.1  0.0369   22.6  0.2477 -113.6
 3.700  0.7417  178.2   7.314   71.1  0.0375   23.7  0.2451 -114.8
 3.800  0.7414  177.2   7.114   70.1  0.0377   23.6  0.2427 -115.8
 3.900  0.7411  176.2   6.932   69.2  0.0371   22.6  0.2409 -116.6
 4.000  0.7412  175.3   6.766   68.2  0.0375   22.5  0.2402 -117.4
 4.100  0.7418  174.4   6.598   67.2  0.0384   23.5  0.2397 -118.6
 4.200  0.7432  173.5   6.428   66.2  0.0387   24.3  0.2394 -119.8
 4.300  0.7440  172.7   6.266   65.3  0.0385   24.1  0.2397 -121.1
 4.400  0.7443  171.8   6.113   64.3  0.0386   23.6  0.2397 -122.4
 4.500  0.7448  170.9   5.970   63.4  0.0389   23.4  0.2387 -123.5
 4.600  0.7450  169.9   5.838   62.6  0.0388   23.3  0.2383 -124.8
 4.700  0.7452  169.0   5.709   61.7  0.0387   23.7  0.2378 -126.2
 4.800  0.7453  168.2   5.588   60.9  0.0388   24.3  0.2361 -127.6
 4.900  0.7454  167.3   5.473   60.1  0.0391   24.4  0.2351 -128.9
 5.000  0.7461  166.4   5.358   59.1  0.0394   24.0  0.2350 -129.9
 5.100  0.7467  165.6   5.247   58.2  0.0396   23.8  0.2349 -130.8
 5.200  0.7469  164.8   5.137   57.3  0.0398   24.1  0.2353 -131.6
 5.300  0.7471  164.1   5.030   56.5  0.0401   25.0  0.2357 -132.8
 5.400  0.7474  163.4   4.933   55.6  0.0404   25.0  0.2363 -133.9
 5.500  0.7475  162.7   4.841   54.8  0.0405   24.0  0.2373 -134.8
 5.600  0.7475  161.9   4.749   53.9  0.0404   23.7  0.2384 -135.8
 5.700  0.7478  161.2   4.655   53.1  0.0402   24.2  0.2395 -137.2
 5.800  0.7485  160.6   4.566   52.2  0.0406   24.2  0.2406 -138.4
 5.900  0.7490  160.0   4.486   51.4  0.0411   24.1  0.2414 -139.3
 6.000  0.7484  159.3   4.408   50.6  0.0413   24.6  0.2417 -140.3
 6.100  0.7482  158.5   4.329   49.7  0.0416   24.5  0.2430 -141.3
 6.200  0.7490  157.7   4.252   48.9  0.0419   24.3  0.2447 -142.4
 6.300  0.7497  157.0   4.177   48.1  0.0415   24.9  0.2453 -143.5
 6.400  0.7498  156.4   4.105   47.4  0.0409   24.7  0.2459 -144.6
 6.500  0.7501  155.6   4.037   46.6  0.0414   24.7  0.2472 -145.7
 6.600  0.7510  154.9   3.969   45.7  0.0422   24.9  0.2490 -146.6
 6.700  0.7520  154.3   3.906   44.9  0.0424   24.3  0.2511 -147.6
 6.800  0.7530  153.6   3.843   44.1  0.0421   24.0  0.2524 -148.7
 6.900  0.7535  153.0   3.775   43.3  0.0417   24.4  0.2534 -149.7
 7.000  0.7535  152.4   3.707   42.6  0.0419   24.9  0.2550 -150.5
 7.100  0.7530  151.8   3.644   41.8  0.0421   25.1  0.2567 -151.5
 7.200  0.7528  151.2   3.587   41.0  0.0421   25.0  0.2589 -152.7
 7.300  0.7526  150.7   3.535   40.3  0.0423   25.1  0.2604 -153.8
 7.400  0.7532  150.1   3.484   39.5  0.0423   25.4  0.2614 -154.7
 7.500  0.7559  149.6   3.430   38.8  0.0419   25.3  0.2634 -155.6
 7.600  0.7585  149.1   3.377   38.2  0.0423   25.5  0.2651 -156.6
 7.700  0.7602  148.5   3.331   37.6  0.0431   26.0  0.2665 -157.9
 7.800  0.7617  147.9   3.289   36.8  0.0436   25.7  0.2679 -159.2
 7.900  0.7630  147.2   3.249   36.0  0.0438   25.9  0.2683 -160.1
 8.000  0.7644  146.3   3.210   35.2  0.0437   27.2  0.2681 -160.8
 8.500  0.7653  142.7   2.991   31.1  0.0425   26.1  0.2766 -165.3
 9.000  0.7619  139.8   2.783   27.4  0.0433   26.4  0.2853 -169.2
 9.500  0.7610  137.0   2.617   23.7  0.0423   26.8  0.2945 -173.1
10.000  0.7558  134.5   2.443   20.1  0.0442   29.6  0.3003 -176.5
10.500  0.7455  132.5   2.292   16.5  0.0438   29.4  0.3136 -179.4
11.000  0.7614  130.6   2.172   13.8  0.0448   35.5  0.3236  176.7
11.500  0.7593  128.1   2.071   10.4  0.0488   36.9  0.3339  173.7
12.000  0.7584  126.2   1.958    6.9  0.0504   38.0  0.3471  171.3
!
!  f       NFmin   Gammaopt  rn/50
! GHz       dB    MAG  ANG    -
 0.450      1.30  0.15  179   0.12
 0.900      1.31  0.15  177   0.12
 1.500      1.33  0.16  175   0.11
 1.900      1.34  0.17  174   0.11
 2.400      1.37  0.18  175   0.11
 3.500      1.44  0.19  176   0.11
 5.500      1.61  0.25  180   0.10
 8.000      1.88  0.31 -164   0.12
10.000      2.10  0.33 -150   0.16
12.000      2.33  0.41 -128   0.26
!
! (c) 2012  Infineon Technologies AG, Munich
