! Infineon Technologies  Discrete & RF Semiconductors
! BFR843EL3
! VCE =  0.5 V,  IC =  4.0 mA
! Common Emitter S-Parameters:                            Aug 2013
# GHz  S  MA  R  50
!  f         S11            S21            S12            S22
! GHz     MAG   ANG      MAG   ANG      MAG   ANG      MAG   ANG
 0.030  0.6767  -20.5   9.936  169.4  0.0549   32.9  0.7067  -20.1
 0.040  0.6184  -20.3   9.543  170.0  0.0594   27.1  0.6447  -19.8
 0.050  0.5760  -20.8   9.358  171.1  0.0594   35.2  0.6053  -18.4
 0.060  0.5525  -16.9   9.105  171.3  0.0701   20.6  0.5811  -18.0
 0.070  0.5365  -16.8   9.002  171.9  0.0663   17.6  0.5646  -16.8
 0.080  0.5268  -15.9   8.912  172.4  0.0669   15.5  0.5525  -16.1
 0.090  0.5161  -15.1   8.879  172.5  0.0663   13.4  0.5434  -15.5
 0.100  0.5101  -14.7   8.829  172.7  0.0674   12.3  0.5392  -15.1
 0.110  0.5049  -14.0   8.805  172.7  0.0669   12.0  0.5323  -14.5
 0.120  0.5015  -13.8   8.795  172.8  0.0671   10.3  0.5287  -14.4
 0.130  0.4977  -13.5   8.770  172.7  0.0690    9.2  0.5257  -14.2
 0.140  0.4957  -13.3   8.762  172.7  0.0679    9.4  0.5232  -14.2
 0.150  0.4980  -13.4   8.728  172.8  0.0691    8.2  0.5206  -14.2
 0.200  0.4895  -13.2   8.682  172.0  0.0683    7.9  0.5171  -14.6
 0.250  0.4835  -14.2   8.694  171.0  0.0695    7.0  0.5115  -15.5
 0.300  0.4845  -14.9   8.666  169.7  0.0681    6.2  0.5089  -16.9
 0.350  0.4810  -15.8   8.617  168.6  0.0691    5.7  0.5098  -18.8
 0.400  0.4824  -17.4   8.591  167.3  0.0692    5.4  0.5095  -20.4
 0.450  0.4814  -19.0   8.581  166.1  0.0691    5.6  0.5087  -22.3
 0.500  0.4788  -20.0   8.555  164.6  0.0688    5.0  0.5072  -24.5
 0.600  0.4786  -23.4   8.520  162.0  0.0702    5.5  0.5077  -28.2
 0.700  0.4784  -26.4   8.425  159.4  0.0708    5.1  0.5052  -32.1
 0.800  0.4753  -29.5   8.350  156.5  0.0711    6.0  0.5068  -36.0
 0.900  0.4766  -32.9   8.267  154.1  0.0726    5.0  0.5054  -39.9
 1.000  0.4722  -36.0   8.202  151.4  0.0734    5.6  0.5076  -43.8
 1.100  0.4738  -39.3   8.107  148.9  0.0740    5.3  0.5060  -47.7
 1.200  0.4710  -42.6   8.018  146.2  0.0755    4.8  0.5061  -51.5
 1.300  0.4704  -45.3   7.893  143.7  0.0762    5.0  0.5049  -55.2
 1.400  0.4712  -48.3   7.789  141.3  0.0772    5.1  0.5068  -58.7
 1.500  0.4708  -51.6   7.691  138.8  0.0772    4.5  0.5076  -62.4
 1.600  0.4687  -54.4   7.582  136.4  0.0778    3.6  0.5079  -65.4
 1.700  0.4679  -57.3   7.469  134.0  0.0789    4.1  0.5072  -69.3
 1.800  0.4660  -60.1   7.348  131.7  0.0808    3.3  0.5096  -72.5
 1.900  0.4652  -62.8   7.211  129.3  0.0807    2.8  0.5087  -75.5
 2.000  0.4667  -65.4   7.097  127.2  0.0813    3.0  0.5100  -78.8
 2.100  0.4646  -68.7   6.979  124.9  0.0819    1.9  0.5096  -82.1
 2.200  0.4625  -71.3   6.864  122.7  0.0821    1.9  0.5114  -84.9
 2.300  0.4618  -73.8   6.753  120.7  0.0831    0.9  0.5085  -87.8
 2.400  0.4622  -76.6   6.635  118.5  0.0830   -0.0  0.5104  -90.7
 2.500  0.4623  -78.4   6.499  116.7  0.0842   -0.6  0.5107  -93.4
 2.600  0.4622  -81.2   6.388  114.6  0.0861   -1.2  0.5130  -96.0
 2.700  0.4592  -83.3   6.261  112.7  0.0849   -1.8  0.5133  -98.5
 2.800  0.4608  -86.0   6.172  110.7  0.0851   -2.5  0.5143 -101.0
 2.900  0.4594  -88.2   6.057  108.9  0.0858   -3.0  0.5134 -103.6
 3.000  0.4602  -90.5   5.945  107.0  0.0858   -3.7  0.5148 -105.8
 3.100  0.4629  -92.4   5.840  105.2  0.0856   -4.9  0.5153 -108.0
 3.200  0.4620  -94.7   5.727  103.4  0.0865   -4.8  0.5180 -110.3
 3.300  0.4609  -97.0   5.621  101.5  0.0861   -6.0  0.5184 -112.7
 3.400  0.4629  -99.2   5.529   99.9  0.0859   -7.5  0.5197 -114.7
 3.500  0.4613 -101.2   5.435   98.2  0.0866   -7.3  0.5187 -116.8
 3.600  0.4606 -103.0   5.331   96.6  0.0867   -8.4  0.5194 -119.0
 3.700  0.4622 -105.0   5.231   94.9  0.0864   -9.0  0.5194 -120.8
 3.800  0.4629 -106.6   5.136   93.2  0.0862   -9.5  0.5218 -122.6
 3.900  0.4645 -108.3   5.045   91.7  0.0849  -10.0  0.5208 -124.4
 4.000  0.4640 -110.4   4.970   90.0  0.0862  -11.2  0.5236 -126.3
 4.100  0.4662 -112.2   4.882   88.5  0.0862  -11.5  0.5239 -127.9
 4.200  0.4679 -114.0   4.794   86.9  0.0860  -12.1  0.5270 -129.7
 4.300  0.4705 -115.7   4.697   85.4  0.0847  -13.1  0.5292 -131.4
 4.400  0.4708 -117.4   4.612   83.9  0.0854  -13.0  0.5299 -133.0
 4.500  0.4724 -119.2   4.527   82.5  0.0852  -14.2  0.5313 -134.7
 4.600  0.4723 -120.9   4.465   81.1  0.0842  -14.1  0.5332 -136.2
 4.700  0.4729 -122.7   4.382   79.6  0.0842  -15.4  0.5352 -137.9
 4.800  0.4743 -124.3   4.320   78.3  0.0849  -16.2  0.5355 -139.5
 4.900  0.4747 -125.6   4.237   76.9  0.0828  -16.3  0.5354 -141.0
 5.000  0.4762 -127.1   4.171   75.6  0.0834  -17.1  0.5380 -142.3
 5.100  0.4787 -128.5   4.094   74.1  0.0828  -18.0  0.5387 -143.7
 5.200  0.4800 -130.1   4.039   72.8  0.0823  -18.9  0.5413 -145.1
 5.300  0.4812 -131.5   3.972   71.5  0.0818  -18.9  0.5424 -146.3
 5.400  0.4821 -133.0   3.911   70.2  0.0810  -19.5  0.5453 -147.8
 5.500  0.4849 -134.3   3.841   68.9  0.0810  -20.1  0.5459 -149.2
 5.600  0.4858 -135.7   3.782   67.5  0.0806  -20.3  0.5480 -150.5
 5.700  0.4869 -137.0   3.708   66.3  0.0799  -21.2  0.5497 -151.6
 5.800  0.4891 -138.6   3.655   65.1  0.0792  -22.8  0.5524 -152.8
 5.900  0.4912 -139.8   3.601   63.8  0.0780  -22.0  0.5543 -154.1
 6.000  0.4931 -141.2   3.549   62.5  0.0781  -23.1  0.5551 -155.3
 6.100  0.4955 -142.4   3.484   61.3  0.0773  -23.4  0.5588 -156.7
 6.200  0.4971 -143.7   3.428   60.0  0.0766  -23.9  0.5596 -157.8
 6.300  0.4989 -145.0   3.375   58.9  0.0759  -25.0  0.5622 -159.0
 6.400  0.5001 -146.2   3.332   57.7  0.0759  -25.5  0.5634 -159.9
 6.500  0.5012 -147.4   3.276   56.5  0.0756  -26.0  0.5655 -161.1
 6.600  0.5046 -148.6   3.231   55.4  0.0743  -26.4  0.5683 -162.2
 6.700  0.5061 -149.8   3.180   54.3  0.0735  -27.1  0.5696 -163.4
 6.800  0.5096 -151.0   3.127   53.0  0.0720  -28.2  0.5714 -164.6
 6.900  0.5117 -152.2   3.081   51.9  0.0723  -28.2  0.5741 -165.6
 7.000  0.5126 -153.3   3.039   50.9  0.0705  -28.9  0.5754 -166.8
 7.100  0.5156 -154.5   2.990   49.7  0.0709  -29.3  0.5773 -167.6
 7.200  0.5167 -155.7   2.951   48.5  0.0698  -29.9  0.5797 -168.7
 7.300  0.5184 -156.8   2.899   47.3  0.0694  -29.9  0.5826 -169.6
 7.400  0.5214 -157.7   2.854   46.3  0.0679  -30.6  0.5849 -170.7
 7.500  0.5233 -158.9   2.809   45.5  0.0671  -31.1  0.5875 -171.7
 7.600  0.5267 -160.0   2.774   44.4  0.0669  -31.8  0.5892 -172.6
 7.700  0.5290 -161.4   2.747   43.3  0.0663  -31.8  0.5920 -173.6
 7.800  0.5301 -162.6   2.709   42.3  0.0658  -31.7  0.5932 -174.6
 7.900  0.5324 -163.5   2.673   41.4  0.0653  -32.5  0.5965 -175.7
 8.000  0.5350 -164.6   2.636   40.2  0.0650  -33.2  0.5982 -176.7
 8.500  0.5412 -169.9   2.462   34.6  0.0605  -36.5  0.6068  178.6
 9.000  0.5467 -174.6   2.294   29.5  0.0550  -39.9  0.6128  174.4
 9.500  0.5550 -179.1   2.139   24.7  0.0500  -42.0  0.6222  170.4
10.000  0.5605  176.7   1.998   20.1  0.0427  -44.9  0.6290  166.7
10.500  0.5689  173.1   1.884   15.8  0.0366  -43.5  0.6388  163.3
11.000  0.5772  169.4   1.750   11.1  0.0307  -42.2  0.6476  159.9
11.500  0.5860  166.2   1.641    6.7  0.0249  -35.4  0.6565  156.8
12.000  0.6009  163.0   1.546    2.7  0.0209  -22.9  0.6677  154.0
!
!  f       NFmin   Gammaopt  rn/50
! GHz       dB    MAG  ANG    -
 0.450      0.93  0.24    7   0.20
 0.900      0.92  0.24   22   0.19
 1.500      0.96  0.25   37   0.17
 1.900      0.98  0.25   41   0.17
 2.400      1.01  0.26   53   0.16
 3.500      1.07  0.26   74   0.15
 5.500      1.16  0.29  111   0.12
 8.000      1.28  0.36  152   0.08
10.000      1.37  0.43  202   0.05
!
! (c) 2013  Infineon Technologies AG, Munich
