! Infineon Technologies  Discrete & RF Semiconductors
! BFR840L3RHESD
! VCE =  0.5 V,  IC =  15 mA
! Common Emitter S-Parameters:                            Jun 2012
# GHz  S  MA  R  50
!  f         S11            S21            S12            S22
! GHz     MAG   ANG      MAG   ANG      MAG   ANG      MAG   ANG
 0.150  0.8232  -12.6  26.478  172.7  0.0067   77.4  0.9109   -8.2
 0.200  0.8216  -16.6  26.406  170.1  0.0085   77.2  0.9082  -11.4
 0.250  0.8189  -20.6  26.284  167.6  0.0105   75.8  0.9038  -14.4
 0.300  0.8151  -24.4  26.120  165.0  0.0125   74.0  0.8979  -17.3
 0.350  0.8107  -28.2  25.922  162.6  0.0145   72.0  0.8909  -20.2
 0.400  0.8059  -31.9  25.696  160.1  0.0165   70.0  0.8828  -22.9
 0.450  0.8007  -35.6  25.448  157.7  0.0185   68.1  0.8740  -25.7
 0.500  0.7953  -39.1  25.180  155.4  0.0204   66.3  0.8645  -28.3
 0.600  0.7843  -45.9  24.599  150.9  0.0241   62.8  0.8440  -33.5
 0.700  0.7733  -52.5  23.970  146.7  0.0274   59.7  0.8223  -38.4
 0.800  0.7627  -58.6  23.306  142.7  0.0304   56.8  0.7999  -43.2
 0.900  0.7524  -64.5  22.618  138.9  0.0330   54.1  0.7774  -47.8
 1.000  0.7424  -70.1  21.914  135.4  0.0354   51.6  0.7550  -52.1
 1.100  0.7329  -75.3  21.205  132.1  0.0374   49.2  0.7330  -56.3
 1.200  0.7237  -80.3  20.498  128.9  0.0393   46.9  0.7114  -60.3
 1.300  0.7148  -85.0  19.803  126.0  0.0410   44.8  0.6904  -64.2
 1.400  0.7064  -89.5  19.125  123.1  0.0425   42.9  0.6701  -67.9
 1.500  0.6984  -93.8  18.470  120.5  0.0438   41.0  0.6506  -71.4
 1.600  0.6908  -97.8  17.840  117.9  0.0451   39.2  0.6319  -74.8
 1.700  0.6838 -101.7  17.237  115.5  0.0462   37.5  0.6141  -78.1
 1.800  0.6772 -105.3  16.661  113.1  0.0472   35.9  0.5972  -81.2
 1.900  0.6711 -108.8  16.110  110.9  0.0480   34.4  0.5812  -84.2
 2.000  0.6654 -112.2  15.584  108.8  0.0488   32.9  0.5661  -87.1
 2.100  0.6601 -115.3  15.080  106.8  0.0494   31.5  0.5519  -89.8
 2.200  0.6552 -118.3  14.597  104.9  0.0500   30.1  0.5386  -92.5
 2.300  0.6506 -121.2  14.135  103.1  0.0505   28.8  0.5262  -95.1
 2.400  0.6462 -123.9  13.695  101.4  0.0510   27.6  0.5146  -97.6
 2.500  0.6421 -126.5  13.276   99.7  0.0514   26.5  0.5039 -100.0
 2.600  0.6383 -128.9  12.880   98.1  0.0519   25.6  0.4940 -102.3
 2.700  0.6348 -131.3  12.508   96.6  0.0523   24.7  0.4848 -104.6
 2.800  0.6318 -133.5  12.157   95.0  0.0527   23.9  0.4763 -106.7
 2.900  0.6294 -135.8  11.821   93.5  0.0530   23.0  0.4682 -108.8
 3.000  0.6280 -138.1  11.485   91.9  0.0530   21.8  0.4605 -110.7
 3.100  0.6222 -140.4  11.124   90.6  0.0531   21.6  0.4512 -113.1
 3.200  0.6199 -142.4  10.829   89.3  0.0533   21.0  0.4446 -115.1
 3.300  0.6179 -144.3  10.547   88.0  0.0535   20.5  0.4384 -117.0
 3.400  0.6162 -146.2  10.278   86.7  0.0536   19.9  0.4327 -118.9
 3.500  0.6147 -148.0  10.020   85.4  0.0537   19.4  0.4274 -120.7
 3.600  0.6135 -149.7   9.772   84.1  0.0538   19.0  0.4225 -122.5
 3.700  0.6124 -151.4   9.534   82.9  0.0539   18.5  0.4180 -124.2
 3.800  0.6116 -153.0   9.305   81.7  0.0540   18.1  0.4138 -126.0
 3.900  0.6109 -154.6   9.085   80.5  0.0541   17.7  0.4099 -127.6
 4.000  0.6103 -156.2   8.873   79.3  0.0542   17.3  0.4064 -129.3
 4.100  0.6099 -157.7   8.668   78.2  0.0543   16.9  0.4031 -130.9
 4.200  0.6094 -159.2   8.472   77.1  0.0544   16.5  0.4001 -132.5
 4.300  0.6091 -160.6   8.282   76.0  0.0545   16.2  0.3973 -134.0
 4.400  0.6088 -162.0   8.100   74.9  0.0546   15.9  0.3947 -135.6
 4.500  0.6085 -163.4   7.925   73.9  0.0547   15.5  0.3923 -137.1
 4.600  0.6082 -164.8   7.757   72.9  0.0548   15.2  0.3901 -138.6
 4.700  0.6080 -166.2   7.594   71.9  0.0548   15.0  0.3880 -140.1
 4.800  0.6078 -167.5   7.438   70.9  0.0549   14.7  0.3860 -141.5
 4.900  0.6077 -168.8   7.288   69.9  0.0549   14.4  0.3841 -143.0
 5.000  0.6076 -170.1   7.144   68.9  0.0549   14.1  0.3824 -144.4
 5.100  0.6076 -171.3   7.004   68.0  0.0549   13.9  0.3808 -145.8
 5.200  0.6076 -172.5   6.869   67.0  0.0549   13.6  0.3794 -147.1
 5.300  0.6077 -173.7   6.739   66.1  0.0548   13.3  0.3781 -148.5
 5.400  0.6078 -174.9   6.613   65.1  0.0548   13.1  0.3769 -149.8
 5.500  0.6079 -176.0   6.490   64.2  0.0547   12.8  0.3759 -151.1
 5.600  0.6080 -177.1   6.372   63.3  0.0547   12.6  0.3750 -152.3
 5.700  0.6081 -178.2   6.257   62.3  0.0546   12.4  0.3743 -153.6
 5.800  0.6082 -179.2   6.145   61.4  0.0546   12.1  0.3737 -154.8
 5.900  0.6083  179.7   6.036   60.5  0.0545   11.9  0.3733 -156.0
 6.000  0.6084  178.7   5.930   59.6  0.0545   11.7  0.3730 -157.2
 6.100  0.6086  177.7   5.828   58.7  0.0544   11.5  0.3728 -158.3
 6.200  0.6088  176.7   5.728   57.9  0.0544   11.2  0.3727 -159.5
 6.300  0.6090  175.7   5.631   57.0  0.0543   11.0  0.3728 -160.6
 6.400  0.6094  174.8   5.536   56.2  0.0542   10.8  0.3729 -161.7
 6.500  0.6098  173.8   5.445   55.3  0.0542   10.6  0.3732 -162.8
 6.600  0.6104  172.9   5.357   54.5  0.0541   10.4  0.3735 -163.9
 6.700  0.6112  172.0   5.271   53.7  0.0540   10.2  0.3740 -165.0
 6.800  0.6121  171.2   5.189   52.9  0.0540   10.1  0.3745 -166.0
 6.900  0.6131  170.3   5.109   52.1  0.0539   10.0  0.3751 -167.0
 7.000  0.6143  169.5   5.032   51.3  0.0538    9.9  0.3757 -168.1
 7.100  0.6156  168.7   4.957   50.6  0.0538    9.8  0.3764 -169.1
 7.200  0.6171  167.8   4.884   49.8  0.0537    9.8  0.3772 -170.1
 7.300  0.6186  167.0   4.813   49.0  0.0536    9.7  0.3780 -171.2
 7.400  0.6201  166.1   4.742   48.2  0.0535    9.6  0.3787 -172.3
 7.500  0.6216  165.2   4.670   47.4  0.0534    9.5  0.3795 -173.4
 7.600  0.6230  164.2   4.598   46.6  0.0533    9.4  0.3802 -174.5
 7.700  0.6243  163.2   4.523   45.7  0.0532    9.2  0.3808 -175.8
 7.800  0.6254  162.1   4.445   44.8  0.0531    9.1  0.3814 -177.0
 7.900  0.6262  160.9   4.364   43.7  0.0529    8.9  0.3819 -178.4
 8.000  0.6267  159.6   4.279   42.6  0.0526    8.6  0.3824 -179.8
 8.500  0.6267  156.1   4.050   39.6  0.0517    8.2  0.3837  176.4
 9.000  0.6255  152.4   3.808   36.1  0.0505    8.0  0.3853  172.4
 9.500  0.6235  148.9   3.566   32.4  0.0489    8.6  0.3877  168.5
10.000  0.6219  145.6   3.338   28.7  0.0475   10.1  0.3910  164.9
10.500  0.6213  142.6   3.136   25.3  0.0464   12.4  0.3952  161.6
11.000  0.6222  140.1   2.959   22.0  0.0463   15.4  0.4003  158.8
11.500  0.6242  137.7   2.806   18.9  0.0472   18.2  0.4064  156.2
12.000  0.6270  135.6   2.671   15.8  0.0489   20.2  0.4137  153.8
!
!  f       NFmin   Gammaopt  rn/50
! GHz       dB    MAG  ANG    -
 0.450      0.91  0.14   10   0.14
 0.900      0.94  0.14   16   0.14
 1.500      0.96  0.15   25   0.14
 1.900      0.97  0.16   37   0.14
 2.400      0.98  0.17   48   0.14
 3.500      0.96  0.17   60   0.13
 4.000      0.97  0.19   68   0.13
 5.000      1.00  0.21   75   0.13
 5.500      0.99  0.22   83   0.13
 6.000      1.01  0.22   94   0.13
 7.000      1.04  0.22  105   0.12
 8.000      1.10  0.23  116   0.12
 9.000      1.12  0.23  128   0.11
10.000      1.19  0.22  135   0.11
11.000      1.24  0.22  151   0.11
12.000      1.30  0.23  170   0.11
!
! (c) 2012  Infineon Technologies AG, Munich
