! Infineon Technologies  Discrete & RF Semiconductors
! BFR843EL3
! VCE =  2.0 V,  IC =  10 mA
! Common Emitter S-Parameters:                            Aug 2013
# GHz  S  MA  R  50
!  f         S11            S21            S12            S22
! GHz     MAG   ANG      MAG   ANG      MAG   ANG      MAG   ANG
 0.030  0.4815  -39.5  16.941  164.3  0.0478   32.2  0.5350  -36.5
 0.040  0.4036  -40.9  15.955  165.6  0.0498   23.4  0.4559  -36.7
 0.050  0.3676  -41.3  15.485  167.0  0.0488    4.5  0.4071  -36.8
 0.060  0.3095  -39.0  14.918  168.1  0.0463   18.5  0.3701  -34.1
 0.070  0.2935  -37.8  14.690  169.0  0.0527   15.2  0.3446  -32.5
 0.080  0.2786  -36.2  14.516  169.8  0.0545   13.5  0.3270  -31.4
 0.090  0.2654  -34.9  14.424  170.2  0.0537   11.8  0.3160  -29.9
 0.100  0.2571  -33.7  14.330  170.6  0.0543   11.1  0.3072  -28.8
 0.110  0.2480  -32.6  14.263  170.8  0.0539   10.2  0.2983  -27.9
 0.120  0.2436  -31.9  14.232  171.0  0.0545    8.8  0.2929  -26.5
 0.130  0.2378  -31.2  14.183  171.0  0.0548    7.5  0.2887  -26.2
 0.140  0.2341  -30.4  14.157  171.2  0.0551    7.3  0.2853  -25.5
 0.150  0.2351  -29.4  14.108  171.3  0.0553    5.9  0.2832  -25.4
 0.200  0.2240  -28.8  14.031  170.8  0.0555    5.1  0.2748  -24.1
 0.250  0.2198  -29.5  13.998  170.0  0.0570    5.4  0.2693  -23.8
 0.300  0.2178  -30.5  13.960  168.9  0.0551    4.8  0.2666  -25.0
 0.350  0.2142  -31.8  13.909  167.9  0.0562    3.5  0.2654  -26.5
 0.400  0.2180  -33.8  13.864  166.7  0.0550    3.4  0.2660  -28.2
 0.450  0.2194  -36.3  13.808  165.5  0.0563    4.2  0.2645  -29.8
 0.500  0.2166  -37.6  13.764  164.1  0.0558    3.0  0.2647  -32.1
 0.600  0.2234  -43.0  13.691  161.5  0.0559    2.1  0.2691  -36.0
 0.700  0.2269  -47.8  13.587  158.9  0.0566    0.9  0.2686  -40.1
 0.800  0.2284  -52.6  13.438  156.1  0.0568    2.2  0.2707  -44.4
 0.900  0.2367  -57.4  13.299  153.6  0.0581    2.5  0.2734  -48.9
 1.000  0.2408  -61.6  13.150  151.0  0.0571    1.3  0.2783  -53.2
 1.100  0.2485  -66.2  13.004  148.4  0.0565    1.7  0.2816  -57.0
 1.200  0.2531  -71.1  12.859  145.8  0.0566    2.0  0.2849  -61.2
 1.300  0.2566  -74.9  12.674  143.3  0.0577    1.4  0.2869  -65.0
 1.400  0.2650  -78.5  12.504  140.8  0.0569    1.0  0.2910  -68.8
 1.500  0.2731  -82.8  12.326  138.4  0.0574    0.7  0.2958  -72.6
 1.600  0.2772  -85.7  12.138  136.0  0.0579    0.8  0.3006  -75.4
 1.700  0.2863  -89.1  11.945  133.6  0.0583    0.8  0.3060  -79.4
 1.800  0.2901  -92.7  11.760  131.2  0.0587   -0.2  0.3100  -82.7
 1.900  0.2961  -95.8  11.542  128.9  0.0592   -0.3  0.3134  -85.7
 2.000  0.3033  -98.6  11.354  126.7  0.0588   -0.1  0.3173  -89.1
 2.100  0.3098 -102.0  11.136  124.4  0.0591   -0.7  0.3208  -92.3
 2.200  0.3130 -105.2  10.945  122.3  0.0592   -0.5  0.3255  -94.9
 2.300  0.3192 -107.4  10.748  120.2  0.0593   -1.3  0.3259  -97.8
 2.400  0.3255 -110.9  10.561  118.1  0.0596   -1.7  0.3327 -100.5
 2.500  0.3272 -112.5  10.363  116.2  0.0592   -2.0  0.3346 -103.1
 2.600  0.3341 -115.4  10.171  114.2  0.0596   -2.1  0.3395 -105.4
 2.700  0.3364 -117.2   9.961  112.3  0.0594   -2.4  0.3430 -107.8
 2.800  0.3433 -119.6   9.797  110.3  0.0596   -4.0  0.3467 -110.2
 2.900  0.3463 -121.6   9.609  108.5  0.0591   -3.3  0.3494 -112.4
 3.000  0.3517 -124.1   9.427  106.7  0.0585   -3.5  0.3532 -114.3
 3.100  0.3568 -125.7   9.266  104.9  0.0591   -4.1  0.3558 -116.5
 3.200  0.3612 -127.7   9.084  103.1  0.0591   -4.2  0.3621 -118.6
 3.300  0.3651 -129.7   8.900  101.3  0.0589   -4.8  0.3638 -120.6
 3.400  0.3706 -131.8   8.736   99.6  0.0592   -5.5  0.3677 -122.6
 3.500  0.3732 -133.5   8.579   97.9  0.0588   -5.4  0.3700 -124.5
 3.600  0.3743 -135.2   8.422   96.4  0.0587   -6.4  0.3720 -126.3
 3.700  0.3779 -136.9   8.268   94.7  0.0587   -7.3  0.3740 -127.8
 3.800  0.3812 -138.2   8.112   93.1  0.0574   -6.8  0.3778 -129.5
 3.900  0.3841 -139.5   7.958   91.6  0.0577   -7.3  0.3792 -130.9
 4.000  0.3879 -141.2   7.825   89.9  0.0576   -6.8  0.3828 -132.6
 4.100  0.3919 -142.7   7.680   88.5  0.0575   -7.8  0.3864 -133.7
 4.200  0.3965 -143.9   7.542   86.9  0.0570   -7.9  0.3924 -135.3
 4.300  0.3999 -145.4   7.391   85.4  0.0572   -8.5  0.3944 -136.9
 4.400  0.4048 -146.8   7.247   84.0  0.0573   -8.5  0.3981 -138.3
 4.500  0.4085 -148.3   7.114   82.6  0.0559   -8.1  0.4013 -140.2
 4.600  0.4106 -149.6   6.996   81.3  0.0562   -8.3  0.4049 -141.4
 4.700  0.4143 -151.3   6.869   79.9  0.0561   -8.9  0.4076 -142.8
 4.800  0.4164 -152.4   6.765   78.5  0.0554   -9.8  0.4109 -144.1
 4.900  0.4182 -153.8   6.651   77.2  0.0554   -9.6  0.4116 -145.4
 5.000  0.4213 -154.8   6.540   75.9  0.0542  -10.5  0.4157 -146.5
 5.100  0.4240 -156.0   6.423   74.5  0.0541  -10.3  0.4177 -147.9
 5.200  0.4278 -156.9   6.317   73.2  0.0538  -10.7  0.4213 -149.0
 5.300  0.4287 -158.1   6.219   71.9  0.0541  -10.4  0.4232 -150.0
 5.400  0.4336 -159.2   6.116   70.7  0.0533  -11.7  0.4280 -151.2
 5.500  0.4348 -160.4   6.018   69.4  0.0527  -11.3  0.4302 -152.4
 5.600  0.4384 -161.2   5.914   68.1  0.0529  -11.7  0.4340 -153.5
 5.700  0.4409 -162.4   5.807   66.9  0.0516  -12.1  0.4377 -154.5
 5.800  0.4428 -163.6   5.711   65.7  0.0528  -12.0  0.4402 -155.7
 5.900  0.4467 -164.6   5.632   64.5  0.0509  -12.8  0.4436 -156.8
 6.000  0.4492 -165.5   5.539   63.2  0.0509  -13.1  0.4466 -157.7
 6.100  0.4520 -166.6   5.449   62.1  0.0510  -12.5  0.4495 -158.8
 6.200  0.4535 -167.7   5.356   60.8  0.0494  -12.6  0.4529 -159.8
 6.300  0.4564 -168.6   5.279   59.7  0.0498  -12.5  0.4559 -160.9
 6.400  0.4588 -169.5   5.199   58.6  0.0495  -12.5  0.4583 -161.8
 6.500  0.4613 -170.5   5.116   57.4  0.0484  -13.3  0.4626 -162.8
 6.600  0.4655 -171.2   5.038   56.4  0.0484  -12.8  0.4650 -163.9
 6.700  0.4672 -172.2   4.965   55.2  0.0482  -13.2  0.4688 -164.8
 6.800  0.4713 -173.1   4.882   54.1  0.0479  -13.1  0.4726 -165.8
 6.900  0.4739 -174.1   4.813   53.0  0.0479  -14.1  0.4758 -166.9
 7.000  0.4761 -174.9   4.742   52.0  0.0467  -13.3  0.4780 -167.9
 7.100  0.4784 -175.9   4.665   50.8  0.0465  -13.9  0.4806 -168.5
 7.200  0.4824 -176.7   4.600   49.6  0.0458  -13.7  0.4837 -169.5
 7.300  0.4836 -177.7   4.521   48.5  0.0457  -14.6  0.4881 -170.4
 7.400  0.4861 -178.3   4.451   47.5  0.0446  -13.0  0.4910 -171.3
 7.500  0.4897 -179.1   4.381   46.8  0.0442  -12.9  0.4952 -172.4
 7.600  0.4943  180.0   4.323   45.8  0.0439  -13.5  0.4985 -173.4
 7.700  0.4982  178.9   4.276   44.8  0.0440  -13.1  0.5030 -174.2
 7.800  0.4992  177.9   4.225   43.9  0.0443  -12.8  0.5043 -175.1
 7.900  0.5034  177.1   4.173   43.0  0.0431  -13.7  0.5071 -176.0
 8.000  0.5061  176.1   4.125   41.9  0.0432  -13.6  0.5107 -177.1
 8.500  0.5111  171.5   3.857   36.3  0.0407  -14.7  0.5223  178.5
 9.000  0.5162  167.8   3.596   31.2  0.0362  -14.0  0.5304  174.6
 9.500  0.5223  164.4   3.351   26.5  0.0341  -11.8  0.5436  171.1
10.000  0.5275  161.1   3.135   22.1  0.0287   -7.5  0.5529  167.5
10.500  0.5347  158.4   2.960   17.8  0.0284   -0.9  0.5663  164.6
11.000  0.5430  155.7   2.760   13.3  0.0262    7.2  0.5774  161.4
11.500  0.5484  153.2   2.598    8.8  0.0259   20.1  0.5885  158.5
12.000  0.5605  151.4   2.449    5.1  0.0289   27.5  0.5996  156.3
!
!  f       NFmin   Gammaopt  rn/50
! GHz       dB    MAG  ANG    -
 0.450      0.89  0.06   61   0.12
 0.900      0.91  0.07   70   0.12
 1.500      0.93  0.08   78   0.12
 1.900      0.95  0.08   82   0.12
 2.400      0.96  0.09   94   0.12
 3.500      0.99  0.11  109   0.11
 5.500      1.05  0.17  142   0.11
 8.000      1.12  0.28  177   0.07
10.000      1.17  0.40  212   0.06
!
! (c) 2013  Infineon Technologies AG, Munich
