! Infineon Technologies  Discrete & RF Semiconductors
! BFR843EL3
! VCE =  0.5 V,  IC =  7.0 mA
! Common Emitter S-Parameters:                            Aug 2013
# GHz  S  MA  R  50
!  f         S11            S21            S12            S22
! GHz     MAG   ANG      MAG   ANG      MAG   ANG      MAG   ANG
 0.030  0.5636  -31.1  14.170  166.7  0.0477   32.2  0.6030  -29.7
 0.040  0.4916  -30.9  13.461  167.6  0.0535   25.6  0.5293  -29.3
 0.050  0.4586  -33.6  13.130  168.8  0.0678   14.5  0.4876  -29.0
 0.060  0.4036  -27.3  12.698  169.5  0.0529   12.1  0.4491  -27.0
 0.070  0.3890  -27.3  12.528  170.2  0.0573   15.7  0.4274  -25.6
 0.080  0.3770  -25.9  12.387  170.8  0.0586   14.1  0.4125  -24.8
 0.090  0.3630  -24.7  12.329  171.1  0.0584   12.4  0.4020  -23.8
 0.100  0.3575  -24.1  12.248  171.4  0.0587   10.8  0.3950  -23.1
 0.110  0.3479  -23.1  12.204  171.5  0.0601   10.0  0.3866  -22.3
 0.120  0.3449  -22.7  12.186  171.6  0.0592    9.1  0.3826  -21.4
 0.130  0.3384  -22.0  12.147  171.5  0.0606    9.8  0.3795  -21.2
 0.140  0.3366  -21.5  12.126  171.6  0.0599    8.8  0.3751  -21.0
 0.150  0.3390  -21.1  12.076  171.7  0.0614    8.5  0.3720  -20.8
 0.200  0.3281  -21.2  12.025  171.0  0.0604    7.3  0.3669  -20.9
 0.250  0.3242  -22.1  11.990  170.0  0.0595    5.7  0.3619  -21.8
 0.300  0.3227  -22.4  11.955  168.6  0.0607    5.6  0.3592  -23.1
 0.350  0.3178  -24.5  11.923  167.5  0.0593    6.2  0.3581  -25.3
 0.400  0.3219  -26.2  11.860  166.2  0.0593    4.5  0.3595  -27.3
 0.450  0.3206  -28.4  11.822  164.8  0.0606    4.2  0.3606  -29.6
 0.500  0.3198  -29.7  11.754  163.3  0.0615    4.5  0.3597  -32.1
 0.600  0.3229  -34.4  11.701  160.5  0.0622    4.6  0.3625  -36.5
 0.700  0.3248  -38.9  11.596  157.7  0.0617    4.7  0.3616  -41.3
 0.800  0.3239  -42.7  11.443  154.8  0.0626    5.0  0.3651  -45.7
 0.900  0.3280  -47.6  11.307  152.1  0.0638    4.2  0.3680  -50.7
 1.000  0.3294  -51.4  11.144  149.4  0.0637    4.6  0.3727  -55.1
 1.100  0.3322  -55.8  11.014  146.7  0.0647    4.7  0.3754  -59.5
 1.200  0.3336  -60.2  10.849  143.9  0.0653    4.4  0.3781  -64.0
 1.300  0.3352  -63.9  10.685  141.4  0.0667    4.2  0.3799  -68.1
 1.400  0.3411  -67.3  10.504  138.8  0.0661    4.0  0.3848  -72.1
 1.500  0.3454  -71.6  10.344  136.2  0.0671    3.8  0.3888  -76.2
 1.600  0.3477  -74.7  10.142  133.8  0.0672    3.5  0.3928  -79.4
 1.700  0.3519  -78.4   9.978  131.3  0.0690    3.2  0.3977  -83.4
 1.800  0.3537  -81.8   9.785  128.9  0.0692    3.2  0.4011  -86.9
 1.900  0.3551  -85.1   9.597  126.5  0.0689    2.1  0.4046  -90.2
 2.000  0.3613  -88.1   9.410  124.3  0.0691    1.6  0.4079  -93.7
 2.100  0.3649  -91.2   9.212  122.1  0.0696    1.6  0.4110  -96.8
 2.200  0.3657  -94.2   9.023  119.9  0.0712    1.4  0.4146  -99.8
 2.300  0.3692  -97.1   8.865  117.8  0.0705    0.4  0.4159 -102.7
 2.400  0.3724 -100.2   8.682  115.7  0.0711   -0.2  0.4200 -105.7
 2.500  0.3731 -102.2   8.512  113.9  0.0713    0.7  0.4229 -108.4
 2.600  0.3789 -105.0   8.331  111.8  0.0715   -0.2  0.4262 -110.8
 2.700  0.3793 -107.2   8.152  110.0  0.0711   -0.7  0.4306 -113.4
 2.800  0.3836 -109.7   7.992  108.0  0.0725   -1.9  0.4329 -115.7
 2.900  0.3857 -112.0   7.840  106.2  0.0717   -2.4  0.4353 -117.9
 3.000  0.3890 -114.3   7.670  104.4  0.0725   -3.0  0.4384 -120.2
 3.100  0.3921 -116.6   7.545  102.6  0.0722   -2.9  0.4390 -122.3
 3.200  0.3966 -118.5   7.373  100.8  0.0730   -3.6  0.4461 -124.4
 3.300  0.3978 -120.8   7.221   99.1  0.0724   -4.4  0.4478 -126.6
 3.400  0.4014 -122.7   7.072   97.5  0.0721   -4.8  0.4495 -128.6
 3.500  0.4038 -124.7   6.946   95.8  0.0723   -5.8  0.4512 -130.4
 3.600  0.4042 -126.4   6.803   94.3  0.0724   -6.2  0.4536 -132.4
 3.700  0.4065 -128.6   6.680   92.7  0.0708   -6.5  0.4550 -134.1
 3.800  0.4092 -129.7   6.543   91.0  0.0713   -6.6  0.4569 -135.9
 3.900  0.4121 -131.4   6.417   89.6  0.0705   -7.8  0.4578 -137.4
 4.000  0.4141 -132.9   6.295   88.0  0.0711   -8.2  0.4613 -138.8
 4.100  0.4187 -134.8   6.182   86.5  0.0705   -8.8  0.4638 -140.4
 4.200  0.4217 -136.3   6.060   85.0  0.0710   -8.9  0.4680 -141.8
 4.300  0.4252 -137.9   5.944   83.5  0.0703   -9.1  0.4698 -143.4
 4.400  0.4285 -139.4   5.820   82.2  0.0712   -9.2  0.4729 -145.0
 4.500  0.4315 -141.2   5.712   80.8  0.0693  -10.1  0.4755 -146.7
 4.600  0.4332 -142.3   5.608   79.5  0.0700  -10.3  0.4779 -147.8
 4.700  0.4351 -144.1   5.507   78.1  0.0707  -11.0  0.4803 -149.3
 4.800  0.4385 -145.5   5.420   76.8  0.0695  -10.5  0.4834 -150.7
 4.900  0.4383 -146.8   5.328   75.5  0.0694  -11.4  0.4833 -152.0
 5.000  0.4418 -148.1   5.235   74.2  0.0690  -13.0  0.4858 -153.1
 5.100  0.4435 -149.3   5.137   72.8  0.0680  -12.7  0.4873 -154.4
 5.200  0.4469 -150.3   5.049   71.7  0.0691  -12.8  0.4899 -155.6
 5.300  0.4487 -151.8   4.966   70.4  0.0674  -13.6  0.4922 -156.7
 5.400  0.4514 -153.0   4.884   69.1  0.0679  -13.9  0.4950 -157.9
 5.500  0.4537 -154.2   4.807   67.9  0.0671  -14.0  0.4976 -159.1
 5.600  0.4571 -155.3   4.725   66.6  0.0669  -14.8  0.4990 -160.3
 5.700  0.4584 -156.5   4.633   65.5  0.0655  -14.9  0.5024 -161.3
 5.800  0.4604 -157.8   4.555   64.3  0.0651  -15.3  0.5051 -162.4
 5.900  0.4642 -158.8   4.488   63.1  0.0653  -16.2  0.5078 -163.4
 6.000  0.4652 -160.0   4.418   61.9  0.0645  -16.4  0.5093 -164.5
 6.100  0.4686 -161.0   4.343   60.8  0.0646  -16.9  0.5125 -165.6
 6.200  0.4701 -162.1   4.272   59.6  0.0633  -15.5  0.5139 -166.6
 6.300  0.4727 -163.2   4.204   58.5  0.0632  -17.2  0.5170 -167.8
 6.400  0.4752 -164.2   4.142   57.4  0.0634  -17.2  0.5195 -168.6
 6.500  0.4767 -165.2   4.070   56.3  0.0622  -18.0  0.5216 -169.6
 6.600  0.4808 -166.3   4.014   55.2  0.0616  -18.1  0.5246 -170.5
 6.700  0.4827 -167.2   3.952   54.2  0.0615  -17.8  0.5262 -171.4
 6.800  0.4860 -168.2   3.890   53.0  0.0610  -18.2  0.5285 -172.4
 6.900  0.4885 -169.3   3.831   51.9  0.0601  -18.5  0.5312 -173.4
 7.000  0.4902 -170.2   3.775   50.9  0.0599  -19.1  0.5333 -174.4
 7.100  0.4939 -171.1   3.709   49.8  0.0587  -19.3  0.5355 -175.2
 7.200  0.4944 -172.2   3.662   48.6  0.0591  -19.4  0.5379 -176.0
 7.300  0.4972 -173.1   3.594   47.6  0.0583  -20.4  0.5404 -176.9
 7.400  0.4993 -174.0   3.545   46.6  0.0568  -19.9  0.5442 -177.9
 7.500  0.5032 -174.7   3.486   45.9  0.0563  -20.6  0.5473 -178.9
 7.600  0.5067 -175.8   3.442   44.9  0.0563  -19.6  0.5495 -179.7
 7.700  0.5111 -176.8   3.400   43.9  0.0569  -20.1  0.5527  179.5
 7.800  0.5119 -178.0   3.360   43.0  0.0562  -20.3  0.5549  178.5
 7.900  0.5135 -178.7   3.315   42.1  0.0556  -21.4  0.5566  177.6
 8.000  0.5184 -179.9   3.279   41.1  0.0554  -22.2  0.5595  176.7
 8.500  0.5227  175.5   3.062   35.7  0.0518  -24.2  0.5684  172.4
 9.000  0.5277  171.5   2.857   30.8  0.0472  -25.5  0.5748  168.6
 9.500  0.5353  167.9   2.660   26.2  0.0437  -25.3  0.5845  165.4
10.000  0.5390  164.3   2.495   21.9  0.0380  -23.0  0.5924  161.9
10.500  0.5474  161.4   2.354   17.7  0.0355  -19.4  0.6019  158.9
11.000  0.5538  158.3   2.199   13.3  0.0317  -16.6  0.6105  155.9
11.500  0.5604  155.9   2.065    9.0  0.0286   -7.9  0.6191  153.2
12.000  0.5749  153.3   1.953    5.2  0.0282    2.3  0.6305  150.8
!
!  f       NFmin   Gammaopt  rn/50
! GHz       dB    MAG  ANG    -
 0.450      0.87  0.11   24   0.12
 0.900      0.89  0.12   40   0.13
 1.500      0.92  0.13   53   0.13
 1.900      0.93  0.13   59   0.13
 2.400      0.95  0.14   71   0.12
 3.500      0.99  0.15   90   0.12
 5.500      1.06  0.20  127   0.11
 8.000      1.14  0.29  166   0.08
10.000      1.21  0.41  208   0.05
!
! (c) 2013  Infineon Technologies AG, Munich
