! Infineon Technologies  Discrete & RF Semiconductors
! BFR840L3RHESD
! VCE =  1.8 V,  IC =  14 mA
! Common Emitter S-Parameters:                            Jun 2012
# GHz  S  MA  R  50
!  f         S11            S21            S12            S22
! GHz     MAG   ANG      MAG   ANG      MAG   ANG      MAG   ANG
 0.150  0.8634   -7.9  27.843  174.4  0.0046   85.8  0.9919   -5.5
 0.200  0.8624  -10.4  27.785  172.6  0.0059   86.6  0.9905   -7.6
 0.250  0.8604  -13.0  27.699  170.9  0.0072   85.2  0.9878   -9.6
 0.300  0.8577  -15.6  27.588  169.0  0.0085   83.0  0.9840  -11.6
 0.350  0.8544  -18.1  27.459  167.2  0.0099   80.6  0.9794  -13.5
 0.400  0.8507  -20.7  27.312  165.4  0.0113   78.2  0.9740  -15.4
 0.450  0.8467  -23.2  27.151  163.6  0.0127   76.1  0.9680  -17.2
 0.500  0.8425  -25.7  26.978  161.8  0.0141   74.1  0.9616  -19.0
 0.600  0.8335  -30.5  26.598  158.3  0.0168   70.8  0.9476  -22.6
 0.700  0.8241  -35.3  26.180  154.9  0.0195   68.1  0.9326  -26.1
 0.800  0.8144  -39.9  25.727  151.6  0.0220   65.8  0.9170  -29.5
 0.900  0.8045  -44.4  25.245  148.4  0.0242   63.7  0.9009  -32.8
 1.000  0.7944  -48.8  24.737  145.4  0.0263   61.6  0.8844  -36.0
 1.100  0.7841  -53.1  24.209  142.4  0.0282   59.6  0.8676  -39.1
 1.200  0.7738  -57.3  23.666  139.5  0.0299   57.5  0.8504  -42.2
 1.300  0.7635  -61.4  23.114  136.8  0.0315   55.3  0.8329  -45.2
 1.400  0.7533  -65.3  22.557  134.0  0.0330   53.1  0.8152  -48.1
 1.500  0.7432  -69.2  21.999  131.4  0.0345   51.0  0.7973  -50.9
 1.600  0.7333  -73.0  21.445  128.9  0.0359   48.9  0.7793  -53.6
 1.700  0.7236  -76.7  20.897  126.4  0.0373   47.0  0.7613  -56.3
 1.800  0.7141  -80.3  20.357  124.0  0.0386   45.3  0.7435  -58.8
 1.900  0.7049  -83.8  19.825  121.7  0.0398   43.7  0.7260  -61.3
 2.000  0.6959  -87.2  19.304  119.5  0.0409   42.3  0.7089  -63.7
 2.100  0.6872  -90.4  18.793  117.4  0.0419   41.1  0.6923  -66.0
 2.200  0.6787  -93.5  18.294  115.3  0.0427   40.0  0.6763  -68.2
 2.300  0.6705  -96.5  17.810  113.4  0.0434   38.9  0.6609  -70.4
 2.400  0.6626  -99.3  17.342  111.6  0.0440   37.9  0.6462  -72.5
 2.500  0.6551 -102.1  16.894  109.8  0.0444   36.9  0.6321  -74.5
 2.600  0.6481 -104.7  16.467  108.0  0.0448   35.7  0.6187  -76.5
 2.700  0.6417 -107.3  16.063  106.3  0.0451   34.6  0.6060  -78.4
 2.800  0.6359 -109.8  15.678  104.6  0.0455   33.5  0.5939  -80.3
 2.900  0.6308 -112.4  15.306  102.9  0.0460   32.6  0.5824  -82.1
 3.000  0.6262 -115.1  14.932  101.2  0.0466   32.2  0.5715  -83.8
 3.100  0.6177 -117.5  14.533   99.7  0.0470   30.5  0.5583  -85.9
 3.200  0.6125 -119.8  14.188   98.2  0.0474   29.7  0.5478  -87.7
 3.300  0.6076 -122.0  13.855   96.7  0.0477   28.8  0.5378  -89.4
 3.400  0.6032 -124.1  13.536   95.3  0.0480   28.1  0.5283  -91.0
 3.500  0.5991 -126.2  13.228   93.9  0.0483   27.4  0.5194  -92.7
 3.600  0.5954 -128.3  12.931   92.5  0.0485   26.7  0.5109  -94.3
 3.700  0.5921 -130.2  12.644   91.1  0.0487   26.1  0.5028  -95.9
 3.800  0.5891 -132.2  12.367   89.8  0.0489   25.5  0.4952  -97.4
 3.900  0.5864 -134.0  12.099   88.5  0.0491   24.9  0.4879  -99.0
 4.000  0.5839 -135.9  11.839   87.2  0.0492   24.4  0.4810 -100.5
 4.100  0.5817 -137.7  11.588   86.0  0.0493   23.9  0.4745 -102.0
 4.200  0.5796 -139.4  11.346   84.8  0.0494   23.3  0.4682 -103.4
 4.300  0.5776 -141.1  11.111   83.6  0.0495   22.8  0.4622 -104.9
 4.400  0.5757 -142.8  10.885   82.5  0.0495   22.4  0.4564 -106.3
 4.500  0.5739 -144.5  10.666   81.3  0.0496   21.9  0.4507 -107.8
 4.600  0.5721 -146.1  10.454   80.2  0.0497   21.4  0.4453 -109.2
 4.700  0.5705 -147.7  10.251   79.1  0.0497   20.9  0.4401 -110.6
 4.800  0.5689 -149.3  10.054   78.0  0.0498   20.4  0.4351 -112.0
 4.900  0.5675 -150.9   9.864   77.0  0.0499   20.0  0.4303 -113.4
 5.000  0.5662 -152.4   9.681   75.9  0.0499   19.5  0.4257 -114.8
 5.100  0.5650 -153.9   9.504   74.9  0.0500   19.1  0.4214 -116.2
 5.200  0.5639 -155.3   9.332   73.8  0.0501   18.7  0.4173 -117.5
 5.300  0.5630 -156.7   9.166   72.8  0.0501   18.3  0.4134 -118.9
 5.400  0.5621 -158.1   9.004   71.8  0.0502   18.0  0.4097 -120.2
 5.500  0.5614 -159.5   8.847   70.8  0.0502   17.6  0.4063 -121.5
 5.600  0.5607 -160.8   8.695   69.8  0.0502   17.3  0.4031 -122.9
 5.700  0.5600 -162.1   8.546   68.8  0.0501   17.1  0.4002 -124.2
 5.800  0.5595 -163.3   8.401   67.8  0.0501   16.8  0.3974 -125.5
 5.900  0.5589 -164.6   8.260   66.8  0.0500   16.6  0.3948 -126.8
 6.000  0.5585 -165.8   8.122   65.9  0.0499   16.4  0.3923 -128.1
 6.100  0.5581 -167.0   7.988   64.9  0.0498   16.2  0.3901 -129.3
 6.200  0.5578 -168.2   7.857   64.0  0.0497   16.0  0.3879 -130.6
 6.300  0.5576 -169.4   7.730   63.1  0.0496   15.8  0.3860 -131.9
 6.400  0.5575 -170.5   7.606   62.1  0.0495   15.7  0.3842 -133.2
 6.500  0.5576 -171.6   7.486   61.2  0.0494   15.6  0.3825 -134.4
 6.600  0.5579 -172.7   7.369   60.4  0.0493   15.5  0.3810 -135.6
 6.700  0.5584 -173.8   7.256   59.5  0.0492   15.3  0.3797 -136.9
 6.800  0.5590 -174.8   7.147   58.6  0.0491   15.2  0.3784 -138.1
 6.900  0.5599 -175.8   7.042   57.8  0.0491   15.1  0.3773 -139.3
 7.000  0.5609 -176.8   6.939   57.0  0.0490   15.0  0.3762 -140.5
 7.100  0.5620 -177.8   6.840   56.2  0.0490   14.9  0.3752 -141.7
 7.200  0.5633 -178.8   6.743   55.4  0.0490   14.8  0.3742 -142.9
 7.300  0.5646 -179.8   6.648   54.5  0.0489   14.7  0.3732 -144.2
 7.400  0.5659  179.2   6.554   53.7  0.0489   14.5  0.3722 -145.4
 7.500  0.5672  178.1   6.460   52.9  0.0488   14.4  0.3711 -146.7
 7.600  0.5684  176.9   6.364   52.0  0.0487   14.2  0.3699 -148.1
 7.700  0.5693  175.6   6.265   51.0  0.0486   14.0  0.3686 -149.5
 7.800  0.5700  174.3   6.163   50.0  0.0484   13.7  0.3672 -151.0
 7.900  0.5704  172.8   6.055   49.0  0.0482   13.4  0.3656 -152.6
 8.000  0.5705  171.3   5.942   47.8  0.0479   13.2  0.3640 -154.3
 8.500  0.5693  167.2   5.636   44.5  0.0468   12.6  0.3600 -158.7
 9.000  0.5668  162.8   5.308   40.8  0.0453   12.4  0.3565 -163.5
 9.500  0.5636  158.7   4.977   36.9  0.0435   13.1  0.3544 -168.3
10.000  0.5611  154.9   4.663   33.0  0.0417   14.9  0.3538 -172.8
10.500  0.5599  151.7   4.382   29.4  0.0404   17.8  0.3548 -176.9
11.000  0.5602  148.8   4.137   26.0  0.0399   21.6  0.3574  179.6
11.500  0.5618  146.2   3.927   22.8  0.0405   25.2  0.3619  176.4
12.000  0.5645  143.9   3.741   19.6  0.0422   28.0  0.3686  173.5
!
!  f       NFmin   Gammaopt  rn/50
! GHz       dB    MAG  ANG    -
 0.450      0.86  0.20    6   0.14
 0.900      0.90  0.20   11   0.14
 1.500      0.91  0.21   21   0.14
 1.900      0.92  0.21   33   0.14
 2.400      0.93  0.22   43   0.14
 3.500      0.92  0.22   57   0.13
 4.000      0.94  0.22   64   0.13
 5.000      0.96  0.24   72   0.13
 5.500      0.96  0.24   80   0.12
 6.000      0.98  0.26   88   0.12
 7.000      1.01  0.25   99   0.12
 8.000      1.07  0.25  111   0.11
 9.000      1.10  0.25  123   0.11
10.000      1.16  0.24  129   0.11
11.000      1.21  0.24  146   0.11
12.000      1.28  0.24  167   0.11
!
! (c) 2012  Infineon Technologies AG, Munich
