! Infineon Technologies  Discrete & RF Semiconductors
! BFR840L3RHESD
! VCE =  1.0 V,  IC =  6.0 mA
! Common Emitter S-Parameters:                            Jun 2012
# GHz  S  MA  R  50
!  f         S11            S21            S12            S22
! GHz     MAG   ANG      MAG   ANG      MAG   ANG      MAG   ANG
 0.150  0.9442   -5.4  16.035  175.8  0.0047   83.1  0.9955   -4.4
 0.200  0.9441   -7.2  16.020  174.4  0.0062   80.2  0.9946   -6.0
 0.250  0.9431   -9.0  15.996  173.0  0.0079   78.7  0.9932   -7.5
 0.300  0.9414  -10.7  15.964  171.6  0.0096   77.8  0.9913   -9.1
 0.350  0.9391  -12.5  15.925  170.2  0.0113   77.1  0.9890  -10.6
 0.400  0.9364  -14.2  15.882  168.8  0.0130   76.5  0.9864  -12.1
 0.450  0.9334  -15.9  15.833  167.4  0.0147   75.9  0.9834  -13.5
 0.500  0.9302  -17.7  15.781  166.0  0.0164   75.3  0.9802  -15.0
 0.600  0.9235  -21.1  15.665  163.2  0.0197   73.9  0.9732  -17.9
 0.700  0.9166  -24.4  15.536  160.5  0.0228   72.3  0.9653  -20.7
 0.800  0.9096  -27.7  15.393  157.8  0.0256   70.4  0.9569  -23.5
 0.900  0.9026  -31.0  15.238  155.2  0.0283   68.4  0.9478  -26.3
 1.000  0.8955  -34.2  15.070  152.6  0.0309   66.3  0.9382  -29.0
 1.100  0.8881  -37.4  14.891  150.1  0.0334   64.2  0.9280  -31.7
 1.200  0.8804  -40.5  14.700  147.6  0.0358   62.1  0.9174  -34.4
 1.300  0.8723  -43.6  14.500  145.2  0.0382   60.1  0.9063  -37.0
 1.400  0.8639  -46.7  14.292  142.8  0.0404   58.1  0.8948  -39.6
 1.500  0.8551  -49.8  14.077  140.4  0.0427   56.2  0.8830  -42.2
 1.600  0.8460  -52.8  13.858  138.1  0.0448   54.4  0.8708  -44.7
 1.700  0.8366  -55.8  13.635  135.8  0.0468   52.6  0.8584  -47.2
 1.800  0.8271  -58.7  13.410  133.5  0.0488   50.9  0.8457  -49.6
 1.900  0.8176  -61.6  13.183  131.3  0.0506   49.2  0.8328  -52.0
 2.000  0.8081  -64.5  12.955  129.2  0.0523   47.5  0.8199  -54.3
 2.100  0.7986  -67.2  12.726  127.1  0.0539   45.9  0.8068  -56.6
 2.200  0.7893  -70.0  12.497  125.0  0.0554   44.2  0.7939  -58.8
 2.300  0.7800  -72.6  12.268  123.1  0.0568   42.6  0.7810  -61.0
 2.400  0.7709  -75.1  12.040  121.2  0.0582   40.9  0.7685  -63.1
 2.500  0.7619  -77.6  11.814  119.4  0.0594   39.4  0.7563  -65.2
 2.600  0.7531  -80.0  11.591  117.6  0.0606   37.9  0.7445  -67.2
 2.700  0.7446  -82.3  11.374  115.8  0.0617   36.5  0.7331  -69.2
 2.800  0.7365  -84.7  11.165  114.0  0.0626   35.2  0.7221  -71.2
 2.900  0.7291  -87.1  10.968  112.2  0.0632   33.9  0.7112  -73.1
 3.000  0.7225  -89.5  10.784  110.4  0.0633   32.6  0.6998  -74.8
 3.100  0.7124  -91.8  10.556  108.8  0.0648   31.3  0.6879  -77.0
 3.200  0.7048  -94.0  10.358  107.2  0.0654   30.1  0.6773  -78.8
 3.300  0.6976  -96.1  10.165  105.6  0.0661   29.0  0.6670  -80.6
 3.400  0.6907  -98.3   9.976  104.0  0.0666   27.8  0.6571  -82.4
 3.500  0.6841 -100.4   9.792  102.4  0.0671   26.8  0.6476  -84.2
 3.600  0.6780 -102.4   9.612  100.9  0.0676   25.8  0.6384  -85.9
 3.700  0.6722 -104.5   9.436   99.4  0.0680   24.8  0.6296  -87.6
 3.800  0.6667 -106.4   9.264   98.0  0.0684   23.8  0.6211  -89.3
 3.900  0.6615 -108.4   9.096   96.6  0.0688   22.9  0.6129  -90.9
 4.000  0.6566 -110.3   8.932   95.2  0.0691   22.0  0.6049  -92.5
 4.100  0.6519 -112.2   8.771   93.8  0.0694   21.1  0.5973  -94.1
 4.200  0.6474 -114.1   8.615   92.4  0.0697   20.2  0.5899  -95.7
 4.300  0.6430 -115.9   8.463   91.1  0.0700   19.4  0.5827  -97.3
 4.400  0.6387 -117.7   8.314   89.8  0.0703   18.5  0.5756  -98.8
 4.500  0.6344 -119.5   8.169   88.5  0.0705   17.7  0.5688 -100.4
 4.600  0.6303 -121.3   8.029   87.3  0.0707   16.9  0.5621 -101.9
 4.700  0.6264 -123.0   7.892   86.1  0.0708   16.0  0.5557 -103.4
 4.800  0.6225 -124.7   7.759   84.8  0.0709   15.2  0.5494 -104.9
 4.900  0.6189 -126.4   7.630   83.6  0.0710   14.4  0.5433 -106.4
 5.000  0.6155 -128.1   7.505   82.4  0.0710   13.6  0.5375 -107.9
 5.100  0.6123 -129.8   7.383   81.3  0.0710   12.9  0.5319 -109.3
 5.200  0.6093 -131.4   7.263   80.1  0.0709   12.1  0.5266 -110.8
 5.300  0.6065 -133.0   7.147   78.9  0.0708   11.4  0.5215 -112.2
 5.400  0.6040 -134.6   7.034   77.8  0.0707   10.7  0.5166 -113.6
 5.500  0.6015 -136.1   6.923   76.7  0.0706   10.0  0.5120 -115.0
 5.600  0.5992 -137.6   6.814   75.5  0.0704    9.3  0.5076 -116.4
 5.700  0.5970 -139.1   6.708   74.4  0.0703    8.6  0.5034 -117.8
 5.800  0.5948 -140.6   6.604   73.3  0.0701    8.0  0.4993 -119.2
 5.900  0.5927 -142.0   6.502   72.2  0.0699    7.4  0.4955 -120.5
 6.000  0.5907 -143.5   6.402   71.2  0.0697    6.8  0.4918 -121.9
 6.100  0.5888 -144.9   6.304   70.1  0.0695    6.2  0.4883 -123.2
 6.200  0.5870 -146.3   6.208   69.1  0.0692    5.6  0.4850 -124.5
 6.300  0.5853 -147.6   6.115   68.0  0.0690    5.1  0.4819 -125.9
 6.400  0.5838 -149.0   6.024   67.0  0.0688    4.6  0.4789 -127.2
 6.500  0.5825 -150.3   5.935   66.0  0.0685    4.0  0.4761 -128.5
 6.600  0.5815 -151.6   5.849   65.0  0.0683    3.5  0.4735 -129.8
 6.700  0.5808 -152.9   5.766   64.0  0.0680    3.0  0.4710 -131.0
 6.800  0.5803 -154.2   5.685   63.1  0.0678    2.6  0.4687 -132.3
 6.900  0.5801 -155.4   5.606   62.1  0.0676    2.1  0.4665 -133.5
 7.000  0.5801 -156.6   5.530   61.2  0.0673    1.6  0.4645 -134.8
 7.100  0.5802 -157.8   5.456   60.3  0.0671    1.2  0.4625 -136.0
 7.200  0.5805 -159.1   5.384   59.4  0.0669    0.7  0.4606 -137.3
 7.300  0.5808 -160.3   5.312   58.4  0.0667    0.3  0.4586 -138.5
 7.400  0.5810 -161.6   5.241   57.5  0.0664   -0.2  0.4566 -139.8
 7.500  0.5812 -162.9   5.169   56.6  0.0662   -0.7  0.4546 -141.1
 7.600  0.5811 -164.3   5.095   55.6  0.0659   -1.2  0.4524 -142.5
 7.700  0.5807 -165.7   5.019   54.5  0.0655   -1.7  0.4501 -144.0
 7.800  0.5800 -167.3   4.939   53.4  0.0650   -2.3  0.4476 -145.5
 7.900  0.5790 -169.0   4.855   52.2  0.0645   -3.0  0.4450 -147.1
 8.000  0.5777 -170.7   4.767   50.9  0.0638   -3.7  0.4424 -148.8
 8.500  0.5732 -175.4   4.526   47.3  0.0615   -5.7  0.4356 -153.4
 9.000  0.5684  179.5   4.269   43.3  0.0586   -7.6  0.4297 -158.5
 9.500  0.5640  174.7   4.009   39.0  0.0550   -9.1  0.4252 -163.5
10.000  0.5612  170.1   3.762   34.7  0.0510  -10.0  0.4226 -168.4
10.500  0.5600  166.1   3.540   30.7  0.0470   -9.6  0.4218 -172.8
11.000  0.5605  162.4   3.343   26.9  0.0434   -7.7  0.4226 -176.8
11.500  0.5624  159.1   3.171   23.4  0.0406   -4.5  0.4255  179.5
12.000  0.5658  156.2   3.018   19.9  0.0390   -0.5  0.4306  176.1
!
!  f       NFmin   Gammaopt  rn/50
! GHz       dB    MAG  ANG    -
 0.450      0.53  0.47    6   0.18
 0.900      0.57  0.47   11   0.18
 1.500      0.59  0.48   20   0.17
 1.900      0.60  0.48   29   0.17
 2.400      0.62  0.47   35   0.16
 3.500      0.62  0.48   47   0.15
 4.000      0.64  0.47   55   0.15
 5.000      0.68  0.47   64   0.14
 5.500      0.68  0.47   70   0.13
 6.000      0.70  0.46   79   0.13
 7.000      0.75  0.46   91   0.12
 8.000      0.81  0.43  100   0.11
 9.000      0.86  0.42  108   0.10
10.000      0.94  0.39  123   0.10
11.000      1.01  0.37  132   0.09
12.000      1.11  0.33  153   0.09
!
! (c) 2012  Infineon Technologies AG, Munich
