! Infineon Technologies  Discrete & RF Semiconductors
! BFR840L3RHESD
! VCE =  1.5 V,  IC =  22 mA
! Common Emitter S-Parameters:                            Jun 2012
# GHz  S  MA  R  50
!  f         S11            S21            S12            S22
! GHz     MAG   ANG      MAG   ANG      MAG   ANG      MAG   ANG
 0.150  0.7955  -10.3  35.101  173.6  0.0050   83.9  0.9826   -6.3
 0.200  0.7938  -13.7  35.013  171.3  0.0068   79.7  0.9802   -8.9
 0.250  0.7912  -17.0  34.859  169.1  0.0084   77.7  0.9762  -11.4
 0.300  0.7878  -20.3  34.652  166.9  0.0098   76.4  0.9708  -13.8
 0.350  0.7839  -23.5  34.403  164.7  0.0111   75.3  0.9642  -16.2
 0.400  0.7794  -26.7  34.118  162.5  0.0124   74.3  0.9566  -18.5
 0.450  0.7746  -29.9  33.806  160.4  0.0135   73.2  0.9482  -20.7
 0.500  0.7696  -33.0  33.471  158.3  0.0146   72.0  0.9391  -22.9
 0.600  0.7591  -39.0  32.748  154.2  0.0167   69.3  0.9193  -27.1
 0.700  0.7485  -44.9  31.972  150.3  0.0187   66.3  0.8982  -31.2
 0.800  0.7379  -50.5  31.157  146.6  0.0206   63.3  0.8763  -35.1
 0.900  0.7276  -56.0  30.313  143.0  0.0225   60.3  0.8539  -38.8
 1.000  0.7176  -61.2  29.450  139.7  0.0244   57.5  0.8314  -42.4
 1.100  0.7079  -66.3  28.577  136.5  0.0262   55.0  0.8090  -45.9
 1.200  0.6986  -71.1  27.702  133.4  0.0278   52.7  0.7868  -49.2
 1.300  0.6896  -75.7  26.832  130.4  0.0292   50.7  0.7649  -52.4
 1.400  0.6809  -80.2  25.976  127.6  0.0305   48.9  0.7435  -55.5
 1.500  0.6726  -84.5  25.138  124.9  0.0316   47.2  0.7224  -58.4
 1.600  0.6646  -88.6  24.323  122.3  0.0325   45.7  0.7019  -61.3
 1.700  0.6570  -92.6  23.534  119.8  0.0333   44.2  0.6820  -64.0
 1.800  0.6497  -96.4  22.772  117.4  0.0340   42.8  0.6627  -66.7
 1.900  0.6428 -100.1  22.039  115.2  0.0347   41.5  0.6440  -69.2
 2.000  0.6363 -103.6  21.334  113.0  0.0354   40.1  0.6261  -71.7
 2.100  0.6301 -106.9  20.656  110.9  0.0360   38.8  0.6090  -74.0
 2.200  0.6243 -110.1  20.006  109.0  0.0367   37.6  0.5927  -76.3
 2.300  0.6188 -113.2  19.384  107.1  0.0374   36.4  0.5772  -78.5
 2.400  0.6135 -116.0  18.792  105.4  0.0381   35.4  0.5627  -80.6
 2.500  0.6085 -118.7  18.232  103.7  0.0387   34.5  0.5491  -82.6
 2.600  0.6039 -121.3  17.705  102.0  0.0393   33.7  0.5365  -84.5
 2.700  0.5996 -123.7  17.209  100.4  0.0396   33.0  0.5246  -86.4
 2.800  0.5960 -126.1  16.742   98.8  0.0398   32.6  0.5135  -88.3
 2.900  0.5935 -128.6  16.290   97.2  0.0397   32.2  0.5028  -90.1
 3.000  0.5927 -131.3  15.833   95.6  0.0395   31.9  0.4919  -91.8
 3.100  0.5862 -133.5  15.353   94.2  0.0402   30.5  0.4801  -93.8
 3.200  0.5833 -135.7  14.952   92.8  0.0404   30.0  0.4708  -95.5
 3.300  0.5808 -137.7  14.570   91.5  0.0406   29.4  0.4620  -97.2
 3.400  0.5785 -139.7  14.204   90.1  0.0408   28.9  0.4538  -98.8
 3.500  0.5766 -141.6  13.854   88.8  0.0410   28.5  0.4460 -100.4
 3.600  0.5749 -143.5  13.518   87.5  0.0412   28.0  0.4387 -102.0
 3.700  0.5735 -145.3  13.195   86.2  0.0414   27.6  0.4319 -103.5
 3.800  0.5723 -147.0  12.884   85.0  0.0416   27.2  0.4255 -105.1
 3.900  0.5713 -148.7  12.584   83.8  0.0418   26.8  0.4195 -106.6
 4.000  0.5704 -150.3  12.296   82.6  0.0420   26.4  0.4138 -108.1
 4.100  0.5697 -151.9  12.017   81.5  0.0422   26.1  0.4085 -109.5
 4.200  0.5690 -153.5  11.749   80.3  0.0424   25.8  0.4035 -111.0
 4.300  0.5684 -155.0  11.491   79.2  0.0426   25.6  0.3987 -112.4
 4.400  0.5679 -156.5  11.242   78.1  0.0427   25.3  0.3942 -113.9
 4.500  0.5674 -158.0  11.002   77.1  0.0429   25.1  0.3899 -115.3
 4.600  0.5670 -159.5  10.772   76.0  0.0430   24.9  0.3858 -116.8
 4.700  0.5666 -160.9  10.550   75.0  0.0431   24.7  0.3818 -118.2
 4.800  0.5663 -162.3  10.337   74.0  0.0432   24.6  0.3780 -119.6
 4.900  0.5661 -163.7  10.132   73.0  0.0433   24.4  0.3744 -121.0
 5.000  0.5659 -165.0   9.934   72.0  0.0434   24.2  0.3710 -122.4
 5.100  0.5658 -166.4   9.744   71.1  0.0434   24.1  0.3678 -123.7
 5.200  0.5657 -167.6   9.560   70.1  0.0435   23.9  0.3648 -125.1
 5.300  0.5656 -168.9   9.382   69.1  0.0435   23.8  0.3620 -126.4
 5.400  0.5656 -170.1   9.209   68.2  0.0436   23.6  0.3595 -127.7
 5.500  0.5657 -171.3   9.042   67.2  0.0436   23.5  0.3571 -129.0
 5.600  0.5657 -172.4   8.880   66.3  0.0437   23.3  0.3549 -130.3
 5.700  0.5658 -173.6   8.723   65.4  0.0437   23.2  0.3530 -131.6
 5.800  0.5658 -174.7   8.570   64.4  0.0438   23.1  0.3512 -132.9
 5.900  0.5659 -175.8   8.421   63.5  0.0438   23.0  0.3495 -134.1
 6.000  0.5660 -176.9   8.276   62.6  0.0438   22.9  0.3480 -135.4
 6.100  0.5661 -177.9   8.135   61.7  0.0439   22.8  0.3467 -136.6
 6.200  0.5664 -179.0   7.997   60.8  0.0439   22.7  0.3455 -137.9
 6.300  0.5667  180.0   7.864   60.0  0.0439   22.6  0.3445 -139.1
 6.400  0.5672  179.0   7.734   59.1  0.0439   22.5  0.3436 -140.3
 6.500  0.5677  178.0   7.608   58.3  0.0439   22.5  0.3428 -141.5
 6.600  0.5685  177.1   7.487   57.4  0.0439   22.4  0.3422 -142.7
 6.700  0.5694  176.2   7.369   56.6  0.0439   22.4  0.3417 -143.9
 6.800  0.5705  175.3   7.255   55.8  0.0440   22.3  0.3413 -145.1
 6.900  0.5718  174.4   7.145   55.0  0.0440   22.3  0.3410 -146.3
 7.000  0.5732  173.6   7.038   54.2  0.0441   22.3  0.3408 -147.5
 7.100  0.5748  172.7   6.935   53.5  0.0441   22.3  0.3407 -148.6
 7.200  0.5765  171.9   6.835   52.7  0.0442   22.3  0.3405 -149.8
 7.300  0.5783  171.0   6.736   51.9  0.0443   22.3  0.3403 -151.0
 7.400  0.5800  170.1   6.639   51.2  0.0444   22.3  0.3401 -152.3
 7.500  0.5818  169.1   6.541   50.4  0.0445   22.4  0.3399 -153.6
 7.600  0.5834  168.1   6.442   49.5  0.0445   22.4  0.3395 -154.9
 7.700  0.5849  166.9   6.341   48.6  0.0446   22.4  0.3390 -156.3
 7.800  0.5861  165.7   6.235   47.7  0.0446   22.4  0.3383 -157.8
 7.900  0.5870  164.4   6.125   46.6  0.0445   22.3  0.3376 -159.4
 8.000  0.5876  163.0   6.009   45.5  0.0444   22.3  0.3368 -161.0
 8.500  0.5874  159.3   5.695   42.4  0.0439   22.3  0.3348 -165.3
 9.000  0.5857  155.4   5.359   38.8  0.0431   22.5  0.3335 -169.9
 9.500  0.5830  151.6   5.021   35.1  0.0422   23.5  0.3335 -174.4
10.000  0.5806  148.3   4.702   31.4  0.0416   25.4  0.3348 -178.6
10.500  0.5793  145.4   4.416   27.9  0.0415   28.2  0.3376  177.7
11.000  0.5796  142.8   4.168   24.6  0.0423   31.3  0.3416  174.5
11.500  0.5811  140.4   3.957   21.6  0.0442   34.0  0.3472  171.6
12.000  0.5836  138.3   3.770   18.5  0.0468   35.5  0.3548  169.0
!
!  f       NFmin   Gammaopt  rn/50
! GHz       dB    MAG  ANG    -
!
! noise parameter not available yet for this operation point!
!
! (c) 2012  Infineon Technologies AG, Munich
