! Infineon Technologies  Discrete & RF Semiconductors
! BFR843EL3
! VCE =  1.8 V,  IC =  9.0 mA
! Common Emitter S-Parameters:                            Aug 2013
# GHz  S  MA  R  50
!  f         S11            S21            S12            S22
! GHz     MAG   ANG      MAG   ANG      MAG   ANG      MAG   ANG
 0.030  0.5022  -36.5  16.124  164.9  0.0484   32.4  0.5584  -34.1
 0.040  0.4308  -37.1  15.218  166.1  0.0514   25.3  0.4792  -34.0
 0.050  0.3869  -36.4  14.785  167.5  0.0512    4.8  0.4311  -33.9
 0.060  0.3430  -35.5  14.266  168.5  0.0490   18.3  0.3949  -31.6
 0.070  0.3226  -34.0  14.046  169.4  0.0550   15.6  0.3711  -29.7
 0.080  0.3097  -32.2  13.888  170.1  0.0551   13.3  0.3543  -28.8
 0.090  0.2957  -30.8  13.801  170.5  0.0563   12.8  0.3427  -27.4
 0.100  0.2864  -29.7  13.718  170.9  0.0563   10.5  0.3350  -26.3
 0.110  0.2794  -28.8  13.654  171.0  0.0562   10.3  0.3260  -25.3
 0.120  0.2738  -28.2  13.629  171.2  0.0565    8.4  0.3214  -24.3
 0.130  0.2663  -26.9  13.578  171.3  0.0561    8.9  0.3170  -23.7
 0.140  0.2649  -26.7  13.553  171.4  0.0559    8.0  0.3138  -23.4
 0.150  0.2654  -25.8  13.503  171.5  0.0554    7.5  0.3105  -23.2
 0.200  0.2560  -25.3  13.439  171.0  0.0560    5.5  0.3039  -22.1
 0.250  0.2515  -26.0  13.407  170.2  0.0566    3.5  0.2980  -22.4
 0.300  0.2498  -26.7  13.349  169.0  0.0573    3.1  0.2970  -23.2
 0.350  0.2464  -28.9  13.320  168.0  0.0563    1.9  0.2956  -24.8
 0.400  0.2481  -30.2  13.290  166.8  0.0576    3.2  0.2963  -26.4
 0.450  0.2474  -32.3  13.248  165.6  0.0578    2.5  0.2944  -28.1
 0.500  0.2485  -33.7  13.178  164.2  0.0572    3.4  0.2940  -30.4
 0.600  0.2540  -38.5  13.107  161.7  0.0578    1.6  0.2975  -34.1
 0.700  0.2556  -43.1  13.022  159.0  0.0573    2.6  0.2976  -38.2
 0.800  0.2556  -47.4  12.888  156.3  0.0585    2.4  0.2993  -42.2
 0.900  0.2613  -52.4  12.772  153.8  0.0583    2.4  0.3013  -46.8
 1.000  0.2653  -56.3  12.612  151.1  0.0587    0.9  0.3046  -51.1
 1.100  0.2717  -60.5  12.462  148.6  0.0585    1.3  0.3072  -55.0
 1.200  0.2750  -65.1  12.314  146.0  0.0590    1.8  0.3103  -58.9
 1.300  0.2771  -68.9  12.166  143.5  0.0592    1.2  0.3129  -62.6
 1.400  0.2847  -72.6  12.008  141.0  0.0595    1.3  0.3166  -66.3
 1.500  0.2904  -76.8  11.852  138.5  0.0602    0.7  0.3197  -70.3
 1.600  0.2940  -79.7  11.646  136.2  0.0600    1.4  0.3239  -73.3
 1.700  0.3014  -83.3  11.465  133.8  0.0606    0.2  0.3286  -77.1
 1.800  0.3056  -86.9  11.276  131.4  0.0602    1.8  0.3327  -80.2
 1.900  0.3088  -90.2  11.095  129.1  0.0610   -0.0  0.3354  -83.2
 2.000  0.3164  -93.2  10.920  126.9  0.0609   -0.3  0.3398  -86.6
 2.100  0.3211  -96.4  10.717  124.6  0.0617   -0.5  0.3425  -90.1
 2.200  0.3229  -99.6  10.518  122.5  0.0613   -0.9  0.3464  -92.7
 2.300  0.3290 -101.9  10.329  120.5  0.0612   -1.5  0.3470  -95.8
 2.400  0.3341 -104.8  10.147  118.3  0.0621   -1.3  0.3519  -98.2
 2.500  0.3367 -107.0   9.972  116.5  0.0617   -2.2  0.3550 -100.9
 2.600  0.3425 -110.1   9.797  114.4  0.0630   -2.8  0.3588 -103.2
 2.700  0.3435 -112.1   9.600  112.5  0.0613   -3.5  0.3620 -105.7
 2.800  0.3502 -114.4   9.428  110.6  0.0615   -3.1  0.3644 -108.2
 2.900  0.3531 -116.6   9.249  108.7  0.0627   -3.4  0.3670 -110.4
 3.000  0.3580 -118.8   9.068  106.9  0.0610   -4.3  0.3720 -112.6
 3.100  0.3610 -120.8   8.930  105.1  0.0616   -4.1  0.3739 -114.4
 3.200  0.3664 -122.9   8.753  103.3  0.0615   -5.3  0.3792 -116.6
 3.300  0.3684 -125.4   8.584  101.5  0.0619   -5.4  0.3812 -118.9
 3.400  0.3735 -127.0   8.416   99.9  0.0616   -6.1  0.3846 -120.9
 3.500  0.3761 -128.9   8.262   98.1  0.0609   -6.8  0.3854 -122.6
 3.600  0.3764 -130.5   8.108   96.6  0.0609   -7.3  0.3886 -124.6
 3.700  0.3803 -132.5   7.975   94.9  0.0606   -6.7  0.3904 -126.4
 3.800  0.3837 -133.9   7.828   93.2  0.0604   -7.6  0.3940 -128.0
 3.900  0.3852 -135.6   7.684   91.7  0.0605   -8.2  0.3950 -129.6
 4.000  0.3897 -136.9   7.544   90.1  0.0596   -7.1  0.3981 -131.2
 4.100  0.3946 -138.2   7.403   88.6  0.0604   -9.3  0.4024 -132.4
 4.200  0.3981 -139.8   7.265   87.1  0.0585   -8.3  0.4072 -133.9
 4.300  0.4022 -141.4   7.131   85.5  0.0592   -9.1  0.4110 -135.6
 4.400  0.4058 -143.0   6.996   84.1  0.0590  -10.1  0.4138 -136.9
 4.500  0.4091 -144.6   6.873   82.7  0.0585  -10.7  0.4166 -138.6
 4.600  0.4120 -145.9   6.752   81.4  0.0586  -10.5  0.4200 -140.1
 4.700  0.4146 -147.4   6.627   80.0  0.0590   -9.7  0.4222 -141.6
 4.800  0.4170 -148.7   6.523   78.6  0.0576  -10.5  0.4249 -143.0
 4.900  0.4191 -150.0   6.419   77.3  0.0575  -11.0  0.4259 -144.3
 5.000  0.4217 -151.2   6.313   76.0  0.0578  -11.7  0.4291 -145.4
 5.100  0.4239 -152.5   6.205   74.5  0.0569  -10.8  0.4308 -146.8
 5.200  0.4267 -153.4   6.098   73.3  0.0565  -12.1  0.4339 -148.0
 5.300  0.4287 -154.6   6.002   72.0  0.0561  -12.1  0.4370 -148.9
 5.400  0.4330 -155.7   5.898   70.7  0.0556  -13.2  0.4412 -150.3
 5.500  0.4349 -156.9   5.807   69.4  0.0552  -12.4  0.4439 -151.6
 5.600  0.4389 -158.0   5.713   68.1  0.0544  -12.7  0.4470 -152.5
 5.700  0.4400 -159.3   5.612   66.9  0.0545  -13.2  0.4498 -153.7
 5.800  0.4432 -160.4   5.516   65.7  0.0540  -14.0  0.4527 -154.9
 5.900  0.4472 -161.3   5.435   64.5  0.0536  -15.1  0.4570 -156.0
 6.000  0.4482 -162.4   5.344   63.3  0.0534  -14.0  0.4586 -157.1
 6.100  0.4521 -163.4   5.259   62.1  0.0524  -14.5  0.4631 -158.2
 6.200  0.4535 -164.7   5.175   60.8  0.0517  -14.0  0.4658 -159.1
 6.300  0.4555 -165.7   5.101   59.7  0.0516  -14.1  0.4680 -160.3
 6.400  0.4590 -166.5   5.023   58.6  0.0515  -14.4  0.4720 -161.2
 6.500  0.4611 -167.4   4.937   57.4  0.0517  -14.2  0.4735 -162.3
 6.600  0.4641 -168.3   4.862   56.3  0.0501  -14.7  0.4777 -163.4
 6.700  0.4671 -169.3   4.791   55.2  0.0497  -15.3  0.4806 -164.3
 6.800  0.4709 -170.3   4.716   54.0  0.0492  -15.8  0.4835 -165.2
 6.900  0.4733 -171.3   4.650   52.9  0.0492  -15.5  0.4866 -166.3
 7.000  0.4755 -172.3   4.584   51.9  0.0480  -16.7  0.4892 -167.4
 7.100  0.4790 -173.1   4.505   50.7  0.0492  -15.7  0.4915 -168.1
 7.200  0.4808 -174.0   4.439   49.6  0.0477  -16.8  0.4947 -169.1
 7.300  0.4840 -174.9   4.362   48.5  0.0470  -17.0  0.4987 -170.0
 7.400  0.4860 -175.7   4.299   47.5  0.0460  -15.2  0.5022 -170.9
 7.500  0.4884 -176.5   4.233   46.7  0.0464  -15.9  0.5062 -171.9
 7.600  0.4935 -177.5   4.180   45.7  0.0459  -15.1  0.5086 -172.8
 7.700  0.4973 -178.7   4.130   44.7  0.0451  -15.2  0.5127 -173.7
 7.800  0.5000 -179.5   4.077   43.8  0.0454  -16.4  0.5151 -174.8
 7.900  0.5018  179.7   4.024   42.9  0.0452  -16.1  0.5182 -175.7
 8.000  0.5054  178.5   3.982   41.8  0.0441  -16.0  0.5203 -176.8
 8.500  0.5119  173.9   3.723   36.2  0.0410  -19.0  0.5328  178.9
 9.000  0.5148  170.0   3.474   31.1  0.0373  -16.5  0.5399  174.9
 9.500  0.5235  166.5   3.233   26.4  0.0344  -16.5  0.5527  171.2
10.000  0.5280  163.0   3.024   21.9  0.0304  -11.7  0.5622  167.7
10.500  0.5340  160.3   2.851   17.6  0.0269   -3.9  0.5747  164.6
11.000  0.5433  157.4   2.662   13.0  0.0250    2.4  0.5849  161.4
11.500  0.5500  155.1   2.503    8.6  0.0251   14.0  0.5967  158.7
12.000  0.5653  152.8   2.365    4.8  0.0267   22.5  0.6093  156.2
!
!  f       NFmin   Gammaopt  rn/50
! GHz       dB    MAG  ANG    -
 0.450      0.88  0.07   46   0.12
 0.900      0.90  0.08   59   0.12
 1.500      0.92  0.09   69   0.12
 1.900      0.94  0.09   73   0.12
 2.400      0.95  0.10   86   0.12
 3.500      0.99  0.12  103   0.12
 5.500      1.05  0.17  137   0.11
 8.000      1.12  0.28  173   0.08
10.000      1.18  0.40  211   0.06
!
! (c) 2013  Infineon Technologies AG, Munich
