! Infineon Technologies  Discrete & RF Semiconductors
! BFR843EL3
! VCE =  1.8 V,  IC =  25 mA
! Common Emitter S-Parameters:                            Aug 2013
# GHz  S  MA  R  50
!  f         S11            S21            S12            S22
! GHz     MAG   ANG      MAG   ANG      MAG   ANG      MAG   ANG
 0.030  0.3397  -78.3  23.929  160.0  0.0370   26.9  0.4049  -61.8
 0.040  0.2786  -88.6  22.194  161.9  0.0383   21.7  0.3175  -67.0
 0.050  0.2719  -97.8  21.407  163.6  0.0498    6.4  0.2736  -71.0
 0.060  0.1966 -105.3  20.461  165.5  0.0368    7.9  0.2228  -72.8
 0.070  0.1897 -108.7  20.093  166.6  0.0402   12.8  0.1964  -73.8
 0.080  0.1759 -111.9  19.840  167.6  0.0406   10.2  0.1762  -75.4
 0.090  0.1671 -116.0  19.674  168.2  0.0397    8.8  0.1613  -75.8
 0.100  0.1597 -118.7  19.533  168.7  0.0404    8.5  0.1493  -76.5
 0.110  0.1513 -122.4  19.420  169.0  0.0413    8.8  0.1365  -77.9
 0.120  0.1477 -124.3  19.370  169.2  0.0417    7.6  0.1274  -77.0
 0.130  0.1432 -126.2  19.284  169.4  0.0409    9.7  0.1209  -77.6
 0.140  0.1406 -128.4  19.246  169.5  0.0422    5.7  0.1164  -77.9
 0.150  0.1363 -127.7  19.205  169.7  0.0408    5.6  0.1117  -78.7
 0.200  0.1325 -133.9  19.052  169.3  0.0407    3.7  0.0975  -79.3
 0.250  0.1339 -136.3  18.980  168.5  0.0429    3.0  0.0890  -79.7
 0.300  0.1327 -137.3  18.906  167.3  0.0412    0.6  0.0857  -82.0
 0.350  0.1375 -139.8  18.814  166.2  0.0419    3.2  0.0866  -84.4
 0.400  0.1403 -138.5  18.744  164.9  0.0420    3.2  0.0886  -85.6
 0.450  0.1466 -138.6  18.654  163.5  0.0428    4.5  0.0886  -89.2
 0.500  0.1492 -139.6  18.559  162.1  0.0423    3.4  0.0937  -91.0
 0.600  0.1636 -138.1  18.415  159.1  0.0420    2.8  0.1005  -93.6
 0.700  0.1744 -137.7  18.205  156.3  0.0420    1.9  0.1072  -96.9
 0.800  0.1876 -138.5  17.953  153.3  0.0427    2.3  0.1168 -100.1
 0.900  0.2041 -138.3  17.709  150.6  0.0424    3.6  0.1263 -103.5
 1.000  0.2157 -138.9  17.444  147.7  0.0417    3.0  0.1364 -106.1
 1.100  0.2288 -139.6  17.169  145.0  0.0422    2.9  0.1450 -108.8
 1.200  0.2432 -140.7  16.872  142.2  0.0416    3.0  0.1547 -111.4
 1.300  0.2543 -141.7  16.584  139.6  0.0416    3.2  0.1610 -113.6
 1.400  0.2662 -142.2  16.306  137.0  0.0426    2.9  0.1699 -115.7
 1.500  0.2792 -143.7  16.000  134.3  0.0426    3.5  0.1797 -118.0
 1.600  0.2890 -144.9  15.685  131.9  0.0420    3.3  0.1856 -119.4
 1.700  0.3000 -145.7  15.379  129.4  0.0424    3.6  0.1959 -122.0
 1.800  0.3086 -147.0  15.049  127.0  0.0431    2.7  0.2033 -123.9
 1.900  0.3203 -148.6  14.722  124.6  0.0437    3.9  0.2099 -125.2
 2.000  0.3294 -149.1  14.426  122.3  0.0437    2.7  0.2180 -127.5
 2.100  0.3419 -150.8  14.104  120.1  0.0429    2.2  0.2254 -129.7
 2.200  0.3476 -152.3  13.792  118.0  0.0439    3.3  0.2313 -131.1
 2.300  0.3568 -153.2  13.499  115.9  0.0419    2.3  0.2364 -133.2
 2.400  0.3656 -154.8  13.196  113.9  0.0431    3.6  0.2430 -134.6
 2.500  0.3702 -155.9  12.928  112.0  0.0438    2.9  0.2485 -135.9
 2.600  0.3803 -157.1  12.639  110.0  0.0438    3.8  0.2538 -137.4
 2.700  0.3830 -158.4  12.354  108.2  0.0436    4.1  0.2605 -138.7
 2.800  0.3906 -159.5  12.102  106.2  0.0435    3.2  0.2645 -140.2
 2.900  0.3955 -160.8  11.838  104.5  0.0427    2.7  0.2679 -141.6
 3.000  0.4018 -161.8  11.563  102.7  0.0428    3.5  0.2732 -142.8
 3.100  0.4064 -162.8  11.345  100.9  0.0437    3.2  0.2774 -143.9
 3.200  0.4125 -163.8  11.090   99.1  0.0429    2.4  0.2840 -144.8
 3.300  0.4193 -165.0  10.850   97.4  0.0429    3.5  0.2895 -146.3
 3.400  0.4257 -166.2  10.614   95.9  0.0430    2.7  0.2936 -147.9
 3.500  0.4288 -167.3  10.395   94.3  0.0434    3.6  0.2959 -149.1
 3.600  0.4306 -168.4  10.188   92.8  0.0423    4.2  0.3005 -150.3
 3.700  0.4345 -169.3   9.983   91.2  0.0428    3.9  0.3028 -151.1
 3.800  0.4373 -170.2   9.779   89.6  0.0426    4.0  0.3066 -152.1
 3.900  0.4392 -171.1   9.583   88.2  0.0414    3.1  0.3100 -153.1
 4.000  0.4433 -171.9   9.397   86.6  0.0426    3.9  0.3131 -153.8
 4.100  0.4464 -172.6   9.210   85.2  0.0422    3.5  0.3166 -154.3
 4.200  0.4525 -173.3   9.017   83.7  0.0417    3.4  0.3229 -155.0
 4.300  0.4565 -174.2   8.825   82.3  0.0421    4.3  0.3280 -156.1
 4.400  0.4605 -175.1   8.645   81.0  0.0427    4.2  0.3319 -156.9
 4.500  0.4658 -176.1   8.479   79.7  0.0417    4.3  0.3364 -158.1
 4.600  0.4682 -176.8   8.324   78.5  0.0419    5.3  0.3409 -159.1
 4.700  0.4717 -177.9   8.158   77.2  0.0413    5.1  0.3451 -160.1
 4.800  0.4751 -178.8   8.025   75.9  0.0422    3.7  0.3482 -161.1
 4.900  0.4766 -179.6   7.880   74.7  0.0416    3.9  0.3487 -162.1
 5.000  0.4794  179.5   7.749   73.5  0.0418    5.8  0.3528 -162.8
 5.100  0.4817  178.8   7.601   72.1  0.0419    5.2  0.3558 -163.5
 5.200  0.4838  178.1   7.472   70.9  0.0413    4.9  0.3603 -164.2
 5.300  0.4855  177.3   7.344   69.7  0.0417    5.3  0.3628 -164.9
 5.400  0.4897  176.6   7.216   68.5  0.0412    5.0  0.3685 -165.8
 5.500  0.4907  175.9   7.093   67.3  0.0414    5.2  0.3709 -166.5
 5.600  0.4944  175.2   6.967   66.1  0.0417    6.2  0.3740 -167.3
 5.700  0.4964  174.4   6.839   65.0  0.0411    6.9  0.3788 -168.0
 5.800  0.4999  173.5   6.724   63.9  0.0407    6.2  0.3825 -168.8
 5.900  0.5017  172.9   6.622   62.7  0.0416    5.7  0.3857 -169.5
 6.000  0.5046  172.1   6.510   61.5  0.0412    6.7  0.3870 -170.2
 6.100  0.5067  171.5   6.399   60.5  0.0415    6.4  0.3928 -171.1
 6.200  0.5087  170.7   6.288   59.3  0.0411    7.4  0.3960 -171.6
 6.300  0.5112  170.2   6.196   58.3  0.0418    6.7  0.3997 -172.6
 6.400  0.5130  169.4   6.101   57.2  0.0409    6.5  0.4037 -173.2
 6.500  0.5147  168.7   5.998   56.1  0.0415    8.2  0.4069 -174.0
 6.600  0.5180  168.2   5.905   55.1  0.0404    6.7  0.4109 -174.7
 6.700  0.5189  167.6   5.812   54.1  0.0412    6.9  0.4144 -175.3
 6.800  0.5226  166.9   5.716   53.0  0.0413    8.4  0.4171 -176.1
 6.900  0.5262  166.2   5.633   52.0  0.0409    8.3  0.4217 -177.0
 7.000  0.5272  165.5   5.554   51.0  0.0402    8.9  0.4246 -177.8
 7.100  0.5301  164.9   5.459   49.9  0.0408    7.7  0.4276 -178.2
 7.200  0.5316  164.2   5.378   48.8  0.0403    7.8  0.4309 -178.9
 7.300  0.5331  163.6   5.279   47.8  0.0399    9.4  0.4360 -179.5
 7.400  0.5353  163.2   5.200   46.9  0.0396    8.3  0.4414  179.7
 7.500  0.5386  162.7   5.118   46.2  0.0390    9.8  0.4448  178.8
 7.600  0.5448  162.0   5.054   45.3  0.0398   10.4  0.4494  178.1
 7.700  0.5490  161.1   4.994   44.4  0.0403   10.5  0.4526  177.4
 7.800  0.5509  160.2   4.937   43.6  0.0401   10.6  0.4550  176.4
 7.900  0.5542  159.6   4.877   42.7  0.0400   10.9  0.4588  175.6
 8.000  0.5562  158.8   4.826   41.7  0.0402    9.9  0.4614  174.9
 8.500  0.5608  154.8   4.512   36.3  0.0391   10.5  0.4749  171.0
 9.000  0.5613  151.6   4.212   31.6  0.0374   12.9  0.4823  167.8
 9.500  0.5647  148.9   3.927   27.1  0.0366   14.2  0.4961  165.0
10.000  0.5652  146.3   3.680   22.9  0.0359   18.7  0.5064  162.0
10.500  0.5686  144.0   3.477   18.8  0.0376   22.5  0.5195  159.6
11.000  0.5715  141.9   3.250   14.6  0.0386   26.1  0.5304  157.0
11.500  0.5745  140.0   3.067   10.4  0.0398   30.3  0.5433  154.7
12.000  0.5805  138.7   2.903    6.8  0.0435   33.6  0.5547  152.9
!
!  f       NFmin   Gammaopt  rn/50
! GHz       dB    MAG  ANG    -
 0.450      1.21  0.13  160   0.13
 0.900      1.21  0.13  156   0.12
 1.500      1.22  0.15  155   0.11
 1.900      1.23  0.15  157   0.11
 2.400      1.24  0.16  161   0.11
 3.500      1.25  0.18  167   0.11
 5.500      1.27  0.25  184   0.10
 8.000      1.29  0.35  202   0.09
10.000      1.32  0.47  222   0.09
!
! (c) 2013  Infineon Technologies AG, Munich
