! Infineon Technologies  Discrete & RF Semiconductors
! BFR840L3RHESD
! VCE =  1.8 V,  IC =  28 mA
! Common Emitter S-Parameters:                            Jun 2012
# GHz  S  MA  R  50
!  f         S11            S21            S12            S22
! GHz     MAG   ANG      MAG   ANG      MAG   ANG      MAG   ANG
 0.150  0.7372  -11.9  37.042  173.1  0.0044   82.2  0.9691   -6.4
 0.200  0.7354  -15.7  36.938  170.7  0.0057   77.9  0.9670   -9.2
 0.250  0.7329  -19.5  36.752  168.3  0.0070   75.5  0.9625  -11.9
 0.300  0.7299  -23.2  36.499  165.9  0.0084   73.8  0.9561  -14.5
 0.350  0.7264  -26.8  36.193  163.5  0.0098   72.5  0.9481  -16.9
 0.400  0.7226  -30.4  35.846  161.2  0.0112   71.4  0.9388  -19.3
 0.450  0.7185  -33.9  35.466  158.9  0.0126   70.3  0.9286  -21.7
 0.500  0.7143  -37.4  35.060  156.7  0.0138   69.1  0.9177  -23.9
 0.600  0.7055  -44.1  34.188  152.4  0.0162   66.6  0.8944  -28.3
 0.700  0.6967  -50.5  33.259  148.3  0.0183   63.9  0.8702  -32.4
 0.800  0.6880  -56.7  32.293  144.4  0.0201   61.1  0.8457  -36.4
 0.900  0.6796  -62.6  31.303  140.7  0.0218   58.3  0.8213  -40.1
 1.000  0.6717  -68.3  30.300  137.2  0.0232   55.6  0.7972  -43.7
 1.100  0.6642  -73.7  29.295  134.0  0.0246   53.1  0.7735  -47.1
 1.200  0.6572  -78.8  28.298  130.8  0.0259   50.8  0.7502  -50.3
 1.300  0.6506  -83.7  27.318  127.9  0.0271   48.8  0.7275  -53.5
 1.400  0.6445  -88.4  26.363  125.0  0.0282   47.1  0.7052  -56.4
 1.500  0.6387  -92.8  25.438  122.3  0.0292   45.6  0.6835  -59.3
 1.600  0.6333  -97.0  24.547  119.7  0.0302   44.3  0.6625  -62.1
 1.700  0.6282 -101.0  23.693  117.2  0.0311   43.1  0.6422  -64.7
 1.800  0.6235 -104.8  22.875  114.9  0.0319   42.0  0.6227  -67.2
 1.900  0.6190 -108.5  22.093  112.6  0.0326   40.9  0.6040  -69.7
 2.000  0.6149 -112.0  21.344  110.5  0.0332   39.8  0.5863  -72.0
 2.100  0.6110 -115.3  20.628  108.5  0.0338   38.6  0.5694  -74.2
 2.200  0.6074 -118.4  19.944  106.6  0.0342   37.4  0.5535  -76.4
 2.300  0.6040 -121.4  19.293  104.7  0.0346   36.2  0.5385  -78.4
 2.400  0.6008 -124.2  18.675  103.0  0.0349   35.0  0.5243  -80.4
 2.500  0.5978 -126.8  18.094  101.4  0.0351   34.0  0.5111  -82.3
 2.600  0.5949 -129.3  17.550   99.7  0.0354   33.2  0.4988  -84.2
 2.700  0.5921 -131.7  17.043   98.2  0.0356   32.6  0.4873  -86.0
 2.800  0.5897 -134.0  16.567   96.6  0.0359   32.4  0.4766  -87.8
 2.900  0.5880 -136.3  16.106   95.0  0.0364   32.4  0.4666  -89.4
 3.000  0.5877 -138.9  15.629   93.5  0.0370   32.4  0.4572  -90.9
 3.100  0.5834 -141.0  15.140   92.1  0.0371   30.9  0.4451  -92.9
 3.200  0.5817 -143.0  14.735   90.8  0.0373   30.5  0.4364  -94.5
 3.300  0.5802 -145.0  14.350   89.5  0.0375   30.2  0.4282  -96.0
 3.400  0.5790 -146.9  13.982   88.1  0.0377   29.9  0.4206  -97.6
 3.500  0.5781 -148.7  13.630   86.9  0.0378   29.6  0.4134  -99.1
 3.600  0.5773 -150.4  13.292   85.6  0.0380   29.4  0.4067 -100.6
 3.700  0.5767 -152.1  12.968   84.3  0.0381   29.2  0.4004 -102.1
 3.800  0.5763 -153.7  12.656   83.1  0.0383   29.1  0.3945 -103.6
 3.900  0.5760 -155.3  12.356   81.9  0.0384   29.0  0.3890 -105.0
 4.000  0.5758 -156.8  12.067   80.8  0.0386   28.9  0.3839 -106.4
 4.100  0.5758 -158.3  11.789   79.6  0.0388   28.8  0.3791 -107.8
 4.200  0.5758 -159.8  11.521   78.5  0.0389   28.7  0.3745 -109.2
 4.300  0.5759 -161.2  11.262   77.5  0.0391   28.6  0.3702 -110.6
 4.400  0.5760 -162.6  11.014   76.4  0.0393   28.4  0.3661 -112.0
 4.500  0.5762 -164.0  10.775   75.4  0.0395   28.2  0.3622 -113.4
 4.600  0.5764 -165.4  10.546   74.3  0.0396   28.1  0.3584 -114.8
 4.700  0.5766 -166.7  10.326   73.3  0.0398   27.9  0.3548 -116.1
 4.800  0.5768 -168.0  10.114   72.4  0.0400   27.6  0.3514 -117.5
 4.900  0.5771 -169.3   9.910   71.4  0.0401   27.4  0.3481 -118.8
 5.000  0.5774 -170.5   9.715   70.4  0.0403   27.2  0.3450 -120.1
 5.100  0.5776 -171.8   9.526   69.5  0.0404   27.0  0.3421 -121.4
 5.200  0.5779 -172.9   9.344   68.5  0.0405   26.9  0.3395 -122.7
 5.300  0.5781 -174.1   9.168   67.6  0.0406   26.7  0.3370 -124.0
 5.400  0.5784 -175.2   8.998   66.6  0.0407   26.5  0.3347 -125.3
 5.500  0.5787 -176.3   8.833   65.7  0.0408   26.4  0.3326 -126.5
 5.600  0.5789 -177.4   8.673   64.8  0.0409   26.3  0.3307 -127.8
 5.700  0.5791 -178.4   8.518   63.9  0.0410   26.2  0.3290 -129.0
 5.800  0.5793 -179.5   8.367   63.0  0.0411   26.2  0.3274 -130.3
 5.900  0.5796  179.5   8.220   62.0  0.0411   26.1  0.3260 -131.5
 6.000  0.5798  178.5   8.077   61.2  0.0412   26.1  0.3248 -132.8
 6.100  0.5801  177.5   7.938   60.3  0.0413   26.1  0.3237 -134.0
 6.200  0.5804  176.5   7.803   59.4  0.0414   26.1  0.3227 -135.2
 6.300  0.5808  175.6   7.672   58.5  0.0415   26.1  0.3219 -136.4
 6.400  0.5814  174.6   7.545   57.7  0.0416   26.2  0.3212 -137.6
 6.500  0.5820  173.7   7.421   56.8  0.0417   26.2  0.3206 -138.8
 6.600  0.5828  172.8   7.301   56.0  0.0418   26.2  0.3202 -140.0
 6.700  0.5838  172.0   7.186   55.2  0.0419   26.2  0.3199 -141.2
 6.800  0.5849  171.1   7.074   54.4  0.0420   26.2  0.3197 -142.4
 6.900  0.5862  170.3   6.966   53.6  0.0421   26.2  0.3196 -143.6
 7.000  0.5877  169.5   6.861   52.9  0.0422   26.2  0.3195 -144.7
 7.100  0.5893  168.7   6.760   52.1  0.0423   26.2  0.3195 -145.9
 7.200  0.5911  168.0   6.662   51.3  0.0423   26.2  0.3196 -147.1
 7.300  0.5930  167.1   6.565   50.6  0.0424   26.1  0.3196 -148.3
 7.400  0.5950  166.3   6.470   49.8  0.0425   26.1  0.3195 -149.5
 7.500  0.5970  165.4   6.374   49.0  0.0426   26.0  0.3194 -150.8
 7.600  0.5988  164.4   6.277   48.2  0.0427   25.9  0.3191 -152.2
 7.700  0.6005  163.4   6.177   47.3  0.0427   25.9  0.3188 -153.6
 7.800  0.6020  162.2   6.074   46.3  0.0428   25.8  0.3184 -155.1
 7.900  0.6032  161.0   5.966   45.3  0.0428   25.7  0.3179 -156.6
 8.000  0.6040  159.7   5.852   44.2  0.0428   25.7  0.3173 -158.2
 8.500  0.6044  156.2   5.546   41.1  0.0427   25.8  0.3161 -162.6
 9.000  0.6030  152.4   5.217   37.6  0.0424   26.6  0.3158 -167.1
 9.500  0.6003  148.9   4.887   33.9  0.0419   28.0  0.3168 -171.7
10.000  0.5978  145.7   4.576   30.1  0.0416   30.4  0.3194 -175.8
10.500  0.5964  142.9   4.298   26.7  0.0420   33.3  0.3233 -179.5
11.000  0.5966  140.4   4.057   23.4  0.0433   36.3  0.3284  177.2
11.500  0.5981  138.2   3.850   20.3  0.0456   38.6  0.3350  174.2
12.000  0.6006  136.2   3.668   17.3  0.0483   39.6  0.3435  171.5
!
!  f       NFmin   Gammaopt  rn/50
! GHz       dB    MAG  ANG    -
!
! noise parameter not available yet for this operation point!
!
! (c) 2012  Infineon Technologies AG, Munich
