! Infineon Technologies  Discrete & RF Semiconductors
! BFR840L3RHESD
! VCE =  0.5 V,  IC =  3.0 mA
! Common Emitter S-Parameters:                            Jun 2012
# GHz  S  MA  R  50
!  f         S11            S21            S12            S22
! GHz     MAG   ANG      MAG   ANG      MAG   ANG      MAG   ANG
 0.150  0.9711   -4.2   9.361  176.4  0.0065   86.6  0.9959   -4.0
 0.200  0.9715   -5.6   9.356  175.2  0.0086   86.4  0.9952   -5.3
 0.250  0.9711   -7.0   9.347  174.0  0.0105   85.5  0.9941   -6.7
 0.300  0.9701   -8.4   9.335  172.8  0.0122   84.3  0.9929   -8.0
 0.350  0.9685   -9.7   9.321  171.6  0.0139   83.0  0.9914   -9.3
 0.400  0.9666  -11.1   9.304  170.4  0.0155   81.6  0.9897  -10.6
 0.450  0.9645  -12.5   9.286  169.1  0.0171   80.2  0.9878  -11.9
 0.500  0.9622  -13.8   9.266  167.9  0.0187   78.9  0.9857  -13.1
 0.600  0.9575  -16.5   9.222  165.5  0.0221   76.4  0.9810  -15.7
 0.700  0.9526  -19.2   9.173  163.1  0.0256   74.2  0.9757  -18.2
 0.800  0.9479  -21.8   9.118  160.7  0.0292   72.2  0.9699  -20.7
 0.900  0.9431  -24.4   9.057  158.4  0.0329   70.4  0.9636  -23.2
 1.000  0.9383  -27.0   8.990  156.2  0.0365   68.6  0.9570  -25.7
 1.100  0.9332  -29.5   8.918  153.9  0.0400   66.8  0.9499  -28.2
 1.200  0.9278  -32.1   8.840  151.7  0.0433   65.0  0.9425  -30.6
 1.300  0.9220  -34.6   8.757  149.5  0.0465   63.2  0.9346  -33.0
 1.400  0.9157  -37.1   8.670  147.3  0.0494   61.4  0.9264  -35.4
 1.500  0.9091  -39.6   8.578  145.2  0.0522   59.5  0.9177  -37.8
 1.600  0.9020  -42.1   8.484  143.0  0.0549   57.6  0.9087  -40.1
 1.700  0.8947  -44.6   8.387  140.9  0.0574   55.7  0.8993  -42.4
 1.800  0.8873  -47.0   8.288  138.8  0.0599   53.9  0.8896  -44.6
 1.900  0.8797  -49.5   8.187  136.8  0.0623   52.2  0.8796  -46.9
 2.000  0.8721  -51.9   8.084  134.8  0.0647   50.5  0.8695  -49.1
 2.100  0.8645  -54.2   7.980  132.8  0.0670   48.8  0.8593  -51.3
 2.200  0.8570  -56.5   7.874  130.8  0.0692   47.2  0.8491  -53.4
 2.300  0.8494  -58.8   7.767  129.0  0.0714   45.6  0.8389  -55.5
 2.400  0.8417  -61.0   7.658  127.1  0.0734   44.0  0.8289  -57.6
 2.500  0.8339  -63.1   7.547  125.3  0.0752   42.3  0.8191  -59.7
 2.600  0.8261  -65.3   7.437  123.5  0.0769   40.6  0.8093  -61.7
 2.700  0.8182  -67.4   7.328  121.8  0.0784   38.9  0.7997  -63.6
 2.800  0.8105  -69.5   7.222  120.0  0.0799   37.3  0.7901  -65.5
 2.900  0.8034  -71.6   7.123  118.3  0.0813   36.0  0.7804  -67.4
 3.000  0.7975  -73.9   7.035  116.5  0.0830   35.5  0.7704  -69.3
 3.100  0.7881  -75.8   6.915  114.9  0.0843   33.4  0.7602  -71.3
 3.200  0.7808  -77.8   6.813  113.2  0.0856   32.1  0.7508  -73.2
 3.300  0.7737  -79.8   6.711  111.6  0.0867   30.8  0.7415  -75.1
 3.400  0.7668  -81.8   6.611  110.0  0.0878   29.5  0.7325  -76.9
 3.500  0.7602  -83.8   6.513  108.4  0.0888   28.2  0.7237  -78.7
 3.600  0.7539  -85.7   6.415  106.8  0.0897   27.0  0.7152  -80.4
 3.700  0.7477  -87.6   6.320  105.3  0.0906   25.7  0.7069  -82.2
 3.800  0.7418  -89.5   6.225  103.8  0.0914   24.5  0.6988  -83.9
 3.900  0.7361  -91.4   6.132  102.3  0.0921   23.4  0.6909  -85.6
 4.000  0.7306  -93.3   6.040  100.8  0.0928   22.2  0.6832  -87.3
 4.100  0.7252  -95.1   5.950   99.4  0.0934   21.1  0.6757  -88.9
 4.200  0.7200  -96.9   5.861   98.0  0.0940   19.9  0.6684  -90.6
 4.300  0.7148  -98.7   5.774   96.6  0.0945   18.8  0.6613  -92.2
 4.400  0.7097 -100.4   5.688   95.2  0.0950   17.8  0.6543  -93.8
 4.500  0.7047 -102.2   5.604   93.8  0.0954   16.7  0.6475  -95.4
 4.600  0.6999 -103.9   5.522   92.5  0.0958   15.6  0.6408  -97.0
 4.700  0.6951 -105.6   5.441   91.2  0.0961   14.6  0.6343  -98.5
 4.800  0.6905 -107.3   5.362   89.9  0.0964   13.5  0.6279 -100.1
 4.900  0.6860 -109.0   5.285   88.6  0.0966   12.5  0.6217 -101.6
 5.000  0.6817 -110.7   5.210   87.3  0.0968   11.5  0.6157 -103.1
 5.100  0.6776 -112.3   5.135   86.0  0.0970   10.5  0.6098 -104.6
 5.200  0.6737 -113.9   5.063   84.8  0.0971    9.6  0.6042 -106.1
 5.300  0.6700 -115.6   4.992   83.5  0.0972    8.6  0.5987 -107.6
 5.400  0.6665 -117.1   4.922   82.3  0.0973    7.7  0.5935 -109.1
 5.500  0.6631 -118.7   4.853   81.1  0.0973    6.7  0.5884 -110.5
 5.600  0.6598 -120.3   4.785   79.9  0.0973    5.8  0.5835 -112.0
 5.700  0.6567 -121.8   4.718   78.7  0.0973    5.0  0.5789 -113.4
 5.800  0.6536 -123.4   4.653   77.5  0.0972    4.1  0.5743 -114.8
 5.900  0.6506 -124.9   4.588   76.3  0.0971    3.2  0.5700 -116.2
 6.000  0.6477 -126.4   4.524   75.2  0.0970    2.4  0.5659 -117.6
 6.100  0.6449 -127.9   4.462   74.0  0.0968    1.6  0.5619 -119.0
 6.200  0.6422 -129.3   4.400   72.9  0.0966    0.7  0.5580 -120.4
 6.300  0.6396 -130.8   4.340   71.7  0.0964   -0.1  0.5544 -121.8
 6.400  0.6373 -132.2   4.281   70.6  0.0961   -0.8  0.5509 -123.1
 6.500  0.6351 -133.7   4.224   69.5  0.0959   -1.6  0.5475 -124.5
 6.600  0.6332 -135.1   4.168   68.5  0.0956   -2.3  0.5444 -125.8
 6.700  0.6315 -136.5   4.114   67.4  0.0952   -3.1  0.5414 -127.1
 6.800  0.6300 -137.8   4.061   66.3  0.0949   -3.8  0.5386 -128.4
 6.900  0.6288 -139.2   4.010   65.3  0.0946   -4.5  0.5359 -129.7
 7.000  0.6278 -140.5   3.960   64.3  0.0942   -5.2  0.5333 -131.0
 7.100  0.6269 -141.8   3.912   63.3  0.0939   -5.9  0.5309 -132.2
 7.200  0.6261 -143.1   3.864   62.3  0.0936   -6.6  0.5285 -133.5
 7.300  0.6252 -144.5   3.817   61.3  0.0932   -7.3  0.5261 -134.8
 7.400  0.6243 -145.8   3.769   60.3  0.0928   -8.0  0.5237 -136.1
 7.500  0.6233 -147.3   3.720   59.2  0.0925   -8.8  0.5213 -137.4
 7.600  0.6219 -148.7   3.670   58.1  0.0920   -9.7  0.5188 -138.8
 7.700  0.6204 -150.3   3.618   57.0  0.0915  -10.6  0.5161 -140.3
 7.800  0.6184 -152.0   3.563   55.7  0.0909  -11.6  0.5133 -141.8
 7.900  0.6162 -153.7   3.504   54.4  0.0902  -12.6  0.5104 -143.5
 8.000  0.6137 -155.6   3.443   53.0  0.0894  -13.8  0.5073 -145.2
 8.500  0.6066 -160.6   3.275   49.1  0.0867  -17.0  0.4995 -150.0
 9.000  0.5999 -166.0   3.095   44.7  0.0830  -20.5  0.4924 -155.2
 9.500  0.5942 -171.5   2.913   40.1  0.0784  -24.0  0.4867 -160.5
10.000  0.5907 -176.7   2.739   35.4  0.0730  -27.1  0.4831 -165.7
10.500  0.5891  178.6   2.581   31.1  0.0670  -29.6  0.4813 -170.4
11.000  0.5893  174.3   2.439   26.9  0.0610  -31.1  0.4816 -174.8
11.500  0.5910  170.4   2.313   23.0  0.0553  -31.3  0.4837 -178.8
12.000  0.5944  166.8   2.199   19.2  0.0505  -30.5  0.4879  177.4
!
!  f       NFmin   Gammaopt  rn/50
! GHz       dB    MAG  ANG    -
 0.450      0.41  0.69    8   0.22
 0.900      0.45  0.67   12   0.22
 1.500      0.47  0.64   21   0.21
 1.900      0.50  0.62   28   0.21
 2.400      0.51  0.63   35   0.20
 3.500      0.53  0.64   46   0.19
 4.000      0.56  0.64   54   0.18
 5.000      0.61  0.65   64   0.17
 5.500      0.62  0.65   72   0.16
 6.000      0.65  0.62   80   0.16
 7.000      0.71  0.60   92   0.14
 8.000      0.79  0.58  101   0.13
 9.000      0.84  0.57  112   0.11
10.000      0.93  0.51  122   0.10
11.000      1.01  0.48  134   0.09
12.000      1.11  0.43  154   0.07
!
! (c) 2012  Infineon Technologies AG, Munich
