! Infineon Technologies  Discrete & RF Semiconductors
! BFR840L3RHESD
! VCE =  1.0 V,  IC =  12 mA
! Common Emitter S-Parameters:                            Jun 2012
# GHz  S  MA  R  50
!  f         S11            S21            S12            S22
! GHz     MAG   ANG      MAG   ANG      MAG   ANG      MAG   ANG
 0.150  0.8867   -7.8  26.107  174.6  0.0043   85.8  0.9911   -5.7
 0.200  0.8852  -10.4  26.064  172.8  0.0061   85.1  0.9898   -7.9
 0.250  0.8831  -12.9  25.989  171.0  0.0078   83.4  0.9873   -9.9
 0.300  0.8804  -15.4  25.888  169.1  0.0094   81.5  0.9837  -12.0
 0.350  0.8772  -17.9  25.766  167.3  0.0111   79.5  0.9793  -14.0
 0.400  0.8735  -20.3  25.627  165.5  0.0126   77.6  0.9743  -15.9
 0.450  0.8695  -22.7  25.474  163.7  0.0142   75.8  0.9686  -17.8
 0.500  0.8651  -25.1  25.308  161.9  0.0157   74.1  0.9625  -19.7
 0.600  0.8557  -29.8  24.947  158.4  0.0186   71.0  0.9491  -23.4
 0.700  0.8456  -34.4  24.552  155.0  0.0213   68.3  0.9346  -27.1
 0.800  0.8351  -39.0  24.128  151.7  0.0238   65.7  0.9193  -30.6
 0.900  0.8245  -43.4  23.679  148.5  0.0262   63.4  0.9035  -34.1
 1.000  0.8138  -47.7  23.209  145.5  0.0284   61.1  0.8872  -37.4
 1.100  0.8031  -51.9  22.720  142.5  0.0305   59.0  0.8704  -40.7
 1.200  0.7924  -56.0  22.216  139.6  0.0324   56.8  0.8533  -43.9
 1.300  0.7816  -60.1  21.702  136.8  0.0343   54.7  0.8359  -47.0
 1.400  0.7708  -63.9  21.182  134.1  0.0360   52.6  0.8183  -50.0
 1.500  0.7601  -67.7  20.660  131.5  0.0377   50.6  0.8005  -53.0
 1.600  0.7494  -71.5  20.140  128.9  0.0393   48.7  0.7827  -55.8
 1.700  0.7388  -75.1  19.625  126.5  0.0408   46.9  0.7650  -58.6
 1.800  0.7285  -78.6  19.117  124.1  0.0422   45.3  0.7476  -61.3
 1.900  0.7184  -82.0  18.620  121.8  0.0435   43.7  0.7304  -63.9
 2.000  0.7087  -85.3  18.132  119.6  0.0446   42.2  0.7137  -66.4
 2.100  0.6993  -88.5  17.657  117.4  0.0456   40.8  0.6974  -68.9
 2.200  0.6904  -91.6  17.195  115.4  0.0465   39.4  0.6817  -71.3
 2.300  0.6818  -94.6  16.745  113.5  0.0472   38.1  0.6667  -73.6
 2.400  0.6736  -97.4  16.311  111.6  0.0478   36.8  0.6523  -75.8
 2.500  0.6657 -100.2  15.892  109.8  0.0483   35.4  0.6385  -78.0
 2.600  0.6580 -102.8  15.490  108.1  0.0487   34.0  0.6254  -80.1
 2.700  0.6507 -105.3  15.106  106.4  0.0491   32.7  0.6129  -82.1
 2.800  0.6439 -107.8  14.740  104.7  0.0496   31.5  0.6010  -84.1
 2.900  0.6381 -110.4  14.389  103.0  0.0503   30.5  0.5897  -86.1
 3.000  0.6341 -113.1  14.049  101.3  0.0511   30.2  0.5789  -87.8
 3.100  0.6255 -115.4  13.672   99.7  0.0512   28.9  0.5664  -90.0
 3.200  0.6200 -117.6  13.347   98.2  0.0515   28.0  0.5561  -91.9
 3.300  0.6149 -119.8  13.035   96.8  0.0517   27.2  0.5464  -93.7
 3.400  0.6103 -122.0  12.734   95.3  0.0519   26.4  0.5371  -95.5
 3.500  0.6060 -124.1  12.445   93.9  0.0521   25.6  0.5284  -97.2
 3.600  0.6022 -126.1  12.166   92.5  0.0523   24.9  0.5201  -98.9
 3.700  0.5986 -128.1  11.896   91.2  0.0524   24.3  0.5122 -100.6
 3.800  0.5954 -130.0  11.636   89.8  0.0526   23.7  0.5047 -102.2
 3.900  0.5925 -131.9  11.384   88.5  0.0527   23.1  0.4976 -103.8
 4.000  0.5898 -133.7  11.140   87.3  0.0529   22.5  0.4909 -105.4
 4.100  0.5873 -135.5  10.905   86.0  0.0530   21.9  0.4845 -107.0
 4.200  0.5850 -137.3  10.677   84.8  0.0532   21.4  0.4784 -108.6
 4.300  0.5827 -139.0  10.456   83.6  0.0534   20.8  0.4725 -110.1
 4.400  0.5806 -140.7  10.243   82.4  0.0535   20.3  0.4669 -111.6
 4.500  0.5785 -142.4  10.037   81.3  0.0537   19.8  0.4615 -113.2
 4.600  0.5765 -144.1   9.839   80.2  0.0538   19.3  0.4563 -114.7
 4.700  0.5747 -145.7   9.647   79.1  0.0539   18.7  0.4513 -116.2
 4.800  0.5730 -147.3   9.462   78.0  0.0540   18.2  0.4466 -117.7
 4.900  0.5714 -148.9   9.283   76.9  0.0540   17.7  0.4420 -119.1
 5.000  0.5699 -150.4   9.111   75.9  0.0541   17.3  0.4376 -120.6
 5.100  0.5687 -151.9   8.944   74.8  0.0541   16.8  0.4335 -122.0
 5.200  0.5675 -153.4   8.782   73.8  0.0540   16.3  0.4297 -123.4
 5.300  0.5665 -154.8   8.625   72.7  0.0540   15.9  0.4260 -124.8
 5.400  0.5656 -156.2   8.473   71.7  0.0540   15.5  0.4226 -126.2
 5.500  0.5648 -157.6   8.325   70.7  0.0539   15.1  0.4194 -127.6
 5.600  0.5640 -158.9   8.181   69.7  0.0538   14.8  0.4164 -128.9
 5.700  0.5633 -160.2   8.041   68.7  0.0538   14.4  0.4136 -130.3
 5.800  0.5627 -161.5   7.905   67.7  0.0537   14.1  0.4109 -131.6
 5.900  0.5621 -162.7   7.772   66.8  0.0536   13.8  0.4085 -132.9
 6.000  0.5615 -164.0   7.642   65.8  0.0535   13.6  0.4062 -134.2
 6.100  0.5610 -165.2   7.516   64.8  0.0534   13.4  0.4041 -135.5
 6.200  0.5605 -166.4   7.392   63.9  0.0533   13.1  0.4021 -136.8
 6.300  0.5602 -167.6   7.273   63.0  0.0532   12.9  0.4004 -138.1
 6.400  0.5600 -168.8   7.156   62.0  0.0530   12.8  0.3988 -139.3
 6.500  0.5599 -169.9   7.043   61.1  0.0529   12.6  0.3974 -140.6
 6.600  0.5601 -171.0   6.933   60.3  0.0527   12.4  0.3961 -141.8
 6.700  0.5604 -172.1   6.827   59.4  0.0526   12.3  0.3949 -143.1
 6.800  0.5609 -173.2   6.724   58.5  0.0525   12.1  0.3939 -144.3
 6.900  0.5616 -174.2   6.624   57.7  0.0523   12.0  0.3931 -145.5
 7.000  0.5626 -175.2   6.528   56.9  0.0522   11.9  0.3923 -146.7
 7.100  0.5637 -176.2   6.434   56.1  0.0521   11.7  0.3915 -147.9
 7.200  0.5649 -177.2   6.343   55.2  0.0520   11.6  0.3909 -149.1
 7.300  0.5662 -178.3   6.254   54.4  0.0520   11.4  0.3902 -150.3
 7.400  0.5676 -179.3   6.165   53.6  0.0519   11.2  0.3894 -151.5
 7.500  0.5689  179.5   6.076   52.7  0.0518   11.0  0.3886 -152.8
 7.600  0.5701  178.3   5.985   51.9  0.0517   10.7  0.3878 -154.2
 7.700  0.5710  177.1   5.892   50.9  0.0516   10.4  0.3868 -155.6
 7.800  0.5717  175.7   5.795   49.9  0.0514   10.1  0.3856 -157.1
 7.900  0.5721  174.3   5.693   48.8  0.0512    9.8  0.3844 -158.6
 8.000  0.5722  172.7   5.586   47.7  0.0509    9.4  0.3831 -160.3
 8.500  0.5708  168.6   5.296   44.4  0.0497    8.6  0.3796 -164.7
 9.000  0.5682  164.2   4.987   40.7  0.0480    8.1  0.3768 -169.4
 9.500  0.5649  160.0   4.675   36.8  0.0460    8.2  0.3752 -174.1
10.000  0.5624  156.1   4.381   32.9  0.0439    9.6  0.3749 -178.5
10.500  0.5613  152.8   4.116   29.2  0.0422   12.2  0.3761  177.6
11.000  0.5619  149.8   3.885   25.8  0.0414   15.9  0.3787  174.1
11.500  0.5638  147.2   3.687   22.7  0.0417   19.9  0.3829  171.1
12.000  0.5670  144.8   3.511   19.5  0.0430   23.0  0.3891  168.3
!
!  f       NFmin   Gammaopt  rn/50
! GHz       dB    MAG  ANG    -
 0.450      0.78  0.25    6   0.16
 0.900      0.81  0.25   11   0.16
 1.500      0.83  0.26   20   0.15
 1.900      0.84  0.27   32   0.15
 2.400      0.85  0.26   37   0.14
 3.500      0.84  0.27   53   0.14
 4.000      0.86  0.27   62   0.13
 5.000      0.89  0.27   70   0.13
 5.500      0.88  0.28   77   0.13
 6.000      0.90  0.29   86   0.12
 7.000      0.94  0.28   96   0.12
 8.000      1.00  0.27  107   0.11
 9.000      1.03  0.28  119   0.11
10.000      1.10  0.25  127   0.11
11.000      1.15  0.25  142   0.11
12.000      1.22  0.25  164   0.11
!
! (c) 2012  Infineon Technologies AG, Munich
