! Infineon Technologies  Discrete & RF Semiconductors
! BFR840L3RHESD
! VCE =  2.0 V,  IC =  3.0 mA
! Common Emitter S-Parameters:                            Jun 2012
# GHz  S  MA  R  50
!  f         S11            S21            S12            S22
! GHz     MAG   ANG      MAG   ANG      MAG   ANG      MAG   ANG
 0.150  0.9698   -3.9   9.219  176.6  0.0042   80.3  0.9962   -3.2
 0.200  0.9691   -5.2   9.211  175.6  0.0057   76.9  0.9957   -4.3
 0.250  0.9683   -6.4   9.203  174.6  0.0073   76.6  0.9949   -5.4
 0.300  0.9674   -7.7   9.193  173.5  0.0090   77.3  0.9939   -6.5
 0.350  0.9664   -9.0   9.183  172.4  0.0107   78.0  0.9928   -7.6
 0.400  0.9653  -10.2   9.172  171.3  0.0124   78.7  0.9915   -8.6
 0.450  0.9642  -11.5   9.160  170.2  0.0141   79.0  0.9901   -9.7
 0.500  0.9629  -12.7   9.147  169.1  0.0158   79.2  0.9887  -10.7
 0.600  0.9601  -15.2   9.119  166.9  0.0189   78.7  0.9854  -12.8
 0.700  0.9569  -17.6   9.086  164.8  0.0218   77.4  0.9819  -14.9
 0.800  0.9535  -20.1   9.049  162.6  0.0245   75.6  0.9779  -17.0
 0.900  0.9498  -22.5   9.006  160.5  0.0271   73.5  0.9737  -19.0
 1.000  0.9459  -24.9   8.959  158.4  0.0296   71.2  0.9691  -21.0
 1.100  0.9417  -27.3   8.907  156.4  0.0321   68.9  0.9640  -23.1
 1.200  0.9373  -29.6   8.850  154.3  0.0347   66.8  0.9586  -25.1
 1.300  0.9327  -32.0   8.789  152.3  0.0374   64.9  0.9528  -27.1
 1.400  0.9277  -34.4   8.725  150.3  0.0401   63.1  0.9467  -29.1
 1.500  0.9225  -36.7   8.657  148.3  0.0427   61.6  0.9401  -31.1
 1.600  0.9170  -39.1   8.587  146.3  0.0454   60.1  0.9332  -33.1
 1.700  0.9111  -41.4   8.514  144.3  0.0479   58.7  0.9260  -35.0
 1.800  0.9050  -43.8   8.439  142.3  0.0503   57.3  0.9185  -37.0
 1.900  0.8986  -46.1   8.362  140.3  0.0526   55.9  0.9107  -38.9
 2.000  0.8921  -48.4   8.281  138.4  0.0546   54.3  0.9027  -40.8
 2.100  0.8854  -50.7   8.199  136.5  0.0566   52.7  0.8945  -42.7
 2.200  0.8786  -53.0   8.113  134.6  0.0584   51.0  0.8862  -44.5
 2.300  0.8719  -55.2   8.025  132.8  0.0601   49.2  0.8779  -46.4
 2.400  0.8651  -57.3   7.934  131.0  0.0618   47.5  0.8696  -48.2
 2.500  0.8584  -59.4   7.842  129.3  0.0635   45.8  0.8613  -50.0
 2.600  0.8517  -61.5   7.750  127.5  0.0652   44.3  0.8531  -51.7
 2.700  0.8450  -63.5   7.658  125.8  0.0669   42.9  0.8449  -53.5
 2.800  0.8382  -65.6   7.570  124.1  0.0686   41.7  0.8368  -55.2
 2.900  0.8312  -67.7   7.487  122.3  0.0701   40.7  0.8286  -56.8
 3.000  0.8240  -69.9   7.413  120.5  0.0715   39.6  0.8199  -58.4
 3.100  0.8161  -71.8   7.306  118.9  0.0725   37.5  0.8102  -60.3
 3.200  0.8091  -73.8   7.215  117.2  0.0737   36.1  0.8017  -62.0
 3.300  0.8023  -75.8   7.125  115.6  0.0749   34.8  0.7932  -63.6
 3.400  0.7956  -77.8   7.035  114.0  0.0761   33.5  0.7849  -65.2
 3.500  0.7892  -79.7   6.946  112.4  0.0772   32.2  0.7767  -66.9
 3.600  0.7829  -81.6   6.857  110.8  0.0782   30.9  0.7687  -68.5
 3.700  0.7769  -83.5   6.768  109.2  0.0792   29.7  0.7607  -70.0
 3.800  0.7710  -85.4   6.680  107.7  0.0801   28.5  0.7530  -71.6
 3.900  0.7653  -87.3   6.593  106.2  0.0809   27.3  0.7454  -73.2
 4.000  0.7598  -89.1   6.506  104.7  0.0817   26.2  0.7379  -74.7
 4.100  0.7543  -90.9   6.420  103.2  0.0824   25.0  0.7305  -76.2
 4.200  0.7489  -92.7   6.335  101.7  0.0831   24.0  0.7232  -77.7
 4.300  0.7435  -94.5   6.251  100.3  0.0837   22.9  0.7160  -79.2
 4.400  0.7382  -96.2   6.167   98.9  0.0842   21.8  0.7089  -80.7
 4.500  0.7329  -98.0   6.085   97.5  0.0847   20.8  0.7018  -82.1
 4.600  0.7276  -99.7   6.004   96.1  0.0851   19.7  0.6949  -83.6
 4.700  0.7223 -101.5   5.925   94.8  0.0855   18.7  0.6880  -85.0
 4.800  0.7172 -103.2   5.847   93.4  0.0858   17.6  0.6813  -86.5
 4.900  0.7122 -104.9   5.770   92.1  0.0861   16.6  0.6746  -87.9
 5.000  0.7074 -106.5   5.695   90.7  0.0863   15.6  0.6681  -89.3
 5.100  0.7027 -108.2   5.620   89.4  0.0865   14.6  0.6618  -90.7
 5.200  0.6982 -109.8   5.547   88.1  0.0866   13.5  0.6556  -92.1
 5.300  0.6939 -111.5   5.475   86.9  0.0867   12.5  0.6496  -93.5
 5.400  0.6898 -113.1   5.404   85.6  0.0868   11.6  0.6437  -94.8
 5.500  0.6859 -114.7   5.334   84.3  0.0868   10.6  0.6381  -96.2
 5.600  0.6821 -116.2   5.265   83.1  0.0868    9.6  0.6326  -97.6
 5.700  0.6784 -117.8   5.197   81.8  0.0867    8.7  0.6273  -98.9
 5.800  0.6748 -119.3   5.129   80.6  0.0867    7.8  0.6221 -100.3
 5.900  0.6713 -120.8   5.062   79.4  0.0866    6.8  0.6171 -101.6
 6.000  0.6679 -122.4   4.996   78.1  0.0865    5.9  0.6122 -103.0
 6.100  0.6646 -123.8   4.931   76.9  0.0864    5.1  0.6075 -104.3
 6.200  0.6614 -125.3   4.867   75.8  0.0862    4.2  0.6030 -105.6
 6.300  0.6584 -126.8   4.803   74.6  0.0860    3.4  0.5986 -106.9
 6.400  0.6556 -128.2   4.742   73.4  0.0858    2.6  0.5943 -108.2
 6.500  0.6530 -129.7   4.681   72.3  0.0856    1.8  0.5903 -109.5
 6.600  0.6506 -131.1   4.622   71.2  0.0853    1.0  0.5863 -110.8
 6.700  0.6485 -132.5   4.565   70.1  0.0850    0.3  0.5825 -112.1
 6.800  0.6467 -133.8   4.509   69.0  0.0848   -0.5  0.5789 -113.3
 6.900  0.6451 -135.2   4.455   67.9  0.0845   -1.2  0.5753 -114.6
 7.000  0.6437 -136.5   4.402   66.8  0.0842   -1.9  0.5719 -115.8
 7.100  0.6425 -137.9   4.350   65.8  0.0839   -2.6  0.5685 -117.0
 7.200  0.6413 -139.2   4.299   64.8  0.0836   -3.3  0.5652 -118.3
 7.300  0.6402 -140.6   4.249   63.7  0.0833   -4.1  0.5619 -119.5
 7.400  0.6389 -142.0   4.198   62.6  0.0830   -4.9  0.5585 -120.8
 7.500  0.6375 -143.4   4.146   61.5  0.0827   -5.7  0.5550 -122.1
 7.600  0.6358 -144.9   4.092   60.4  0.0823   -6.6  0.5514 -123.5
 7.700  0.6338 -146.5   4.036   59.2  0.0819   -7.5  0.5475 -124.9
 7.800  0.6314 -148.2   3.977   57.9  0.0814   -8.6  0.5436 -126.5
 7.900  0.6287 -150.0   3.914   56.6  0.0808   -9.7  0.5394 -128.1
 8.000  0.6257 -151.9   3.847   55.1  0.0801  -10.9  0.5351 -129.8
 8.500  0.6170 -157.0   3.663   51.1  0.0773  -14.2  0.5239 -134.6
 9.000  0.6084 -162.6   3.466   46.5  0.0736  -17.9  0.5135 -139.9
 9.500  0.6009 -168.2   3.265   41.7  0.0686  -21.5  0.5044 -145.4
10.000  0.5957 -173.5   3.074   36.8  0.0628  -24.7  0.4974 -150.7
10.500  0.5926 -178.3   2.898   32.3  0.0564  -27.2  0.4925 -155.8
11.000  0.5919  177.3   2.741   28.0  0.0501  -28.7  0.4901 -160.5
11.500  0.5929  173.3   2.600   23.9  0.0442  -28.6  0.4901 -164.9
12.000  0.5960  169.6   2.473   20.0  0.0392  -27.0  0.4929 -169.0
!
!  f       NFmin   Gammaopt  rn/50
! GHz       dB    MAG  ANG    -
 0.450      0.41  0.69    8   0.22
 0.900      0.45  0.67   12   0.22
 1.500      0.47  0.64   21   0.21
 1.900      0.50  0.62   28   0.21
 2.400      0.51  0.63   35   0.20
 3.500      0.53  0.64   46   0.19
 4.000      0.56  0.64   54   0.18
 5.000      0.61  0.65   64   0.17
 5.500      0.62  0.65   72   0.16
 6.000      0.65  0.62   80   0.16
 7.000      0.71  0.60   92   0.14
 8.000      0.79  0.58  101   0.13
 9.000      0.84  0.57  112   0.11
10.000      0.93  0.51  122   0.10
11.000      1.01  0.48  134   0.09
12.000      1.11  0.43  154   0.07
!
! (c) 2012  Infineon Technologies AG, Munich
