! Infineon Technologies  Discrete & RF Semiconductors
! BFR843EL3
! VCE =  2.0 V,  IC =  30 mA
! Common Emitter S-Parameters:                            Aug 2013
# GHz  S  MA  R  50
!  f         S11            S21            S12            S22
! GHz     MAG   ANG      MAG   ANG      MAG   ANG      MAG   ANG
 0.030  0.3299  -86.9  24.692  159.5  0.0342   28.4  0.3839  -66.0
 0.040  0.2771  -98.9  22.868  161.5  0.0378   18.6  0.3042  -72.5
 0.050  0.2686 -106.7  22.046  163.3  0.0427   33.6  0.2577  -76.0
 0.060  0.2119 -117.2  21.057  165.2  0.0433   12.2  0.2135  -81.2
 0.070  0.2054 -122.1  20.672  166.4  0.0395   12.1  0.1851  -82.4
 0.080  0.1940 -125.5  20.413  167.3  0.0398   11.1  0.1668  -85.3
 0.090  0.1871 -129.9  20.239  168.0  0.0399    9.7  0.1523  -86.4
 0.100  0.1815 -132.2  20.091  168.5  0.0404    8.6  0.1399  -87.7
 0.110  0.1773 -135.7  19.970  168.8  0.0378    7.1  0.1306  -90.6
 0.120  0.1750 -137.5  19.921  169.1  0.0387    7.7  0.1200  -90.6
 0.130  0.1725 -139.5  19.832  169.2  0.0394    7.0  0.1143  -91.9
 0.140  0.1708 -141.4  19.795  169.4  0.0393    6.4  0.1089  -93.0
 0.150  0.1679 -141.6  19.754  169.5  0.0401    6.3  0.1053  -93.4
 0.200  0.1658 -146.4  19.595  169.1  0.0402    4.5  0.0904  -96.4
 0.250  0.1683 -149.0  19.519  168.3  0.0418    6.2  0.0819 -100.1
 0.300  0.1652 -149.3  19.441  167.1  0.0404    4.5  0.0796 -102.6
 0.350  0.1700 -151.4  19.339  166.0  0.0399    4.6  0.0818 -105.3
 0.400  0.1748 -150.0  19.266  164.6  0.0402    1.8  0.0817 -104.7
 0.450  0.1793 -149.5  19.158  163.2  0.0394    3.9  0.0841 -107.6
 0.500  0.1815 -150.4  19.070  161.8  0.0388    3.0  0.0876 -109.4
 0.600  0.1932 -148.8  18.914  158.8  0.0399    1.4  0.0938 -109.5
 0.700  0.2029 -148.3  18.683  155.9  0.0410    3.1  0.0999 -112.6
 0.800  0.2155 -148.6  18.420  153.0  0.0397    3.4  0.1091 -114.3
 0.900  0.2283 -147.5  18.150  150.1  0.0400    3.8  0.1175 -116.6
 1.000  0.2397 -148.1  17.875  147.3  0.0409    2.9  0.1278 -117.6
 1.100  0.2527 -148.1  17.582  144.5  0.0402    3.0  0.1346 -119.4
 1.200  0.2665 -148.7  17.278  141.7  0.0410    3.6  0.1435 -121.6
 1.300  0.2765 -149.7  16.965  139.1  0.0396    3.7  0.1515 -122.8
 1.400  0.2878 -149.9  16.674  136.5  0.0401    3.7  0.1583 -124.0
 1.500  0.3013 -150.7  16.344  133.8  0.0398    3.7  0.1680 -125.7
 1.600  0.3102 -151.4  16.017  131.4  0.0400    2.6  0.1736 -126.4
 1.700  0.3207 -152.1  15.694  128.9  0.0402    3.0  0.1819 -128.5
 1.800  0.3297 -153.5  15.360  126.5  0.0402    3.7  0.1900 -130.0
 1.900  0.3394 -154.5  15.013  124.1  0.0406    4.1  0.1968 -131.0
 2.000  0.3493 -155.1  14.704  121.8  0.0403    4.3  0.2039 -132.7
 2.100  0.3594 -156.2  14.368  119.5  0.0408    3.4  0.2115 -134.5
 2.200  0.3666 -157.8  14.045  117.5  0.0402    3.8  0.2170 -135.7
 2.300  0.3755 -158.5  13.740  115.4  0.0413    4.4  0.2223 -137.6
 2.400  0.3834 -159.4  13.429  113.3  0.0401    4.8  0.2280 -138.6
 2.500  0.3869 -160.7  13.153  111.4  0.0403    4.0  0.2336 -140.0
 2.600  0.3976 -161.8  12.848  109.4  0.0402    5.1  0.2382 -141.1
 2.700  0.4003 -163.0  12.560  107.6  0.0410    5.1  0.2440 -142.2
 2.800  0.4079 -164.0  12.294  105.7  0.0415    5.3  0.2499 -143.3
 2.900  0.4124 -165.0  12.023  103.9  0.0417    3.9  0.2542 -144.4
 3.000  0.4193 -166.0  11.744  102.1  0.0403    5.5  0.2586 -145.5
 3.100  0.4233 -166.7  11.521  100.4  0.0405    5.7  0.2621 -146.4
 3.200  0.4288 -167.8  11.259   98.6  0.0402    6.0  0.2692 -147.3
 3.300  0.4348 -168.9  11.010   96.9  0.0393    5.4  0.2735 -148.4
 3.400  0.4406 -169.9  10.769   95.3  0.0406    5.2  0.2790 -149.8
 3.500  0.4445 -170.9  10.545   93.7  0.0408    5.3  0.2818 -150.9
 3.600  0.4466 -172.0  10.333   92.3  0.0400    5.4  0.2850 -152.0
 3.700  0.4512 -172.9  10.124   90.7  0.0401    5.8  0.2884 -153.0
 3.800  0.4530 -173.6   9.913   89.1  0.0401    5.9  0.2913 -153.7
 3.900  0.4556 -174.5   9.713   87.7  0.0402    6.6  0.2941 -154.5
 4.000  0.4597 -175.2   9.525   86.1  0.0399    6.2  0.2986 -155.1
 4.100  0.4632 -175.9   9.332   84.7  0.0410    7.0  0.3027 -155.6
 4.200  0.4683 -176.6   9.141   83.3  0.0408    7.6  0.3089 -156.3
 4.300  0.4716 -177.3   8.943   81.8  0.0400    7.3  0.3130 -157.2
 4.400  0.4762 -178.2   8.758   80.5  0.0403    7.1  0.3178 -158.0
 4.500  0.4794 -179.0   8.587   79.2  0.0401    8.4  0.3217 -159.5
 4.600  0.4838 -179.7   8.432   78.0  0.0393    6.1  0.3271 -159.8
 4.700  0.4875  179.1   8.262   76.7  0.0402    6.5  0.3319 -160.8
 4.800  0.4895  178.3   8.124   75.4  0.0404    7.5  0.3343 -161.9
 4.900  0.4913  177.6   7.980   74.2  0.0401    7.4  0.3353 -162.7
 5.000  0.4939  176.8   7.846   73.0  0.0403    7.5  0.3396 -163.4
 5.100  0.4971  176.0   7.696   71.6  0.0398    8.9  0.3420 -164.3
 5.200  0.4984  175.3   7.563   70.5  0.0397    8.2  0.3475 -164.9
 5.300  0.5012  174.7   7.434   69.2  0.0399    7.8  0.3492 -165.4
 5.400  0.5031  174.0   7.301   68.0  0.0405    9.2  0.3540 -166.2
 5.500  0.5054  173.3   7.179   66.8  0.0401    8.3  0.3572 -166.9
 5.600  0.5081  172.7   7.052   65.6  0.0400    9.1  0.3613 -167.5
 5.700  0.5106  172.0   6.922   64.5  0.0407    8.5  0.3654 -168.4
 5.800  0.5134  171.0   6.804   63.4  0.0408    9.4  0.3693 -168.9
 5.900  0.5162  170.6   6.700   62.3  0.0400    9.4  0.3736 -169.7
 6.000  0.5191  169.7   6.586   61.1  0.0406   10.7  0.3751 -170.4
 6.100  0.5202  169.2   6.474   60.0  0.0398   10.3  0.3805 -171.2
 6.200  0.5228  168.3   6.363   58.9  0.0399   10.4  0.3847 -171.8
 6.300  0.5245  167.8   6.267   57.9  0.0399   11.3  0.3881 -172.6
 6.400  0.5267  167.1   6.171   56.8  0.0405   10.2  0.3915 -173.1
 6.500  0.5283  166.4   6.066   55.7  0.0402   11.4  0.3960 -173.9
 6.600  0.5303  165.9   5.970   54.7  0.0401   10.9  0.3987 -174.6
 6.700  0.5321  165.3   5.877   53.6  0.0401   10.0  0.4033 -175.2
 6.800  0.5353  164.8   5.780   52.5  0.0394   10.0  0.4075 -176.0
 6.900  0.5385  164.0   5.696   51.5  0.0395   12.1  0.4102 -176.9
 7.000  0.5401  163.3   5.617   50.6  0.0394   11.9  0.4138 -177.6
 7.100  0.5435  162.8   5.520   49.5  0.0397   11.5  0.4167 -178.1
 7.200  0.5449  162.1   5.439   48.4  0.0399   12.0  0.4200 -178.7
 7.300  0.5473  161.5   5.339   47.4  0.0390   12.5  0.4253 -179.5
 7.400  0.5477  161.1   5.256   46.4  0.0391   12.7  0.4306  179.8
 7.500  0.5513  160.7   5.175   45.8  0.0394   13.5  0.4343  179.0
 7.600  0.5563  160.1   5.106   44.9  0.0389   14.3  0.4379  178.2
 7.700  0.5609  159.1   5.049   44.0  0.0401   14.3  0.4422  177.5
 7.800  0.5637  158.3   4.991   43.1  0.0394   14.4  0.4451  176.6
 7.900  0.5666  157.6   4.929   42.3  0.0404   14.2  0.4482  175.9
 8.000  0.5698  156.9   4.874   41.2  0.0396   13.3  0.4520  175.0
 8.500  0.5731  153.0   4.560   35.9  0.0392   13.7  0.4644  171.3
 9.000  0.5717  149.9   4.253   31.1  0.0371   16.3  0.4732  168.1
 9.500  0.5757  147.4   3.964   26.7  0.0383   19.0  0.4879  165.5
10.000  0.5773  144.9   3.706   22.6  0.0366   20.1  0.5001  162.8
10.500  0.5811  142.6   3.514   18.6  0.0384   25.5  0.5142  159.9
11.000  0.5839  140.2   3.287   14.2  0.0389   29.6  0.5253  157.5
11.500  0.5857  138.3   3.100    9.9  0.0407   33.1  0.5378  155.1
12.000  0.5817  137.4   2.923    6.8  0.0454   37.4  0.5458  153.5
!
!  f       NFmin   Gammaopt  rn/50
! GHz       dB    MAG  ANG    -
 0.450      1.35  0.17  172   0.13
 0.900      1.34  0.17  168   0.12
 1.500      1.34  0.19  166   0.11
 1.900      1.34  0.19  168   0.10
 2.400      1.34  0.20  171   0.11
 3.500      1.35  0.22  176   0.11
 5.500      1.36  0.29  190   0.10
 8.000      1.38  0.39  206   0.09
10.000      1.40  0.49  225   0.10
!
! (c) 2013  Infineon Technologies AG, Munich
