! Infineon Technologies  Discrete & RF Semiconductors
! BFR843EL3
! VCE =  1.5 V,  IC =  35 mA
! Common Emitter S-Parameters:                            Aug 2013
# GHz  S  MA  R  50
!  f         S11            S21            S12            S22
! GHz     MAG   ANG      MAG   ANG      MAG   ANG      MAG   ANG
 0.030  0.3326  -94.2  25.480  159.4  0.0327   27.4  0.3721  -71.1
 0.040  0.2893 -107.0  23.584  161.4  0.0344   18.9  0.2950  -79.1
 0.050  0.2963 -113.9  22.727  163.1  0.0485   10.5  0.2562  -85.1
 0.060  0.2358 -127.2  21.703  165.1  0.0343    5.7  0.2081  -90.2
 0.070  0.2317 -129.9  21.302  166.2  0.0365   11.7  0.1843  -93.5
 0.080  0.2247 -133.9  21.038  167.1  0.0365   11.1  0.1673  -97.8
 0.090  0.2181 -137.4  20.854  167.7  0.0369    8.9  0.1539  -99.8
 0.100  0.2145 -139.9  20.707  168.3  0.0359    6.8  0.1439 -102.0
 0.110  0.2112 -143.1  20.581  168.5  0.0365    7.1  0.1337 -105.0
 0.120  0.2092 -144.7  20.531  168.8  0.0379    6.5  0.1243 -106.4
 0.130  0.2067 -146.5  20.436  168.9  0.0381    8.0  0.1197 -108.8
 0.140  0.2057 -148.3  20.396  169.0  0.0373    6.9  0.1152 -110.7
 0.150  0.2008 -148.5  20.356  169.2  0.0389    8.0  0.1117 -111.8
 0.200  0.2033 -152.4  20.188  168.7  0.0371    5.9  0.0981 -117.5
 0.250  0.2058 -154.3  20.095  167.7  0.0361    5.1  0.0935 -122.4
 0.300  0.2046 -155.6  20.006  166.4  0.0368    3.8  0.0906 -126.0
 0.350  0.2105 -156.7  19.899  165.2  0.0379    3.1  0.0939 -126.8
 0.400  0.2126 -155.5  19.811  163.7  0.0370    2.8  0.0944 -127.0
 0.450  0.2193 -155.3  19.681  162.2  0.0361    1.5  0.0983 -128.4
 0.500  0.2211 -155.5  19.572  160.7  0.0373    2.8  0.1016 -128.9
 0.600  0.2326 -154.1  19.380  157.6  0.0380    2.4  0.1060 -129.0
 0.700  0.2441 -153.2  19.119  154.5  0.0375    3.3  0.1126 -130.1
 0.800  0.2561 -153.9  18.805  151.4  0.0374    2.9  0.1207 -130.1
 0.900  0.2716 -152.7  18.494  148.4  0.0375    1.9  0.1301 -131.7
 1.000  0.2820 -153.1  18.165  145.4  0.0384    3.7  0.1389 -131.9
 1.100  0.2952 -153.0  17.833  142.5  0.0376    4.1  0.1456 -132.7
 1.200  0.3094 -153.8  17.476  139.6  0.0382    4.9  0.1552 -133.9
 1.300  0.3194 -154.4  17.122  136.9  0.0379    4.3  0.1609 -135.0
 1.400  0.3310 -154.9  16.794  134.2  0.0372    4.7  0.1689 -135.7
 1.500  0.3455 -155.7  16.420  131.5  0.0373    4.0  0.1782 -136.6
 1.600  0.3530 -156.4  16.055  129.0  0.0377    4.6  0.1820 -137.0
 1.700  0.3647 -157.1  15.695  126.4  0.0374    2.9  0.1924 -138.1
 1.800  0.3736 -158.0  15.322  124.0  0.0385    5.3  0.1992 -139.4
 1.900  0.3826 -159.2  14.951  121.6  0.0372    5.6  0.2040 -140.2
 2.000  0.3926 -159.9  14.611  119.2  0.0380    6.4  0.2128 -141.3
 2.100  0.4023 -160.8  14.249  116.9  0.0384    5.3  0.2195 -143.0
 2.200  0.4091 -162.2  13.894  114.9  0.0392    5.4  0.2251 -143.7
 2.300  0.4181 -162.9  13.567  112.8  0.0383    5.7  0.2298 -145.1
 2.400  0.4261 -164.0  13.244  110.7  0.0378    4.1  0.2353 -146.2
 2.500  0.4304 -165.1  12.948  108.8  0.0391    6.0  0.2420 -146.8
 2.600  0.4389 -166.3  12.622  106.8  0.0396    5.6  0.2466 -148.2
 2.700  0.4427 -167.3  12.322  105.0  0.0395    6.3  0.2508 -148.9
 2.800  0.4507 -168.1  12.038  103.0  0.0383    7.3  0.2551 -149.7
 2.900  0.4536 -169.0  11.761  101.3  0.0385    7.3  0.2597 -150.7
 3.000  0.4614 -170.0  11.470   99.5  0.0387    6.9  0.2649 -151.5
 3.100  0.4651 -170.8  11.240   97.8  0.0383    7.2  0.2685 -152.2
 3.200  0.4702 -171.8  10.967   96.0  0.0390    7.3  0.2749 -153.2
 3.300  0.4762 -172.8  10.711   94.4  0.0383    6.6  0.2790 -154.2
 3.400  0.4814 -173.8  10.463   92.8  0.0393    8.0  0.2847 -155.1
 3.500  0.4848 -174.6  10.238   91.2  0.0382    8.2  0.2865 -156.2
 3.600  0.4870 -175.6  10.023   89.8  0.0389    7.4  0.2892 -157.1
 3.700  0.4923 -176.4   9.808   88.3  0.0385    6.2  0.2935 -157.7
 3.800  0.4929 -177.2   9.594   86.6  0.0385    8.7  0.2964 -158.5
 3.900  0.4943 -178.1   9.393   85.2  0.0384    8.0  0.2989 -159.2
 4.000  0.4981 -178.7   9.201   83.7  0.0377    9.0  0.3030 -159.8
 4.100  0.5015 -179.5   9.008   82.3  0.0384    8.6  0.3068 -160.1
 4.200  0.5064  179.9   8.818   80.9  0.0392    9.3  0.3124 -160.8
 4.300  0.5099  179.1   8.621   79.5  0.0387   10.6  0.3178 -161.6
 4.400  0.5133  178.4   8.434   78.2  0.0390    9.1  0.3209 -162.2
 4.500  0.5170  177.6   8.266   76.9  0.0382   11.0  0.3270 -163.4
 4.600  0.5214  176.8   8.107   75.7  0.0385   10.8  0.3305 -164.0
 4.700  0.5244  175.8   7.941   74.5  0.0381   11.2  0.3356 -165.0
 4.800  0.5270  175.1   7.805   73.2  0.0394   11.3  0.3380 -165.7
 4.900  0.5278  174.3   7.661   72.0  0.0386   11.4  0.3408 -166.4
 5.000  0.5313  173.5   7.530   70.8  0.0398   10.4  0.3431 -167.1
 5.100  0.5326  172.8   7.378   69.4  0.0386   11.5  0.3467 -167.8
 5.200  0.5347  172.2   7.248   68.3  0.0389   11.9  0.3508 -168.2
 5.300  0.5365  171.6   7.120   67.1  0.0394   12.7  0.3530 -168.9
 5.400  0.5394  170.9   6.992   66.0  0.0386   11.6  0.3590 -169.5
 5.500  0.5404  170.1   6.872   64.7  0.0388   13.1  0.3618 -170.2
 5.600  0.5443  169.5   6.746   63.5  0.0394   13.3  0.3654 -170.7
 5.700  0.5453  168.7   6.617   62.5  0.0395   12.3  0.3688 -171.5
 5.800  0.5484  168.0   6.502   61.4  0.0392   13.2  0.3731 -172.1
 5.900  0.5512  167.4   6.397   60.2  0.0391   13.0  0.3775 -172.8
 6.000  0.5526  166.8   6.288   59.1  0.0395   14.0  0.3800 -173.4
 6.100  0.5550  166.2   6.179   58.0  0.0394   12.9  0.3839 -174.0
 6.200  0.5567  165.4   6.071   56.9  0.0398   14.4  0.3868 -174.7
 6.300  0.5588  164.8   5.975   55.9  0.0398   13.5  0.3916 -175.4
 6.400  0.5600  164.2   5.883   54.8  0.0400   14.2  0.3946 -176.0
 6.500  0.5619  163.5   5.780   53.8  0.0392   14.2  0.3987 -176.7
 6.600  0.5636  163.0   5.690   52.8  0.0399   14.5  0.4026 -177.4
 6.700  0.5656  162.5   5.600   51.8  0.0391   14.5  0.4063 -178.0
 6.800  0.5692  161.9   5.504   50.7  0.0400   14.8  0.4100 -178.6
 6.900  0.5714  161.2   5.422   49.7  0.0404   15.0  0.4139 -179.4
 7.000  0.5734  160.5   5.343   48.7  0.0395   14.8  0.4180  179.9
 7.100  0.5761  160.0   5.250   47.7  0.0402   16.3  0.4195  179.5
 7.200  0.5768  159.4   5.171   46.6  0.0394   15.9  0.4234  178.6
 7.300  0.5790  158.8   5.076   45.6  0.0393   16.4  0.4290  178.2
 7.400  0.5786  158.3   4.998   44.6  0.0402   17.0  0.4330  177.6
 7.500  0.5828  157.9   4.919   44.0  0.0403   16.3  0.4373  176.9
 7.600  0.5888  157.3   4.854   43.2  0.0394   17.9  0.4419  175.9
 7.700  0.5934  156.6   4.794   42.2  0.0397   17.2  0.4454  175.3
 7.800  0.5959  155.7   4.739   41.4  0.0405   16.6  0.4490  174.6
 7.900  0.5977  155.1   4.680   40.5  0.0397   17.4  0.4518  173.8
 8.000  0.5997  154.3   4.626   39.5  0.0407   16.7  0.4549  172.9
 8.500  0.6033  150.5   4.321   34.2  0.0398   17.0  0.4690  169.4
 9.000  0.6018  147.5   4.026   29.6  0.0391   19.6  0.4780  166.2
 9.500  0.6045  144.9   3.750   25.2  0.0406   22.1  0.4910  163.7
10.000  0.6043  142.4   3.508   21.1  0.0399   24.7  0.5036  161.2
10.500  0.6087  140.3   3.322   17.2  0.0398   28.2  0.5179  158.4
11.000  0.6112  137.9   3.105   12.8  0.0421   31.6  0.5286  155.9
11.500  0.6108  135.9   2.926    8.6  0.0447   34.9  0.5405  153.6
12.000  0.6077  135.2   2.759    5.4  0.0486   37.9  0.5496  152.1
!
!  f       NFmin   Gammaopt  rn/50
! GHz       dB    MAG  ANG    -
 0.450      1.43  0.20  177   0.13
 0.900      1.45  0.21  174   0.12
 1.500      1.45  0.23  173   0.11
 1.900      1.44  0.23  174   0.11
 2.400      1.46  0.25  178   0.11
 3.500      1.46  0.26  182   0.11
 5.500      1.47  0.33  195   0.09
 8.000      1.49  0.43  210   0.09
10.000      1.50  0.51  227   0.11
!
! (c) 2013  Infineon Technologies AG, Munich
