! Infineon Technologies  Discrete & RF Semiconductors
! BFR840L3RHESD
! VCE =  0.5 V,  IC =  20 mA
! Common Emitter S-Parameters:                            Jun 2012
# GHz  S  MA  R  50
!  f         S11            S21            S12            S22
! GHz     MAG   ANG      MAG   ANG      MAG   ANG      MAG   ANG
 0.150  0.5945  -24.4  12.099  169.0  0.0116   43.3  0.2077  -19.8
 0.200  0.5997  -32.1  11.972  165.3  0.0140   48.4  0.2083  -26.7
 0.250  0.6040  -39.4  11.794  161.7  0.0165   50.4  0.2086  -33.3
 0.300  0.6083  -46.4  11.577  158.2  0.0188   50.8  0.2088  -39.5
 0.350  0.6129  -53.1  11.333  154.8  0.0211   50.2  0.2089  -45.5
 0.400  0.6181  -59.5  11.069  151.6  0.0233   49.2  0.2090  -51.2
 0.450  0.6240  -65.5  10.793  148.5  0.0253   47.9  0.2092  -56.6
 0.500  0.6304  -71.3  10.511  145.4  0.0273   46.5  0.2094  -61.7
 0.600  0.6442  -81.8   9.939  139.7  0.0308   43.6  0.2100  -71.3
 0.700  0.6581  -91.1   9.376  134.5  0.0339   40.8  0.2108  -79.9
 0.800  0.6707  -99.3   8.833  129.8  0.0365   38.2  0.2116  -87.7
 0.900  0.6813 -106.5   8.315  125.5  0.0387   35.8  0.2123  -94.6
 1.000  0.6899 -112.9   7.826  121.6  0.0405   33.6  0.2129 -100.8
 1.100  0.6967 -118.7   7.369  118.1  0.0421   31.6  0.2136 -106.3
 1.200  0.7023 -123.8   6.946  114.9  0.0433   29.7  0.2142 -111.3
 1.300  0.7071 -128.4   6.559  112.0  0.0444   28.0  0.2150 -115.7
 1.400  0.7115 -132.6   6.206  109.2  0.0452   26.5  0.2158 -119.7
 1.500  0.7157 -136.4   5.887  106.7  0.0460   25.0  0.2168 -123.4
 1.600  0.7198 -139.8   5.598  104.3  0.0467   23.8  0.2179 -126.6
 1.700  0.7238 -143.0   5.336  102.0  0.0473   22.6  0.2191 -129.6
 1.800  0.7275 -145.9   5.095   99.8  0.0478   21.7  0.2202 -132.3
 1.900  0.7307 -148.6   4.872   97.7  0.0483   20.8  0.2214 -134.8
 2.000  0.7334 -151.2   4.663   95.8  0.0487   20.1  0.2225 -137.2
 2.100  0.7353 -153.6   4.464   94.0  0.0490   19.5  0.2236 -139.4
 2.200  0.7366 -155.9   4.275   92.3  0.0492   18.9  0.2246 -141.5
 2.300  0.7375 -158.0   4.096   90.7  0.0493   18.3  0.2258 -143.4
 2.400  0.7382 -160.0   3.930   89.2  0.0494   17.7  0.2270 -145.2
 2.500  0.7389 -161.9   3.779   87.8  0.0494   17.0  0.2285 -146.9
 2.600  0.7400 -163.6   3.646   86.3  0.0494   16.3  0.2302 -148.4
 2.700  0.7415 -165.2   3.532   84.9  0.0493   15.5  0.2321 -149.8
 2.800  0.7433 -166.7   3.429   83.4  0.0493   14.9  0.2340 -151.2
 2.900  0.7446 -168.3   3.321   82.0  0.0494   14.5  0.2355 -152.6
 3.000  0.7440 -170.3   3.175   80.7  0.0495   14.7  0.2357 -154.3
 3.100  0.7428 -171.6   3.074   79.8  0.0497   14.1  0.2367 -155.6
 3.200  0.7436 -173.0   2.984   78.6  0.0498   13.7  0.2383 -156.8
 3.300  0.7445 -174.3   2.899   77.3  0.0499   13.4  0.2400 -157.9
 3.400  0.7455 -175.6   2.817   76.1  0.0500   13.1  0.2417 -159.1
 3.500  0.7464 -176.9   2.740   74.9  0.0500   12.8  0.2434 -160.2
 3.600  0.7473 -178.1   2.665   73.7  0.0501   12.6  0.2451 -161.2
 3.700  0.7481 -179.3   2.594   72.5  0.0501   12.3  0.2468 -162.2
 3.800  0.7489  179.6   2.525   71.3  0.0502   12.2  0.2485 -163.2
 3.900  0.7495  178.5   2.459   70.2  0.0502   12.0  0.2502 -164.1
 4.000  0.7502  177.4   2.396   69.1  0.0502   11.9  0.2520 -165.0
 4.100  0.7507  176.3   2.335   68.0  0.0502   11.8  0.2538 -166.0
 4.200  0.7512  175.3   2.277   67.0  0.0503   11.7  0.2556 -166.8
 4.300  0.7517  174.2   2.222   66.0  0.0503   11.6  0.2574 -167.7
 4.400  0.7521  173.2   2.168   64.9  0.0503   11.6  0.2592 -168.6
 4.500  0.7525  172.2   2.117   64.0  0.0503   11.5  0.2611 -169.4
 4.600  0.7528  171.2   2.069   63.0  0.0504   11.5  0.2630 -170.3
 4.700  0.7532  170.3   2.022   62.0  0.0504   11.4  0.2649 -171.1
 4.800  0.7536  169.3   1.977   61.1  0.0504   11.4  0.2667 -172.0
 4.900  0.7539  168.4   1.935   60.2  0.0504   11.4  0.2687 -172.8
 5.000  0.7543  167.5   1.893   59.3  0.0505   11.4  0.2706 -173.6
 5.100  0.7546  166.6   1.854   58.4  0.0505   11.4  0.2725 -174.4
 5.200  0.7548  165.7   1.816   57.5  0.0505   11.3  0.2744 -175.2
 5.300  0.7551  164.9   1.779   56.6  0.0505   11.3  0.2764 -176.0
 5.400  0.7553  164.0   1.744   55.7  0.0505   11.3  0.2784 -176.7
 5.500  0.7555  163.2   1.710   54.8  0.0505   11.2  0.2804 -177.5
 5.600  0.7556  162.4   1.677   53.9  0.0506   11.1  0.2824 -178.2
 5.700  0.7557  161.5   1.646   53.0  0.0506   11.1  0.2844 -179.0
 5.800  0.7558  160.7   1.615   52.1  0.0506   11.0  0.2865 -179.7
 5.900  0.7558  160.0   1.585   51.3  0.0506   10.9  0.2886  179.6
 6.000  0.7558  159.2   1.556   50.4  0.0506   10.8  0.2907  178.9
 6.100  0.7559  158.4   1.528   49.6  0.0506   10.7  0.2928  178.2
 6.200  0.7559  157.6   1.501   48.7  0.0506   10.6  0.2950  177.5
 6.300  0.7560  156.9   1.475   47.9  0.0506   10.5  0.2971  176.8
 6.400  0.7561  156.1   1.449   47.1  0.0506   10.4  0.2993  176.1
 6.500  0.7563  155.4   1.425   46.3  0.0506   10.3  0.3014  175.5
 6.600  0.7566  154.7   1.401   45.5  0.0506   10.3  0.3036  174.8
 6.700  0.7569  154.0   1.378   44.7  0.0506   10.3  0.3057  174.2
 6.800  0.7572  153.3   1.356   43.9  0.0506   10.3  0.3079  173.5
 6.900  0.7577  152.7   1.334   43.2  0.0506   10.3  0.3100  172.9
 7.000  0.7581  152.1   1.314   42.4  0.0505   10.3  0.3122  172.3
 7.100  0.7587  151.4   1.294   41.7  0.0505   10.4  0.3144  171.6
 7.200  0.7592  150.8   1.274   40.9  0.0504   10.4  0.3166  171.0
 7.300  0.7598  150.2   1.255   40.2  0.0503   10.5  0.3189  170.4
 7.400  0.7604  149.5   1.236   39.4  0.0503   10.5  0.3212  169.7
 7.500  0.7610  148.8   1.216   38.6  0.0502   10.6  0.3236  169.0
 7.600  0.7615  148.1   1.197   37.8  0.0501   10.7  0.3261  168.2
 7.700  0.7619  147.3   1.177   36.9  0.0499   10.7  0.3287  167.5
 7.800  0.7622  146.4   1.155   36.0  0.0498   10.8  0.3314  166.6
 7.900  0.7623  145.5   1.134   35.1  0.0497   10.9  0.3343  165.7
 8.000  0.7623  144.6   1.111   34.0  0.0495   11.0  0.3372  164.8
 8.500  0.7615  142.0   1.049   31.1  0.0491   11.4  0.3452  162.2
 9.000  0.7599  139.1   0.986   27.9  0.0486   12.1  0.3540  159.6
 9.500  0.7577  136.3   0.923   24.4  0.0481   13.1  0.3635  156.8
10.000  0.7558  133.6   0.865   21.0  0.0478   14.8  0.3734  154.2
10.500  0.7548  131.1   0.813   17.7  0.0478   16.9  0.3837  151.8
11.000  0.7550  128.8   0.768   14.6  0.0486   19.3  0.3942  149.5
11.500  0.7563  126.7   0.729   11.7  0.0501   21.4  0.4051  147.2
12.000  0.7583  124.6   0.694    8.8  0.0523   22.7  0.4163  145.1
!
!  f       NFmin   Gammaopt  rn/50
! GHz       dB    MAG  ANG    -
 0.450      1.09  0.06   16   0.16
 0.900      1.12  0.07   29   0.15
 1.500      1.13  0.09   43   0.14
 1.900      1.15  0.10   55   0.14
 2.400      1.15  0.11   66   0.14
 3.500      1.14  0.12   79   0.13
 4.000      1.15  0.14   86   0.13
 5.000      1.18  0.16   96   0.12
 5.500      1.17  0.17  104   0.12
 6.000      1.19  0.19  113   0.12
 7.000      1.23  0.19  122   0.12
 8.000      1.28  0.19  133   0.12
 9.000      1.31  0.19  145   0.12
10.000      1.37  0.19  157   0.12
11.000      1.42  0.20  172   0.12
12.000      1.49  0.21 -170   0.12
!
! (c) 2012  Infineon Technologies AG, Munich
