! Infineon Technologies  Discrete & RF Semiconductors
! BFR843EL3
! VCE =  1.0 V,  IC =  9.0 mA
! Common Emitter S-Parameters:                            Aug 2013
# GHz  S  MA  R  50
!  f         S11            S21            S12            S22
! GHz     MAG   ANG      MAG   ANG      MAG   ANG      MAG   ANG
 0.030  0.5073  -37.1  16.296  165.1  0.0489   33.5  0.5584  -34.7
 0.040  0.4329  -37.9  15.389  166.3  0.0526   26.0  0.4787  -34.8
 0.050  0.3767  -38.2  14.966  167.6  0.0604    8.2  0.4321  -34.8
 0.060  0.3451  -35.7  14.436  168.6  0.0492   13.0  0.3905  -32.3
 0.070  0.3206  -34.9  14.220  169.4  0.0558   16.1  0.3670  -30.9
 0.080  0.3066  -32.9  14.057  170.1  0.0546   13.0  0.3504  -29.9
 0.090  0.2928  -31.7  13.975  170.5  0.0542   11.8  0.3391  -28.6
 0.100  0.2835  -30.6  13.886  170.9  0.0549   11.1  0.3306  -27.7
 0.110  0.2767  -29.7  13.822  171.0  0.0553    8.3  0.3221  -26.8
 0.120  0.2720  -29.1  13.799  171.2  0.0559    8.8  0.3177  -25.4
 0.130  0.2657  -28.2  13.751  171.2  0.0559    7.7  0.3118  -25.2
 0.140  0.2625  -27.9  13.730  171.3  0.0562    7.9  0.3089  -24.6
 0.150  0.2610  -27.2  13.680  171.4  0.0569    6.8  0.3058  -24.4
 0.200  0.2521  -26.3  13.608  170.8  0.0565    6.2  0.2990  -23.7
 0.250  0.2457  -27.1  13.575  169.9  0.0553    5.7  0.2926  -24.1
 0.300  0.2449  -28.0  13.531  168.7  0.0571    4.6  0.2928  -25.3
 0.350  0.2417  -30.0  13.488  167.6  0.0546    4.5  0.2891  -27.2
 0.400  0.2467  -31.4  13.434  166.4  0.0569    4.0  0.2911  -28.7
 0.450  0.2455  -33.9  13.378  165.1  0.0567    2.8  0.2902  -31.1
 0.500  0.2450  -35.5  13.325  163.7  0.0569    3.0  0.2906  -33.3
 0.600  0.2491  -40.3  13.252  161.0  0.0578    3.1  0.2933  -37.4
 0.700  0.2525  -45.1  13.145  158.2  0.0572    3.3  0.2944  -42.0
 0.800  0.2532  -49.7  12.980  155.4  0.0578    3.1  0.2971  -46.7
 0.900  0.2620  -54.7  12.841  152.9  0.0579    1.9  0.3012  -51.3
 1.000  0.2646  -58.7  12.680  150.2  0.0581    2.6  0.3056  -55.9
 1.100  0.2706  -63.2  12.534  147.5  0.0581    2.8  0.3101  -60.0
 1.200  0.2735  -68.1  12.372  144.9  0.0593    2.8  0.3120  -64.4
 1.300  0.2774  -71.8  12.185  142.3  0.0591    2.7  0.3160  -68.2
 1.400  0.2845  -75.4  12.003  139.8  0.0595    2.0  0.3204  -72.3
 1.500  0.2912  -79.4  11.822  137.3  0.0599    1.7  0.3258  -76.0
 1.600  0.2954  -82.8  11.621  134.9  0.0604    2.1  0.3300  -79.2
 1.700  0.3035  -86.2  11.431  132.4  0.0607    1.7  0.3355  -83.1
 1.800  0.3058  -90.0  11.231  130.0  0.0606    1.4  0.3388  -86.8
 1.900  0.3100  -93.1  11.019  127.7  0.0607    0.5  0.3444  -89.6
 2.000  0.3188  -96.0  10.822  125.5  0.0612    1.0  0.3478  -93.2
 2.100  0.3234  -99.0  10.603  123.2  0.0622    0.0  0.3524  -96.3
 2.200  0.3257 -102.2  10.409  121.1  0.0612    0.3  0.3562  -99.2
 2.300  0.3322 -104.9  10.216  119.0  0.0629   -0.2  0.3581 -102.0
 2.400  0.3382 -107.8  10.025  116.9  0.0624   -0.6  0.3634 -104.7
 2.500  0.3398 -109.8   9.832  115.0  0.0622   -1.5  0.3664 -107.4
 2.600  0.3453 -112.8   9.634  113.0  0.0628   -1.3  0.3708 -109.8
 2.700  0.3472 -114.7   9.428  111.1  0.0612   -2.6  0.3744 -112.2
 2.800  0.3537 -117.1   9.261  109.1  0.0633   -2.5  0.3785 -114.6
 2.900  0.3563 -119.3   9.083  107.3  0.0626   -3.2  0.3811 -116.7
 3.000  0.3615 -121.6   8.899  105.5  0.0623   -3.4  0.3844 -118.9
 3.100  0.3649 -123.4   8.746  103.7  0.0625   -2.7  0.3869 -120.9
 3.200  0.3700 -125.4   8.557  101.9  0.0623   -3.0  0.3938 -122.9
 3.300  0.3733 -127.5   8.382  100.2  0.0620   -4.6  0.3958 -125.1
 3.400  0.3777 -129.4   8.222   98.5  0.0623   -5.0  0.3994 -127.2
 3.500  0.3804 -131.5   8.070   96.8  0.0622   -5.1  0.3996 -128.8
 3.600  0.3806 -133.0   7.918   95.3  0.0619   -6.1  0.4034 -130.7
 3.700  0.3854 -134.9   7.770   93.7  0.0620   -6.2  0.4046 -132.4
 3.800  0.3883 -136.1   7.615   92.0  0.0615   -6.2  0.4078 -134.1
 3.900  0.3909 -137.5   7.470   90.6  0.0605   -6.5  0.4092 -135.5
 4.000  0.3941 -139.1   7.333   89.0  0.0611   -7.2  0.4127 -137.0
 4.100  0.3979 -140.6   7.200   87.5  0.0613   -6.9  0.4159 -138.3
 4.200  0.4030 -142.2   7.065   85.9  0.0606   -7.0  0.4214 -139.8
 4.300  0.4077 -143.6   6.926   84.5  0.0605   -8.4  0.4236 -141.3
 4.400  0.4108 -145.2   6.785   83.1  0.0604   -7.5  0.4265 -143.0
 4.500  0.4147 -146.6   6.658   81.7  0.0599   -8.6  0.4292 -144.4
 4.600  0.4173 -147.9   6.544   80.4  0.0590   -8.7  0.4345 -145.8
 4.700  0.4190 -149.6   6.425   79.0  0.0597   -8.7  0.4370 -147.1
 4.800  0.4218 -150.9   6.323   77.7  0.0595   -8.8  0.4391 -148.5
 4.900  0.4240 -152.0   6.217   76.4  0.0586  -10.7  0.4404 -149.8
 5.000  0.4265 -153.1   6.107   75.1  0.0581  -10.6  0.4430 -151.0
 5.100  0.4297 -154.3   6.000   73.7  0.0583  -10.3  0.4441 -152.2
 5.200  0.4320 -155.4   5.897   72.5  0.0579  -10.7  0.4487 -153.2
 5.300  0.4344 -156.8   5.807   71.2  0.0570  -11.4  0.4511 -154.3
 5.400  0.4371 -157.7   5.704   70.0  0.0567  -10.8  0.4542 -155.5
 5.500  0.4396 -159.0   5.616   68.7  0.0566  -11.9  0.4569 -156.7
 5.600  0.4430 -159.9   5.517   67.4  0.0568  -11.6  0.4596 -157.8
 5.700  0.4460 -161.2   5.415   66.3  0.0559  -13.2  0.4618 -158.8
 5.800  0.4485 -162.4   5.324   65.1  0.0552  -12.9  0.4659 -160.0
 5.900  0.4516 -163.4   5.252   63.9  0.0556  -12.3  0.4684 -161.0
 6.000  0.4540 -164.3   5.162   62.7  0.0544  -13.1  0.4701 -161.9
 6.100  0.4570 -165.4   5.080   61.5  0.0545  -13.3  0.4737 -163.0
 6.200  0.4584 -166.4   4.991   60.3  0.0545  -13.2  0.4763 -163.9
 6.300  0.4621 -167.4   4.918   59.3  0.0530  -14.0  0.4794 -165.1
 6.400  0.4641 -168.2   4.844   58.1  0.0534  -13.8  0.4824 -165.9
 6.500  0.4656 -169.3   4.765   57.0  0.0521  -14.0  0.4844 -167.0
 6.600  0.4694 -170.2   4.693   55.9  0.0515  -14.3  0.4884 -168.0
 6.700  0.4720 -171.2   4.625   54.8  0.0520  -14.6  0.4913 -168.8
 6.800  0.4752 -172.0   4.546   53.6  0.0515  -13.9  0.4935 -169.8
 6.900  0.4783 -173.0   4.479   52.6  0.0507  -14.3  0.4965 -170.9
 7.000  0.4803 -174.0   4.415   51.6  0.0505  -14.8  0.5000 -171.9
 7.100  0.4833 -174.8   4.342   50.5  0.0507  -13.9  0.5017 -172.5
 7.200  0.4857 -175.8   4.283   49.3  0.0501  -15.5  0.5042 -173.4
 7.300  0.4882 -176.6   4.207   48.2  0.0489  -15.8  0.5080 -174.3
 7.400  0.4903 -177.4   4.144   47.2  0.0478  -15.5  0.5124 -175.2
 7.500  0.4935 -178.3   4.077   46.5  0.0471  -14.7  0.5146 -176.3
 7.600  0.4989 -179.1   4.024   45.6  0.0477  -14.6  0.5181 -177.0
 7.700  0.5003  179.9   3.977   44.6  0.0475  -15.3  0.5214 -177.9
 7.800  0.5034  178.7   3.931   43.7  0.0471  -14.9  0.5238 -178.9
 7.900  0.5058  177.8   3.881   42.8  0.0467  -14.8  0.5268 -179.7
 8.000  0.5088  176.9   3.837   41.7  0.0466  -14.7  0.5287  179.2
 8.500  0.5150  172.4   3.584   36.2  0.0434  -16.8  0.5400  174.9
 9.000  0.5187  168.6   3.342   31.3  0.0396  -16.9  0.5461  171.1
 9.500  0.5260  165.0   3.116   26.6  0.0366  -15.0  0.5576  167.8
10.000  0.5307  161.7   2.917   22.3  0.0334  -13.5  0.5674  164.6
10.500  0.5383  159.0   2.754   18.1  0.0300   -7.2  0.5788  161.4
11.000  0.5457  156.0   2.572   13.6  0.0268   -0.7  0.5888  158.4
11.500  0.5522  153.5   2.419    9.3  0.0273   10.8  0.5983  155.7
12.000  0.5626  151.6   2.283    5.6  0.0287   23.7  0.6078  153.5
!
!  f       NFmin   Gammaopt  rn/50
! GHz       dB    MAG  ANG    -
 0.450      0.88  0.07   46   0.12
 0.900      0.90  0.08   59   0.12
 1.500      0.92  0.09   69   0.12
 1.900      0.94  0.09   73   0.12
 2.400      0.95  0.10   86   0.12
 3.500      0.99  0.12  103   0.12
 5.500      1.05  0.17  137   0.11
 8.000      1.12  0.28  173   0.08
10.000      1.18  0.40  211   0.06
!
! (c) 2013  Infineon Technologies AG, Munich
