! Infineon Technologies  Discrete & RF Semiconductors
! BFR840L3RHESD
! VCE =  1.5 V,  IC =  20 mA
! Common Emitter S-Parameters:                            Jun 2012
# GHz  S  MA  R  50
!  f         S11            S21            S12            S22
! GHz     MAG   ANG      MAG   ANG      MAG   ANG      MAG   ANG
 0.150  0.8119   -9.7  33.758  173.7  0.0050   83.2  0.9854   -6.2
 0.200  0.8096  -12.9  33.677  171.6  0.0066   84.0  0.9839   -8.7
 0.250  0.8068  -16.0  33.538  169.5  0.0080   83.3  0.9806  -11.2
 0.300  0.8035  -19.2  33.354  167.3  0.0093   81.9  0.9759  -13.5
 0.350  0.7998  -22.3  33.132  165.2  0.0105   80.3  0.9700  -15.8
 0.400  0.7958  -25.3  32.880  163.1  0.0117   78.4  0.9630  -18.0
 0.450  0.7915  -28.3  32.602  161.1  0.0128   76.5  0.9551  -20.1
 0.500  0.7869  -31.3  32.304  159.0  0.0140   74.6  0.9465  -22.2
 0.600  0.7773  -37.1  31.659  155.1  0.0163   70.8  0.9277  -26.3
 0.700  0.7671  -42.7  30.963  151.3  0.0185   67.3  0.9075  -30.2
 0.800  0.7565  -48.1  30.228  147.6  0.0207   64.2  0.8866  -34.0
 0.900  0.7458  -53.4  29.463  144.1  0.0229   61.3  0.8653  -37.7
 1.000  0.7352  -58.4  28.676  140.8  0.0249   58.6  0.8440  -41.3
 1.100  0.7248  -63.3  27.875  137.7  0.0268   56.1  0.8227  -44.7
 1.200  0.7147  -68.0  27.069  134.6  0.0285   53.8  0.8015  -48.0
 1.300  0.7050  -72.6  26.263  131.7  0.0301   51.6  0.7805  -51.2
 1.400  0.6956  -76.9  25.465  128.9  0.0314   49.5  0.7598  -54.3
 1.500  0.6867  -81.2  24.681  126.2  0.0326   47.6  0.7393  -57.2
 1.600  0.6781  -85.2  23.916  123.6  0.0337   45.8  0.7192  -60.1
 1.700  0.6699  -89.1  23.171  121.1  0.0345   44.1  0.6995  -62.8
 1.800  0.6620  -92.9  22.449  118.7  0.0353   42.6  0.6803  -65.5
 1.900  0.6544  -96.5  21.752  116.4  0.0360   41.3  0.6617  -68.0
 2.000  0.6471 -100.0  21.078  114.2  0.0367   40.1  0.6437  -70.5
 2.100  0.6402 -103.3  20.429  112.2  0.0373   39.0  0.6265  -72.8
 2.200  0.6336 -106.5  19.805  110.2  0.0378   38.0  0.6101  -75.1
 2.300  0.6274 -109.6  19.207  108.3  0.0384   37.0  0.5945  -77.3
 2.400  0.6215 -112.5  18.636  106.6  0.0390   36.0  0.5798  -79.4
 2.500  0.6161 -115.2  18.094  104.8  0.0396   35.0  0.5659  -81.4
 2.600  0.6111 -117.9  17.582  103.2  0.0401   34.0  0.5527  -83.4
 2.700  0.6065 -120.3  17.100  101.5  0.0406   32.9  0.5404  -85.3
 2.800  0.6024 -122.8  16.644   99.9  0.0410   31.9  0.5288  -87.2
 2.900  0.5988 -125.3  16.205   98.3  0.0412   31.3  0.5180  -89.0
 3.000  0.5962 -127.9  15.762   96.7  0.0411   31.4  0.5080  -90.7
 3.100  0.5900 -130.2  15.294   95.3  0.0417   29.9  0.4955  -92.8
 3.200  0.5866 -132.4  14.900   93.9  0.0420   29.3  0.4859  -94.5
 3.300  0.5836 -134.5  14.524   92.5  0.0422   28.7  0.4769  -96.2
 3.400  0.5808 -136.5  14.164   91.1  0.0425   28.2  0.4684  -97.8
 3.500  0.5784 -138.5  13.820   89.8  0.0427   27.8  0.4604  -99.5
 3.600  0.5763 -140.4  13.488   88.5  0.0428   27.3  0.4529 -101.1
 3.700  0.5745 -142.2  13.170   87.2  0.0430   27.0  0.4458 -102.6
 3.800  0.5729 -144.0  12.863   85.9  0.0432   26.7  0.4392 -104.2
 3.900  0.5715 -145.7  12.568   84.7  0.0434   26.4  0.4329 -105.7
 4.000  0.5702 -147.4  12.282   83.5  0.0435   26.2  0.4270 -107.2
 4.100  0.5692 -149.0  12.007   82.3  0.0437   25.9  0.4215 -108.7
 4.200  0.5682 -150.6  11.742   81.2  0.0438   25.7  0.4162 -110.1
 4.300  0.5673 -152.2  11.486   80.1  0.0440   25.5  0.4112 -111.6
 4.400  0.5666 -153.8  11.240   79.0  0.0441   25.2  0.4064 -113.1
 4.500  0.5659 -155.3  11.003   77.9  0.0442   25.0  0.4018 -114.5
 4.600  0.5652 -156.8  10.775   76.8  0.0443   24.7  0.3975 -115.9
 4.700  0.5647 -158.3  10.555   75.8  0.0444   24.4  0.3933 -117.4
 4.800  0.5642 -159.7  10.343   74.8  0.0445   24.0  0.3892 -118.8
 4.900  0.5638 -161.2  10.140   73.8  0.0445   23.7  0.3854 -120.2
 5.000  0.5635 -162.6   9.944   72.8  0.0446   23.4  0.3818 -121.6
 5.100  0.5632 -163.9   9.754   71.8  0.0446   23.1  0.3784 -122.9
 5.200  0.5630 -165.2   9.572   70.8  0.0446   22.8  0.3752 -124.3
 5.300  0.5628 -166.5   9.395   69.9  0.0447   22.5  0.3722 -125.6
 5.400  0.5627 -167.8   9.224   68.9  0.0447   22.2  0.3694 -126.9
 5.500  0.5626 -169.0   9.057   67.9  0.0448   22.0  0.3668 -128.2
 5.600  0.5625 -170.2   8.896   67.0  0.0448   21.8  0.3644 -129.5
 5.700  0.5625 -171.3   8.739   66.0  0.0449   21.7  0.3622 -130.8
 5.800  0.5624 -172.5   8.587   65.1  0.0450   21.6  0.3602 -132.1
 5.900  0.5624 -173.6   8.438   64.2  0.0451   21.5  0.3583 -133.3
 6.000  0.5624 -174.7   8.294   63.3  0.0452   21.4  0.3566 -134.6
 6.100  0.5625 -175.8   8.153   62.4  0.0453   21.4  0.3551 -135.9
 6.200  0.5626 -176.9   8.016   61.5  0.0453   21.4  0.3537 -137.1
 6.300  0.5628 -177.9   7.883   60.6  0.0454   21.4  0.3525 -138.4
 6.400  0.5632 -179.0   7.754   59.7  0.0454   21.3  0.3515 -139.6
 6.500  0.5636 -180.0   7.628   58.9  0.0454   21.3  0.3506 -140.8
 6.600  0.5643  179.0   7.506   58.0  0.0454   21.2  0.3499 -142.0
 6.700  0.5650  178.1   7.389   57.2  0.0454   21.2  0.3493 -143.2
 6.800  0.5660  177.2   7.275   56.4  0.0454   21.1  0.3489 -144.4
 6.900  0.5672  176.3   7.165   55.6  0.0454   21.0  0.3485 -145.6
 7.000  0.5685  175.4   7.059   54.8  0.0454   20.9  0.3482 -146.8
 7.100  0.5699  174.5   6.956   54.0  0.0454   20.8  0.3479 -148.0
 7.200  0.5715  173.6   6.855   53.3  0.0454   20.7  0.3477 -149.2
 7.300  0.5732  172.7   6.757   52.5  0.0455   20.6  0.3474 -150.4
 7.400  0.5750  171.8   6.660   51.7  0.0455   20.5  0.3471 -151.6
 7.500  0.5767  170.8   6.562   50.9  0.0455   20.3  0.3467 -152.9
 7.600  0.5783  169.8   6.463   50.0  0.0455   20.2  0.3462 -154.3
 7.700  0.5798  168.6   6.362   49.1  0.0455   20.0  0.3456 -155.7
 7.800  0.5810  167.4   6.256   48.2  0.0454   19.9  0.3448 -157.1
 7.900  0.5820  166.1   6.145   47.1  0.0453   19.7  0.3440 -158.7
 8.000  0.5825  164.6   6.029   46.0  0.0451   19.6  0.3431 -160.3
 8.500  0.5824  160.8   5.715   42.9  0.0446   19.6  0.3408 -164.7
 9.000  0.5807  156.8   5.379   39.3  0.0437   20.0  0.3391 -169.3
 9.500  0.5779  153.0   5.041   35.5  0.0428   21.2  0.3386 -173.9
10.000  0.5753  149.5   4.721   31.8  0.0420   23.3  0.3396 -178.1
10.500  0.5739  146.5   4.434   28.3  0.0417   26.2  0.3420  178.1
11.000  0.5740  143.8   4.186   25.0  0.0422   29.4  0.3458  174.8
11.500  0.5754  141.4   3.973   21.9  0.0437   32.2  0.3511  171.9
12.000  0.5779  139.3   3.785   18.8  0.0459   33.9  0.3584  169.3
!
!  f       NFmin   Gammaopt  rn/50
! GHz       dB    MAG  ANG    -
 0.450      1.09  0.06   16   0.16
 0.900      1.12  0.07   29   0.15
 1.500      1.13  0.09   43   0.14
 1.900      1.15  0.10   55   0.14
 2.400      1.15  0.11   66   0.14
 3.500      1.14  0.12   79   0.13
 4.000      1.15  0.14   86   0.13
 5.000      1.18  0.16   96   0.12
 5.500      1.17  0.17  104   0.12
 6.000      1.19  0.19  113   0.12
 7.000      1.23  0.19  122   0.12
 8.000      1.28  0.19  133   0.12
 9.000      1.31  0.19  145   0.12
10.000      1.37  0.19  157   0.12
11.000      1.42  0.20  172   0.12
12.000      1.49  0.21 -170   0.12
!
! (c) 2012  Infineon Technologies AG, Munich
