! Infineon Technologies  Discrete & RF Semiconductors
! BFR840L3RHESD
! VCE =  1.0 V,  IC =  20 mA
! Common Emitter S-Parameters:                            Jun 2012
# GHz  S  MA  R  50
!  f         S11            S21            S12            S22
! GHz     MAG   ANG      MAG   ANG      MAG   ANG      MAG   ANG
 0.150  0.8144  -10.7  34.096  173.4  0.0048   86.4  0.9742   -6.7
 0.200  0.8130  -14.1  34.008  171.1  0.0061   82.9  0.9725   -9.4
 0.250  0.8102  -17.5  33.850  168.8  0.0076   80.1  0.9687  -12.1
 0.300  0.8063  -20.9  33.637  166.5  0.0092   77.7  0.9632  -14.6
 0.350  0.8018  -24.2  33.379  164.2  0.0108   75.7  0.9562  -17.1
 0.400  0.7967  -27.5  33.086  162.0  0.0124   73.9  0.9481  -19.5
 0.450  0.7912  -30.7  32.765  159.8  0.0140   72.2  0.9391  -21.9
 0.500  0.7856  -33.9  32.420  157.6  0.0155   70.7  0.9294  -24.2
 0.600  0.7740  -40.1  31.679  153.4  0.0184   67.8  0.9085  -28.7
 0.700  0.7625  -46.1  30.887  149.5  0.0209   64.9  0.8866  -32.9
 0.800  0.7512  -51.8  30.060  145.7  0.0231   62.1  0.8640  -37.0
 0.900  0.7403  -57.3  29.209  142.1  0.0250   59.3  0.8413  -40.9
 1.000  0.7298  -62.6  28.343  138.7  0.0267   56.6  0.8185  -44.7
 1.100  0.7196  -67.7  27.470  135.4  0.0283   53.9  0.7960  -48.3
 1.200  0.7097  -72.6  26.598  132.3  0.0297   51.4  0.7737  -51.8
 1.300  0.7002  -77.2  25.734  129.4  0.0310   49.1  0.7517  -55.1
 1.400  0.6910  -81.7  24.886  126.5  0.0322   47.0  0.7301  -58.3
 1.500  0.6822  -86.0  24.058  123.8  0.0334   45.2  0.7091  -61.4
 1.600  0.6738  -90.1  23.255  121.2  0.0345   43.6  0.6885  -64.4
 1.700  0.6658  -94.1  22.481  118.7  0.0355   42.2  0.6687  -67.3
 1.800  0.6583  -97.9  21.736  116.3  0.0364   41.0  0.6495  -70.1
 1.900  0.6512 -101.5  21.020  114.1  0.0371   40.0  0.6311  -72.8
 2.000  0.6444 -105.0  20.334  111.9  0.0378   39.0  0.6135  -75.3
 2.100  0.6381 -108.3  19.677  109.9  0.0384   38.0  0.5967  -77.8
 2.200  0.6321 -111.4  19.048  108.0  0.0390   37.0  0.5808  -80.2
 2.300  0.6265 -114.4  18.448  106.1  0.0395   36.0  0.5658  -82.4
 2.400  0.6212 -117.2  17.877  104.4  0.0400   34.9  0.5517  -84.6
 2.500  0.6162 -119.9  17.337  102.7  0.0406   33.8  0.5386  -86.7
 2.600  0.6117 -122.5  16.827  101.0  0.0412   32.7  0.5265  -88.7
 2.700  0.6077 -124.9  16.348   99.4  0.0417   31.6  0.5153  -90.7
 2.800  0.6043 -127.4  15.896   97.8  0.0422   30.6  0.5048  -92.6
 2.900  0.6015 -129.8  15.461   96.2  0.0425   29.8  0.4948  -94.5
 3.000  0.5994 -132.4  15.025   94.7  0.0422   29.2  0.4848  -96.3
 3.100  0.5939 -134.6  14.562   93.3  0.0426   28.6  0.4727  -98.4
 3.200  0.5910 -136.7  14.177   91.9  0.0429   28.0  0.4639 -100.2
 3.300  0.5885 -138.8  13.811   90.5  0.0430   27.3  0.4557 -102.0
 3.400  0.5863 -140.7  13.461   89.2  0.0432   26.8  0.4480 -103.7
 3.500  0.5844 -142.6  13.126   87.9  0.0434   26.2  0.4409 -105.4
 3.600  0.5828 -144.5  12.805   86.6  0.0435   25.8  0.4342 -107.0
 3.700  0.5813 -146.2  12.496   85.4  0.0436   25.3  0.4279 -108.6
 3.800  0.5801 -148.0  12.199   84.1  0.0438   25.0  0.4220 -110.2
 3.900  0.5791 -149.6  11.913   82.9  0.0439   24.6  0.4165 -111.8
 4.000  0.5782 -151.3  11.637   81.7  0.0440   24.3  0.4113 -113.3
 4.100  0.5775 -152.9  11.371   80.6  0.0441   24.1  0.4065 -114.9
 4.200  0.5769 -154.4  11.115   79.5  0.0442   23.9  0.4019 -116.4
 4.300  0.5763 -155.9  10.869   78.4  0.0443   23.7  0.3976 -117.9
 4.400  0.5759 -157.4  10.631   77.3  0.0445   23.5  0.3934 -119.4
 4.500  0.5755 -158.9  10.403   76.2  0.0446   23.4  0.3895 -120.8
 4.600  0.5751 -160.4  10.183   75.2  0.0447   23.3  0.3857 -122.3
 4.700  0.5748 -161.8   9.972   74.2  0.0449   23.1  0.3821 -123.8
 4.800  0.5746 -163.2   9.769   73.2  0.0451   23.0  0.3787 -125.2
 4.900  0.5743 -164.5   9.573   72.2  0.0452   22.8  0.3755 -126.6
 5.000  0.5742 -165.9   9.385   71.2  0.0454   22.6  0.3724 -128.0
 5.100  0.5740 -167.2   9.203   70.2  0.0456   22.4  0.3696 -129.4
 5.200  0.5739 -168.4   9.028   69.3  0.0457   22.2  0.3669 -130.8
 5.300  0.5739 -169.7   8.859   68.3  0.0458   22.0  0.3645 -132.1
 5.400  0.5738 -170.9   8.695   67.4  0.0459   21.8  0.3623 -133.4
 5.500  0.5738 -172.0   8.536   66.4  0.0460   21.5  0.3602 -134.7
 5.600  0.5738 -173.2   8.382   65.5  0.0460   21.3  0.3584 -136.0
 5.700  0.5738 -174.3   8.232   64.6  0.0461   21.1  0.3568 -137.3
 5.800  0.5738 -175.4   8.087   63.7  0.0461   20.9  0.3554 -138.6
 5.900  0.5738 -176.5   7.945   62.7  0.0460   20.7  0.3541 -139.8
 6.000  0.5739 -177.6   7.807   61.8  0.0460   20.5  0.3530 -141.1
 6.100  0.5741 -178.6   7.673   60.9  0.0459   20.3  0.3520 -142.3
 6.200  0.5743 -179.6   7.543   60.1  0.0458   20.2  0.3512 -143.6
 6.300  0.5747  179.3   7.416   59.2  0.0457   20.1  0.3505 -144.8
 6.400  0.5751  178.4   7.293   58.3  0.0457   20.0  0.3499 -146.0
 6.500  0.5757  177.4   7.174   57.5  0.0456   20.0  0.3495 -147.2
 6.600  0.5765  176.5   7.058   56.7  0.0455   19.9  0.3492 -148.4
 6.700  0.5774  175.6   6.947   55.8  0.0455   19.9  0.3489 -149.6
 6.800  0.5785  174.7   6.838   55.0  0.0455   19.9  0.3488 -150.7
 6.900  0.5797  173.8   6.734   54.3  0.0455   19.9  0.3488 -151.9
 7.000  0.5811  173.0   6.633   53.5  0.0455   20.0  0.3488 -153.0
 7.100  0.5826  172.1   6.535   52.7  0.0455   20.0  0.3489 -154.2
 7.200  0.5842  171.3   6.440   52.0  0.0456   20.0  0.3490 -155.3
 7.300  0.5859  170.4   6.346   51.2  0.0456   20.0  0.3490 -156.5
 7.400  0.5876  169.5   6.254   50.4  0.0457   20.0  0.3491 -157.7
 7.500  0.5893  168.6   6.161   49.6  0.0457   20.0  0.3490 -158.9
 7.600  0.5909  167.5   6.067   48.8  0.0458   20.0  0.3489 -160.2
 7.700  0.5923  166.4   5.970   47.9  0.0458   20.0  0.3487 -161.6
 7.800  0.5934  165.2   5.870   46.9  0.0458   19.9  0.3485 -163.0
 7.900  0.5943  163.9   5.765   45.9  0.0457   19.8  0.3481 -164.5
 8.000  0.5950  162.6   5.655   44.8  0.0456   19.7  0.3477 -166.1
 8.500  0.5950  158.8   5.357   41.7  0.0451   19.7  0.3467 -170.3
 9.000  0.5936  154.9   5.039   38.1  0.0443   20.1  0.3464 -174.8
 9.500  0.5912  151.2   4.720   34.4  0.0433   21.3  0.3472 -179.2
10.000  0.5888  147.8   4.419   30.7  0.0426   23.3  0.3492  176.8
10.500  0.5875  145.0   4.149   27.2  0.0425   26.0  0.3523  173.2
11.000  0.5877  142.4   3.916   24.0  0.0434   28.8  0.3567  170.0
11.500  0.5893  140.1   3.715   20.9  0.0452   31.1  0.3624  167.3
12.000  0.5920  138.0   3.538   17.8  0.0477   32.4  0.3698  164.8
!
!  f       NFmin   Gammaopt  rn/50
! GHz       dB    MAG  ANG    -
 0.450      1.09  0.06   16   0.16
 0.900      1.12  0.07   29   0.15
 1.500      1.13  0.09   43   0.14
 1.900      1.15  0.10   55   0.14
 2.400      1.15  0.11   66   0.14
 3.500      1.14  0.12   79   0.13
 4.000      1.15  0.14   86   0.13
 5.000      1.18  0.16   96   0.12
 5.500      1.17  0.17  104   0.12
 6.000      1.19  0.19  113   0.12
 7.000      1.23  0.19  122   0.12
 8.000      1.28  0.19  133   0.12
 9.000      1.31  0.19  145   0.12
10.000      1.37  0.19  157   0.12
11.000      1.42  0.20  172   0.12
12.000      1.49  0.21 -170   0.12
!
! (c) 2012  Infineon Technologies AG, Munich
