! Infineon Technologies  Discrete & RF Semiconductors
! BFR843EL3
! VCE =  2.0 V,  IC =  45 mA
! Common Emitter S-Parameters:                            Aug 2013
# GHz  S  MA  R  50
!  f         S11            S21            S12            S22
! GHz     MAG   ANG      MAG   ANG      MAG   ANG      MAG   ANG
 0.030  0.3174 -101.3  24.643  160.1  0.0309   29.0  0.3444  -71.9
 0.040  0.2857 -114.8  22.870  161.9  0.0332   20.2  0.2730  -80.2
 0.050  0.2553 -122.5  22.064  163.5  0.0228   37.4  0.2295  -87.1
 0.060  0.2565 -130.9  21.098  165.4  0.0370   22.8  0.1984  -93.2
 0.070  0.2471 -137.0  20.720  166.4  0.0353   12.6  0.1720  -96.8
 0.080  0.2405 -140.3  20.473  167.3  0.0355   11.8  0.1572 -101.4
 0.090  0.2370 -143.9  20.303  167.9  0.0358   10.7  0.1434 -104.8
 0.100  0.2354 -146.2  20.161  168.3  0.0352    9.1  0.1349 -107.0
 0.110  0.2329 -148.5  20.041  168.5  0.0338    8.3  0.1269 -111.0
 0.120  0.2336 -149.8  19.993  168.7  0.0362    8.3  0.1184 -112.7
 0.130  0.2321 -151.6  19.903  168.8  0.0359    9.4  0.1148 -115.4
 0.140  0.2317 -152.7  19.864  168.9  0.0352    6.2  0.1115 -117.3
 0.150  0.2297 -153.1  19.831  169.0  0.0342    4.9  0.1086 -118.4
 0.200  0.2315 -156.7  19.661  168.3  0.0351    4.1  0.0969 -124.9
 0.250  0.2347 -157.9  19.575  167.2  0.0362    4.7  0.0897 -130.1
 0.300  0.2365 -157.9  19.473  165.8  0.0358    5.4  0.0872 -133.5
 0.350  0.2422 -158.5  19.354  164.4  0.0349    2.2  0.0890 -136.2
 0.400  0.2452 -158.2  19.261  162.8  0.0344    3.1  0.0884 -136.1
 0.450  0.2532 -157.7  19.128  161.2  0.0358    3.7  0.0904 -138.0
 0.500  0.2552 -157.5  19.004  159.6  0.0361    3.0  0.0932 -138.3
 0.600  0.2690 -156.3  18.780  156.2  0.0347    3.0  0.0961 -137.4
 0.700  0.2823 -155.7  18.487  152.9  0.0349    3.5  0.1003 -138.8
 0.800  0.2951 -156.0  18.146  149.6  0.0360    4.1  0.1054 -138.5
 0.900  0.3106 -155.3  17.814  146.5  0.0356    4.3  0.1105 -138.5
 1.000  0.3227 -155.5  17.453  143.4  0.0353    4.0  0.1162 -138.3
 1.100  0.3373 -155.6  17.090  140.4  0.0351    4.6  0.1221 -137.8
 1.200  0.3515 -156.2  16.698  137.3  0.0360    4.1  0.1275 -138.1
 1.300  0.3636 -157.0  16.322  134.5  0.0354    3.6  0.1323 -138.4
 1.400  0.3764 -157.4  15.973  131.7  0.0356    3.9  0.1380 -138.4
 1.500  0.3905 -158.3  15.590  128.9  0.0344    5.0  0.1455 -138.7
 1.600  0.3969 -159.0  15.209  126.3  0.0359    5.4  0.1492 -138.6
 1.700  0.4090 -159.6  14.827  123.7  0.0358    4.5  0.1566 -139.0
 1.800  0.4205 -160.8  14.441  121.2  0.0350    7.0  0.1629 -139.5
 1.900  0.4297 -161.8  14.058  118.7  0.0351    5.3  0.1662 -139.8
 2.000  0.4395 -162.5  13.714  116.4  0.0349    5.8  0.1748 -140.9
 2.100  0.4495 -163.5  13.355  114.1  0.0354    5.6  0.1799 -141.9
 2.200  0.4582 -164.8  13.013  112.0  0.0356    6.8  0.1858 -142.0
 2.300  0.4645 -165.4  12.676  109.8  0.0361    5.6  0.1898 -143.5
 2.400  0.4751 -166.7  12.343  107.7  0.0358    7.2  0.1957 -143.9
 2.500  0.4784 -167.7  12.049  105.8  0.0360    6.0  0.2017 -144.6
 2.600  0.4878 -168.6  11.738  103.8  0.0348    6.4  0.2053 -145.0
 2.700  0.4902 -169.7  11.449  102.0  0.0358    7.8  0.2105 -145.8
 2.800  0.4963 -170.6  11.171  100.1  0.0348    7.1  0.2139 -146.5
 2.900  0.5013 -171.5  10.899   98.3  0.0350    8.3  0.2200 -147.1
 3.000  0.5090 -172.3  10.605   96.5  0.0358    7.7  0.2250 -147.6
 3.100  0.5130 -173.1  10.381   94.7  0.0361    8.0  0.2287 -148.1
 3.200  0.5186 -174.0  10.121   93.0  0.0355    7.6  0.2346 -148.7
 3.300  0.5237 -175.1   9.886   91.3  0.0361    8.0  0.2397 -149.6
 3.400  0.5287 -176.0   9.646   89.8  0.0358    9.6  0.2458 -150.6
 3.500  0.5323 -177.0   9.426   88.2  0.0362    9.7  0.2481 -151.6
 3.600  0.5343 -177.8   9.211   86.7  0.0355    9.3  0.2514 -152.0
 3.700  0.5391 -178.8   9.009   85.1  0.0355   10.1  0.2555 -152.6
 3.800  0.5404 -179.6   8.804   83.5  0.0353   10.2  0.2589 -153.2
 3.900  0.5422  179.7   8.623   82.2  0.0356   11.4  0.2624 -153.9
 4.000  0.5458  179.0   8.441   80.6  0.0361   10.3  0.2669 -154.2
 4.100  0.5499  178.3   8.254   79.2  0.0360   11.5  0.2728 -154.3
 4.200  0.5543  177.7   8.065   77.8  0.0362   11.8  0.2789 -155.0
 4.300  0.5579  177.0   7.879   76.3  0.0357   11.7  0.2840 -155.7
 4.400  0.5620  176.2   7.708   75.0  0.0362   12.8  0.2884 -156.5
 4.500  0.5647  175.4   7.557   73.8  0.0356   13.5  0.2935 -157.6
 4.600  0.5685  174.7   7.411   72.6  0.0354   13.5  0.2989 -158.2
 4.700  0.5715  173.8   7.255   71.3  0.0361   13.9  0.3036 -159.2
 4.800  0.5739  172.9   7.116   70.0  0.0367   13.0  0.3071 -159.8
 4.900  0.5756  172.3   6.984   68.8  0.0370   14.6  0.3092 -160.7
 5.000  0.5789  171.5   6.855   67.5  0.0363   15.6  0.3147 -161.2
 5.100  0.5803  170.9   6.725   66.2  0.0365   15.3  0.3171 -161.8
 5.200  0.5816  170.2   6.598   65.1  0.0359   15.0  0.3226 -162.2
 5.300  0.5831  169.5   6.482   63.8  0.0372   14.5  0.3254 -162.9
 5.400  0.5866  168.9   6.351   62.6  0.0366   15.2  0.3322 -163.6
 5.500  0.5879  168.1   6.241   61.4  0.0364   15.2  0.3355 -164.5
 5.600  0.5911  167.5   6.121   60.2  0.0372   17.2  0.3398 -164.9
 5.700  0.5928  166.8   6.012   59.1  0.0365   15.8  0.3448 -165.5
 5.800  0.5952  166.0   5.903   58.0  0.0366   16.6  0.3485 -166.2
 5.900  0.5968  165.5   5.809   56.9  0.0369   16.8  0.3531 -167.0
 6.000  0.5996  164.9   5.698   55.7  0.0372   17.5  0.3568 -167.5
 6.100  0.6021  164.2   5.597   54.6  0.0371   17.5  0.3626 -168.3
 6.200  0.6025  163.4   5.493   53.4  0.0378   19.3  0.3650 -168.9
 6.300  0.6055  162.9   5.412   52.5  0.0384   17.4  0.3709 -169.8
 6.400  0.6061  162.3   5.326   51.4  0.0378   18.4  0.3742 -170.3
 6.500  0.6077  161.7   5.234   50.3  0.0377   17.4  0.3784 -171.1
 6.600  0.6104  161.1   5.145   49.3  0.0380   18.8  0.3830 -171.7
 6.700  0.6115  160.4   5.058   48.2  0.0379   19.6  0.3883 -172.5
 6.800  0.6156  160.0   4.970   47.1  0.0371   19.6  0.3930 -173.3
 6.900  0.6176  159.2   4.895   46.1  0.0383   19.3  0.3971 -174.0
 7.000  0.6188  158.6   4.827   45.2  0.0385   21.7  0.3994 -174.6
 7.100  0.6202  158.2   4.740   44.1  0.0378   20.1  0.4042 -175.3
 7.200  0.6215  157.4   4.666   43.0  0.0379   20.8  0.4080 -176.0
 7.300  0.6240  156.9   4.572   41.9  0.0383   20.2  0.4141 -176.5
 7.400  0.6237  156.5   4.500   41.0  0.0385   19.9  0.4195 -177.3
 7.500  0.6271  156.0   4.428   40.3  0.0384   22.1  0.4229 -178.2
 7.600  0.6316  155.4   4.374   39.5  0.0387   21.5  0.4273 -178.9
 7.700  0.6360  154.7   4.320   38.5  0.0385   22.1  0.4321 -179.7
 7.800  0.6402  153.9   4.265   37.6  0.0387   21.8  0.4361  179.5
 7.900  0.6416  153.2   4.203   36.7  0.0396   22.5  0.4388  178.7
 8.000  0.6444  152.5   4.152   35.7  0.0394   21.4  0.4438  177.9
 8.500  0.6464  148.8   3.867   30.3  0.0387   21.9  0.4588  174.1
 9.000  0.6445  145.9   3.600   25.6  0.0396   26.2  0.4697  171.0
 9.500  0.6465  143.4   3.345   21.2  0.0408   27.1  0.4879  168.2
10.000  0.6469  140.9   3.118   17.0  0.0391   28.2  0.5033  165.3
10.500  0.6530  138.7   2.943   13.0  0.0409   33.5  0.5196  162.3
11.000  0.6541  136.4   2.742    8.6  0.0441   34.9  0.5326  159.7
11.500  0.6536  134.4   2.580    4.3  0.0461   37.8  0.5481  156.9
12.000  0.6516  133.3   2.431    1.1  0.0514   42.0  0.5602  155.0
!
!  f       NFmin   Gammaopt  rn/50
! GHz       dB    MAG  ANG    -
 0.450      1.64  0.27  181   0.12
 0.900      1.67  0.29  182   0.12
 1.500      1.68  0.30  183   0.11
 1.900      1.69  0.31 -177   0.12
 2.400      1.70  0.33  188   0.11
 3.500      1.72  0.36  193   0.12
 5.500      1.76  0.42  203   0.11
 8.000      1.81  0.52  216   0.14
10.000      1.84  0.57  232   0.20
!
! (c) 2013  Infineon Technologies AG, Munich
