! Infineon Technologies  Discrete & RF Semiconductors
! BFR840L3RHESD
! VCE =  0.5 V,  IC =  10 mA
! Common Emitter S-Parameters:                            Jun 2012
# GHz  S  MA  R  50
!  f         S11            S21            S12            S22
! GHz     MAG   ANG      MAG   ANG      MAG   ANG      MAG   ANG
 0.150  0.9040   -7.9  23.282  174.6  0.0058   80.2  0.9791   -6.3
 0.200  0.9023  -10.5  23.246  172.6  0.0079   78.1  0.9773   -8.6
 0.250  0.8998  -13.0  23.178  170.7  0.0099   77.4  0.9747  -10.8
 0.300  0.8966  -15.6  23.085  168.8  0.0118   77.0  0.9713  -13.0
 0.350  0.8929  -18.2  22.971  166.9  0.0137   76.5  0.9673  -15.2
 0.400  0.8888  -20.7  22.840  165.1  0.0155   75.9  0.9626  -17.3
 0.450  0.8843  -23.2  22.695  163.2  0.0172   75.2  0.9574  -19.4
 0.500  0.8796  -25.7  22.538  161.4  0.0189   74.2  0.9516  -21.5
 0.600  0.8697  -30.6  22.195  157.8  0.0221   71.8  0.9386  -25.6
 0.700  0.8592  -35.3  21.821  154.3  0.0252   68.9  0.9242  -29.5
 0.800  0.8483  -40.0  21.421  150.9  0.0282   65.8  0.9086  -33.4
 0.900  0.8372  -44.5  21.000  147.7  0.0310   62.8  0.8922  -37.1
 1.000  0.8258  -48.8  20.560  144.6  0.0338   59.8  0.8752  -40.8
 1.100  0.8144  -53.1  20.105  141.6  0.0365   57.1  0.8580  -44.4
 1.200  0.8029  -57.2  19.638  138.7  0.0390   54.7  0.8405  -47.8
 1.300  0.7915  -61.2  19.163  135.8  0.0413   52.5  0.8230  -51.2
 1.400  0.7801  -65.1  18.684  133.1  0.0435   50.4  0.8056  -54.5
 1.500  0.7689  -68.9  18.205  130.5  0.0454   48.6  0.7882  -57.7
 1.600  0.7580  -72.6  17.729  127.9  0.0471   46.8  0.7710  -60.8
 1.700  0.7472  -76.2  17.260  125.4  0.0486   45.1  0.7539  -63.8
 1.800  0.7367  -79.7  16.799  123.0  0.0500   43.4  0.7371  -66.8
 1.900  0.7266  -83.2  16.349  120.7  0.0512   41.7  0.7206  -69.6
 2.000  0.7167  -86.5  15.910  118.5  0.0524   40.0  0.7044  -72.4
 2.100  0.7071  -89.7  15.484  116.4  0.0535   38.3  0.6887  -75.0
 2.200  0.6979  -92.7  15.070  114.4  0.0545   36.6  0.6736  -77.6
 2.300  0.6891  -95.7  14.669  112.5  0.0554   35.0  0.6590  -80.2
 2.400  0.6808  -98.5  14.282  110.6  0.0563   33.5  0.6452  -82.6
 2.500  0.6728 -101.2  13.908  108.8  0.0570   32.2  0.6322  -85.0
 2.600  0.6654 -103.8  13.549  107.1  0.0576   31.0  0.6200  -87.2
 2.700  0.6584 -106.4  13.206  105.4  0.0581   30.1  0.6085  -89.4
 2.800  0.6519 -108.8  12.878  103.7  0.0585   29.2  0.5976  -91.5
 2.900  0.6458 -111.3  12.566  102.0  0.0590   28.2  0.5871  -93.6
 3.000  0.6399 -114.0  12.266  100.3  0.0599   27.0  0.5766  -95.7
 3.100  0.6327 -116.3  11.931   98.8  0.0600   25.5  0.5648  -98.0
 3.200  0.6273 -118.6  11.643   97.3  0.0603   24.5  0.5552 -100.0
 3.300  0.6223 -120.8  11.368   95.9  0.0606   23.6  0.5462 -102.0
 3.400  0.6178 -122.9  11.103   94.4  0.0609   22.7  0.5377 -103.9
 3.500  0.6137 -125.0  10.848   93.0  0.0611   21.9  0.5296 -105.8
 3.600  0.6099 -127.0  10.602   91.6  0.0614   21.1  0.5221 -107.6
 3.700  0.6065 -129.0  10.364   90.3  0.0616   20.4  0.5149 -109.4
 3.800  0.6035 -130.9  10.135   89.0  0.0618   19.7  0.5082 -111.2
 3.900  0.6006 -132.8   9.914   87.7  0.0620   19.1  0.5018 -112.9
 4.000  0.5980 -134.6   9.700   86.4  0.0621   18.4  0.4959 -114.6
 4.100  0.5956 -136.4   9.493   85.2  0.0623   17.9  0.4902 -116.3
 4.200  0.5934 -138.1   9.293   84.0  0.0625   17.3  0.4848 -118.0
 4.300  0.5912 -139.8   9.100   82.8  0.0626   16.7  0.4798 -119.6
 4.400  0.5892 -141.5   8.913   81.6  0.0627   16.1  0.4749 -121.2
 4.500  0.5872 -143.2   8.733   80.5  0.0628   15.6  0.4703 -122.8
 4.600  0.5854 -144.9   8.559   79.4  0.0628   15.0  0.4659 -124.4
 4.700  0.5837 -146.5   8.391   78.3  0.0628   14.4  0.4616 -126.0
 4.800  0.5821 -148.1   8.229   77.2  0.0628   13.9  0.4576 -127.5
 4.900  0.5806 -149.6   8.072   76.1  0.0628   13.3  0.4537 -129.0
 5.000  0.5792 -151.1   7.921   75.1  0.0628   12.8  0.4501 -130.5
 5.100  0.5780 -152.6   7.775   74.0  0.0627   12.3  0.4466 -132.0
 5.200  0.5770 -154.1   7.634   73.0  0.0626   11.8  0.4433 -133.5
 5.300  0.5760 -155.5   7.496   72.0  0.0626   11.3  0.4403 -134.9
 5.400  0.5752 -156.9   7.363   71.0  0.0625   10.9  0.4374 -136.3
 5.500  0.5744 -158.2   7.234   69.9  0.0624   10.5  0.4347 -137.7
 5.600  0.5737 -159.6   7.108   68.9  0.0624   10.0  0.4323 -139.1
 5.700  0.5730 -160.9   6.986   68.0  0.0623    9.6  0.4300 -140.5
 5.800  0.5724 -162.2   6.866   67.0  0.0622    9.2  0.4279 -141.8
 5.900  0.5718 -163.4   6.750   66.0  0.0622    8.9  0.4259 -143.1
 6.000  0.5712 -164.7   6.637   65.0  0.0621    8.5  0.4242 -144.4
 6.100  0.5707 -165.9   6.527   64.1  0.0620    8.2  0.4225 -145.7
 6.200  0.5702 -167.1   6.419   63.2  0.0619    7.9  0.4211 -147.0
 6.300  0.5699 -168.3   6.315   62.2  0.0618    7.5  0.4197 -148.3
 6.400  0.5697 -169.5   6.213   61.3  0.0617    7.2  0.4186 -149.5
 6.500  0.5697 -170.6   6.114   60.4  0.0615    6.9  0.4176 -150.8
 6.600  0.5698 -171.8   6.019   59.5  0.0614    6.7  0.4167 -152.0
 6.700  0.5702 -172.9   5.926   58.7  0.0612    6.4  0.4160 -153.2
 6.800  0.5707 -173.9   5.837   57.8  0.0610    6.1  0.4154 -154.4
 6.900  0.5715 -175.0   5.750   57.0  0.0609    5.8  0.4150 -155.5
 7.000  0.5724 -176.0   5.667   56.2  0.0607    5.6  0.4146 -156.7
 7.100  0.5734 -177.0   5.585   55.3  0.0606    5.3  0.4143 -157.9
 7.200  0.5746 -178.0   5.506   54.5  0.0605    5.0  0.4140 -159.0
 7.300  0.5759 -179.0   5.428   53.7  0.0603    4.7  0.4137 -160.2
 7.400  0.5771  179.9   5.350   52.9  0.0602    4.5  0.4134 -161.4
 7.500  0.5783  178.8   5.272   52.0  0.0601    4.1  0.4131 -162.6
 7.600  0.5794  177.6   5.193   51.1  0.0599    3.8  0.4127 -163.9
 7.700  0.5803  176.4   5.111   50.2  0.0596    3.4  0.4122 -165.3
 7.800  0.5810  175.1   5.026   49.2  0.0593    3.0  0.4116 -166.7
 7.900  0.5814  173.6   4.937   48.1  0.0589    2.5  0.4109 -168.2
 8.000  0.5815  172.1   4.843   46.9  0.0584    2.0  0.4102 -169.8
 8.500  0.5806  168.1   4.590   43.7  0.0566    0.9  0.4082 -174.0
 9.000  0.5788  163.7   4.321   40.0  0.0544    0.0  0.4067 -178.6
 9.500  0.5764  159.5   4.051   36.1  0.0518   -0.3  0.4060  177.0
10.000  0.5746  155.7   3.796   32.3  0.0493    0.4  0.4067  172.8
10.500  0.5739  152.3   3.567   28.6  0.0471    2.3  0.4084  169.1
11.000  0.5746  149.3   3.367   25.2  0.0457    5.2  0.4113  165.8
11.500  0.5766  146.6   3.194   22.0  0.0452    8.5  0.4157  162.9
12.000  0.5797  144.1   3.040   18.8  0.0456   11.3  0.4217  160.2
!
!  f       NFmin   Gammaopt  rn/50
! GHz       dB    MAG  ANG    -
 0.450      0.70  0.31    6   0.16
 0.900      0.73  0.31   11   0.15
 1.500      0.75  0.32   20   0.15
 1.900      0.76  0.33   30   0.15
 2.400      0.77  0.32   37   0.14
 3.500      0.77  0.32   51   0.14
 4.000      0.79  0.32   60   0.13
 5.000      0.82  0.33   67   0.13
 5.500      0.82  0.33   74   0.13
 6.000      0.84  0.33   81   0.12
 7.000      0.88  0.32   93   0.12
 8.000      0.94  0.30  105   0.11
 9.000      0.97  0.30  116   0.11
10.000      1.04  0.29  125   0.10
11.000      1.09  0.27  138   0.10
12.000      1.18  0.26  161   0.09
!
! (c) 2012  Infineon Technologies AG, Munich
