! Infineon Technologies  Discrete & RF Semiconductors
! BFR843EL3
! VCE =  1.8 V,  IC =  55 mA
! Common Emitter S-Parameters:                            Aug 2013
# GHz  S  MA  R  50
!  f         S11            S21            S12            S22
! GHz     MAG   ANG      MAG   ANG      MAG   ANG      MAG   ANG
 0.030  0.2341  -96.0  16.430  165.7  0.0287   30.6  0.2345  -67.4
 0.040  0.2150 -109.4  15.559  166.4  0.0297   23.5  0.1897  -77.1
 0.050  0.2219 -113.1  15.167  167.1  0.0219   41.8  0.1623  -85.9
 0.060  0.2006 -129.0  14.623  168.2  0.0345   25.6  0.1413  -92.3
 0.070  0.1986 -131.2  14.414  168.6  0.0322   13.0  0.1236  -96.8
 0.080  0.1967 -134.4  14.279  169.0  0.0338   12.2  0.1132 -101.9
 0.090  0.1979 -136.7  14.183  169.1  0.0323   13.3  0.1054 -105.7
 0.100  0.1964 -138.3  14.102  169.2  0.0328   12.6  0.0992 -108.7
 0.110  0.1961 -140.0  14.030  169.1  0.0333   10.0  0.0930 -112.3
 0.120  0.1979 -141.0  14.003  169.0  0.0333    8.1  0.0875 -114.8
 0.130  0.1990 -142.2  13.945  168.8  0.0318    7.9  0.0850 -117.7
 0.140  0.2001 -142.7  13.920  168.7  0.0327    7.8  0.0822 -118.6
 0.150  0.1979 -142.1  13.891  168.5  0.0308    5.0  0.0818 -120.8
 0.200  0.2105 -143.4  13.761  166.8  0.0325    4.1  0.0723 -127.1
 0.250  0.2243 -142.5  13.666  164.8  0.0338    2.5  0.0673 -131.8
 0.300  0.2372 -142.2  13.558  162.6  0.0325    4.3  0.0669 -135.6
 0.350  0.2539 -142.1  13.425  160.5  0.0341    0.7  0.0665 -136.7
 0.400  0.2681 -140.9  13.302  158.2  0.0332    4.7  0.0670 -138.4
 0.450  0.2852 -140.8  13.147  156.0  0.0346    4.6  0.0680 -139.5
 0.500  0.3000 -141.2  12.998  153.8  0.0335    2.9  0.0697 -139.1
 0.600  0.3349 -141.2  12.695  149.3  0.0336    3.3  0.0712 -137.3
 0.700  0.3664 -142.2  12.340  145.0  0.0334    2.2  0.0733 -137.3
 0.800  0.3975 -143.8  11.949  140.9  0.0330    2.3  0.0771 -135.0
 0.900  0.4266 -145.1  11.572  137.0  0.0325    4.8  0.0825 -134.5
 1.000  0.4517 -146.7  11.182  133.3  0.0328    3.4  0.0873 -132.4
 1.100  0.4759 -148.3  10.797  129.7  0.0318    3.4  0.0920 -131.6
 1.200  0.4994 -150.2  10.402  126.2  0.0319    5.0  0.0980 -130.2
 1.300  0.5180 -152.2  10.027  123.0  0.0328    5.0  0.1027 -130.4
 1.400  0.5362 -153.8   9.679  119.8  0.0327    3.3  0.1081 -129.8
 1.500  0.5532 -155.6   9.330  116.8  0.0318    4.2  0.1152 -129.1
 1.600  0.5669 -157.0   8.988  114.0  0.0327    3.6  0.1192 -128.5
 1.700  0.5809 -158.6   8.663  111.3  0.0328    4.0  0.1278 -129.0
 1.800  0.5922 -160.4   8.349  108.7  0.0317    6.4  0.1331 -129.0
 1.900  0.6042 -162.0   8.039  106.2  0.0321    5.9  0.1398 -129.1
 2.000  0.6149 -163.3   7.772  103.8  0.0322    3.7  0.1465 -129.9
 2.100  0.6263 -164.8   7.500  101.4  0.0318    5.7  0.1537 -130.6
 2.200  0.6325 -166.2   7.246   99.3  0.0318    7.4  0.1596 -131.3
 2.300  0.6409 -167.5   7.001   97.1  0.0328    6.5  0.1645 -131.7
 2.400  0.6482 -168.9   6.763   95.0  0.0316    7.6  0.1715 -132.4
 2.500  0.6536 -170.1   6.558   93.2  0.0323    8.9  0.1784 -133.4
 2.600  0.6612 -171.3   6.344   91.1  0.0329    9.3  0.1835 -133.4
 2.700  0.6652 -172.6   6.148   89.4  0.0319   10.8  0.1904 -134.0
 2.800  0.6713 -173.6   5.965   87.5  0.0313   10.6  0.1956 -134.6
 2.900  0.6748 -174.8   5.783   85.8  0.0325    8.5  0.2024 -135.6
 3.000  0.6795 -175.9   5.599   84.0  0.0322    8.6  0.2079 -136.2
 3.100  0.6845 -176.9   5.452   82.3  0.0315   10.6  0.2136 -137.0
 3.200  0.6883 -177.9   5.291   80.6  0.0318   11.0  0.2206 -137.5
 3.300  0.6920 -178.9   5.140   79.0  0.0319   10.9  0.2264 -138.6
 3.400  0.6959 -179.9   4.999   77.5  0.0321   11.9  0.2320 -139.6
 3.500  0.6982  179.1   4.864   75.9  0.0309   11.9  0.2360 -140.2
 3.600  0.7005  178.1   4.735   74.5  0.0319   11.7  0.2425 -141.0
 3.700  0.7032  177.1   4.610   73.0  0.0317   14.1  0.2479 -141.9
 3.800  0.7044  176.3   4.491   71.4  0.0313   14.4  0.2544 -142.4
 3.900  0.7064  175.5   4.381   70.1  0.0316   14.5  0.2587 -143.4
 4.000  0.7093  174.6   4.276   68.6  0.0327   15.1  0.2652 -144.1
 4.100  0.7122  173.8   4.167   67.3  0.0325   15.2  0.2706 -144.6
 4.200  0.7148  172.9   4.064   65.9  0.0325   16.6  0.2780 -145.5
 4.300  0.7169  172.2   3.959   64.5  0.0320   17.0  0.2844 -146.7
 4.400  0.7203  171.3   3.865   63.2  0.0319   16.2  0.2901 -147.1
 4.500  0.7227  170.6   3.778   61.9  0.0329   18.7  0.2945 -148.6
 4.600  0.7235  169.8   3.696   60.7  0.0331   18.4  0.3006 -149.2
 4.700  0.7263  168.9   3.608   59.4  0.0332   18.6  0.3064 -150.1
 4.800  0.7291  168.2   3.531   58.1  0.0330   19.6  0.3112 -150.9
 4.900  0.7292  167.4   3.454   57.0  0.0337   20.1  0.3154 -151.8
 5.000  0.7315  166.6   3.383   55.7  0.0336   20.8  0.3209 -152.6
 5.100  0.7320  165.9   3.311   54.4  0.0333   19.3  0.3259 -153.4
 5.200  0.7328  165.2   3.241   53.3  0.0335   21.3  0.3330 -154.3
 5.300  0.7340  164.5   3.176   52.1  0.0343   20.9  0.3365 -155.1
 5.400  0.7367  163.8   3.107   50.9  0.0341   21.7  0.3436 -155.9
 5.500  0.7361  163.0   3.045   49.7  0.0334   22.0  0.3484 -156.8
 5.600  0.7378  162.4   2.983   48.5  0.0343   22.1  0.3540 -157.5
 5.700  0.7384  161.7   2.925   47.5  0.0349   21.3  0.3586 -158.4
 5.800  0.7418  160.9   2.863   46.4  0.0344   24.6  0.3645 -159.1
 5.900  0.7424  160.4   2.813   45.3  0.0350   22.4  0.3697 -160.0
 6.000  0.7437  159.6   2.755   44.1  0.0348   24.7  0.3751 -160.8
 6.100  0.7455  159.0   2.700   43.0  0.0352   23.7  0.3806 -161.7
 6.200  0.7452  158.3   2.645   41.9  0.0354   24.5  0.3849 -162.5
 6.300  0.7467  157.7   2.603   40.9  0.0357   25.8  0.3904 -163.4
 6.400  0.7475  157.0   2.555   39.8  0.0358   25.5  0.3947 -164.1
 6.500  0.7491  156.4   2.507   38.8  0.0359   25.3  0.4003 -165.2
 6.600  0.7486  155.8   2.460   37.7  0.0366   26.2  0.4053 -165.9
 6.700  0.7502  155.0   2.415   36.7  0.0354   26.8  0.4106 -166.7
 6.800  0.7519  154.6   2.370   35.6  0.0373   26.9  0.4149 -167.5
 6.900  0.7531  153.9   2.330   34.6  0.0368   26.7  0.4203 -168.5
 7.000  0.7539  153.2   2.293   33.6  0.0368   27.8  0.4246 -169.3
 7.100  0.7552  152.6   2.247   32.6  0.0377   27.8  0.4292 -170.0
 7.200  0.7553  152.1   2.210   31.5  0.0373   27.5  0.4343 -170.8
 7.300  0.7558  151.5   2.164   30.5  0.0369   28.5  0.4404 -171.8
 7.400  0.7564  151.0   2.128   29.5  0.0370   28.8  0.4449 -172.6
 7.500  0.7582  150.4   2.092   28.8  0.0377   29.2  0.4492 -173.5
 7.600  0.7611  149.9   2.061   27.9  0.0384   29.8  0.4552 -174.2
 7.700  0.7636  149.3   2.032   26.9  0.0388   29.8  0.4594 -175.2
 7.800  0.7649  148.5   2.000   26.0  0.0391   30.4  0.4635 -175.9
 7.900  0.7666  147.9   1.966   25.1  0.0395   29.9  0.4682 -176.8
 8.000  0.7685  147.1   1.937   24.1  0.0389   29.1  0.4723 -177.6
 8.500  0.7671  143.8   1.788   19.0  0.0399   29.5  0.4923  178.2
 9.000  0.7649  141.1   1.653   14.4  0.0400   34.4  0.5084  174.5
 9.500  0.7657  138.4   1.525   10.1  0.0426   35.1  0.5291  171.0
10.000  0.7628  136.0   1.412    6.0  0.0428   35.4  0.5463  167.7
10.500  0.7662  133.8   1.322    2.2  0.0448   39.3  0.5654  164.0
11.000  0.7672  131.5   1.225   -2.0  0.0482   40.8  0.5805  160.8
11.500  0.7670  129.2   1.146   -6.0  0.0533   41.3  0.5972  157.7
12.000  0.7649  127.6   1.070   -9.1  0.0592   42.7  0.6123  155.1
!
!  f       NFmin   Gammaopt  rn/50
! GHz       dB    MAG  ANG    -
 0.450      1.94  0.32 -179   0.13
 0.900      1.97  0.36  188   0.12
 1.500      2.03  0.38  190   0.12
 1.900      2.08  0.38  190   0.11
 2.400      2.15  0.42  196   0.10
 3.500      2.32  0.45  200   0.12
 5.500      2.64  0.52  210   0.16
 8.000      3.02  0.62  222   0.28
10.000      3.31  0.63  237   0.63
!
! (c) 2013  Infineon Technologies AG, Munich
