! Infineon Technologies  Discrete & RF Semiconductors
! BFR840L3RHESD
! VCE =  2.0 V,  IC =  8.0 mA
! Common Emitter S-Parameters:                            Jun 2012
# GHz  S  MA  R  50
!  f         S11            S21            S12            S22
! GHz     MAG   ANG      MAG   ANG      MAG   ANG      MAG   ANG
 0.150  0.9183   -6.0  19.384  175.4  0.0045   81.6  0.9926   -4.5
 0.200  0.9178   -8.0  19.355  174.0  0.0058   82.5  0.9916   -6.1
 0.250  0.9166   -9.9  19.316  172.6  0.0072   81.8  0.9900   -7.7
 0.300  0.9150  -11.9  19.270  171.1  0.0087   80.5  0.9878   -9.2
 0.350  0.9129  -13.8  19.217  169.7  0.0101   78.9  0.9851  -10.7
 0.400  0.9104  -15.7  19.158  168.2  0.0116   77.4  0.9820  -12.2
 0.450  0.9077  -17.6  19.093  166.7  0.0130   75.8  0.9785  -13.7
 0.500  0.9047  -19.5  19.023  165.2  0.0145   74.4  0.9747  -15.2
 0.600  0.8981  -23.2  18.869  162.3  0.0173   71.9  0.9664  -18.0
 0.700  0.8911  -26.8  18.695  159.5  0.0201   69.7  0.9573  -20.9
 0.800  0.8838  -30.4  18.503  156.7  0.0228   67.7  0.9477  -23.7
 0.900  0.8762  -34.0  18.292  154.0  0.0254   65.9  0.9375  -26.5
 1.000  0.8685  -37.5  18.063  151.3  0.0278   64.2  0.9268  -29.3
 1.100  0.8606  -41.0  17.820  148.7  0.0301   62.5  0.9157  -32.0
 1.200  0.8524  -44.5  17.563  146.1  0.0323   60.8  0.9040  -34.6
 1.300  0.8439  -47.8  17.295  143.6  0.0343   59.0  0.8919  -37.2
 1.400  0.8352  -51.2  17.018  141.1  0.0363   57.2  0.8792  -39.8
 1.500  0.8260  -54.4  16.735  138.7  0.0382   55.4  0.8661  -42.3
 1.600  0.8166  -57.7  16.446  136.3  0.0400   53.5  0.8525  -44.7
 1.700  0.8070  -60.9  16.155  134.0  0.0417   51.6  0.8387  -47.1
 1.800  0.7972  -64.0  15.861  131.7  0.0434   49.7  0.8247  -49.5
 1.900  0.7873  -67.1  15.565  129.4  0.0450   47.9  0.8106  -51.8
 2.000  0.7775  -70.1  15.267  127.3  0.0464   46.1  0.7965  -54.1
 2.100  0.7678  -73.1  14.970  125.1  0.0478   44.5  0.7826  -56.3
 2.200  0.7583  -75.9  14.672  123.1  0.0491   43.0  0.7689  -58.4
 2.300  0.7490  -78.7  14.377  121.1  0.0503   41.6  0.7555  -60.5
 2.400  0.7401  -81.4  14.085  119.2  0.0513   40.3  0.7424  -62.6
 2.500  0.7314  -84.0  13.799  117.4  0.0522   39.1  0.7296  -64.6
 2.600  0.7231  -86.5  13.521  115.6  0.0530   37.9  0.7172  -66.5
 2.700  0.7150  -88.9  13.253  113.8  0.0538   36.8  0.7051  -68.4
 2.800  0.7074  -91.4  12.995  112.1  0.0545   35.7  0.6934  -70.2
 2.900  0.7002  -93.9  12.747  110.3  0.0552   34.4  0.6822  -72.0
 3.000  0.6940  -96.5  12.505  108.5  0.0561   32.9  0.6720  -73.7
 3.100  0.6841  -98.8  12.231  106.9  0.0567   31.7  0.6584  -75.8
 3.200  0.6770 -101.0  11.988  105.3  0.0572   30.7  0.6476  -77.5
 3.300  0.6702 -103.3  11.751  103.7  0.0577   29.7  0.6371  -79.2
 3.400  0.6638 -105.5  11.520  102.1  0.0582   28.7  0.6271  -80.9
 3.500  0.6578 -107.6  11.295  100.6  0.0586   27.8  0.6174  -82.6
 3.600  0.6522 -109.7  11.076   99.1  0.0590   26.9  0.6081  -84.2
 3.700  0.6469 -111.8  10.863   97.6  0.0594   26.0  0.5992  -85.9
 3.800  0.6420 -113.8  10.655   96.2  0.0597   25.2  0.5907  -87.4
 3.900  0.6373 -115.8  10.453   94.8  0.0600   24.3  0.5824  -89.0
 4.000  0.6329 -117.7  10.255   93.4  0.0602   23.5  0.5745  -90.5
 4.100  0.6288 -119.6  10.063   92.1  0.0605   22.7  0.5668  -92.0
 4.200  0.6247 -121.5   9.875   90.8  0.0607   21.9  0.5594  -93.5
 4.300  0.6209 -123.3   9.693   89.5  0.0609   21.2  0.5522  -95.0
 4.400  0.6171 -125.1   9.516   88.2  0.0610   20.4  0.5452  -96.5
 4.500  0.6134 -126.9   9.344   87.0  0.0611   19.6  0.5384  -97.9
 4.600  0.6099 -128.7   9.177   85.7  0.0612   18.9  0.5317  -99.4
 4.700  0.6065 -130.4   9.014   84.5  0.0613   18.1  0.5252 -100.8
 4.800  0.6032 -132.1   8.857   83.3  0.0613   17.4  0.5189 -102.2
 4.900  0.6002 -133.8   8.705   82.2  0.0614   16.7  0.5129 -103.6
 5.000  0.5973 -135.5   8.557   81.0  0.0614   16.0  0.5070 -105.0
 5.100  0.5946 -137.1   8.413   79.9  0.0614   15.4  0.5014 -106.4
 5.200  0.5921 -138.7   8.273   78.7  0.0613   14.7  0.4961 -107.8
 5.300  0.5898 -140.2   8.136   77.6  0.0613   14.1  0.4910 -109.1
 5.400  0.5876 -141.8   8.003   76.5  0.0612   13.5  0.4862 -110.5
 5.500  0.5856 -143.3   7.874   75.4  0.0611   12.9  0.4816 -111.8
 5.600  0.5837 -144.7   7.747   74.3  0.0610   12.3  0.4773 -113.1
 5.700  0.5819 -146.2   7.623   73.2  0.0609   11.7  0.4732 -114.5
 5.800  0.5802 -147.6   7.502   72.1  0.0608   11.2  0.4693 -115.8
 5.900  0.5785 -149.0   7.383   71.1  0.0606   10.7  0.4656 -117.1
 6.000  0.5769 -150.4   7.267   70.0  0.0605   10.1  0.4621 -118.4
 6.100  0.5754 -151.8   7.154   69.0  0.0603    9.6  0.4587 -119.7
 6.200  0.5740 -153.1   7.043   67.9  0.0601    9.2  0.4555 -121.0
 6.300  0.5728 -154.5   6.935   66.9  0.0599    8.7  0.4524 -122.3
 6.400  0.5717 -155.8   6.830   65.9  0.0597    8.3  0.4495 -123.6
 6.500  0.5708 -157.1   6.727   65.0  0.0595    7.9  0.4467 -124.9
 6.600  0.5701 -158.3   6.628   64.0  0.0592    7.5  0.4441 -126.1
 6.700  0.5697 -159.5   6.531   63.0  0.0590    7.2  0.4416 -127.4
 6.800  0.5695 -160.7   6.438   62.1  0.0588    6.8  0.4393 -128.6
 6.900  0.5695 -161.9   6.347   61.2  0.0585    6.5  0.4370 -129.9
 7.000  0.5697 -163.1   6.259   60.3  0.0583    6.1  0.4349 -131.1
 7.100  0.5702 -164.2   6.174   59.4  0.0581    5.8  0.4329 -132.3
 7.200  0.5707 -165.4   6.090   58.5  0.0579    5.5  0.4309 -133.5
 7.300  0.5714 -166.5   6.008   57.6  0.0576    5.1  0.4289 -134.8
 7.400  0.5720 -167.8   5.926   56.7  0.0574    4.7  0.4268 -136.1
 7.500  0.5725 -169.0   5.844   55.8  0.0572    4.3  0.4247 -137.4
 7.600  0.5729 -170.3   5.760   54.8  0.0570    3.9  0.4225 -138.7
 7.700  0.5730 -171.7   5.673   53.8  0.0567    3.4  0.4202 -140.2
 7.800  0.5729 -173.2   5.582   52.7  0.0564    2.9  0.4178 -141.7
 7.900  0.5724 -174.8   5.487   51.5  0.0559    2.3  0.4152 -143.3
 8.000  0.5716 -176.5   5.386   50.3  0.0554    1.7  0.4126 -145.0
 8.500  0.5682  178.9   5.114   46.8  0.0536    0.2  0.4058 -149.5
 9.000  0.5640  174.1   4.821   42.8  0.0512   -1.2  0.3997 -154.5
 9.500  0.5597  169.4   4.526   38.6  0.0482   -1.7  0.3950 -159.6
10.000  0.5565  165.0   4.246   34.4  0.0447   -1.2  0.3921 -164.4
10.500  0.5548  161.2   3.993   30.5  0.0415    0.9  0.3911 -168.8
11.000  0.5549  157.8   3.771   26.8  0.0389    4.6  0.3920 -172.9
11.500  0.5565  154.8   3.579   23.4  0.0375    9.1  0.3951 -176.5
12.000  0.5595  152.1   3.408   20.0  0.0374   13.7  0.4006 -179.8
!
!  f       NFmin   Gammaopt  rn/50
! GHz       dB    MAG  ANG    -
 0.450      0.61  0.39    6   0.16
 0.900      0.64  0.39   11   0.16
 1.500      0.66  0.40   21   0.16
 1.900      0.68  0.41   29   0.16
 2.400      0.69  0.40   36   0.15
 3.500      0.69  0.40   49   0.14
 4.000      0.70  0.40   57   0.14
 5.000      0.74  0.40   65   0.14
 5.500      0.74  0.40   71   0.13
 6.000      0.76  0.39   78   0.13
 7.000      0.81  0.38   91   0.12
 8.000      0.88  0.36  101   0.11
 9.000      0.91  0.35  111   0.11
10.000      0.98  0.34  124   0.10
11.000      1.04  0.31  133   0.10
12.000      1.13  0.30  153   0.09
!
! (c) 2012  Infineon Technologies AG, Munich
