! Infineon Technologies  Discrete & RF Semiconductors
! BFR93AW
! VCE =  1.7 V,  IC =  20 mA
! Common Emitter S-Parameters:                            Nov 2015
# GHz  S  MA  R  50
!  f         S11            S21            S12            S22
! GHz     MAG   ANG      MAG   ANG      MAG   ANG      MAG   ANG
 0.030  0.4669  -44.2  41.903  158.1  0.0101   73.4  0.8865  -19.4
 0.035  0.4638  -50.5  40.786  154.9  0.0114   71.4  0.8616  -22.2
 0.040  0.4663  -56.8  39.805  151.5  0.0128   69.9  0.8389  -25.2
 0.045  0.4744  -62.9  38.973  147.9  0.0142   68.6  0.8186  -28.3
 0.050  0.4877  -68.8  38.299  144.2  0.0156   67.6  0.8009  -31.6
 0.055  0.4768  -72.6  37.055  142.7  0.0164   66.3  0.7766  -32.8
 0.060  0.4681  -76.6  35.838  141.1  0.0172   65.1  0.7527  -34.1
 0.065  0.4617  -80.7  34.651  139.4  0.0180   64.1  0.7292  -35.5
 0.070  0.4577  -84.9  33.498  137.5  0.0189   63.1  0.7061  -37.0
 0.075  0.4562  -89.1  32.382  135.6  0.0197   62.2  0.6835  -38.5
 0.080  0.4572  -93.3  31.306  133.5  0.0205   61.3  0.6615  -40.2
 0.085  0.4607  -97.5  30.276  131.2  0.0213   60.6  0.6401  -42.0
 0.090  0.4667 -101.7  29.296  128.8  0.0222   59.9  0.6194  -44.0
 0.095  0.4750 -105.7  28.371  126.2  0.0230   59.2  0.5994  -46.0
 0.100  0.4855 -109.5  27.506  123.5  0.0239   58.6  0.5802  -48.2
 0.105  0.4823 -111.6  26.757  122.7  0.0244   58.4  0.5655  -48.7
 0.110  0.4797 -113.8  26.014  121.8  0.0250   58.2  0.5509  -49.3
 0.115  0.4779 -115.9  25.278  120.8  0.0255   58.0  0.5364  -49.9
 0.120  0.4767 -118.1  24.549  119.8  0.0261   57.8  0.5219  -50.6
 0.125  0.4762 -120.3  23.828  118.7  0.0266   57.6  0.5075  -51.3
 0.130  0.4765 -122.5  23.116  117.6  0.0271   57.5  0.4932  -52.0
 0.135  0.4774 -124.7  22.413  116.4  0.0276   57.3  0.4789  -52.7
 0.140  0.4790 -126.9  21.721  115.1  0.0282   57.2  0.4647  -53.5
 0.145  0.4813 -129.1  21.041  113.7  0.0287   57.0  0.4506  -54.4
 0.150  0.4843 -131.2  20.373  112.3  0.0293   56.9  0.4367  -55.3
 0.155  0.4832 -132.4  19.927  111.7  0.0298   57.0  0.4282  -55.6
 0.160  0.4823 -133.7  19.483  111.1  0.0302   57.1  0.4197  -55.9
 0.165  0.4817 -134.9  19.041  110.5  0.0307   57.1  0.4112  -56.2
 0.170  0.4813 -136.2  18.602  109.9  0.0312   57.2  0.4027  -56.5
 0.175  0.4811 -137.4  18.165  109.2  0.0316   57.3  0.3942  -56.9
 0.180  0.4812 -138.7  17.730  108.5  0.0321   57.3  0.3858  -57.2
 0.185  0.4815 -140.0  17.299  107.7  0.0326   57.4  0.3773  -57.6
 0.190  0.4820 -141.2  16.871  106.9  0.0331   57.5  0.3689  -58.0
 0.195  0.4827 -142.5  16.446  106.1  0.0335   57.5  0.3605  -58.4
 0.200  0.4837 -143.7  16.025  105.2  0.0340   57.6  0.3521  -58.8
 0.220  0.4813 -147.4  14.833  103.5  0.0359   58.2  0.3287  -59.3
 0.240  0.4810 -151.1  13.658  101.4  0.0378   58.7  0.3054  -60.0
 0.260  0.4819 -154.2  12.669   99.7  0.0396   59.6  0.2865  -60.4
 0.280  0.4832 -156.7  11.859   98.2  0.0414   60.7  0.2720  -60.6
 0.300  0.4854 -159.2  11.057   96.6  0.0433   61.7  0.2576  -60.9
 0.320  0.4841 -161.0  10.518   95.7  0.0453   62.3  0.2476  -60.9
 0.340  0.4834 -162.9   9.982   94.7  0.0472   62.8  0.2377  -60.9
 0.360  0.4831 -164.7   9.449   93.6  0.0492   63.3  0.2277  -60.9
 0.380  0.4834 -166.6   8.920   92.4  0.0512   63.8  0.2178  -61.0
 0.400  0.4841 -168.4   8.395   91.0  0.0532   64.2  0.2078  -61.0
 0.420  0.4843 -169.7   8.069   90.2  0.0552   64.6  0.2018  -61.1
 0.440  0.4848 -171.0   7.745   89.4  0.0572   65.0  0.1959  -61.2
 0.450  0.4851 -171.6   7.584   89.0  0.0582   65.2  0.1929  -61.3
 0.460  0.4855 -172.2   7.423   88.6  0.0592   65.4  0.1899  -61.4
 0.480  0.4865 -173.5   7.102   87.6  0.0613   65.8  0.1840  -61.5
 0.500  0.4877 -174.8   6.784   86.6  0.0633   66.1  0.1780  -61.6
 0.520  0.4886 -175.7   6.563   86.0  0.0653   66.4  0.1746  -61.7
 0.540  0.4896 -176.7   6.343   85.3  0.0674   66.7  0.1712  -61.8
 0.560  0.4908 -177.6   6.123   84.6  0.0694   67.0  0.1678  -61.8
 0.580  0.4921 -178.6   5.905   83.8  0.0715   67.3  0.1644  -61.9
 0.600  0.4935 -179.5   5.688   83.0  0.0735   67.5  0.1610  -62.0
 0.620  0.4934  179.6   5.531   82.4  0.0756   67.7  0.1588  -62.3
 0.640  0.4934  178.8   5.375   81.8  0.0777   67.8  0.1565  -62.6
 0.660  0.4935  177.9   5.220   81.1  0.0797   67.9  0.1543  -62.9
 0.680  0.4938  177.1   5.065   80.4  0.0818   68.1  0.1520  -63.2
 0.700  0.4941  176.2   4.911   79.6  0.0839   68.2  0.1498  -63.5
 0.720  0.4949  175.4   4.789   79.0  0.0860   68.3  0.1476  -64.0
 0.740  0.4959  174.6   4.668   78.5  0.0880   68.3  0.1453  -64.6
 0.760  0.4969  173.9   4.547   77.8  0.0901   68.4  0.1431  -65.2
 0.780  0.4980  173.1   4.427   77.2  0.0921   68.4  0.1409  -65.8
 0.800  0.4992  172.3   4.307   76.5  0.0942   68.5  0.1387  -66.4
 0.820  0.4995  171.7   4.215   76.0  0.0964   68.5  0.1380  -66.6
 0.840  0.4998  171.0   4.124   75.5  0.0986   68.6  0.1372  -66.9
 0.860  0.5002  170.4   4.033   74.9  0.1007   68.6  0.1365  -67.1
 0.880  0.5007  169.7   3.942   74.3  0.1029   68.7  0.1357  -67.4
 0.900  0.5012  169.1   3.852   73.7  0.1051   68.7  0.1350  -67.6
 0.920  0.5013  168.4   3.777   73.2  0.1073   68.6  0.1341  -68.0
 0.940  0.5015  167.7   3.702   72.7  0.1095   68.5  0.1331  -68.5
 0.960  0.5018  167.1   3.628   72.1  0.1118   68.5  0.1322  -69.0
 0.980  0.5022  166.4   3.554   71.6  0.1140   68.4  0.1313  -69.4
 1.000  0.5026  165.7   3.480   71.0  0.1162   68.3  0.1304  -69.9
 1.020  0.5037  165.2   3.420   70.5  0.1183   68.2  0.1297  -71.0
 1.040  0.5049  164.6   3.360   70.0  0.1205   68.2  0.1291  -72.1
 1.060  0.5062  164.1   3.300   69.4  0.1226   68.1  0.1285  -73.2
 1.080  0.5075  163.5   3.240   68.9  0.1248   68.1  0.1279  -74.3
 1.100  0.5088  163.0   3.181   68.3  0.1269   68.0  0.1274  -75.4
 1.120  0.5098  162.5   3.130   67.9  0.1290   67.9  0.1272  -75.8
 1.140  0.5109  161.9   3.080   67.4  0.1311   67.8  0.1271  -76.2
 1.160  0.5120  161.4   3.029   66.9  0.1331   67.8  0.1270  -76.6
 1.180  0.5132  160.8   2.979   66.4  0.1352   67.7  0.1268  -77.0
 1.200  0.5144  160.3   2.929   65.9  0.1373   67.6  0.1267  -77.4
 1.220  0.5142  159.8   2.888   65.4  0.1394   67.5  0.1264  -77.8
 1.240  0.5140  159.3   2.847   64.9  0.1416   67.3  0.1260  -78.2
 1.260  0.5139  158.8   2.806   64.4  0.1437   67.2  0.1257  -78.7
 1.280  0.5138  158.3   2.766   63.9  0.1459   67.0  0.1254  -79.1
 1.300  0.5138  157.8   2.726   63.3  0.1480   66.9  0.1251  -79.5
 1.320  0.5150  157.3   2.689   62.9  0.1501   66.8  0.1251  -80.7
 1.340  0.5163  156.7   2.653   62.4  0.1523   66.8  0.1251  -82.0
 1.360  0.5176  156.2   2.616   62.0  0.1544   66.7  0.1252  -83.2
 1.380  0.5190  155.6   2.580   61.5  0.1566   66.7  0.1254  -84.5
 1.400  0.5204  155.1   2.544   61.0  0.1587   66.6  0.1256  -85.7
 1.420  0.5213  154.7   2.512   60.5  0.1608   66.5  0.1260  -86.2
 1.440  0.5222  154.3   2.479   60.1  0.1628   66.3  0.1265  -86.7
 1.460  0.5231  153.9   2.447   59.6  0.1649   66.2  0.1270  -87.2
 1.480  0.5240  153.5   2.416   59.1  0.1669   66.0  0.1274  -87.7
 1.500  0.5250  153.1   2.384   58.6  0.1690   65.9  0.1279  -88.2
 1.520  0.5248  152.5   2.357   58.2  0.1712   65.8  0.1274  -88.9
 1.540  0.5247  151.9   2.331   57.7  0.1734   65.6  0.1269  -89.5
 1.560  0.5246  151.3   2.304   57.3  0.1757   65.5  0.1265  -90.2
 1.580  0.5246  150.7   2.278   56.8  0.1779   65.3  0.1260  -90.9
 1.600  0.5246  150.1   2.252   56.3  0.1801   65.2  0.1256  -91.6
 1.620  0.5258  149.6   2.228   55.9  0.1822   65.0  0.1266  -92.8
 1.640  0.5270  149.1   2.203   55.4  0.1844   64.9  0.1277  -93.9
 1.660  0.5283  148.7   2.179   55.0  0.1865   64.7  0.1288  -95.1
 1.680  0.5296  148.2   2.155   54.5  0.1887   64.6  0.1300  -96.2
 1.700  0.5310  147.7   2.131   54.0  0.1908   64.4  0.1312  -97.3
 1.720  0.5318  147.3   2.110   53.6  0.1928   64.3  0.1322  -97.7
 1.740  0.5327  146.9   2.090   53.2  0.1948   64.2  0.1333  -98.1
 1.760  0.5336  146.6   2.069   52.8  0.1969   64.0  0.1343  -98.5
 1.780  0.5345  146.2   2.049   52.4  0.1989   63.9  0.1353  -98.8
 1.800  0.5354  145.8   2.029   52.0  0.2009   63.8  0.1364  -99.2
 1.820  0.5354  145.3   2.010   51.6  0.2032   63.6  0.1362  -99.8
 1.840  0.5354  144.9   1.991   51.1  0.2054   63.4  0.1360 -100.4
 1.860  0.5354  144.4   1.972   50.7  0.2077   63.2  0.1359 -101.0
 1.880  0.5355  144.0   1.954   50.3  0.2099   63.1  0.1357 -101.6
 1.900  0.5356  143.5   1.935   49.8  0.2122   62.9  0.1356 -102.2
 1.920  0.5367  143.0   1.917   49.4  0.2142   62.7  0.1370 -103.0
 1.940  0.5378  142.5   1.900   49.0  0.2163   62.5  0.1385 -103.9
 1.960  0.5390  142.1   1.882   48.6  0.2183   62.3  0.1400 -104.7
 1.980  0.5402  141.6   1.865   48.1  0.2204   62.1  0.1415 -105.4
 2.000  0.5414  141.1   1.848   47.7  0.2224   61.9  0.1430 -106.2
 2.020  0.5418  140.7   1.834   47.3  0.2246   61.7  0.1433 -106.7
 2.040  0.5422  140.3   1.819   47.0  0.2267   61.5  0.1437 -107.2
 2.060  0.5426  139.9   1.805   46.6  0.2289   61.4  0.1440 -107.7
 2.080  0.5430  139.5   1.791   46.2  0.2310   61.2  0.1444 -108.2
 2.100  0.5435  139.0   1.776   45.8  0.2332   61.0  0.1447 -108.7
 2.120  0.5440  138.6   1.762   45.4  0.2353   60.8  0.1451 -109.2
 2.140  0.5445  138.2   1.748   45.0  0.2375   60.7  0.1455 -109.7
 2.160  0.5451  137.8   1.735   44.6  0.2397   60.5  0.1459 -110.1
 2.180  0.5457  137.4   1.721   44.2  0.2418   60.4  0.1463 -110.6
 2.200  0.5463  137.0   1.707   43.8  0.2440   60.2  0.1467 -111.1
 2.220  0.5472  136.6   1.694   43.4  0.2461   60.0  0.1478 -111.7
 2.240  0.5482  136.2   1.682   43.1  0.2481   59.8  0.1489 -112.3
 2.260  0.5491  135.8   1.670   42.7  0.2502   59.6  0.1500 -112.9
 2.280  0.5501  135.4   1.657   42.3  0.2523   59.4  0.1511 -113.5
 2.300  0.5512  135.0   1.645   42.0  0.2544   59.3  0.1523 -114.1
 2.320  0.5522  134.6   1.633   41.6  0.2565   59.1  0.1534 -114.6
 2.340  0.5533  134.2   1.621   41.2  0.2585   58.9  0.1546 -115.2
 2.360  0.5544  133.8   1.609   40.8  0.2606   58.7  0.1558 -115.7
 2.380  0.5555  133.4   1.597   40.4  0.2627   58.6  0.1570 -116.3
 2.400  0.5567  133.0   1.585   40.0  0.2648   58.4  0.1582 -116.8
 2.420  0.5573  132.6   1.575   39.6  0.2669   58.2  0.1588 -117.7
 2.440  0.5579  132.1   1.564   39.3  0.2689   58.0  0.1595 -118.5
 2.460  0.5586  131.7   1.554   38.9  0.2710   57.7  0.1602 -119.3
 2.480  0.5593  131.2   1.544   38.5  0.2731   57.5  0.1610 -120.2
 2.500  0.5600  130.8   1.534   38.2  0.2752   57.3  0.1617 -121.0
 2.520  0.5607  130.3   1.524   37.8  0.2772   57.1  0.1625 -121.8
 2.540  0.5615  129.9   1.514   37.4  0.2793   56.9  0.1634 -122.6
 2.560  0.5624  129.5   1.504   37.0  0.2814   56.7  0.1643 -123.4
 2.580  0.5632  129.0   1.495   36.6  0.2835   56.5  0.1652 -124.2
 2.600  0.5641  128.6   1.485   36.2  0.2856   56.3  0.1661 -125.0
 2.620  0.5651  128.2   1.476   35.9  0.2877   56.1  0.1668 -125.5
 2.640  0.5661  127.9   1.468   35.5  0.2898   55.9  0.1675 -126.0
 2.660  0.5671  127.5   1.459   35.2  0.2920   55.7  0.1682 -126.5
 2.680  0.5682  127.2   1.451   34.8  0.2941   55.5  0.1689 -127.1
 2.700  0.5692  126.8   1.442   34.5  0.2962   55.3  0.1696 -127.6
 2.720  0.5703  126.5   1.434   34.1  0.2983   55.1  0.1703 -128.1
 2.740  0.5714  126.1   1.426   33.7  0.3005   54.9  0.1711 -128.5
 2.760  0.5726  125.8   1.417   33.4  0.3026   54.7  0.1718 -129.0
 2.780  0.5737  125.4   1.409   33.0  0.3048   54.5  0.1726 -129.5
 2.800  0.5749  125.1   1.401   32.6  0.3069   54.3  0.1734 -130.0
 2.820  0.5751  124.7   1.394   32.3  0.3088   54.1  0.1745 -130.5
 2.840  0.5753  124.3   1.386   31.9  0.3107   53.9  0.1757 -131.1
 2.860  0.5756  123.9   1.379   31.6  0.3126   53.7  0.1769 -131.6
 2.880  0.5759  123.5   1.372   31.3  0.3145   53.5  0.1781 -132.1
 2.900  0.5762  123.1   1.364   30.9  0.3165   53.3  0.1793 -132.6
 2.920  0.5765  122.7   1.357   30.6  0.3184   53.1  0.1805 -133.1
 2.940  0.5769  122.3   1.350   30.3  0.3203   52.9  0.1817 -133.6
 2.960  0.5773  121.9   1.343   29.9  0.3222   52.8  0.1830 -134.1
 2.980  0.5777  121.5   1.336   29.6  0.3242   52.6  0.1842 -134.5
 3.000  0.5782  121.1   1.329   29.2  0.3261   52.4  0.1855 -135.0
 3.100  0.5825  119.3   1.298   27.7  0.3357   51.2  0.1909 -138.5
 3.200  0.5874  117.4   1.267   26.2  0.3454   50.0  0.1970 -141.8
 3.300  0.5929  115.7   1.238   24.6  0.3552   48.9  0.2037 -144.8
 3.400  0.5990  113.9   1.209   22.9  0.3652   47.9  0.2109 -147.7
 3.500  0.6056  112.2   1.182   21.1  0.3753   46.9  0.2186 -150.4
 3.600  0.6075  110.6   1.157   19.8  0.3838   45.7  0.2246 -153.8
 3.700  0.6099  108.9   1.133   18.5  0.3924   44.5  0.2313 -157.0
 3.800  0.6128  107.3   1.109   17.1  0.4013   43.4  0.2387 -160.0
 3.900  0.6161  105.7   1.086   15.6  0.4102   42.3  0.2467 -162.8
 4.000  0.6200  104.1   1.064   14.1  0.4193   41.3  0.2553 -165.4
 4.100  0.6231  102.6   1.044   13.0  0.4269   40.0  0.2614 -167.9
 4.200  0.6266  101.1   1.025   11.8  0.4347   38.8  0.2679 -170.3
 4.300  0.6305   99.7   1.006   10.6  0.4427   37.6  0.2749 -172.5
 4.400  0.6348   98.2   0.987    9.4  0.4509   36.5  0.2822 -174.7
 4.500  0.6395   96.8   0.969    8.1  0.4593   35.4  0.2900 -176.7
 4.600  0.6410   95.5   0.954    7.1  0.4659   34.3  0.2954 -178.9
 4.700  0.6429   94.3   0.940    6.0  0.4727   33.2  0.3012  179.0
 4.800  0.6450   93.0   0.925    5.0  0.4796   32.1  0.3073  176.9
 4.900  0.6475   91.7   0.912    3.8  0.4867   31.1  0.3139  175.0
 5.000  0.6503   90.5   0.898    2.7  0.4940   30.1  0.3208  173.1
 5.100  0.6532   89.3   0.886    1.9  0.5001   29.0  0.3249  170.9
 5.200  0.6564   88.1   0.874    1.0  0.5064   28.0  0.3294  168.7
 5.300  0.6599   86.9   0.862    0.2  0.5128   27.0  0.3344  166.5
 5.400  0.6637   85.7   0.850   -0.7  0.5194   26.0  0.3399  164.5
 5.500  0.6678   84.5   0.839   -1.6  0.5261   25.1  0.3458  162.5
 5.600  0.6692   83.4   0.830   -2.4  0.5319   24.0  0.3500  160.5
 5.700  0.6708   82.3   0.822   -3.2  0.5378   22.9  0.3545  158.6
 5.800  0.6727   81.2   0.813   -4.0  0.5440   21.9  0.3595  156.7
 5.900  0.6748   80.2   0.805   -4.8  0.5503   20.9  0.3648  154.9
 6.000  0.6771   79.1   0.797   -5.6  0.5568   19.9  0.3705  153.1
!
!  f       NFmin   Gammaopt  rn/50
! GHz       dB    MAG  ANG    -
!
! noise parameter not available yet for this operation point!
!
! (c) 2015  Infineon Technologies AG, Munich
