! Infineon Technologies  Discrete & RF Semiconductors
! BFR93A
! VCE =  3.5 V,  IC =  10 mA
! Common Emitter S-Parameters:                            Nov 2015
# GHz  S  MA  R  50
!  f         S11            S21            S12            S22
! GHz     MAG   ANG      MAG   ANG      MAG   ANG      MAG   ANG
 0.010  0.7355   -7.7  25.821  174.2  0.0041   86.4  0.9781   -4.2
 0.015  0.7292  -11.4  25.624  171.6  0.0061   83.9  0.9717   -6.1
 0.020  0.7259  -15.1  25.479  169.0  0.0082   82.6  0.9665   -8.1
 0.025  0.7118  -18.5  25.064  166.7  0.0099   79.5  0.9530   -9.8
 0.030  0.7004  -22.0  24.690  164.3  0.0117   77.4  0.9405  -11.6
 0.035  0.6917  -25.7  24.361  161.9  0.0135   75.8  0.9289  -13.5
 0.040  0.6858  -29.4  24.077  159.4  0.0152   74.6  0.9182  -15.3
 0.045  0.6828  -33.1  23.839  156.8  0.0170   73.6  0.9086  -17.2
 0.050  0.6828  -36.9  23.651  154.2  0.0188   72.8  0.9000  -19.2
 0.055  0.6663  -39.5  23.139  152.7  0.0201   71.2  0.8831  -20.3
 0.060  0.6512  -42.2  22.645  151.0  0.0214   69.9  0.8666  -21.4
 0.065  0.6377  -45.0  22.170  149.4  0.0226   68.7  0.8504  -22.6
 0.070  0.6257  -47.9  21.715  147.6  0.0240   67.6  0.8346  -23.8
 0.075  0.6155  -50.9  21.281  145.8  0.0253   66.6  0.8191  -25.0
 0.080  0.6070  -54.1  20.870  143.9  0.0266   65.8  0.8041  -26.3
 0.085  0.6004  -57.3  20.483  141.9  0.0279   65.0  0.7894  -27.7
 0.090  0.5957  -60.6  20.121  139.8  0.0292   64.3  0.7753  -29.1
 0.095  0.5929  -63.9  19.786  137.7  0.0306   63.6  0.7616  -30.5
 0.100  0.5922  -67.2  19.479  135.5  0.0319   63.0  0.7484  -32.0
 0.105  0.5806  -69.1  19.058  134.4  0.0327   62.3  0.7348  -32.6
 0.110  0.5697  -71.1  18.643  133.3  0.0335   61.7  0.7214  -33.2
 0.115  0.5595  -73.1  18.237  132.2  0.0343   61.1  0.7080  -33.8
 0.120  0.5501  -75.3  17.837  130.9  0.0351   60.5  0.6946  -34.4
 0.125  0.5414  -77.5  17.447  129.7  0.0359   60.0  0.6814  -35.1
 0.130  0.5336  -79.7  17.065  128.3  0.0367   59.5  0.6683  -35.8
 0.135  0.5266  -82.1  16.693  127.0  0.0375   59.0  0.6553  -36.5
 0.140  0.5205  -84.5  16.331  125.5  0.0383   58.5  0.6424  -37.3
 0.145  0.5154  -86.9  15.980  124.0  0.0391   58.0  0.6296  -38.1
 0.150  0.5112  -89.4  15.641  122.4  0.0399   57.6  0.6169  -38.9
 0.155  0.5042  -90.9  15.346  121.7  0.0405   57.4  0.6075  -39.2
 0.160  0.4975  -92.5  15.054  120.9  0.0411   57.3  0.5982  -39.5
 0.165  0.4912  -94.2  14.765  120.1  0.0418   57.1  0.5889  -39.8
 0.170  0.4854  -95.8  14.479  119.3  0.0424   57.0  0.5796  -40.1
 0.175  0.4800  -97.5  14.195  118.4  0.0430   56.8  0.5703  -40.4
 0.180  0.4750  -99.3  13.916  117.5  0.0436   56.7  0.5610  -40.7
 0.185  0.4704 -101.1  13.640  116.6  0.0442   56.6  0.5517  -41.1
 0.190  0.4663 -102.9  13.367  115.6  0.0449   56.4  0.5425  -41.4
 0.195  0.4627 -104.7  13.099  114.6  0.0455   56.3  0.5333  -41.8
 0.200  0.4596 -106.6  12.835  113.5  0.0461   56.2  0.5241  -42.2
 0.220  0.4440 -111.7  11.986  111.1  0.0483   56.0  0.4977  -42.8
 0.240  0.4321 -117.1  11.161  108.4  0.0505   55.8  0.4714  -43.4
 0.260  0.4230 -121.8  10.448  106.0  0.0526   55.9  0.4489  -43.8
 0.280  0.4154 -125.9   9.833  104.1  0.0545   56.1  0.4304  -44.0
 0.300  0.4098 -130.0   9.230  102.0  0.0565   56.4  0.4119  -44.2
 0.320  0.4023 -133.1   8.798  100.7  0.0586   56.8  0.3998  -44.2
 0.340  0.3959 -136.3   8.371   99.4  0.0607   57.2  0.3877  -44.2
 0.360  0.3909 -139.5   7.949   97.8  0.0629   57.6  0.3757  -44.1
 0.380  0.3871 -142.9   7.533   96.1  0.0650   57.9  0.3636  -44.1
 0.400  0.3847 -146.3   7.125   94.2  0.0671   58.2  0.3515  -44.1
 0.420  0.3810 -148.7   6.858   93.2  0.0692   58.5  0.3446  -44.0
 0.440  0.3780 -151.0   6.593   92.1  0.0713   58.9  0.3376  -43.9
 0.450  0.3768 -152.3   6.462   91.5  0.0723   59.0  0.3341  -43.9
 0.460  0.3757 -153.5   6.331   91.0  0.0734   59.2  0.3307  -43.8
 0.480  0.3741 -155.9   6.071   89.7  0.0755   59.4  0.3237  -43.7
 0.500  0.3731 -158.4   5.815   88.3  0.0776   59.7  0.3168  -43.6
 0.520  0.3717 -160.2   5.630   87.4  0.0798   59.9  0.3121  -43.6
 0.540  0.3706 -162.1   5.447   86.5  0.0820   60.2  0.3074  -43.6
 0.560  0.3699 -163.9   5.265   85.6  0.0842   60.4  0.3027  -43.6
 0.580  0.3696 -165.8   5.085   84.5  0.0864   60.6  0.2980  -43.6
 0.600  0.3697 -167.6   4.906   83.4  0.0886   60.8  0.2933  -43.6
 0.620  0.3693 -169.0   4.771   82.6  0.0909   61.0  0.2901  -43.7
 0.640  0.3691 -170.5   4.637   81.8  0.0932   61.1  0.2869  -43.8
 0.660  0.3691 -171.9   4.504   80.9  0.0955   61.3  0.2837  -43.8
 0.680  0.3694 -173.4   4.373   80.0  0.0978   61.5  0.2805  -43.9
 0.700  0.3699 -174.8   4.242   79.0  0.1001   61.6  0.2773  -44.0
 0.720  0.3703 -176.1   4.141   78.3  0.1023   61.7  0.2748  -44.2
 0.740  0.3708 -177.4   4.041   77.6  0.1046   61.8  0.2723  -44.3
 0.760  0.3715 -178.7   3.942   76.8  0.1068   61.9  0.2699  -44.5
 0.780  0.3725  180.0   3.843   76.0  0.1091   61.9  0.2674  -44.6
 0.800  0.3736  178.7   3.745   75.1  0.1113   62.0  0.2649  -44.8
 0.820  0.3741  177.5   3.664   74.5  0.1136   62.0  0.2629  -45.0
 0.840  0.3748  176.3   3.584   73.8  0.1159   62.0  0.2608  -45.3
 0.860  0.3757  175.1   3.504   73.2  0.1182   62.0  0.2588  -45.5
 0.880  0.3767  174.0   3.425   72.4  0.1205   62.0  0.2568  -45.8
 0.900  0.3779  172.8   3.346   71.7  0.1228   62.0  0.2548  -46.0
 0.920  0.3777  171.9   3.283   71.0  0.1251   62.0  0.2535  -46.3
 0.940  0.3777  170.9   3.221   70.3  0.1275   61.9  0.2521  -46.5
 0.960  0.3777  170.0   3.158   69.6  0.1298   61.9  0.2508  -46.8
 0.980  0.3779  169.0   3.097   68.9  0.1322   61.8  0.2495  -47.0
 1.000  0.3781  168.1   3.036   68.1  0.1345   61.8  0.2482  -47.3
 1.020  0.3793  167.1   2.985   67.5  0.1369   61.7  0.2468  -47.7
 1.040  0.3806  166.2   2.935   66.9  0.1393   61.7  0.2454  -48.1
 1.060  0.3819  165.3   2.885   66.2  0.1416   61.6  0.2440  -48.5
 1.080  0.3834  164.3   2.835   65.6  0.1440   61.6  0.2427  -49.0
 1.100  0.3850  163.4   2.786   64.9  0.1464   61.5  0.2413  -49.4
 1.120  0.3868  162.5   2.744   64.3  0.1488   61.4  0.2400  -49.8
 1.140  0.3888  161.6   2.702   63.8  0.1511   61.3  0.2387  -50.2
 1.160  0.3908  160.7   2.660   63.2  0.1535   61.2  0.2374  -50.6
 1.180  0.3929  159.9   2.619   62.5  0.1558   61.1  0.2362  -51.0
 1.200  0.3951  159.0   2.578   61.9  0.1582   61.0  0.2349  -51.4
 1.220  0.3956  158.3   2.540   61.3  0.1605   60.9  0.2339  -51.8
 1.240  0.3961  157.6   2.503   60.6  0.1627   60.8  0.2330  -52.3
 1.260  0.3967  156.8   2.465   60.0  0.1650   60.6  0.2320  -52.7
 1.280  0.3973  156.1   2.429   59.3  0.1672   60.5  0.2311  -53.2
 1.300  0.3980  155.4   2.392   58.6  0.1695   60.4  0.2302  -53.6
 1.320  0.3985  154.7   2.360   58.1  0.1719   60.3  0.2294  -54.0
 1.340  0.3991  154.0   2.328   57.5  0.1742   60.2  0.2287  -54.5
 1.360  0.3997  153.3   2.297   56.9  0.1766   60.0  0.2279  -54.9
 1.380  0.4004  152.6   2.266   56.3  0.1789   59.9  0.2272  -55.4
 1.400  0.4011  151.9   2.235   55.7  0.1813   59.8  0.2265  -55.8
 1.420  0.4023  151.2   2.206   55.2  0.1836   59.7  0.2254  -56.4
 1.440  0.4036  150.5   2.178   54.6  0.1858   59.5  0.2243  -56.9
 1.460  0.4049  149.8   2.149   54.1  0.1881   59.4  0.2232  -57.5
 1.480  0.4063  149.2   2.121   53.5  0.1903   59.2  0.2221  -58.1
 1.500  0.4078  148.5   2.093   52.9  0.1926   59.1  0.2211  -58.7
 1.520  0.4098  147.8   2.072   52.4  0.1949   58.9  0.2202  -59.3
 1.540  0.4119  147.1   2.050   51.9  0.1972   58.8  0.2194  -59.9
 1.560  0.4140  146.4   2.029   51.3  0.1996   58.6  0.2186  -60.5
 1.580  0.4162  145.8   2.009   50.8  0.2019   58.5  0.2178  -61.2
 1.600  0.4184  145.1   1.988   50.2  0.2042   58.3  0.2170  -61.8
 1.620  0.4204  144.5   1.968   49.7  0.2065   58.1  0.2164  -62.4
 1.640  0.4224  144.0   1.949   49.2  0.2088   58.0  0.2157  -63.0
 1.660  0.4244  143.4   1.930   48.6  0.2111   57.8  0.2151  -63.5
 1.680  0.4265  142.8   1.911   48.1  0.2134   57.7  0.2146  -64.1
 1.700  0.4286  142.3   1.892   47.5  0.2157   57.5  0.2140  -64.7
 1.720  0.4287  141.7   1.874   47.0  0.2181   57.3  0.2138  -65.3
 1.740  0.4289  141.1   1.856   46.4  0.2205   57.1  0.2136  -66.0
 1.760  0.4292  140.5   1.838   45.9  0.2228   56.9  0.2134  -66.6
 1.780  0.4295  139.9   1.820   45.3  0.2252   56.8  0.2132  -67.3
 1.800  0.4298  139.3   1.803   44.7  0.2276   56.6  0.2131  -67.9
 1.820  0.4303  138.8   1.786   44.3  0.2299   56.4  0.2126  -68.5
 1.840  0.4309  138.2   1.769   43.8  0.2321   56.3  0.2121  -69.2
 1.860  0.4315  137.7   1.753   43.4  0.2344   56.1  0.2116  -69.8
 1.880  0.4322  137.1   1.736   43.0  0.2366   56.0  0.2112  -70.5
 1.900  0.4329  136.6   1.720   42.5  0.2389   55.8  0.2108  -71.1
 1.920  0.4340  136.1   1.706   42.0  0.2411   55.6  0.2104  -71.7
 1.940  0.4352  135.5   1.692   41.5  0.2434   55.4  0.2099  -72.3
 1.960  0.4364  135.0   1.679   41.0  0.2456   55.3  0.2095  -72.8
 1.980  0.4377  134.4   1.665   40.5  0.2479   55.1  0.2092  -73.4
 2.000  0.4390  133.9   1.652   40.0  0.2501   54.9  0.2088  -74.0
 2.020  0.4405  133.4   1.639   39.5  0.2524   54.7  0.2084  -74.7
 2.040  0.4420  132.8   1.626   39.1  0.2547   54.5  0.2081  -75.3
 2.060  0.4435  132.3   1.613   38.6  0.2570   54.3  0.2077  -76.0
 2.080  0.4451  131.7   1.600   38.1  0.2593   54.1  0.2074  -76.6
 2.100  0.4467  131.2   1.588   37.6  0.2617   53.9  0.2072  -77.3
 2.120  0.4484  130.7   1.575   37.2  0.2640   53.7  0.2069  -77.9
 2.140  0.4501  130.1   1.563   36.7  0.2663   53.5  0.2067  -78.6
 2.160  0.4518  129.6   1.550   36.1  0.2686   53.3  0.2065  -79.3
 2.180  0.4536  129.1   1.538   35.6  0.2710   53.1  0.2063  -79.9
 2.200  0.4554  128.6   1.526   35.1  0.2733   52.9  0.2062  -80.6
 2.220  0.4561  128.2   1.516   34.7  0.2757   52.7  0.2059  -81.3
 2.240  0.4569  127.7   1.507   34.3  0.2780   52.4  0.2057  -82.1
 2.260  0.4577  127.3   1.497   33.8  0.2804   52.2  0.2055  -82.8
 2.280  0.4585  126.9   1.487   33.4  0.2828   52.0  0.2053  -83.5
 2.300  0.4594  126.4   1.478   33.0  0.2852   51.8  0.2052  -84.2
 2.320  0.4602  126.0   1.469   32.5  0.2876   51.5  0.2051  -85.0
 2.340  0.4611  125.6   1.459   32.1  0.2900   51.3  0.2050  -85.7
 2.360  0.4621  125.1   1.450   31.6  0.2924   51.1  0.2050  -86.4
 2.380  0.4630  124.7   1.441   31.2  0.2948   50.9  0.2050  -87.2
 2.400  0.4640  124.3   1.432   30.7  0.2972   50.7  0.2050  -87.9
 2.420  0.4655  123.8   1.423   30.3  0.2994   50.5  0.2047  -88.7
 2.440  0.4671  123.3   1.413   29.9  0.3016   50.2  0.2045  -89.5
 2.460  0.4686  122.8   1.404   29.4  0.3038   50.0  0.2043  -90.3
 2.480  0.4702  122.3   1.395   29.0  0.3061   49.7  0.2042  -91.1
 2.500  0.4719  121.9   1.385   28.6  0.3083   49.5  0.2041  -91.9
 2.520  0.4736  121.4   1.376   28.1  0.3105   49.3  0.2040  -92.7
 2.540  0.4753  120.9   1.367   27.7  0.3128   49.1  0.2040  -93.5
 2.560  0.4770  120.4   1.359   27.2  0.3150   48.8  0.2040  -94.3
 2.580  0.4788  120.0   1.350   26.8  0.3172   48.6  0.2041  -95.1
 2.600  0.4806  119.5   1.341   26.3  0.3195   48.4  0.2042  -95.9
 2.620  0.4816  119.0   1.334   25.9  0.3217   48.2  0.2039  -96.8
 2.640  0.4827  118.5   1.326   25.5  0.3240   47.9  0.2036  -97.6
 2.660  0.4838  117.9   1.319   25.1  0.3263   47.7  0.2034  -98.5
 2.680  0.4849  117.4   1.312   24.6  0.3285   47.4  0.2032  -99.3
 2.700  0.4861  116.9   1.305   24.2  0.3308   47.2  0.2031 -100.2
 2.720  0.4873  116.4   1.298   23.8  0.3331   47.0  0.2030 -101.1
 2.740  0.4886  115.9   1.291   23.3  0.3353   46.8  0.2029 -101.9
 2.760  0.4899  115.4   1.284   22.9  0.3376   46.5  0.2030 -102.8
 2.780  0.4912  114.9   1.277   22.5  0.3399   46.3  0.2030 -103.6
 2.800  0.4926  114.4   1.270   22.0  0.3422   46.1  0.2031 -104.5
 2.820  0.4941  113.9   1.263   21.6  0.3445   45.8  0.2031 -105.4
 2.840  0.4955  113.4   1.257   21.2  0.3467   45.6  0.2032 -106.4
 2.860  0.4971  113.0   1.250   20.8  0.3490   45.3  0.2033 -107.3
 2.880  0.4986  112.5   1.243   20.5  0.3513   45.1  0.2035 -108.2
 2.900  0.5002  112.0   1.237   20.1  0.3536   44.8  0.2037 -109.1
 2.920  0.5019  111.5   1.230   19.7  0.3559   44.6  0.2040 -110.1
 2.940  0.5035  111.1   1.224   19.2  0.3582   44.3  0.2044 -111.0
 2.960  0.5052  110.6   1.218   18.8  0.3605   44.1  0.2048 -111.9
 2.980  0.5069  110.2   1.211   18.4  0.3628   43.8  0.2052 -112.8
 3.000  0.5087  109.7   1.205   18.0  0.3651   43.6  0.2057 -113.7
!
!  f       NFmin   Gammaopt  rn/50
! GHz       dB    MAG  ANG    -
!
! noise parameter not available yet for this operation point!
!
! (c) 2015  Infineon Technologies AG, Munich
