! Infineon Technologies  Discrete & RF Semiconductors
! BFR93A
! VCE =  2.5 V,  IC =  25 mA
! Common Emitter S-Parameters:                            Nov 2015
# GHz  S  MA  R  50
!  f         S11            S21            S12            S22
! GHz     MAG   ANG      MAG   ANG      MAG   ANG      MAG   ANG
 0.010  0.5251  -14.6  44.836  170.8  0.0041   83.1  0.9446   -7.7
 0.015  0.5146  -21.6  43.972  166.6  0.0060   79.6  0.9276  -11.3
 0.020  0.5119  -28.7  43.351  162.3  0.0079   77.8  0.9144  -15.1
 0.025  0.4914  -34.1  41.815  159.3  0.0093   74.9  0.8843  -17.6
 0.030  0.4757  -39.9  40.399  156.2  0.0108   72.8  0.8560  -20.4
 0.035  0.4651  -46.0  39.116  152.8  0.0123   71.1  0.8298  -23.3
 0.040  0.4599  -52.3  37.981  149.1  0.0137   69.9  0.8058  -26.3
 0.045  0.4605  -58.7  37.005  145.3  0.0152   68.8  0.7843  -29.6
 0.050  0.4668  -65.0  36.203  141.3  0.0167   68.0  0.7655  -33.0
 0.055  0.4526  -68.4  34.947  139.9  0.0176   67.1  0.7410  -34.1
 0.060  0.4400  -71.9  33.715  138.3  0.0185   66.2  0.7169  -35.3
 0.065  0.4292  -75.7  32.509  136.6  0.0194   65.5  0.6930  -36.6
 0.070  0.4203  -79.6  31.332  134.9  0.0203   64.8  0.6696  -37.9
 0.075  0.4135  -83.7  30.189  132.9  0.0213   64.2  0.6465  -39.4
 0.080  0.4089  -87.9  29.083  130.8  0.0222   63.6  0.6239  -41.0
 0.085  0.4064  -92.1  28.018  128.6  0.0231   63.1  0.6018  -42.6
 0.090  0.4063  -96.4  26.999  126.2  0.0240   62.6  0.5803  -44.5
 0.095  0.4084 -100.7  26.032  123.6  0.0250   62.1  0.5593  -46.4
 0.100  0.4128 -104.9  25.122  120.8  0.0259   61.7  0.5391  -48.5
 0.105  0.4071 -107.0  24.414  120.0  0.0265   61.7  0.5254  -49.0
 0.110  0.4020 -109.1  23.712  119.1  0.0272   61.7  0.5118  -49.4
 0.115  0.3974 -111.2  23.016  118.1  0.0278   61.7  0.4982  -49.9
 0.120  0.3935 -113.5  22.327  117.1  0.0285   61.7  0.4847  -50.5
 0.125  0.3901 -115.7  21.645  116.0  0.0291   61.8  0.4712  -51.0
 0.130  0.3873 -118.0  20.971  114.9  0.0298   61.8  0.4577  -51.6
 0.135  0.3852 -120.3  20.306  113.7  0.0304   61.8  0.4443  -52.3
 0.140  0.3837 -122.7  19.651  112.4  0.0311   61.8  0.4310  -52.9
 0.145  0.3828 -125.0  19.006  111.0  0.0317   61.8  0.4177  -53.6
 0.150  0.3826 -127.4  18.374  109.5  0.0324   61.8  0.4045  -54.4
 0.155  0.3805 -128.8  17.962  109.0  0.0330   62.0  0.3966  -54.6
 0.160  0.3786 -130.2  17.551  108.4  0.0337   62.2  0.3887  -54.8
 0.165  0.3769 -131.6  17.143  107.8  0.0343   62.4  0.3808  -55.0
 0.170  0.3755 -133.0  16.736  107.2  0.0350   62.6  0.3730  -55.2
 0.175  0.3743 -134.4  16.331  106.6  0.0356   62.7  0.3651  -55.4
 0.180  0.3733 -135.9  15.928  105.9  0.0362   62.9  0.3572  -55.7
 0.185  0.3726 -137.3  15.528  105.2  0.0369   63.1  0.3493  -55.9
 0.190  0.3721 -138.8  15.130  104.4  0.0375   63.2  0.3415  -56.2
 0.195  0.3718 -140.2  14.735  103.6  0.0382   63.4  0.3336  -56.4
 0.200  0.3718 -141.7  14.343  102.8  0.0388   63.5  0.3258  -56.7
 0.220  0.3685 -145.6  13.274  101.0  0.0415   64.1  0.3059  -57.0
 0.240  0.3669 -149.6  12.219   99.0  0.0442   64.7  0.2860  -57.2
 0.260  0.3660 -152.9  11.329   97.2  0.0468   65.2  0.2693  -57.4
 0.280  0.3649 -155.6  10.593   95.7  0.0495   65.8  0.2560  -57.4
 0.300  0.3646 -158.2   9.865   94.1  0.0521   66.4  0.2426  -57.4
 0.320  0.3637 -160.4   9.386   93.2  0.0549   66.8  0.2341  -57.3
 0.340  0.3633 -162.6   8.909   92.1  0.0577   67.2  0.2257  -57.3
 0.360  0.3635 -164.8   8.435   91.0  0.0605   67.6  0.2172  -57.2
 0.380  0.3642 -167.0   7.965   89.7  0.0633   67.9  0.2088  -57.2
 0.400  0.3654 -169.2   7.500   88.3  0.0661   68.2  0.2003  -57.1
 0.420  0.3653 -170.8   7.210   87.5  0.0689   68.3  0.1956  -57.0
 0.440  0.3654 -172.5   6.922   86.6  0.0716   68.4  0.1909  -57.0
 0.450  0.3656 -173.3   6.778   86.2  0.0730   68.5  0.1886  -57.0
 0.460  0.3658 -174.1   6.635   85.7  0.0744   68.5  0.1863  -56.9
 0.480  0.3666 -175.7   6.350   84.6  0.0771   68.6  0.1816  -56.9
 0.500  0.3676 -177.3   6.068   83.5  0.0799   68.7  0.1769  -56.8
 0.520  0.3680 -178.6   5.870   82.8  0.0827   68.7  0.1735  -56.9
 0.540  0.3685 -179.9   5.674   82.1  0.0855   68.7  0.1702  -57.0
 0.560  0.3693  178.8   5.478   81.3  0.0884   68.7  0.1668  -57.1
 0.580  0.3702  177.6   5.283   80.4  0.0912   68.7  0.1635  -57.2
 0.600  0.3713  176.3   5.090   79.5  0.0940   68.7  0.1601  -57.3
 0.620  0.3714  175.3   4.947   78.8  0.0969   68.6  0.1579  -57.5
 0.640  0.3717  174.4   4.806   78.2  0.0997   68.5  0.1557  -57.7
 0.660  0.3720  173.4   4.665   77.4  0.1026   68.4  0.1534  -57.9
 0.680  0.3725  172.5   4.524   76.6  0.1054   68.4  0.1512  -58.2
 0.700  0.3730  171.5   4.385   75.8  0.1083   68.3  0.1490  -58.4
 0.720  0.3743  170.6   4.280   75.2  0.1111   68.1  0.1471  -58.7
 0.740  0.3757  169.8   4.175   74.5  0.1139   68.0  0.1452  -59.0
 0.760  0.3771  168.9   4.071   73.9  0.1166   67.9  0.1433  -59.3
 0.780  0.3787  168.0   3.968   73.2  0.1194   67.7  0.1415  -59.7
 0.800  0.3803  167.2   3.865   72.4  0.1222   67.6  0.1396  -60.0
 0.820  0.3814  166.3   3.781   71.8  0.1250   67.4  0.1381  -60.5
 0.840  0.3825  165.4   3.698   71.2  0.1277   67.2  0.1366  -61.0
 0.860  0.3838  164.5   3.615   70.6  0.1305   67.0  0.1351  -61.5
 0.880  0.3852  163.6   3.532   70.0  0.1332   66.9  0.1337  -62.0
 0.900  0.3866  162.7   3.450   69.3  0.1360   66.7  0.1322  -62.5
 0.920  0.3870  161.9   3.385   68.7  0.1388   66.5  0.1312  -62.9
 0.940  0.3875  161.1   3.320   68.1  0.1416   66.3  0.1302  -63.4
 0.960  0.3881  160.4   3.256   67.5  0.1443   66.1  0.1292  -63.8
 0.980  0.3887  159.6   3.192   66.8  0.1471   65.9  0.1283  -64.2
 1.000  0.3894  158.8   3.128   66.1  0.1499   65.7  0.1273  -64.7
 1.020  0.3906  158.1   3.076   65.6  0.1526   65.5  0.1264  -65.4
 1.040  0.3918  157.5   3.023   65.0  0.1553   65.2  0.1254  -66.1
 1.060  0.3930  156.8   2.972   64.4  0.1581   65.0  0.1245  -66.8
 1.080  0.3943  156.2   2.920   63.8  0.1608   64.8  0.1237  -67.6
 1.100  0.3957  155.5   2.869   63.2  0.1635   64.6  0.1228  -68.3
 1.120  0.3974  154.7   2.825   62.7  0.1663   64.3  0.1218  -69.1
 1.140  0.3993  154.0   2.781   62.1  0.1690   64.1  0.1208  -69.8
 1.160  0.4011  153.3   2.737   61.5  0.1718   63.9  0.1199  -70.6
 1.180  0.4031  152.5   2.693   60.9  0.1745   63.6  0.1189  -71.4
 1.200  0.4051  151.8   2.650   60.3  0.1773   63.4  0.1180  -72.2
 1.220  0.4062  151.2   2.611   59.7  0.1799   63.1  0.1173  -72.9
 1.240  0.4074  150.5   2.572   59.1  0.1824   62.9  0.1166  -73.6
 1.260  0.4086  149.9   2.533   58.5  0.1850   62.7  0.1159  -74.3
 1.280  0.4099  149.3   2.495   57.9  0.1875   62.4  0.1152  -75.0
 1.300  0.4112  148.7   2.457   57.2  0.1901   62.2  0.1146  -75.7
 1.320  0.4114  148.1   2.424   56.7  0.1927   62.0  0.1142  -76.4
 1.340  0.4117  147.5   2.392   56.2  0.1954   61.7  0.1138  -77.2
 1.360  0.4120  147.0   2.359   55.7  0.1980   61.5  0.1135  -77.9
 1.380  0.4123  146.4   2.327   55.1  0.2007   61.3  0.1131  -78.7
 1.400  0.4127  145.8   2.295   54.6  0.2033   61.1  0.1128  -79.4
 1.420  0.4136  145.3   2.265   54.1  0.2059   60.8  0.1121  -80.4
 1.440  0.4145  144.7   2.236   53.6  0.2084   60.6  0.1114  -81.4
 1.460  0.4155  144.2   2.207   53.0  0.2110   60.3  0.1108  -82.4
 1.480  0.4165  143.6   2.178   52.5  0.2136   60.0  0.1102  -83.4
 1.500  0.4175  143.1   2.149   51.9  0.2162   59.8  0.1096  -84.4
 1.520  0.4192  142.5   2.127   51.4  0.2188   59.5  0.1093  -85.4
 1.540  0.4210  142.0   2.106   50.9  0.2214   59.2  0.1090  -86.5
 1.560  0.4228  141.4   2.084   50.4  0.2240   58.9  0.1088  -87.6
 1.580  0.4246  140.9   2.063   49.9  0.2267   58.7  0.1086  -88.6
 1.600  0.4265  140.3   2.042   49.4  0.2293   58.4  0.1084  -89.7
 1.620  0.4286  139.7   2.022   48.9  0.2317   58.2  0.1083  -90.6
 1.640  0.4307  139.1   2.002   48.4  0.2341   57.9  0.1082  -91.4
 1.660  0.4328  138.5   1.983   47.9  0.2365   57.7  0.1081  -92.3
 1.680  0.4351  138.0   1.963   47.4  0.2389   57.4  0.1080  -93.1
 1.700  0.4373  137.4   1.944   46.9  0.2413   57.2  0.1080  -94.0
 1.720  0.4382  137.0   1.925   46.4  0.2439   56.9  0.1082  -95.0
 1.740  0.4391  136.6   1.905   45.9  0.2464   56.7  0.1084  -96.0
 1.760  0.4400  136.1   1.886   45.3  0.2490   56.4  0.1087  -97.0
 1.780  0.4409  135.7   1.868   44.8  0.2516   56.1  0.1090  -97.9
 1.800  0.4419  135.3   1.849   44.2  0.2542   55.9  0.1093  -98.9
 1.820  0.4424  134.8   1.832   43.8  0.2566   55.6  0.1093  -99.8
 1.840  0.4429  134.3   1.815   43.3  0.2591   55.4  0.1093 -100.7
 1.860  0.4435  133.8   1.798   42.8  0.2616   55.1  0.1093 -101.5
 1.880  0.4441  133.3   1.781   42.4  0.2640   54.9  0.1094 -102.4
 1.900  0.4447  132.8   1.764   41.9  0.2665   54.6  0.1095 -103.3
 1.920  0.4455  132.3   1.750   41.5  0.2689   54.4  0.1096 -104.2
 1.940  0.4464  131.8   1.736   41.0  0.2713   54.1  0.1097 -105.1
 1.960  0.4473  131.2   1.722   40.5  0.2737   53.9  0.1098 -106.0
 1.980  0.4482  130.7   1.708   40.1  0.2762   53.6  0.1099 -106.9
 2.000  0.4492  130.2   1.694   39.6  0.2786   53.4  0.1101 -107.8
 2.020  0.4504  129.7   1.681   39.2  0.2810   53.1  0.1103 -108.7
 2.040  0.4516  129.2   1.669   38.7  0.2834   52.8  0.1105 -109.6
 2.060  0.4529  128.7   1.656   38.3  0.2859   52.5  0.1107 -110.5
 2.080  0.4541  128.2   1.644   37.8  0.2883   52.3  0.1110 -111.4
 2.100  0.4555  127.8   1.631   37.4  0.2907   52.0  0.1113 -112.3
 2.120  0.4568  127.3   1.619   36.9  0.2932   51.7  0.1116 -113.2
 2.140  0.4582  126.8   1.607   36.5  0.2956   51.5  0.1119 -114.1
 2.160  0.4596  126.3   1.595   36.0  0.2981   51.2  0.1123 -115.0
 2.180  0.4610  125.9   1.583   35.5  0.3005   51.0  0.1127 -115.8
 2.200  0.4625  125.4   1.571   35.0  0.3030   50.7  0.1131 -116.7
 2.220  0.4630  125.0   1.560   34.6  0.3053   50.4  0.1135 -117.7
 2.240  0.4635  124.6   1.550   34.2  0.3076   50.1  0.1139 -118.6
 2.260  0.4641  124.2   1.540   33.8  0.3099   49.8  0.1143 -119.5
 2.280  0.4647  123.8   1.529   33.3  0.3123   49.5  0.1148 -120.5
 2.300  0.4653  123.4   1.519   32.9  0.3146   49.2  0.1153 -121.4
 2.320  0.4659  123.0   1.509   32.5  0.3169   48.9  0.1158 -122.3
 2.340  0.4665  122.7   1.499   32.1  0.3193   48.6  0.1164 -123.2
 2.360  0.4672  122.3   1.489   31.6  0.3217   48.3  0.1169 -124.1
 2.380  0.4679  121.9   1.479   31.2  0.3240   48.1  0.1176 -125.0
 2.400  0.4686  121.5   1.469   30.7  0.3264   47.8  0.1182 -125.9
 2.420  0.4700  121.0   1.460   30.3  0.3286   47.5  0.1187 -126.9
 2.440  0.4714  120.5   1.450   29.8  0.3308   47.2  0.1193 -127.9
 2.460  0.4729  120.0   1.441   29.4  0.3331   47.0  0.1199 -128.9
 2.480  0.4744  119.5   1.432   29.0  0.3353   46.7  0.1205 -129.9
 2.500  0.4760  119.0   1.423   28.5  0.3376   46.4  0.1212 -130.9
 2.520  0.4775  118.5   1.414   28.1  0.3398   46.1  0.1219 -131.9
 2.540  0.4792  118.0   1.405   27.6  0.3421   45.9  0.1226 -132.8
 2.560  0.4808  117.6   1.396   27.1  0.3443   45.6  0.1234 -133.7
 2.580  0.4825  117.1   1.388   26.7  0.3466   45.4  0.1242 -134.7
 2.600  0.4842  116.6   1.379   26.2  0.3489   45.1  0.1250 -135.6
 2.620  0.4854  116.2   1.372   25.8  0.3510   44.8  0.1256 -136.6
 2.640  0.4866  115.8   1.364   25.4  0.3532   44.5  0.1263 -137.7
 2.660  0.4878  115.3   1.357   25.0  0.3554   44.3  0.1270 -138.7
 2.680  0.4891  114.9   1.350   24.6  0.3575   44.0  0.1278 -139.7
 2.700  0.4903  114.5   1.343   24.2  0.3597   43.7  0.1286 -140.7
 2.720  0.4916  114.1   1.336   23.8  0.3619   43.4  0.1294 -141.7
 2.740  0.4930  113.7   1.329   23.4  0.3641   43.2  0.1303 -142.7
 2.760  0.4943  113.3   1.322   23.0  0.3663   42.9  0.1312 -143.6
 2.780  0.4957  112.9   1.315   22.5  0.3685   42.7  0.1321 -144.6
 2.800  0.4971  112.5   1.308   22.1  0.3707   42.4  0.1331 -145.5
 2.820  0.4983  112.0   1.301   21.7  0.3728   42.1  0.1341 -146.5
 2.840  0.4996  111.6   1.295   21.4  0.3749   41.8  0.1351 -147.5
 2.860  0.5009  111.1   1.288   21.0  0.3770   41.5  0.1362 -148.5
 2.880  0.5022  110.7   1.282   20.6  0.3791   41.2  0.1373 -149.4
 2.900  0.5036  110.2   1.276   20.2  0.3812   40.9  0.1384 -150.4
 2.920  0.5049  109.8   1.269   19.8  0.3834   40.6  0.1396 -151.3
 2.940  0.5064  109.3   1.263   19.4  0.3855   40.3  0.1408 -152.2
 2.960  0.5078  108.9   1.257   19.0  0.3877   40.1  0.1421 -153.1
 2.980  0.5093  108.4   1.251   18.6  0.3898   39.8  0.1434 -154.0
 3.000  0.5108  108.0   1.245   18.2  0.3920   39.5  0.1447 -154.9
!
!  f       NFmin   Gammaopt  rn/50
! GHz       dB    MAG  ANG    -
!
! noise parameter not available yet for this operation point!
!
! (c) 2015  Infineon Technologies AG, Munich
