! Infineon Technologies  Discrete & RF Semiconductors
! BFR93A
! VCE =  2.5 V,  IC =  30 mA
! Common Emitter S-Parameters:                            Nov 2015
# GHz  S  MA  R  50
!  f         S11            S21            S12            S22
! GHz     MAG   ANG      MAG   ANG      MAG   ANG      MAG   ANG
 0.010  0.4841  -16.2  48.571  170.1  0.0040   83.3  0.9361   -8.4
 0.015  0.4727  -23.9  47.497  165.6  0.0057   78.9  0.9166  -12.3
 0.020  0.4702  -31.8  46.723  161.0  0.0075   76.6  0.9015  -16.3
 0.025  0.4496  -37.7  44.890  158.0  0.0089   74.0  0.8685  -18.9
 0.030  0.4341  -44.0  43.193  154.7  0.0103   72.0  0.8375  -21.7
 0.035  0.4244  -50.8  41.648  151.2  0.0117   70.5  0.8086  -24.7
 0.040  0.4207  -57.7  40.272  147.4  0.0131   69.4  0.7821  -27.9
 0.045  0.4233  -64.7  39.084  143.4  0.0145   68.5  0.7583  -31.4
 0.050  0.4321  -71.5  38.101  139.1  0.0159   67.7  0.7373  -35.0
 0.055  0.4198  -75.0  36.715  137.7  0.0168   67.0  0.7126  -36.1
 0.060  0.4091  -78.6  35.353  136.2  0.0176   66.3  0.6882  -37.2
 0.065  0.4002  -82.5  34.017  134.6  0.0185   65.7  0.6641  -38.4
 0.070  0.3932  -86.5  32.711  132.8  0.0194   65.1  0.6403  -39.8
 0.075  0.3881  -90.6  31.438  130.9  0.0202   64.6  0.6169  -41.2
 0.080  0.3851  -94.8  30.204  128.8  0.0211   64.1  0.5939  -42.7
 0.085  0.3842  -99.0  29.011  126.6  0.0220   63.7  0.5713  -44.4
 0.090  0.3854 -103.3  27.867  124.2  0.0228   63.3  0.5493  -46.2
 0.095  0.3887 -107.5  26.776  121.5  0.0237   62.9  0.5278  -48.1
 0.100  0.3941 -111.6  25.747  118.7  0.0246   62.6  0.5070  -50.2
 0.105  0.3893 -113.6  25.005  117.9  0.0253   62.7  0.4939  -50.6
 0.110  0.3850 -115.6  24.268  117.1  0.0259   62.8  0.4808  -51.0
 0.115  0.3812 -117.7  23.536  116.2  0.0266   62.8  0.4677  -51.5
 0.120  0.3780 -119.8  22.811  115.2  0.0272   62.9  0.4547  -52.0
 0.125  0.3752 -122.0  22.092  114.2  0.0279   63.0  0.4417  -52.5
 0.130  0.3730 -124.2  21.380  113.1  0.0286   63.1  0.4288  -53.0
 0.135  0.3713 -126.4  20.677  112.0  0.0292   63.1  0.4159  -53.6
 0.140  0.3702 -128.6  19.983  110.7  0.0299   63.2  0.4030  -54.2
 0.145  0.3697 -130.9  19.298  109.4  0.0305   63.2  0.3902  -54.9
 0.150  0.3697 -133.1  18.625  108.0  0.0312   63.3  0.3774  -55.6
 0.155  0.3684 -134.4  18.201  107.5  0.0319   63.5  0.3700  -55.7
 0.160  0.3673 -135.7  17.778  106.9  0.0325   63.8  0.3625  -55.9
 0.165  0.3664 -137.0  17.358  106.4  0.0332   64.0  0.3551  -56.1
 0.170  0.3656 -138.3  16.938  105.8  0.0338   64.2  0.3477  -56.2
 0.175  0.3651 -139.6  16.521  105.2  0.0345   64.4  0.3403  -56.4
 0.180  0.3648 -140.9  16.106  104.5  0.0352   64.6  0.3328  -56.6
 0.185  0.3646 -142.2  15.693  103.8  0.0358   64.8  0.3254  -56.8
 0.190  0.3646 -143.6  15.283  103.1  0.0365   65.0  0.3180  -57.0
 0.195  0.3649 -144.9  14.875  102.3  0.0371   65.1  0.3106  -57.2
 0.200  0.3653 -146.2  14.470  101.5  0.0378   65.3  0.3032  -57.4
 0.220  0.3632 -149.9  13.380   99.8  0.0405   65.9  0.2847  -57.6
 0.240  0.3625 -153.6  12.303   97.8  0.0432   66.5  0.2662  -57.8
 0.260  0.3628 -156.6  11.399   96.1  0.0459   67.0  0.2507  -57.9
 0.280  0.3633 -159.1  10.660   94.8  0.0486   67.7  0.2384  -57.8
 0.300  0.3644 -161.5   9.927   93.3  0.0514   68.2  0.2260  -57.7
 0.320  0.3633 -163.6   9.441   92.4  0.0542   68.5  0.2182  -57.6
 0.340  0.3626 -165.6   8.957   91.4  0.0571   68.8  0.2104  -57.5
 0.360  0.3624 -167.7   8.476   90.3  0.0599   69.1  0.2026  -57.4
 0.380  0.3627 -169.7   7.999   89.0  0.0628   69.4  0.1948  -57.3
 0.400  0.3635 -171.8   7.526   87.6  0.0656   69.6  0.1870  -57.2
 0.420  0.3635 -173.4   7.234   86.8  0.0684   69.7  0.1827  -57.1
 0.440  0.3638 -175.0   6.943   86.0  0.0713   69.8  0.1784  -57.1
 0.450  0.3641 -175.8   6.798   85.5  0.0727   69.8  0.1762  -57.1
 0.460  0.3644 -176.6   6.653   85.1  0.0741   69.9  0.1741  -57.0
 0.480  0.3653 -178.1   6.365   84.1  0.0770   69.9  0.1698  -57.0
 0.500  0.3664 -179.7   6.080   83.0  0.0798   70.0  0.1655  -56.9
 0.520  0.3669  179.2   5.883   82.3  0.0827   69.9  0.1624  -57.0
 0.540  0.3676  178.1   5.686   81.6  0.0855   69.9  0.1593  -57.1
 0.560  0.3684  177.0   5.491   80.8  0.0884   69.8  0.1562  -57.2
 0.580  0.3693  175.9   5.296   80.0  0.0912   69.8  0.1531  -57.3
 0.600  0.3704  174.8   5.103   79.1  0.0941   69.7  0.1500  -57.4
 0.620  0.3711  173.8   4.960   78.4  0.0970   69.6  0.1480  -57.6
 0.640  0.3718  172.9   4.818   77.8  0.0999   69.4  0.1459  -57.9
 0.660  0.3727  171.9   4.676   77.0  0.1029   69.3  0.1439  -58.2
 0.680  0.3736  171.0   4.536   76.2  0.1058   69.2  0.1418  -58.4
 0.700  0.3747  170.0   4.396   75.4  0.1087   69.1  0.1398  -58.7
 0.720  0.3756  169.2   4.291   74.8  0.1115   68.9  0.1380  -59.0
 0.740  0.3767  168.3   4.186   74.2  0.1143   68.8  0.1363  -59.4
 0.760  0.3778  167.5   4.081   73.5  0.1171   68.7  0.1346  -59.8
 0.780  0.3789  166.7   3.977   72.8  0.1199   68.5  0.1328  -60.1
 0.800  0.3802  165.9   3.874   72.1  0.1227   68.4  0.1311  -60.5
 0.820  0.3816  165.0   3.789   71.6  0.1255   68.2  0.1298  -61.0
 0.840  0.3832  164.2   3.705   71.0  0.1283   68.0  0.1284  -61.5
 0.860  0.3848  163.4   3.621   70.4  0.1311   67.8  0.1271  -62.0
 0.880  0.3864  162.5   3.538   69.8  0.1339   67.6  0.1258  -62.5
 0.900  0.3882  161.7   3.455   69.1  0.1367   67.4  0.1245  -63.0
 0.920  0.3881  160.9   3.390   68.5  0.1395   67.1  0.1235  -63.5
 0.940  0.3881  160.1   3.326   67.9  0.1423   66.9  0.1225  -64.0
 0.960  0.3882  159.3   3.262   67.3  0.1452   66.7  0.1215  -64.5
 0.980  0.3883  158.5   3.198   66.6  0.1480   66.4  0.1206  -65.1
 1.000  0.3885  157.7   3.135   65.9  0.1508   66.2  0.1196  -65.6
 1.020  0.3904  157.0   3.082   65.3  0.1535   66.0  0.1188  -66.3
 1.040  0.3924  156.4   3.029   64.8  0.1562   65.7  0.1179  -67.0
 1.060  0.3945  155.7   2.976   64.2  0.1590   65.5  0.1171  -67.8
 1.080  0.3966  155.0   2.924   63.5  0.1617   65.3  0.1164  -68.5
 1.100  0.3987  154.4   2.872   62.9  0.1644   65.1  0.1156  -69.3
 1.120  0.3998  153.8   2.828   62.4  0.1672   64.8  0.1146  -70.1
 1.140  0.4009  153.1   2.785   61.8  0.1699   64.6  0.1137  -70.9
 1.160  0.4020  152.5   2.742   61.3  0.1727   64.3  0.1127  -71.7
 1.180  0.4032  151.8   2.699   60.7  0.1754   64.0  0.1118  -72.6
 1.200  0.4045  151.2   2.657   60.1  0.1782   63.8  0.1109  -73.4
 1.220  0.4056  150.6   2.617   59.5  0.1808   63.5  0.1102  -74.1
 1.240  0.4068  150.0   2.577   59.0  0.1834   63.3  0.1095  -74.8
 1.260  0.4080  149.4   2.538   58.4  0.1860   63.0  0.1089  -75.5
 1.280  0.4093  148.8   2.499   57.7  0.1886   62.7  0.1082  -76.3
 1.300  0.4106  148.2   2.460   57.1  0.1912   62.5  0.1076  -77.0
 1.320  0.4113  147.6   2.428   56.6  0.1938   62.2  0.1072  -77.8
 1.340  0.4121  147.0   2.395   56.1  0.1965   62.0  0.1069  -78.6
 1.360  0.4129  146.5   2.363   55.5  0.1991   61.8  0.1066  -79.4
 1.380  0.4137  145.9   2.332   55.0  0.2018   61.5  0.1063  -80.3
 1.400  0.4146  145.3   2.300   54.4  0.2044   61.3  0.1060  -81.1
 1.420  0.4154  144.7   2.270   53.9  0.2070   61.0  0.1054  -82.1
 1.440  0.4162  144.2   2.240   53.4  0.2097   60.8  0.1049  -83.1
 1.460  0.4170  143.6   2.211   52.8  0.2123   60.6  0.1043  -84.2
 1.480  0.4179  143.1   2.181   52.3  0.2150   60.3  0.1039  -85.2
 1.500  0.4188  142.5   2.152   51.7  0.2176   60.1  0.1034  -86.3
 1.520  0.4206  142.0   2.130   51.2  0.2201   59.8  0.1031  -87.4
 1.540  0.4225  141.4   2.108   50.8  0.2226   59.5  0.1028  -88.5
 1.560  0.4243  140.9   2.087   50.3  0.2251   59.2  0.1026  -89.6
 1.580  0.4263  140.4   2.065   49.8  0.2277   59.0  0.1024  -90.7
 1.600  0.4282  139.9   2.044   49.3  0.2302   58.7  0.1022  -91.8
 1.620  0.4301  139.4   2.024   48.8  0.2327   58.4  0.1021  -92.7
 1.640  0.4320  138.8   2.003   48.3  0.2351   58.2  0.1021  -93.7
 1.660  0.4340  138.3   1.983   47.8  0.2376   57.9  0.1021  -94.6
 1.680  0.4360  137.7   1.963   47.3  0.2401   57.6  0.1021  -95.6
 1.700  0.4380  137.2   1.943   46.8  0.2426   57.4  0.1022  -96.5
 1.720  0.4387  136.7   1.924   46.3  0.2451   57.1  0.1025  -97.5
 1.740  0.4394  136.2   1.906   45.8  0.2477   56.9  0.1028  -98.5
 1.760  0.4401  135.7   1.887   45.3  0.2503   56.6  0.1031  -99.5
 1.780  0.4409  135.2   1.869   44.7  0.2528   56.3  0.1035 -100.4
 1.800  0.4417  134.7   1.851   44.2  0.2554   56.1  0.1039 -101.4
 1.820  0.4419  134.2   1.834   43.8  0.2579   55.8  0.1040 -102.3
 1.840  0.4422  133.7   1.817   43.3  0.2603   55.6  0.1041 -103.2
 1.860  0.4424  133.1   1.800   42.8  0.2628   55.3  0.1042 -104.2
 1.880  0.4427  132.6   1.784   42.4  0.2653   55.1  0.1044 -105.1
 1.900  0.4431  132.1   1.767   41.9  0.2678   54.8  0.1046 -106.0
 1.920  0.4450  131.6   1.752   41.4  0.2702   54.5  0.1047 -106.9
 1.940  0.4469  131.1   1.738   41.0  0.2726   54.3  0.1048 -107.8
 1.960  0.4488  130.6   1.723   40.5  0.2750   54.0  0.1049 -108.8
 1.980  0.4508  130.2   1.709   40.0  0.2775   53.8  0.1050 -109.7
 2.000  0.4528  129.7   1.695   39.5  0.2799   53.5  0.1052 -110.6
 2.020  0.4538  129.2   1.682   39.1  0.2823   53.2  0.1055 -111.5
 2.040  0.4548  128.8   1.669   38.6  0.2846   52.9  0.1057 -112.4
 2.060  0.4558  128.3   1.657   38.2  0.2870   52.6  0.1060 -113.3
 2.080  0.4569  127.8   1.644   37.7  0.2894   52.4  0.1064 -114.2
 2.100  0.4580  127.4   1.632   37.2  0.2918   52.1  0.1067 -115.1
 2.120  0.4591  126.9   1.619   36.8  0.2942   51.8  0.1071 -116.0
 2.140  0.4603  126.5   1.607   36.3  0.2966   51.6  0.1075 -116.9
 2.160  0.4614  126.0   1.595   35.8  0.2990   51.3  0.1080 -117.8
 2.180  0.4627  125.5   1.583   35.3  0.3014   51.1  0.1084 -118.6
 2.200  0.4639  125.1   1.571   34.8  0.3038   50.8  0.1089 -119.5
 2.220  0.4643  124.7   1.561   34.4  0.3062   50.5  0.1093 -120.5
 2.240  0.4647  124.3   1.551   34.0  0.3086   50.2  0.1098 -121.4
 2.260  0.4652  123.9   1.541   33.6  0.3110   49.9  0.1102 -122.4
 2.280  0.4657  123.5   1.531   33.2  0.3134   49.6  0.1107 -123.3
 2.300  0.4662  123.1   1.521   32.8  0.3158   49.3  0.1113 -124.3
 2.320  0.4667  122.7   1.511   32.4  0.3182   49.0  0.1118 -125.2
 2.340  0.4672  122.3   1.502   32.0  0.3207   48.7  0.1124 -126.1
 2.360  0.4678  121.9   1.492   31.6  0.3231   48.4  0.1131 -127.0
 2.380  0.4684  121.5   1.482   31.1  0.3255   48.2  0.1137 -127.9
 2.400  0.4690  121.1   1.473   30.7  0.3280   47.9  0.1144 -128.8
 2.420  0.4709  120.6   1.463   30.3  0.3302   47.6  0.1150 -129.8
 2.440  0.4728  120.2   1.454   29.9  0.3324   47.3  0.1157 -130.8
 2.460  0.4747  119.7   1.444   29.4  0.3346   47.1  0.1164 -131.8
 2.480  0.4766  119.3   1.435   29.0  0.3369   46.8  0.1171 -132.8
 2.500  0.4786  118.9   1.425   28.6  0.3391   46.5  0.1179 -133.8
 2.520  0.4806  118.4   1.416   28.1  0.3414   46.2  0.1187 -134.8
 2.540  0.4826  118.0   1.407   27.7  0.3436   46.0  0.1195 -135.7
 2.560  0.4847  117.6   1.398   27.2  0.3459   45.7  0.1204 -136.7
 2.580  0.4868  117.1   1.389   26.8  0.3481   45.5  0.1213 -137.6
 2.600  0.4889  116.7   1.380   26.3  0.3504   45.2  0.1222 -138.5
 2.620  0.4897  116.3   1.373   25.9  0.3525   44.9  0.1229 -139.5
 2.640  0.4904  115.8   1.366   25.5  0.3546   44.6  0.1236 -140.6
 2.660  0.4912  115.4   1.359   25.1  0.3568   44.3  0.1243 -141.6
 2.680  0.4921  115.0   1.352   24.7  0.3589   44.0  0.1251 -142.6
 2.700  0.4930  114.5   1.346   24.3  0.3611   43.7  0.1259 -143.6
 2.720  0.4938  114.1   1.339   23.9  0.3632   43.4  0.1267 -144.6
 2.740  0.4948  113.7   1.332   23.5  0.3654   43.1  0.1276 -145.6
 2.760  0.4957  113.2   1.326   23.1  0.3676   42.9  0.1285 -146.5
 2.780  0.4967  112.8   1.319   22.6  0.3698   42.6  0.1295 -147.5
 2.800  0.4977  112.4   1.313   22.2  0.3720   42.3  0.1305 -148.4
 2.820  0.4988  112.0   1.306   21.8  0.3741   42.0  0.1316 -149.4
 2.840  0.5000  111.5   1.299   21.4  0.3763   41.7  0.1327 -150.4
 2.860  0.5012  111.1   1.292   21.0  0.3785   41.4  0.1338 -151.4
 2.880  0.5024  110.6   1.285   20.6  0.3806   41.1  0.1350 -152.3
 2.900  0.5037  110.2   1.278   20.2  0.3828   40.8  0.1363 -153.3
 2.920  0.5050  109.7   1.271   19.8  0.3850   40.5  0.1375 -154.2
 2.940  0.5063  109.3   1.265   19.4  0.3872   40.2  0.1388 -155.1
 2.960  0.5076  108.9   1.258   19.0  0.3894   40.0  0.1401 -156.0
 2.980  0.5090  108.4   1.251   18.5  0.3917   39.7  0.1415 -156.8
 3.000  0.5104  108.0   1.245   18.1  0.3939   39.4  0.1429 -157.7
!
!  f       NFmin   Gammaopt  rn/50
! GHz       dB    MAG  ANG    -
!
! noise parameter not available yet for this operation point!
!
! (c) 2015  Infineon Technologies AG, Munich
