! Infineon Technologies  Discrete & RF Semiconductors
! BFR93AW
! VCE =  1.7 V,  IC =  2.5 mA
! Common Emitter S-Parameters:                            Nov 2015
# GHz  S  MA  R  50
!  f         S11            S21            S12            S22
! GHz     MAG   ANG      MAG   ANG      MAG   ANG      MAG   ANG
 0.030  0.8941  -12.7   8.614  172.4  0.0142   81.6  0.9913   -5.1
 0.035  0.8939  -14.5   8.602  171.1  0.0164   80.6  0.9877   -5.9
 0.040  0.8946  -16.2   8.594  169.8  0.0187   79.8  0.9842   -6.7
 0.045  0.8961  -17.9   8.591  168.5  0.0209   79.2  0.9810   -7.5
 0.050  0.8983  -19.6   8.592  167.1  0.0232   78.7  0.9779   -8.3
 0.055  0.8920  -21.4   8.540  166.0  0.0253   77.0  0.9730   -9.0
 0.060  0.8866  -23.3   8.492  164.8  0.0274   75.6  0.9682   -9.8
 0.065  0.8822  -25.1   8.447  163.6  0.0295   74.4  0.9636  -10.5
 0.070  0.8787  -27.0   8.405  162.4  0.0316   73.4  0.9592  -11.3
 0.075  0.8761  -28.9   8.367  161.2  0.0337   72.4  0.9550  -12.0
 0.080  0.8746  -30.9   8.333  160.0  0.0359   71.6  0.9509  -12.8
 0.085  0.8741  -32.8   8.303  158.8  0.0380   70.9  0.9470  -13.5
 0.090  0.8745  -34.7   8.277  157.6  0.0402   70.3  0.9432  -14.3
 0.095  0.8759  -36.6   8.254  156.4  0.0423   69.7  0.9396  -15.1
 0.100  0.8782  -38.5   8.235  155.1  0.0445   69.2  0.9362  -15.9
 0.105  0.8700  -40.2   8.159  154.1  0.0460   68.1  0.9295  -16.5
 0.110  0.8626  -41.9   8.085  153.0  0.0476   67.1  0.9230  -17.1
 0.115  0.8559  -43.6   8.014  152.0  0.0491   66.2  0.9165  -17.7
 0.120  0.8500  -45.3   7.946  150.9  0.0507   65.3  0.9101  -18.3
 0.125  0.8449  -47.1   7.881  149.8  0.0523   64.4  0.9039  -18.9
 0.130  0.8407  -48.9   7.818  148.7  0.0539   63.6  0.8977  -19.5
 0.135  0.8372  -50.7   7.759  147.6  0.0555   62.9  0.8916  -20.1
 0.140  0.8346  -52.5   7.703  146.4  0.0571   62.2  0.8857  -20.8
 0.145  0.8329  -54.3   7.650  145.2  0.0587   61.5  0.8799  -21.4
 0.150  0.8320  -56.2   7.600  144.0  0.0603   60.9  0.8742  -22.1
 0.155  0.8262  -57.6   7.526  143.2  0.0616   60.0  0.8678  -22.6
 0.160  0.8210  -59.0   7.454  142.3  0.0629   59.2  0.8615  -23.0
 0.165  0.8162  -60.4   7.383  141.4  0.0641   58.4  0.8552  -23.5
 0.170  0.8120  -61.9   7.315  140.6  0.0655   57.7  0.8490  -24.0
 0.175  0.8082  -63.3   7.248  139.7  0.0668   56.9  0.8428  -24.5
 0.180  0.8051  -64.8   7.182  138.7  0.0681   56.2  0.8367  -25.0
 0.185  0.8024  -66.3   7.119  137.8  0.0694   55.6  0.8307  -25.5
 0.190  0.8003  -67.8   7.058  136.9  0.0708   54.9  0.8247  -26.0
 0.195  0.7987  -69.3   6.998  135.9  0.0721   54.3  0.8188  -26.5
 0.200  0.7977  -70.8   6.941  134.9  0.0735   53.7  0.8130  -27.0
 0.220  0.7752  -75.9   6.659  131.9  0.0769   51.3  0.7885  -28.4
 0.240  0.7593  -81.3   6.397  128.6  0.0805   49.1  0.7644  -29.9
 0.260  0.7463  -86.3   6.151  125.6  0.0838   47.3  0.7424  -31.2
 0.280  0.7343  -90.9   5.915  122.9  0.0868   45.7  0.7222  -32.3
 0.300  0.7271  -95.6   5.692  120.1  0.0898   44.3  0.7023  -33.4
 0.320  0.7120  -99.1   5.481  118.3  0.0914   43.0  0.6857  -34.0
 0.340  0.6996 -102.7   5.277  116.3  0.0931   41.8  0.6691  -34.7
 0.360  0.6900 -106.4   5.079  114.1  0.0947   40.6  0.6527  -35.4
 0.380  0.6834 -110.2   4.889  111.8  0.0965   39.5  0.6364  -36.1
 0.400  0.6800 -114.1   4.708  109.3  0.0982   38.4  0.6202  -36.9
 0.420  0.6708 -116.8   4.558  107.8  0.0991   37.7  0.6086  -37.3
 0.440  0.6631 -119.7   4.411  106.2  0.1001   37.0  0.5971  -37.8
 0.450  0.6599 -121.1   4.339  105.4  0.1006   36.6  0.5913  -38.0
 0.460  0.6571 -122.6   4.268  104.5  0.1011   36.3  0.5855  -38.2
 0.480  0.6528 -125.5   4.129  102.7  0.1021   35.6  0.5740  -38.7
 0.500  0.6502 -128.5   3.994  100.8  0.1031   34.9  0.5626  -39.2
 0.520  0.6454 -130.7   3.879   99.6  0.1035   34.6  0.5550  -39.5
 0.540  0.6416 -132.8   3.765   98.4  0.1040   34.2  0.5475  -39.8
 0.560  0.6387 -135.0   3.653   97.0  0.1044   33.9  0.5400  -40.1
 0.580  0.6368 -137.3   3.543   95.6  0.1049   33.5  0.5325  -40.5
 0.600  0.6358 -139.5   3.436   94.1  0.1053   33.2  0.5250  -40.8
 0.620  0.6322 -141.3   3.353   93.1  0.1057   33.1  0.5196  -41.1
 0.640  0.6292 -143.2   3.270   92.0  0.1061   32.9  0.5143  -41.5
 0.660  0.6269 -145.1   3.189   90.9  0.1065   32.8  0.5089  -41.9
 0.680  0.6253 -147.0   3.109   89.7  0.1069   32.6  0.5036  -42.2
 0.700  0.6244 -148.9   3.031   88.4  0.1073   32.5  0.4983  -42.6
 0.720  0.6223 -150.5   2.961   87.5  0.1075   32.6  0.4937  -43.0
 0.740  0.6208 -152.2   2.892   86.5  0.1076   32.7  0.4891  -43.4
 0.760  0.6198 -153.8   2.824   85.4  0.1078   32.7  0.4845  -43.8
 0.780  0.6192 -155.5   2.757   84.3  0.1079   32.8  0.4800  -44.2
 0.800  0.6192 -157.1   2.691   83.2  0.1081   32.9  0.4755  -44.6
 0.820  0.6177 -158.4   2.637   82.4  0.1083   33.1  0.4731  -44.9
 0.840  0.6165 -159.6   2.583   81.5  0.1085   33.3  0.4707  -45.2
 0.860  0.6157 -160.9   2.529   80.6  0.1088   33.5  0.4684  -45.4
 0.880  0.6151 -162.1   2.477   79.6  0.1090   33.7  0.4660  -45.7
 0.900  0.6148 -163.4   2.425   78.6  0.1092   33.9  0.4637  -46.0
 0.920  0.6139 -164.6   2.381   77.8  0.1094   34.2  0.4613  -46.4
 0.940  0.6133 -165.8   2.337   77.0  0.1096   34.5  0.4590  -46.8
 0.960  0.6129 -167.0   2.293   76.2  0.1098   34.8  0.4567  -47.2
 0.980  0.6128 -168.2   2.250   75.3  0.1100   35.1  0.4544  -47.6
 1.000  0.6130 -169.4   2.208   74.4  0.1102   35.4  0.4521  -48.0
 1.020  0.6131 -170.5   2.171   73.7  0.1105   35.7  0.4501  -48.6
 1.040  0.6135 -171.6   2.135   72.9  0.1108   36.0  0.4482  -49.1
 1.060  0.6141 -172.7   2.099   72.1  0.1110   36.3  0.4463  -49.7
 1.080  0.6149 -173.8   2.064   71.3  0.1113   36.6  0.4445  -50.2
 1.100  0.6160 -174.9   2.029   70.4  0.1116   36.9  0.4427  -50.8
 1.120  0.6161 -175.8   1.997   69.7  0.1119   37.4  0.4418  -51.2
 1.140  0.6164 -176.8   1.966   69.0  0.1122   37.9  0.4409  -51.6
 1.160  0.6169 -177.7   1.934   68.3  0.1125   38.3  0.4401  -52.0
 1.180  0.6175 -178.7   1.904   67.6  0.1129   38.8  0.4392  -52.4
 1.200  0.6183 -179.6   1.873   66.8  0.1132   39.3  0.4384  -52.8
 1.220  0.6181  179.5   1.849   66.2  0.1137   39.8  0.4375  -53.3
 1.240  0.6181  178.7   1.825   65.5  0.1142   40.4  0.4366  -53.7
 1.260  0.6182  177.8   1.801   64.8  0.1147   40.9  0.4358  -54.2
 1.280  0.6184  177.0   1.777   64.1  0.1152   41.4  0.4350  -54.6
 1.300  0.6188  176.1   1.754   63.4  0.1157   41.9  0.4342  -55.1
 1.320  0.6192  175.2   1.731   62.8  0.1163   42.4  0.4332  -55.7
 1.340  0.6197  174.4   1.709   62.1  0.1169   42.9  0.4322  -56.4
 1.360  0.6204  173.5   1.686   61.5  0.1175   43.4  0.4313  -57.0
 1.380  0.6212  172.7   1.664   60.8  0.1181   43.9  0.4305  -57.7
 1.400  0.6221  171.8   1.642   60.1  0.1187   44.4  0.4297  -58.3
 1.420  0.6228  171.1   1.621   59.5  0.1194   45.0  0.4295  -58.8
 1.440  0.6236  170.4   1.601   58.9  0.1201   45.5  0.4294  -59.3
 1.460  0.6245  169.8   1.580   58.3  0.1208   46.0  0.4293  -59.8
 1.480  0.6254  169.1   1.560   57.7  0.1215   46.6  0.4292  -60.3
 1.500  0.6265  168.4   1.540   57.0  0.1222   47.1  0.4292  -60.8
 1.520  0.6261  167.6   1.523   56.4  0.1232   47.6  0.4283  -61.3
 1.540  0.6259  166.8   1.507   55.8  0.1243   48.1  0.4275  -61.8
 1.560  0.6258  166.1   1.490   55.2  0.1253   48.6  0.4266  -62.4
 1.580  0.6258  165.3   1.474   54.6  0.1263   49.1  0.4258  -62.9
 1.600  0.6259  164.5   1.458   54.0  0.1274   49.6  0.4251  -63.4
 1.620  0.6266  163.8   1.442   53.4  0.1286   50.1  0.4249  -64.1
 1.640  0.6273  163.0   1.427   52.8  0.1298   50.5  0.4247  -64.9
 1.660  0.6282  162.3   1.412   52.2  0.1310   50.9  0.4246  -65.6
 1.680  0.6291  161.5   1.397   51.6  0.1322   51.4  0.4246  -66.4
 1.700  0.6302  160.8   1.382   51.0  0.1334   51.8  0.4246  -67.1
 1.720  0.6310  160.2   1.368   50.5  0.1347   52.3  0.4254  -67.6
 1.740  0.6319  159.6   1.355   50.0  0.1361   52.7  0.4261  -68.1
 1.760  0.6329  159.0   1.341   49.5  0.1374   53.2  0.4270  -68.6
 1.780  0.6339  158.4   1.328   49.0  0.1387   53.7  0.4278  -69.1
 1.800  0.6350  157.8   1.315   48.5  0.1401   54.1  0.4287  -69.6
 1.820  0.6353  157.2   1.303   48.0  0.1417   54.6  0.4280  -70.2
 1.840  0.6356  156.5   1.292   47.5  0.1434   55.0  0.4273  -70.8
 1.860  0.6361  155.9   1.281   47.0  0.1451   55.5  0.4266  -71.3
 1.880  0.6366  155.2   1.269   46.5  0.1467   55.9  0.4261  -71.9
 1.900  0.6372  154.6   1.258   46.0  0.1484   56.3  0.4255  -72.5
 1.920  0.6379  153.9   1.246   45.5  0.1500   56.6  0.4261  -73.2
 1.940  0.6387  153.3   1.235   45.0  0.1515   56.9  0.4267  -73.8
 1.960  0.6396  152.6   1.223   44.5  0.1531   57.2  0.4274  -74.5
 1.980  0.6406  152.0   1.212   43.9  0.1547   57.5  0.4281  -75.1
 2.000  0.6417  151.3   1.201   43.4  0.1563   57.8  0.4289  -75.8
 2.020  0.6420  150.7   1.192   43.0  0.1583   58.1  0.4289  -76.4
 2.040  0.6424  150.2   1.182   42.6  0.1603   58.4  0.4289  -76.9
 2.060  0.6429  149.6   1.173   42.2  0.1623   58.7  0.4290  -77.5
 2.080  0.6434  149.0   1.163   41.8  0.1643   59.0  0.4291  -78.0
 2.100  0.6440  148.5   1.154   41.3  0.1663   59.2  0.4293  -78.6
 2.120  0.6447  147.9   1.145   40.9  0.1683   59.5  0.4294  -79.1
 2.140  0.6454  147.4   1.136   40.5  0.1703   59.8  0.4297  -79.7
 2.160  0.6462  146.8   1.127   40.0  0.1723   60.0  0.4299  -80.2
 2.180  0.6470  146.3   1.118   39.6  0.1743   60.3  0.4303  -80.8
 2.200  0.6479  145.7   1.109   39.1  0.1763   60.5  0.4306  -81.3
 2.220  0.6486  145.1   1.100   38.7  0.1784   60.7  0.4312  -81.9
 2.240  0.6493  144.6   1.092   38.3  0.1805   60.9  0.4319  -82.6
 2.260  0.6502  144.0   1.084   37.9  0.1827   61.0  0.4327  -83.2
 2.280  0.6510  143.4   1.075   37.5  0.1848   61.2  0.4335  -83.9
 2.300  0.6520  142.9   1.067   37.1  0.1869   61.3  0.4343  -84.5
 2.320  0.6530  142.3   1.059   36.7  0.1891   61.5  0.4353  -85.1
 2.340  0.6540  141.8   1.050   36.3  0.1912   61.7  0.4362  -85.7
 2.360  0.6552  141.2   1.042   35.9  0.1933   61.8  0.4372  -86.4
 2.380  0.6564  140.7   1.034   35.4  0.1955   62.0  0.4383  -87.0
 2.400  0.6576  140.1   1.026   35.0  0.1976   62.1  0.4394  -87.6
 2.420  0.6581  139.5   1.019   34.6  0.2001   62.1  0.4390  -88.3
 2.440  0.6587  138.9   1.012   34.3  0.2027   62.2  0.4387  -89.1
 2.460  0.6594  138.4   1.005   33.9  0.2052   62.2  0.4385  -89.8
 2.480  0.6601  137.8   0.999   33.5  0.2078   62.2  0.4383  -90.6
 2.500  0.6609  137.2   0.992   33.1  0.2103   62.3  0.4382  -91.3
 2.520  0.6617  136.7   0.985   32.7  0.2129   62.3  0.4382  -92.0
 2.540  0.6627  136.1   0.979   32.3  0.2154   62.3  0.4382  -92.8
 2.560  0.6636  135.5   0.972   31.9  0.2180   62.3  0.4383  -93.5
 2.580  0.6647  135.0   0.965   31.5  0.2205   62.4  0.4385  -94.3
 2.600  0.6658  134.4   0.959   31.1  0.2231   62.4  0.4388  -95.0
 2.620  0.6665  133.9   0.953   30.8  0.2258   62.4  0.4391  -95.6
 2.640  0.6672  133.4   0.948   30.5  0.2286   62.4  0.4395  -96.3
 2.660  0.6679  132.9   0.942   30.1  0.2313   62.3  0.4399  -96.9
 2.680  0.6688  132.5   0.937   29.8  0.2341   62.3  0.4403  -97.5
 2.700  0.6696  132.0   0.932   29.5  0.2368   62.3  0.4409  -98.1
 2.720  0.6705  131.5   0.926   29.2  0.2396   62.3  0.4414  -98.7
 2.740  0.6715  131.0   0.921   28.8  0.2423   62.3  0.4420  -99.4
 2.760  0.6725  130.5   0.916   28.5  0.2451   62.2  0.4427 -100.0
 2.780  0.6735  130.1   0.910   28.1  0.2478   62.2  0.4434 -100.6
 2.800  0.6746  129.6   0.905   27.8  0.2506   62.2  0.4442 -101.2
 2.820  0.6750  129.1   0.900   27.5  0.2532   62.1  0.4447 -101.8
 2.840  0.6754  128.6   0.895   27.2  0.2557   62.0  0.4452 -102.4
 2.860  0.6758  128.1   0.889   27.0  0.2583   61.9  0.4457 -103.0
 2.880  0.6763  127.6   0.884   26.7  0.2609   61.9  0.4463 -103.5
 2.900  0.6769  127.1   0.879   26.4  0.2634   61.8  0.4469 -104.1
 2.920  0.6775  126.6   0.874   26.1  0.2660   61.7  0.4476 -104.7
 2.940  0.6782  126.1   0.869   25.8  0.2686   61.6  0.4483 -105.3
 2.960  0.6789  125.6   0.864   25.5  0.2712   61.5  0.4491 -105.9
 2.980  0.6797  125.1   0.859   25.2  0.2737   61.5  0.4499 -106.4
 3.000  0.6805  124.6   0.854   24.9  0.2763   61.4  0.4508 -107.0
 3.100  0.6820  122.3   0.834   23.8  0.2906   60.3  0.4516 -110.6
 3.200  0.6847  119.9   0.815   22.6  0.3049   59.3  0.4542 -114.3
 3.300  0.6885  117.6   0.796   21.4  0.3194   58.3  0.4586 -117.8
 3.400  0.6934  115.3   0.778   20.1  0.3339   57.5  0.4647 -121.3
 3.500  0.6994  113.1   0.760   18.7  0.3485   56.7  0.4725 -124.7
 3.600  0.6984  111.1   0.746   18.0  0.3616   55.2  0.4732 -128.4
 3.700  0.6983  109.0   0.732   17.2  0.3750   53.8  0.4758 -132.0
 3.800  0.6991  107.0   0.718   16.4  0.3885   52.5  0.4804 -135.6
 3.900  0.7007  105.0   0.705   15.6  0.4023   51.3  0.4868 -139.1
 4.000  0.7032  103.0   0.691   14.7  0.4162   50.2  0.4949 -142.5
 4.100  0.7031  101.3   0.682   14.2  0.4276   48.5  0.4962 -145.7
 4.200  0.7036   99.5   0.673   13.7  0.4393   47.0  0.4990 -148.9
 4.300  0.7047   97.8   0.664   13.1  0.4513   45.5  0.5033 -152.1
 4.400  0.7065   96.0   0.656   12.6  0.4636   44.0  0.5092 -155.2
 4.500  0.7090   94.3   0.647   12.0  0.4762   42.7  0.5165 -158.2
 4.600  0.7068   92.9   0.643   11.5  0.4853   41.1  0.5166 -161.1
 4.700  0.7050   91.4   0.640   10.9  0.4947   39.6  0.5182 -164.1
 4.800  0.7037   89.9   0.636   10.4  0.5044   38.2  0.5210 -167.0
 4.900  0.7028   88.5   0.632    9.9  0.5145   36.7  0.5252 -169.9
 5.000  0.7024   87.0   0.629    9.3  0.5248   35.4  0.5307 -172.7
 5.100  0.7019   85.7   0.627    8.8  0.5319   34.0  0.5290 -175.5
 5.200  0.7018   84.5   0.625    8.4  0.5394   32.6  0.5286 -178.2
 5.300  0.7020   83.2   0.623    7.9  0.5471   31.2  0.5295  179.0
 5.400  0.7025   82.0   0.621    7.5  0.5552   29.9  0.5315  176.2
 5.500  0.7034   80.7   0.619    7.0  0.5635   28.6  0.5348  173.5
 5.600  0.7017   79.6   0.619    6.4  0.5697   27.2  0.5341  171.1
 5.700  0.7002   78.4   0.620    5.9  0.5762   25.9  0.5344  168.7
 5.800  0.6990   77.3   0.620    5.3  0.5830   24.6  0.5356  166.3
 5.900  0.6981   76.1   0.620    4.8  0.5901   23.3  0.5378  164.0
 6.000  0.6975   75.0   0.621    4.2  0.5975   22.1  0.5408  161.6
!
!  f       NFmin   Gammaopt  rn/50
! GHz       dB    MAG  ANG    -
!
! noise parameter not available yet for this operation point!
!
! (c) 2015  Infineon Technologies AG, Munich
