! Infineon Technologies  Discrete & RF Semiconductors
! BFR93AW
! VCE =  2.0 V,  IC =  20 mA
! Common Emitter S-Parameters:                            Nov 2015
# GHz  S  MA  R  50
!  f         S11            S21            S12            S22
! GHz     MAG   ANG      MAG   ANG      MAG   ANG      MAG   ANG
 0.030  0.4714  -42.9  42.072  158.4  0.0099   72.7  0.8886  -18.7
 0.035  0.4675  -49.1  40.978  155.2  0.0112   71.4  0.8651  -21.4
 0.040  0.4692  -55.3  40.015  151.9  0.0125   70.4  0.8437  -24.3
 0.045  0.4763  -61.4  39.198  148.4  0.0138   69.6  0.8245  -27.3
 0.050  0.4885  -67.2  38.535  144.7  0.0152   68.9  0.8076  -30.4
 0.055  0.4775  -71.0  37.302  143.2  0.0160   67.6  0.7836  -31.6
 0.060  0.4686  -74.9  36.097  141.6  0.0169   66.5  0.7600  -32.9
 0.065  0.4621  -79.0  34.922  139.9  0.0177   65.5  0.7368  -34.3
 0.070  0.4579  -83.1  33.782  138.0  0.0186   64.6  0.7141  -35.7
 0.075  0.4561  -87.3  32.678  136.0  0.0194   63.8  0.6918  -37.2
 0.080  0.4569  -91.6  31.616  133.9  0.0203   63.0  0.6700  -38.8
 0.085  0.4601  -95.8  30.600  131.7  0.0211   62.3  0.6488  -40.5
 0.090  0.4658  -99.9  29.634  129.3  0.0220   61.7  0.6283  -42.4
 0.095  0.4738 -103.9  28.723  126.7  0.0228   61.1  0.6085  -44.4
 0.100  0.4839 -107.7  27.874  124.0  0.0237   60.5  0.5894  -46.5
 0.105  0.4802 -109.9  27.117  123.1  0.0241   60.0  0.5749  -47.0
 0.110  0.4773 -112.1  26.367  122.2  0.0246   59.6  0.5605  -47.5
 0.115  0.4751 -114.3  25.624  121.3  0.0250   59.1  0.5462  -48.1
 0.120  0.4736 -116.5  24.889  120.3  0.0254   58.7  0.5319  -48.7
 0.125  0.4728 -118.8  24.161  119.2  0.0258   58.3  0.5177  -49.3
 0.130  0.4728 -121.1  23.443  118.0  0.0263   57.9  0.5035  -50.0
 0.135  0.4735 -123.4  22.735  116.8  0.0267   57.5  0.4894  -50.7
 0.140  0.4749 -125.6  22.038  115.5  0.0272   57.2  0.4753  -51.4
 0.145  0.4770 -127.8  21.353  114.1  0.0276   56.8  0.4614  -52.2
 0.150  0.4799 -130.0  20.680  112.7  0.0281   56.5  0.4475  -53.0
 0.155  0.4787 -131.2  20.228  112.1  0.0286   56.7  0.4389  -53.3
 0.160  0.4777 -132.5  19.778  111.5  0.0292   56.8  0.4303  -53.5
 0.165  0.4770 -133.7  19.331  110.9  0.0297   57.0  0.4218  -53.8
 0.170  0.4765 -134.9  18.886  110.3  0.0302   57.1  0.4132  -54.1
 0.175  0.4761 -136.2  18.443  109.6  0.0307   57.3  0.4047  -54.4
 0.180  0.4761 -137.4  18.003  108.9  0.0313   57.4  0.3961  -54.7
 0.185  0.4762 -138.7  17.566  108.1  0.0318   57.5  0.3876  -55.0
 0.190  0.4766 -139.9  17.133  107.3  0.0323   57.7  0.3791  -55.4
 0.195  0.4772 -141.2  16.702  106.5  0.0329   57.8  0.3706  -55.7
 0.200  0.4780 -142.4  16.276  105.6  0.0334   57.9  0.3621  -56.1
 0.220  0.4749 -146.2  15.076  103.9  0.0350   58.9  0.3388  -56.5
 0.240  0.4740 -150.1  13.892  101.8  0.0367   59.9  0.3155  -56.9
 0.260  0.4746 -153.2  12.889  100.0  0.0385   60.6  0.2968  -57.2
 0.280  0.4759 -155.7  12.058   98.6  0.0404   61.2  0.2827  -57.3
 0.300  0.4781 -158.1  11.237   96.9  0.0423   61.7  0.2685  -57.5
 0.320  0.4770 -160.0  10.691   96.0  0.0442   62.3  0.2586  -57.3
 0.340  0.4765 -161.9  10.149   95.0  0.0461   62.8  0.2487  -57.2
 0.360  0.4765 -163.9   9.610   93.8  0.0479   63.4  0.2388  -57.0
 0.380  0.4770 -165.8   9.076   92.6  0.0498   63.8  0.2289  -56.9
 0.400  0.4780 -167.7   8.546   91.2  0.0517   64.3  0.2190  -56.7
 0.420  0.4783 -169.0   8.216   90.4  0.0537   64.8  0.2132  -56.7
 0.440  0.4788 -170.3   7.887   89.6  0.0557   65.3  0.2074  -56.7
 0.450  0.4792 -171.0   7.723   89.2  0.0567   65.5  0.2045  -56.7
 0.460  0.4796 -171.6   7.560   88.8  0.0577   65.7  0.2016  -56.7
 0.480  0.4807 -172.9   7.235   87.8  0.0598   66.1  0.1958  -56.8
 0.500  0.4820 -174.2   6.912   86.8  0.0618   66.5  0.1900  -56.8
 0.520  0.4822 -175.2   6.685   86.2  0.0639   66.8  0.1866  -56.8
 0.540  0.4825 -176.1   6.459   85.5  0.0660   67.1  0.1831  -56.7
 0.560  0.4830 -177.1   6.234   84.8  0.0680   67.4  0.1797  -56.7
 0.580  0.4836 -178.0   6.010   84.0  0.0701   67.7  0.1762  -56.6
 0.600  0.4843 -179.0   5.787   83.2  0.0722   67.9  0.1728  -56.6
 0.620  0.4847 -179.9   5.629   82.6  0.0743   68.0  0.1705  -56.8
 0.640  0.4853  179.2   5.471   82.0  0.0764   68.2  0.1682  -57.1
 0.660  0.4859  178.3   5.314   81.3  0.0786   68.3  0.1659  -57.4
 0.680  0.4867  177.4   5.158   80.6  0.0807   68.4  0.1637  -57.6
 0.700  0.4876  176.5   5.002   79.9  0.0828   68.5  0.1614  -57.9
 0.720  0.4884  175.8   4.878   79.3  0.0848   68.6  0.1592  -58.4
 0.740  0.4892  175.0   4.754   78.8  0.0868   68.7  0.1569  -58.9
 0.760  0.4902  174.3   4.631   78.1  0.0888   68.8  0.1547  -59.4
 0.780  0.4912  173.5   4.509   77.5  0.0908   68.9  0.1525  -59.9
 0.800  0.4923  172.8   4.387   76.8  0.0928   69.0  0.1503  -60.5
 0.820  0.4925  172.1   4.293   76.3  0.0948   69.0  0.1495  -60.7
 0.840  0.4928  171.4   4.199   75.8  0.0968   68.9  0.1487  -60.9
 0.860  0.4931  170.7   4.106   75.2  0.0988   68.9  0.1480  -61.0
 0.880  0.4935  170.0   4.013   74.6  0.1008   68.8  0.1472  -61.2
 0.900  0.4940  169.3   3.921   74.0  0.1028   68.8  0.1464  -61.4
 0.920  0.4941  168.7   3.845   73.5  0.1050   68.8  0.1454  -61.8
 0.940  0.4943  168.1   3.770   72.9  0.1072   68.7  0.1445  -62.2
 0.960  0.4946  167.4   3.694   72.4  0.1095   68.7  0.1435  -62.6
 0.980  0.4949  166.8   3.619   71.8  0.1117   68.6  0.1425  -63.1
 1.000  0.4953  166.2   3.545   71.2  0.1139   68.6  0.1416  -63.5
 1.020  0.4963  165.6   3.483   70.7  0.1160   68.6  0.1407  -64.5
 1.040  0.4973  165.0   3.422   70.2  0.1181   68.5  0.1398  -65.4
 1.060  0.4983  164.4   3.361   69.7  0.1201   68.5  0.1390  -66.4
 1.080  0.4994  163.8   3.300   69.2  0.1222   68.4  0.1382  -67.4
 1.100  0.5006  163.2   3.239   68.6  0.1243   68.4  0.1375  -68.4
 1.120  0.5016  162.7   3.187   68.2  0.1264   68.3  0.1374  -68.8
 1.140  0.5026  162.2   3.136   67.7  0.1284   68.3  0.1373  -69.1
 1.160  0.5036  161.6   3.085   67.2  0.1305   68.2  0.1372  -69.5
 1.180  0.5047  161.1   3.034   66.7  0.1325   68.2  0.1372  -69.8
 1.200  0.5058  160.6   2.983   66.2  0.1346   68.1  0.1371  -70.2
 1.220  0.5058  160.1   2.941   65.7  0.1368   68.0  0.1367  -70.6
 1.240  0.5058  159.6   2.899   65.2  0.1390   67.8  0.1363  -71.0
 1.260  0.5059  159.0   2.857   64.7  0.1412   67.7  0.1359  -71.3
 1.280  0.5060  158.5   2.815   64.2  0.1434   67.5  0.1356  -71.7
 1.300  0.5061  158.0   2.774   63.6  0.1456   67.4  0.1352  -72.1
 1.320  0.5072  157.5   2.737   63.1  0.1476   67.3  0.1350  -73.3
 1.340  0.5084  157.0   2.699   62.7  0.1496   67.2  0.1349  -74.5
 1.360  0.5096  156.4   2.662   62.2  0.1517   67.1  0.1348  -75.6
 1.380  0.5108  155.9   2.626   61.7  0.1537   67.0  0.1348  -76.8
 1.400  0.5121  155.4   2.589   61.2  0.1557   66.9  0.1349  -78.0
 1.420  0.5129  155.0   2.556   60.8  0.1578   66.8  0.1351  -78.5
 1.440  0.5137  154.6   2.524   60.4  0.1599   66.7  0.1354  -79.0
 1.460  0.5145  154.1   2.491   59.9  0.1621   66.5  0.1356  -79.6
 1.480  0.5153  153.7   2.459   59.5  0.1642   66.4  0.1359  -80.1
 1.500  0.5162  153.3   2.427   59.0  0.1663   66.3  0.1362  -80.6
 1.520  0.5162  152.7   2.399   58.5  0.1684   66.2  0.1357  -81.2
 1.540  0.5163  152.1   2.372   58.1  0.1705   66.1  0.1351  -81.9
 1.560  0.5164  151.6   2.345   57.6  0.1726   65.9  0.1346  -82.5
 1.580  0.5166  151.0   2.318   57.1  0.1747   65.8  0.1342  -83.2
 1.600  0.5168  150.4   2.291   56.6  0.1768   65.7  0.1337  -83.8
 1.620  0.5181  149.9   2.266   56.2  0.1790   65.5  0.1345  -84.9
 1.640  0.5195  149.5   2.241   55.7  0.1811   65.4  0.1353  -86.0
 1.660  0.5209  149.0   2.216   55.3  0.1833   65.2  0.1361  -87.1
 1.680  0.5223  148.6   2.192   54.8  0.1854   65.1  0.1370  -88.2
 1.700  0.5238  148.1   2.167   54.3  0.1876   64.9  0.1380  -89.3
 1.720  0.5243  147.7   2.146   53.9  0.1897   64.8  0.1390  -89.8
 1.740  0.5248  147.3   2.125   53.5  0.1918   64.7  0.1400  -90.3
 1.760  0.5254  146.8   2.104   53.1  0.1938   64.5  0.1410  -90.8
 1.780  0.5260  146.4   2.083   52.7  0.1959   64.4  0.1420  -91.3
 1.800  0.5266  146.0   2.062   52.3  0.1980   64.3  0.1430  -91.8
 1.820  0.5269  145.6   2.043   51.9  0.2002   64.1  0.1426  -92.3
 1.840  0.5272  145.2   2.024   51.4  0.2023   63.9  0.1423  -92.9
 1.860  0.5276  144.7   2.006   51.0  0.2045   63.7  0.1419  -93.4
 1.880  0.5280  144.3   1.987   50.6  0.2066   63.5  0.1416  -94.0
 1.900  0.5284  143.9   1.969   50.1  0.2088   63.3  0.1413  -94.5
 1.920  0.5296  143.4   1.951   49.7  0.2109   63.1  0.1426  -95.4
 1.940  0.5308  142.9   1.932   49.3  0.2129   63.0  0.1439  -96.2
 1.960  0.5320  142.3   1.914   48.9  0.2150   62.8  0.1453  -97.1
 1.980  0.5334  141.8   1.896   48.4  0.2170   62.7  0.1467  -97.9
 2.000  0.5347  141.3   1.878   48.0  0.2191   62.5  0.1481  -98.7
 2.020  0.5351  140.9   1.863   47.6  0.2212   62.3  0.1483  -99.2
 2.040  0.5355  140.5   1.849   47.3  0.2233   62.1  0.1486  -99.7
 2.060  0.5360  140.1   1.834   46.9  0.2255   62.0  0.1489 -100.2
 2.080  0.5364  139.7   1.820   46.5  0.2276   61.8  0.1491 -100.7
 2.100  0.5369  139.3   1.805   46.1  0.2297   61.6  0.1494 -101.2
 2.120  0.5374  138.9   1.791   45.7  0.2319   61.4  0.1497 -101.7
 2.140  0.5380  138.5   1.777   45.3  0.2340   61.3  0.1500 -102.2
 2.160  0.5386  138.1   1.763   44.9  0.2361   61.1  0.1503 -102.6
 2.180  0.5392  137.7   1.749   44.5  0.2383   61.0  0.1507 -103.1
 2.200  0.5398  137.3   1.735   44.1  0.2404   60.8  0.1510 -103.6
 2.220  0.5406  136.9   1.722   43.7  0.2424   60.6  0.1520 -104.3
 2.240  0.5414  136.5   1.709   43.4  0.2444   60.4  0.1531 -104.9
 2.260  0.5423  136.1   1.697   43.0  0.2464   60.3  0.1541 -105.6
 2.280  0.5432  135.7   1.684   42.6  0.2484   60.1  0.1552 -106.2
 2.300  0.5441  135.3   1.672   42.3  0.2504   59.9  0.1563 -106.8
 2.320  0.5451  134.9   1.659   41.9  0.2524   59.7  0.1574 -107.4
 2.340  0.5460  134.5   1.647   41.5  0.2544   59.6  0.1585 -108.0
 2.360  0.5470  134.1   1.634   41.1  0.2565   59.4  0.1597 -108.6
 2.380  0.5481  133.7   1.622   40.7  0.2585   59.3  0.1608 -109.2
 2.400  0.5491  133.3   1.610   40.3  0.2605   59.1  0.1620 -109.8
 2.420  0.5498  132.8   1.599   39.9  0.2627   58.9  0.1625 -110.7
 2.440  0.5506  132.4   1.589   39.6  0.2648   58.7  0.1629 -111.5
 2.460  0.5514  131.9   1.579   39.2  0.2670   58.4  0.1635 -112.4
 2.480  0.5522  131.5   1.568   38.8  0.2691   58.2  0.1640 -113.2
 2.500  0.5531  131.0   1.558   38.4  0.2713   58.0  0.1646 -114.0
 2.520  0.5540  130.6   1.548   38.0  0.2735   57.8  0.1652 -114.9
 2.540  0.5550  130.1   1.538   37.6  0.2757   57.6  0.1659 -115.7
 2.560  0.5559  129.7   1.528   37.2  0.2778   57.4  0.1666 -116.5
 2.580  0.5570  129.2   1.518   36.8  0.2800   57.2  0.1673 -117.3
 2.600  0.5580  128.8   1.508   36.4  0.2822   57.0  0.1681 -118.1
 2.620  0.5589  128.5   1.499   36.1  0.2843   56.8  0.1687 -118.6
 2.640  0.5598  128.1   1.491   35.8  0.2863   56.6  0.1693 -119.2
 2.660  0.5608  127.8   1.482   35.4  0.2884   56.4  0.1699 -119.7
 2.680  0.5617  127.4   1.474   35.1  0.2905   56.2  0.1706 -120.3
 2.700  0.5627  127.1   1.465   34.7  0.2926   56.0  0.1712 -120.8
 2.720  0.5637  126.7   1.457   34.4  0.2946   55.8  0.1719 -121.3
 2.740  0.5647  126.4   1.449   34.1  0.2967   55.6  0.1726 -121.9
 2.760  0.5658  126.1   1.440   33.7  0.2988   55.4  0.1733 -122.4
 2.780  0.5668  125.7   1.432   33.4  0.3009   55.2  0.1740 -122.9
 2.800  0.5679  125.4   1.424   33.0  0.3030   55.0  0.1747 -123.4
 2.820  0.5682  125.0   1.416   32.7  0.3048   54.8  0.1758 -124.0
 2.840  0.5686  124.6   1.409   32.3  0.3067   54.6  0.1769 -124.5
 2.860  0.5690  124.2   1.401   32.0  0.3085   54.4  0.1780 -125.0
 2.880  0.5694  123.8   1.393   31.6  0.3104   54.2  0.1791 -125.6
 2.900  0.5698  123.4   1.386   31.3  0.3123   54.0  0.1803 -126.1
 2.920  0.5703  123.1   1.378   30.9  0.3141   53.8  0.1814 -126.6
 2.940  0.5708  122.7   1.371   30.6  0.3160   53.6  0.1826 -127.1
 2.960  0.5713  122.3   1.364   30.2  0.3179   53.4  0.1838 -127.6
 2.980  0.5718  121.9   1.356   29.9  0.3197   53.2  0.1850 -128.1
 3.000  0.5724  121.5   1.349   29.5  0.3216   53.0  0.1862 -128.6
 3.100  0.5766  119.6   1.317   28.0  0.3313   51.8  0.1909 -132.3
 3.200  0.5815  117.8   1.286   26.5  0.3411   50.7  0.1964 -135.8
 3.300  0.5869  115.9   1.256   24.9  0.3511   49.6  0.2026 -139.0
 3.400  0.5929  114.1   1.227   23.2  0.3611   48.6  0.2094 -142.1
 3.500  0.5995  112.4   1.199   21.4  0.3713   47.7  0.2168 -145.0
 3.600  0.6016  110.8   1.173   20.1  0.3799   46.5  0.2223 -148.5
 3.700  0.6041  109.2   1.149   18.7  0.3886   45.3  0.2285 -151.9
 3.800  0.6071  107.6   1.124   17.3  0.3975   44.3  0.2355 -155.0
 3.900  0.6106  106.0   1.101   15.8  0.4065   43.2  0.2432 -158.0
 4.000  0.6146  104.4   1.078   14.3  0.4156   42.2  0.2515 -160.8
 4.100  0.6182  102.9   1.058   13.2  0.4234   40.9  0.2575 -163.4
 4.200  0.6221  101.4   1.038   12.0  0.4314   39.7  0.2640 -165.9
 4.300  0.6265  100.0   1.019   10.8  0.4397   38.5  0.2709 -168.2
 4.400  0.6313   98.5   1.000    9.6  0.4480   37.4  0.2783 -170.5
 4.500  0.6365   97.1   0.982    8.3  0.4566   36.3  0.2861 -172.6
 4.600  0.6381   95.8   0.967    7.3  0.4633   35.2  0.2913 -174.9
 4.700  0.6401   94.5   0.952    6.2  0.4703   34.1  0.2969 -177.2
 4.800  0.6423   93.2   0.937    5.2  0.4774   33.0  0.3030 -179.3
 4.900  0.6449   92.0   0.923    4.0  0.4846   32.0  0.3094  178.6
 5.000  0.6478   90.7   0.909    2.9  0.4920   31.0  0.3163  176.6
 5.100  0.6506   89.5   0.896    2.1  0.4982   29.9  0.3203  174.3
 5.200  0.6538   88.3   0.884    1.2  0.5046   28.9  0.3248  172.0
 5.300  0.6572   87.1   0.871    0.3  0.5111   27.9  0.3298  169.8
 5.400  0.6609   85.9   0.859   -0.6  0.5178   26.9  0.3353  167.7
 5.500  0.6649   84.7   0.847   -1.5  0.5246   25.9  0.3412  165.6
 5.600  0.6660   83.6   0.838   -2.3  0.5306   24.8  0.3454  163.6
 5.700  0.6673   82.5   0.829   -3.1  0.5367   23.7  0.3499  161.6
 5.800  0.6689   81.4   0.820   -3.9  0.5430   22.7  0.3549  159.6
 5.900  0.6707   80.3   0.811   -4.7  0.5495   21.7  0.3603  157.7
 6.000  0.6728   79.2   0.803   -5.6  0.5562   20.7  0.3661  155.9
!
!  f       NFmin   Gammaopt  rn/50
! GHz       dB    MAG  ANG    -
!
! noise parameter not available yet for this operation point!
!
! (c) 2015  Infineon Technologies AG, Munich
