! Infineon Technologies  Discrete & RF Semiconductors
! BFR93AW
! VCE =  1.5 V,  IC =  1.5 mA
! Common Emitter S-Parameters:                            Nov 2015
# GHz  S  MA  R  50
!  f         S11            S21            S12            S22
! GHz     MAG   ANG      MAG   ANG      MAG   ANG      MAG   ANG
 0.030  0.9318  -10.5   5.311  173.9  0.0149   83.4  0.9993   -3.8
 0.035  0.9324  -11.9   5.309  172.8  0.0174   82.6  0.9960   -4.3
 0.040  0.9336  -13.2   5.309  171.6  0.0199   82.0  0.9927   -4.9
 0.045  0.9353  -14.6   5.311  170.5  0.0224   81.6  0.9896   -5.5
 0.050  0.9375  -15.9   5.314  169.4  0.0250   81.2  0.9866   -6.1
 0.055  0.9334  -17.4   5.295  168.4  0.0272   79.6  0.9838   -6.6
 0.060  0.9300  -19.0   5.277  167.4  0.0295   78.2  0.9811   -7.2
 0.065  0.9273  -20.5   5.261  166.4  0.0318   77.0  0.9785   -7.8
 0.070  0.9252  -22.0   5.246  165.4  0.0341   76.0  0.9760   -8.4
 0.075  0.9238  -23.6   5.233  164.4  0.0364   75.1  0.9736   -8.9
 0.080  0.9231  -25.2   5.221  163.4  0.0387   74.3  0.9712   -9.5
 0.085  0.9231  -26.8   5.211  162.4  0.0410   73.6  0.9690  -10.1
 0.090  0.9237  -28.3   5.203  161.4  0.0433   73.0  0.9669  -10.7
 0.095  0.9251  -29.9   5.197  160.4  0.0456   72.4  0.9649  -11.3
 0.100  0.9271  -31.4   5.192  159.3  0.0480   71.9  0.9630  -11.9
 0.105  0.9206  -32.9   5.159  158.4  0.0499   70.8  0.9588  -12.4
 0.110  0.9148  -34.4   5.128  157.4  0.0518   69.8  0.9547  -12.9
 0.115  0.9096  -35.9   5.098  156.4  0.0537   68.9  0.9507  -13.4
 0.120  0.9051  -37.4   5.069  155.4  0.0557   68.0  0.9467  -13.9
 0.125  0.9012  -38.9   5.042  154.4  0.0576   67.2  0.9428  -14.4
 0.130  0.8979  -40.5   5.017  153.4  0.0596   66.4  0.9389  -14.9
 0.135  0.8953  -42.0   4.993  152.4  0.0615   65.7  0.9352  -15.4
 0.140  0.8934  -43.6   4.971  151.4  0.0635   65.0  0.9315  -15.9
 0.145  0.8922  -45.2   4.950  150.4  0.0655   64.4  0.9279  -16.4
 0.150  0.8916  -46.8   4.931  149.3  0.0675   63.8  0.9244  -17.0
 0.155  0.8872  -48.1   4.896  148.5  0.0691   63.1  0.9200  -17.4
 0.160  0.8833  -49.3   4.863  147.7  0.0707   62.4  0.9157  -17.8
 0.165  0.8798  -50.6   4.830  146.9  0.0724   61.7  0.9114  -18.2
 0.170  0.8768  -51.9   4.799  146.0  0.0740   61.0  0.9071  -18.7
 0.175  0.8741  -53.2   4.768  145.2  0.0756   60.4  0.9029  -19.1
 0.180  0.8720  -54.5   4.739  144.3  0.0773   59.8  0.8988  -19.5
 0.185  0.8702  -55.8   4.711  143.5  0.0790   59.3  0.8947  -20.0
 0.190  0.8690  -57.1   4.683  142.6  0.0806   58.7  0.8906  -20.4
 0.195  0.8682  -58.4   4.657  141.7  0.0823   58.2  0.8866  -20.9
 0.200  0.8678  -59.7   4.632  140.8  0.0840   57.7  0.8827  -21.3
 0.220  0.8484  -64.5   4.490  137.7  0.0893   54.9  0.8638  -22.7
 0.240  0.8352  -69.5   4.361  134.5  0.0947   52.4  0.8455  -24.1
 0.260  0.8234  -74.2   4.235  131.5  0.0993   50.1  0.8283  -25.4
 0.280  0.8116  -78.6   4.109  128.8  0.1029   48.0  0.8120  -26.5
 0.300  0.8046  -83.1   3.992  126.0  0.1066   46.1  0.7961  -27.7
 0.320  0.7881  -86.6   3.865  123.9  0.1091   44.4  0.7815  -28.5
 0.340  0.7746  -90.2   3.743  121.8  0.1116   42.8  0.7671  -29.3
 0.360  0.7644  -94.0   3.627  119.4  0.1142   41.2  0.7528  -30.1
 0.380  0.7575  -97.9   3.517  116.9  0.1169   39.8  0.7387  -31.0
 0.400  0.7542 -101.8   3.414  114.2  0.1197   38.4  0.7248  -31.9
 0.420  0.7436 -104.7   3.318  112.5  0.1210   37.2  0.7139  -32.5
 0.440  0.7349 -107.6   3.226  110.7  0.1224   36.0  0.7031  -33.1
 0.450  0.7313 -109.1   3.181  109.8  0.1231   35.4  0.6977  -33.4
 0.460  0.7282 -110.6   3.137  108.9  0.1238   34.8  0.6923  -33.7
 0.480  0.7236 -113.7   3.052  106.9  0.1253   33.6  0.6817  -34.3
 0.500  0.7211 -116.8   2.970  104.8  0.1268   32.5  0.6711  -35.0
 0.520  0.7147 -119.2   2.891  103.4  0.1274   31.7  0.6634  -35.5
 0.540  0.7096 -121.6   2.813  102.0  0.1279   30.9  0.6556  -35.9
 0.560  0.7057 -124.0   2.737  100.4  0.1285   30.1  0.6480  -36.4
 0.580  0.7031 -126.4   2.663   98.8  0.1292   29.4  0.6404  -36.9
 0.600  0.7018 -128.9   2.592   97.1  0.1298   28.6  0.6328  -37.4
 0.620  0.6965 -130.9   2.533   95.9  0.1299   28.1  0.6272  -37.8
 0.640  0.6921 -132.9   2.475   94.7  0.1301   27.6  0.6216  -38.3
 0.660  0.6886 -135.0   2.419   93.4  0.1302   27.1  0.6161  -38.7
 0.680  0.6860 -137.0   2.364   92.0  0.1303   26.6  0.6106  -39.1
 0.700  0.6842 -139.1   2.310   90.6  0.1305   26.1  0.6051  -39.6
 0.720  0.6814 -140.9   2.260   89.5  0.1304   25.8  0.6003  -40.1
 0.740  0.6793 -142.7   2.211   88.4  0.1303   25.4  0.5956  -40.6
 0.760  0.6778 -144.5   2.162   87.2  0.1302   25.1  0.5909  -41.1
 0.780  0.6770 -146.3   2.115   85.9  0.1301   24.7  0.5862  -41.6
 0.800  0.6769 -148.1   2.069   84.6  0.1300   24.4  0.5816  -42.1
 0.820  0.6747 -149.5   2.029   83.7  0.1295   24.3  0.5789  -42.5
 0.840  0.6728 -151.0   1.990   82.7  0.1291   24.1  0.5763  -42.9
 0.860  0.6714 -152.4   1.951   81.7  0.1286   24.0  0.5737  -43.3
 0.880  0.6704 -153.8   1.913   80.6  0.1282   23.8  0.5711  -43.7
 0.900  0.6699 -155.3   1.876   79.5  0.1277   23.7  0.5685  -44.1
 0.920  0.6683 -156.7   1.843   78.6  0.1272   23.7  0.5659  -44.6
 0.940  0.6672 -158.0   1.810   77.6  0.1267   23.8  0.5634  -45.0
 0.960  0.6664 -159.4   1.778   76.7  0.1263   23.8  0.5609  -45.5
 0.980  0.6659 -160.7   1.747   75.7  0.1258   23.9  0.5585  -46.0
 1.000  0.6659 -162.1   1.716   74.6  0.1253   23.9  0.5561  -46.5
 1.020  0.6655 -163.3   1.689   73.7  0.1247   24.0  0.5541  -47.1
 1.040  0.6655 -164.5   1.662   72.8  0.1241   24.1  0.5521  -47.7
 1.060  0.6657 -165.6   1.635   71.9  0.1236   24.1  0.5502  -48.3
 1.080  0.6661 -166.8   1.609   71.0  0.1230   24.2  0.5484  -48.9
 1.100  0.6669 -168.0   1.583   70.0  0.1224   24.3  0.5466  -49.5
 1.120  0.6667 -169.1   1.559   69.3  0.1219   24.6  0.5456  -50.0
 1.140  0.6668 -170.2   1.535   68.5  0.1213   24.9  0.5446  -50.5
 1.160  0.6671 -171.3   1.511   67.7  0.1208   25.2  0.5437  -50.9
 1.180  0.6676 -172.4   1.488   66.9  0.1202   25.5  0.5428  -51.4
 1.200  0.6684 -173.5   1.465   66.1  0.1197   25.8  0.5420  -51.9
 1.220  0.6679 -174.5   1.447   65.4  0.1193   26.3  0.5409  -52.4
 1.240  0.6677 -175.5   1.428   64.7  0.1190   26.8  0.5398  -52.9
 1.260  0.6676 -176.4   1.410   64.0  0.1187   27.2  0.5388  -53.3
 1.280  0.6678 -177.4   1.393   63.3  0.1183   27.7  0.5378  -53.8
 1.300  0.6681 -178.4   1.375   62.5  0.1180   28.2  0.5369  -54.3
 1.320  0.6684 -179.3   1.357   61.8  0.1175   28.8  0.5359  -55.0
 1.340  0.6689  179.8   1.340   61.1  0.1170   29.3  0.5351  -55.7
 1.360  0.6696  178.8   1.323   60.3  0.1166   29.9  0.5343  -56.3
 1.380  0.6705  177.9   1.306   59.6  0.1161   30.5  0.5335  -57.0
 1.400  0.6715  177.0   1.289   58.8  0.1157   31.1  0.5329  -57.7
 1.420  0.6718  176.2   1.273   58.2  0.1154   31.8  0.5325  -58.2
 1.440  0.6723  175.4   1.256   57.5  0.1152   32.5  0.5322  -58.8
 1.460  0.6728  174.6   1.240   56.8  0.1149   33.1  0.5320  -59.3
 1.480  0.6736  173.8   1.225   56.1  0.1147   33.8  0.5318  -59.9
 1.500  0.6744  173.0   1.209   55.4  0.1145   34.5  0.5316  -60.4
 1.520  0.6742  172.1   1.196   54.8  0.1146   35.2  0.5307  -61.0
 1.540  0.6741  171.2   1.183   54.2  0.1148   35.9  0.5299  -61.6
 1.560  0.6743  170.3   1.171   53.5  0.1149   36.7  0.5292  -62.2
 1.580  0.6745  169.4   1.158   52.9  0.1151   37.4  0.5285  -62.8
 1.600  0.6750  168.5   1.146   52.2  0.1153   38.1  0.5279  -63.4
 1.620  0.6753  167.7   1.134   51.6  0.1156   38.9  0.5276  -64.2
 1.640  0.6757  167.0   1.122   51.0  0.1160   39.8  0.5273  -64.9
 1.660  0.6763  166.2   1.111   50.4  0.1164   40.6  0.5272  -65.7
 1.680  0.6769  165.5   1.099   49.7  0.1168   41.4  0.5272  -66.4
 1.700  0.6777  164.7   1.088   49.1  0.1172   42.2  0.5272  -67.2
 1.720  0.6784  164.0   1.077   48.6  0.1179   43.1  0.5279  -67.7
 1.740  0.6793  163.3   1.066   48.1  0.1186   44.0  0.5286  -68.3
 1.760  0.6802  162.7   1.055   47.6  0.1194   44.9  0.5294  -68.8
 1.780  0.6813  162.0   1.045   47.1  0.1202   45.8  0.5302  -69.4
 1.800  0.6824  161.3   1.034   46.6  0.1210   46.7  0.5311  -69.9
 1.820  0.6822  160.6   1.025   46.1  0.1222   47.5  0.5305  -70.5
 1.840  0.6821  159.8   1.017   45.6  0.1234   48.3  0.5299  -71.1
 1.860  0.6821  159.1   1.008   45.1  0.1246   49.1  0.5294  -71.8
 1.880  0.6822  158.3   0.999   44.5  0.1259   49.9  0.5289  -72.4
 1.900  0.6824  157.6   0.991   44.0  0.1272   50.7  0.5285  -73.0
 1.920  0.6832  156.9   0.982   43.5  0.1285   51.4  0.5289  -73.7
 1.940  0.6841  156.2   0.973   42.9  0.1298   52.1  0.5294  -74.4
 1.960  0.6851  155.5   0.964   42.4  0.1312   52.7  0.5299  -75.0
 1.980  0.6862  154.8   0.956   41.9  0.1325   53.4  0.5305  -75.7
 2.000  0.6874  154.1   0.947   41.3  0.1339   54.0  0.5312  -76.4
 2.020  0.6878  153.5   0.940   40.9  0.1358   54.7  0.5311  -77.0
 2.040  0.6882  152.9   0.932   40.6  0.1376   55.3  0.5310  -77.6
 2.060  0.6887  152.2   0.925   40.2  0.1395   55.9  0.5310  -78.2
 2.080  0.6893  151.6   0.917   39.8  0.1414   56.5  0.5311  -78.8
 2.100  0.6900  151.0   0.910   39.4  0.1433   57.1  0.5312  -79.4
 2.120  0.6908  150.4   0.903   39.0  0.1452   57.7  0.5314  -80.0
 2.140  0.6916  149.7   0.895   38.6  0.1472   58.2  0.5316  -80.6
 2.160  0.6925  149.1   0.888   38.2  0.1491   58.8  0.5319  -81.2
 2.180  0.6935  148.5   0.881   37.7  0.1511   59.3  0.5323  -81.8
 2.200  0.6946  147.9   0.874   37.3  0.1531   59.8  0.5327  -82.4
 2.220  0.6952  147.3   0.867   37.0  0.1553   60.2  0.5331  -83.1
 2.240  0.6958  146.7   0.860   36.6  0.1576   60.7  0.5336  -83.7
 2.260  0.6965  146.1   0.854   36.3  0.1599   61.1  0.5342  -84.4
 2.280  0.6973  145.4   0.847   35.9  0.1621   61.5  0.5348  -85.1
 2.300  0.6982  144.8   0.840   35.5  0.1644   61.9  0.5356  -85.7
 2.320  0.6991  144.2   0.833   35.2  0.1667   62.3  0.5363  -86.4
 2.340  0.7001  143.6   0.827   34.8  0.1690   62.6  0.5372  -87.0
 2.360  0.7012  143.0   0.820   34.4  0.1713   63.0  0.5381  -87.7
 2.380  0.7024  142.4   0.814   34.0  0.1736   63.4  0.5391  -88.3
 2.400  0.7037  141.8   0.807   33.6  0.1759   63.7  0.5402  -89.0
 2.420  0.7039  141.2   0.802   33.3  0.1788   63.8  0.5396  -89.8
 2.440  0.7042  140.6   0.796   32.9  0.1817   64.0  0.5391  -90.5
 2.460  0.7046  140.0   0.791   32.6  0.1846   64.1  0.5387  -91.3
 2.480  0.7051  139.3   0.786   32.3  0.1874   64.2  0.5384  -92.1
 2.500  0.7056  138.7   0.781   31.9  0.1903   64.3  0.5381  -92.8
 2.520  0.7063  138.1   0.775   31.6  0.1932   64.5  0.5380  -93.6
 2.540  0.7070  137.5   0.770   31.2  0.1961   64.6  0.5380  -94.4
 2.560  0.7078  136.9   0.765   30.8  0.1990   64.7  0.5381  -95.2
 2.580  0.7087  136.3   0.760   30.5  0.2019   64.8  0.5382  -95.9
 2.600  0.7096  135.7   0.755   30.1  0.2048   64.9  0.5385  -96.7
 2.620  0.7102  135.2   0.751   29.9  0.2080   64.9  0.5386  -97.4
 2.640  0.7108  134.6   0.747   29.6  0.2112   65.0  0.5388  -98.0
 2.660  0.7115  134.1   0.743   29.4  0.2143   65.0  0.5391  -98.7
 2.680  0.7122  133.6   0.738   29.1  0.2175   65.0  0.5394  -99.3
 2.700  0.7130  133.0   0.734   28.9  0.2207   65.1  0.5398 -100.0
 2.720  0.7139  132.5   0.730   28.6  0.2239   65.1  0.5403 -100.6
 2.740  0.7148  132.0   0.726   28.4  0.2271   65.1  0.5409 -101.3
 2.760  0.7158  131.4   0.722   28.1  0.2302   65.1  0.5415 -101.9
 2.780  0.7169  130.9   0.718   27.9  0.2334   65.2  0.5421 -102.6
 2.800  0.7180  130.4   0.714   27.6  0.2366   65.2  0.5429 -103.2
 2.820  0.7180  129.9   0.710   27.4  0.2396   65.1  0.5430 -103.8
 2.840  0.7180  129.3   0.707   27.2  0.2426   65.1  0.5432 -104.4
 2.860  0.7181  128.8   0.703   27.0  0.2456   65.0  0.5435 -105.1
 2.880  0.7183  128.2   0.699   26.8  0.2486   65.0  0.5439 -105.7
 2.900  0.7186  127.7   0.695   26.6  0.2516   64.9  0.5443 -106.3
 2.920  0.7189  127.2   0.692   26.4  0.2547   64.9  0.5447 -106.9
 2.940  0.7192  126.6   0.688   26.2  0.2577   64.8  0.5452 -107.6
 2.960  0.7196  126.1   0.684   26.0  0.2607   64.8  0.5458 -108.2
 2.980  0.7201  125.5   0.681   25.8  0.2637   64.7  0.5465 -108.8
 3.000  0.7207  125.0   0.677   25.6  0.2667   64.7  0.5472 -109.4
 3.100  0.7206  122.5   0.664   24.9  0.2830   63.3  0.5460 -113.1
 3.200  0.7218  120.0   0.651   24.1  0.2994   62.1  0.5470 -116.8
 3.300  0.7243  117.6   0.639   23.4  0.3160   61.1  0.5503 -120.5
 3.400  0.7282  115.1   0.626   22.5  0.3327   60.1  0.5558 -124.1
 3.500  0.7334  112.7   0.614   21.7  0.3494   59.2  0.5635 -127.6
 3.600  0.7304  110.6   0.607   21.3  0.3639   57.5  0.5620 -131.2
 3.700  0.7285  108.4   0.600   20.9  0.3788   55.8  0.5628 -134.9
 3.800  0.7276  106.3   0.594   20.5  0.3939   54.4  0.5658 -138.5
 3.900  0.7277  104.1   0.587   20.0  0.4092   53.0  0.5710 -142.0
 4.000  0.7288  102.0   0.580   19.6  0.4248   51.7  0.5784 -145.5
 4.100  0.7271  100.2   0.578   19.2  0.4368   49.8  0.5771 -148.7
 4.200  0.7261   98.5   0.576   18.9  0.4492   48.0  0.5777 -152.0
 4.300  0.7257   96.7   0.574   18.5  0.4621   46.3  0.5800 -155.2
 4.400  0.7261   95.0   0.572   18.2  0.4753   44.7  0.5842 -158.4
 4.500  0.7271   93.2   0.570   17.8  0.4889   43.2  0.5902 -161.5
 4.600  0.7234   91.7   0.572   17.3  0.4978   41.5  0.5877 -164.4
 4.700  0.7202   90.3   0.573   16.8  0.5071   39.8  0.5866 -167.3
 4.800  0.7175   88.8   0.575   16.2  0.5168   38.2  0.5871 -170.2
 4.900  0.7153   87.3   0.577   15.7  0.5268   36.7  0.5891 -173.1
 5.000  0.7135   85.8   0.579   15.2  0.5373   35.2  0.5926 -176.0
 5.100  0.7120   84.5   0.581   14.6  0.5440   33.7  0.5887 -178.7
 5.200  0.7107   83.3   0.583   14.0  0.5511   32.2  0.5861  178.6
 5.300  0.7099   82.0   0.585   13.4  0.5585   30.8  0.5849  175.9
 5.400  0.7094   80.8   0.587   12.8  0.5662   29.4  0.5850  173.1
 5.500  0.7092   79.5   0.589   12.2  0.5743   28.1  0.5864  170.4
 5.600  0.7067   78.5   0.592   11.5  0.5801   26.7  0.5840  168.1
 5.700  0.7045   77.4   0.595   10.7  0.5862   25.3  0.5826  165.7
 5.800  0.7025   76.3   0.598   10.0  0.5926   24.0  0.5821  163.4
 5.900  0.7008   75.3   0.601    9.3  0.5993   22.7  0.5826  161.0
 6.000  0.6993   74.2   0.604    8.6  0.6064   21.4  0.5841  158.7
!
!  f       NFmin   Gammaopt  rn/50
! GHz       dB    MAG  ANG    -
!
! noise parameter not available yet for this operation point!
!
! (c) 2015  Infineon Technologies AG, Munich
