! Infineon Technologies  Discrete & RF Semiconductors
! BFR93AW
! VCE =  3.0 V,  IC =  10 mA
! Common Emitter S-Parameters:                            Nov 2015
# GHz  S  MA  R  50
!  f         S11            S21            S12            S22
! GHz     MAG   ANG      MAG   ANG      MAG   ANG      MAG   ANG
 0.030  0.6770  -25.4  27.509  165.1  0.0104   77.1  0.9503  -11.5
 0.035  0.6717  -29.1  27.174  162.7  0.0120   75.6  0.9385  -13.3
 0.040  0.6692  -32.8  26.889  160.2  0.0136   74.4  0.9277  -15.1
 0.045  0.6696  -36.6  26.654  157.7  0.0152   73.5  0.9178  -17.0
 0.050  0.6728  -40.3  26.470  155.2  0.0168   72.8  0.9089  -18.9
 0.055  0.6581  -43.2  25.919  153.6  0.0179   70.9  0.8923  -20.0
 0.060  0.6452  -46.3  25.389  152.0  0.0190   69.2  0.8761  -21.1
 0.065  0.6342  -49.4  24.880  150.3  0.0202   67.7  0.8602  -22.3
 0.070  0.6251  -52.7  24.393  148.6  0.0214   66.3  0.8448  -23.6
 0.075  0.6182  -56.0  23.930  146.8  0.0225   65.1  0.8297  -24.8
 0.080  0.6134  -59.4  23.492  144.9  0.0237   64.0  0.8150  -26.1
 0.085  0.6107  -62.8  23.080  142.9  0.0249   63.1  0.8008  -27.5
 0.090  0.6103  -66.3  22.697  140.9  0.0261   62.2  0.7871  -28.9
 0.095  0.6121  -69.8  22.343  138.8  0.0273   61.4  0.7738  -30.4
 0.100  0.6162  -73.2  22.021  136.6  0.0285   60.6  0.7611  -31.9
 0.105  0.6066  -75.4  21.551  135.5  0.0292   59.9  0.7474  -32.5
 0.110  0.5980  -77.7  21.089  134.4  0.0299   59.3  0.7338  -33.1
 0.115  0.5904  -80.0  20.635  133.3  0.0306   58.7  0.7203  -33.7
 0.120  0.5837  -82.4  20.189  132.1  0.0313   58.1  0.7068  -34.4
 0.125  0.5781  -84.8  19.753  130.8  0.0320   57.5  0.6934  -35.1
 0.130  0.5736  -87.3  19.327  129.5  0.0328   56.9  0.6802  -35.8
 0.135  0.5701  -89.8  18.911  128.1  0.0335   56.4  0.6671  -36.5
 0.140  0.5678  -92.4  18.506  126.7  0.0342   55.9  0.6541  -37.3
 0.145  0.5666  -94.9  18.114  125.2  0.0349   55.4  0.6412  -38.1
 0.150  0.5665  -97.5  17.734  123.7  0.0357   55.0  0.6284  -38.9
 0.155  0.5619  -99.0  17.404  123.0  0.0362   54.7  0.6189  -39.2
 0.160  0.5576 -100.6  17.078  122.2  0.0367   54.4  0.6094  -39.5
 0.165  0.5538 -102.2  16.754  121.4  0.0371   54.1  0.6000  -39.9
 0.170  0.5504 -103.8  16.433  120.6  0.0376   53.8  0.5906  -40.2
 0.175  0.5475 -105.4  16.116  119.8  0.0381   53.6  0.5811  -40.6
 0.180  0.5450 -107.0  15.803  118.9  0.0386   53.3  0.5718  -41.0
 0.185  0.5429 -108.7  15.494  118.0  0.0391   53.0  0.5624  -41.4
 0.190  0.5413 -110.4  15.188  117.0  0.0395   52.8  0.5531  -41.8
 0.195  0.5402 -112.0  14.887  116.0  0.0400   52.5  0.5438  -42.2
 0.200  0.5395 -113.7  14.591  115.0  0.0405   52.3  0.5345  -42.6
 0.220  0.5264 -118.8  13.621  112.7  0.0419   52.0  0.5064  -43.2
 0.240  0.5177 -124.1  12.676  110.1  0.0433   51.6  0.4783  -43.8
 0.260  0.5123 -128.7  11.863  107.8  0.0448   51.5  0.4550  -44.3
 0.280  0.5087 -132.4  11.169  105.9  0.0463   51.6  0.4365  -44.5
 0.300  0.5072 -136.2  10.487  103.8  0.0478   51.7  0.4179  -44.8
 0.320  0.5022 -138.9   9.997  102.6  0.0492   52.3  0.4051  -44.7
 0.340  0.4984 -141.7   9.512  101.3  0.0506   52.9  0.3924  -44.6
 0.360  0.4957 -144.5   9.033   99.9  0.0520   53.5  0.3796  -44.6
 0.380  0.4943 -147.4   8.560   98.3  0.0534   54.0  0.3669  -44.5
 0.400  0.4941 -150.2   8.095   96.5  0.0548   54.5  0.3542  -44.4
 0.420  0.4921 -152.2   7.792   95.6  0.0562   54.9  0.3465  -44.4
 0.440  0.4907 -154.1   7.491   94.5  0.0577   55.3  0.3388  -44.3
 0.450  0.4902 -155.1   7.342   94.0  0.0584   55.5  0.3349  -44.3
 0.460  0.4898 -156.1   7.193   93.4  0.0591   55.7  0.3310  -44.3
 0.480  0.4895 -158.0   6.899   92.2  0.0606   56.1  0.3233  -44.2
 0.500  0.4898 -160.0   6.607   90.9  0.0620   56.4  0.3156  -44.1
 0.520  0.4891 -161.4   6.394   90.2  0.0635   56.9  0.3112  -44.0
 0.540  0.4887 -162.8   6.182   89.4  0.0650   57.3  0.3067  -44.0
 0.560  0.4886 -164.2   5.971   88.5  0.0665   57.8  0.3023  -43.9
 0.580  0.4888 -165.6   5.762   87.6  0.0681   58.2  0.2978  -43.9
 0.600  0.4893 -167.0   5.554   86.6  0.0696   58.6  0.2934  -43.8
 0.620  0.4889 -168.2   5.404   85.9  0.0711   58.9  0.2903  -43.9
 0.640  0.4888 -169.5   5.254   85.2  0.0727   59.2  0.2873  -44.0
 0.660  0.4889 -170.7   5.106   84.4  0.0742   59.5  0.2842  -44.2
 0.680  0.4892 -172.0   4.958   83.6  0.0758   59.8  0.2812  -44.3
 0.700  0.4897 -173.2   4.812   82.7  0.0773   60.1  0.2781  -44.4
 0.720  0.4902 -174.3   4.695   82.1  0.0789   60.4  0.2751  -44.6
 0.740  0.4909 -175.4   4.578   81.4  0.0806   60.7  0.2721  -44.8
 0.760  0.4918 -176.5   4.461   80.7  0.0822   61.0  0.2691  -45.0
 0.780  0.4929 -177.5   4.346   80.0  0.0839   61.2  0.2662  -45.3
 0.800  0.4941 -178.6   4.231   79.2  0.0855   61.5  0.2632  -45.5
 0.820  0.4939 -179.4   4.141   78.6  0.0872   61.8  0.2621  -45.6
 0.840  0.4937  179.8   4.052   78.0  0.0889   62.0  0.2609  -45.8
 0.860  0.4937  179.1   3.963   77.4  0.0905   62.2  0.2598  -45.9
 0.880  0.4938  178.3   3.875   76.7  0.0922   62.5  0.2586  -46.1
 0.900  0.4939  177.5   3.787   76.0  0.0939   62.7  0.2575  -46.2
 0.920  0.4939  176.6   3.714   75.4  0.0956   62.9  0.2562  -46.5
 0.940  0.4940  175.8   3.641   74.8  0.0973   63.1  0.2548  -46.8
 0.960  0.4942  174.9   3.569   74.2  0.0991   63.3  0.2535  -47.0
 0.980  0.4945  174.1   3.497   73.6  0.1008   63.5  0.2522  -47.3
 1.000  0.4949  173.2   3.425   72.9  0.1025   63.7  0.2509  -47.6
 1.020  0.4961  172.5   3.366   72.4  0.1042   63.8  0.2495  -48.2
 1.040  0.4974  171.8   3.307   71.8  0.1059   63.8  0.2481  -48.7
 1.060  0.4987  171.1   3.249   71.2  0.1076   63.9  0.2467  -49.3
 1.080  0.5001  170.4   3.191   70.6  0.1093   63.9  0.2454  -49.9
 1.100  0.5016  169.7   3.133   70.0  0.1110   64.0  0.2441  -50.5
 1.120  0.5028  169.0   3.083   69.5  0.1127   64.1  0.2437  -50.8
 1.140  0.5041  168.3   3.033   69.0  0.1144   64.2  0.2432  -51.1
 1.160  0.5055  167.6   2.983   68.4  0.1162   64.2  0.2428  -51.4
 1.180  0.5069  167.0   2.933   67.9  0.1179   64.3  0.2424  -51.7
 1.200  0.5084  166.3   2.884   67.3  0.1196   64.4  0.2420  -52.0
 1.220  0.5079  165.7   2.844   66.8  0.1215   64.5  0.2415  -52.3
 1.240  0.5075  165.1   2.804   66.3  0.1235   64.6  0.2410  -52.6
 1.260  0.5071  164.6   2.765   65.8  0.1254   64.6  0.2405  -52.9
 1.280  0.5068  164.0   2.725   65.3  0.1274   64.7  0.2400  -53.2
 1.300  0.5065  163.4   2.686   64.7  0.1293   64.8  0.2395  -53.5
 1.320  0.5073  162.8   2.649   64.2  0.1310   64.8  0.2386  -54.2
 1.340  0.5082  162.2   2.613   63.7  0.1327   64.8  0.2377  -55.0
 1.360  0.5091  161.6   2.577   63.2  0.1345   64.9  0.2369  -55.7
 1.380  0.5101  161.0   2.541   62.6  0.1362   64.9  0.2361  -56.4
 1.400  0.5111  160.4   2.505   62.1  0.1379   64.9  0.2354  -57.2
 1.420  0.5122  159.9   2.473   61.6  0.1398   64.9  0.2353  -57.6
 1.440  0.5133  159.4   2.442   61.1  0.1417   64.9  0.2353  -58.1
 1.460  0.5144  159.0   2.411   60.6  0.1437   65.0  0.2352  -58.5
 1.480  0.5156  158.5   2.380   60.1  0.1456   65.0  0.2352  -59.0
 1.500  0.5168  158.0   2.349   59.6  0.1475   65.0  0.2352  -59.4
 1.520  0.5168  157.4   2.322   59.1  0.1494   65.0  0.2345  -59.8
 1.540  0.5169  156.7   2.296   58.6  0.1512   64.9  0.2338  -60.3
 1.560  0.5170  156.1   2.270   58.1  0.1531   64.9  0.2332  -60.7
 1.580  0.5172  155.4   2.244   57.6  0.1549   64.8  0.2325  -61.2
 1.600  0.5175  154.8   2.218   57.1  0.1568   64.8  0.2319  -61.6
 1.620  0.5186  154.2   2.194   56.6  0.1587   64.7  0.2317  -62.4
 1.640  0.5198  153.7   2.170   56.2  0.1606   64.6  0.2316  -63.2
 1.660  0.5211  153.1   2.147   55.7  0.1626   64.6  0.2315  -64.1
 1.680  0.5224  152.6   2.123   55.2  0.1645   64.5  0.2315  -64.9
 1.700  0.5237  152.0   2.100   54.7  0.1664   64.4  0.2315  -65.7
 1.720  0.5243  151.6   2.079   54.3  0.1683   64.4  0.2323  -66.2
 1.740  0.5249  151.2   2.058   53.8  0.1701   64.4  0.2332  -66.7
 1.760  0.5256  150.7   2.037   53.4  0.1720   64.4  0.2340  -67.2
 1.780  0.5263  150.3   2.017   53.0  0.1738   64.4  0.2349  -67.6
 1.800  0.5270  149.9   1.996   52.5  0.1757   64.4  0.2358  -68.1
 1.820  0.5271  149.4   1.978   52.1  0.1779   64.3  0.2352  -68.5
 1.840  0.5273  148.8   1.959   51.6  0.1801   64.2  0.2346  -69.0
 1.860  0.5275  148.3   1.941   51.2  0.1824   64.2  0.2340  -69.4
 1.880  0.5278  147.7   1.923   50.8  0.1846   64.1  0.2334  -69.9
 1.900  0.5281  147.2   1.905   50.3  0.1868   64.0  0.2328  -70.3
 1.920  0.5294  146.7   1.888   49.9  0.1885   63.9  0.2333  -71.1
 1.940  0.5308  146.2   1.870   49.4  0.1903   63.9  0.2338  -71.8
 1.960  0.5322  145.7   1.853   48.9  0.1920   63.8  0.2344  -72.6
 1.980  0.5337  145.2   1.836   48.5  0.1938   63.8  0.2350  -73.3
 2.000  0.5352  144.7   1.819   48.0  0.1955   63.7  0.2357  -74.1
 2.020  0.5355  144.3   1.805   47.6  0.1975   63.6  0.2358  -74.6
 2.040  0.5358  143.8   1.790   47.3  0.1996   63.5  0.2358  -75.0
 2.060  0.5362  143.4   1.776   46.9  0.2016   63.3  0.2359  -75.5
 2.080  0.5366  142.9   1.762   46.5  0.2037   63.2  0.2360  -75.9
 2.100  0.5371  142.5   1.747   46.1  0.2057   63.1  0.2361  -76.4
 2.120  0.5375  142.1   1.733   45.7  0.2077   63.0  0.2362  -76.8
 2.140  0.5380  141.6   1.719   45.3  0.2098   62.9  0.2364  -77.3
 2.160  0.5385  141.2   1.706   44.9  0.2118   62.8  0.2365  -77.7
 2.180  0.5391  140.7   1.692   44.4  0.2139   62.7  0.2367  -78.2
 2.200  0.5397  140.3   1.678   44.0  0.2159   62.6  0.2369  -78.6
 2.220  0.5407  139.8   1.665   43.6  0.2179   62.5  0.2375  -79.2
 2.240  0.5418  139.4   1.653   43.2  0.2198   62.4  0.2382  -79.8
 2.260  0.5429  138.9   1.640   42.9  0.2218   62.3  0.2388  -80.5
 2.280  0.5440  138.5   1.628   42.5  0.2237   62.2  0.2395  -81.1
 2.300  0.5451  138.0   1.616   42.1  0.2257   62.1  0.2403  -81.7
 2.320  0.5463  137.6   1.603   41.7  0.2277   62.0  0.2410  -82.3
 2.340  0.5475  137.1   1.591   41.3  0.2296   61.9  0.2418  -82.9
 2.360  0.5488  136.7   1.579   40.8  0.2316   61.8  0.2426  -83.5
 2.380  0.5501  136.2   1.567   40.4  0.2335   61.7  0.2434  -84.1
 2.400  0.5514  135.8   1.555   40.0  0.2355   61.6  0.2443  -84.7
 2.420  0.5521  135.3   1.545   39.6  0.2377   61.4  0.2441  -85.4
 2.440  0.5529  134.9   1.535   39.2  0.2398   61.2  0.2439  -86.2
 2.460  0.5537  134.4   1.525   38.9  0.2420   61.1  0.2437  -86.9
 2.480  0.5545  133.9   1.515   38.5  0.2442   60.9  0.2436  -87.7
 2.500  0.5554  133.5   1.505   38.1  0.2463   60.7  0.2435  -88.4
 2.520  0.5563  133.0   1.495   37.7  0.2485   60.5  0.2435  -89.1
 2.540  0.5573  132.6   1.485   37.3  0.2507   60.4  0.2435  -89.9
 2.560  0.5582  132.1   1.475   36.8  0.2528   60.2  0.2436  -90.6
 2.580  0.5592  131.7   1.466   36.4  0.2550   60.1  0.2437  -91.4
 2.600  0.5603  131.2   1.456   36.0  0.2572   59.9  0.2438  -92.1
 2.620  0.5612  130.8   1.447   35.7  0.2594   59.7  0.2442  -92.6
 2.640  0.5622  130.4   1.439   35.3  0.2615   59.6  0.2446  -93.2
 2.660  0.5632  130.0   1.431   35.0  0.2637   59.4  0.2450  -93.7
 2.680  0.5642  129.7   1.422   34.6  0.2659   59.3  0.2454  -94.3
 2.700  0.5653  129.3   1.414   34.3  0.2681   59.1  0.2459  -94.8
 2.720  0.5664  128.9   1.406   33.9  0.2703   59.0  0.2464  -95.4
 2.740  0.5675  128.5   1.397   33.6  0.2724   58.8  0.2469  -95.9
 2.760  0.5686  128.1   1.389   33.2  0.2746   58.7  0.2474  -96.4
 2.780  0.5697  127.8   1.381   32.9  0.2768   58.5  0.2479  -97.0
 2.800  0.5709  127.4   1.373   32.5  0.2790   58.4  0.2485  -97.5
 2.820  0.5713  127.0   1.365   32.2  0.2809   58.2  0.2491  -98.1
 2.840  0.5718  126.6   1.358   31.8  0.2829   58.1  0.2498  -98.7
 2.860  0.5723  126.1   1.350   31.5  0.2849   57.9  0.2505  -99.2
 2.880  0.5728  125.7   1.342   31.1  0.2868   57.7  0.2512  -99.8
 2.900  0.5734  125.3   1.335   30.8  0.2888   57.6  0.2520 -100.4
 2.920  0.5740  124.9   1.327   30.4  0.2907   57.4  0.2528 -101.0
 2.940  0.5746  124.5   1.320   30.1  0.2927   57.3  0.2536 -101.5
 2.960  0.5752  124.0   1.313   29.7  0.2947   57.1  0.2544 -102.1
 2.980  0.5759  123.6   1.305   29.4  0.2966   57.0  0.2552 -102.6
 3.000  0.5766  123.2   1.298   29.0  0.2986   56.8  0.2561 -103.2
 3.100  0.5811  121.2   1.266   27.5  0.3090   55.7  0.2581 -106.9
 3.200  0.5863  119.3   1.236   25.9  0.3196   54.7  0.2611 -110.5
 3.300  0.5921  117.4   1.206   24.3  0.3302   53.8  0.2651 -114.0
 3.400  0.5986  115.5   1.177   22.5  0.3409   52.9  0.2701 -117.4
 3.500  0.6057  113.7   1.150   20.7  0.3517   52.1  0.2760 -120.7
 3.600  0.6080  111.9   1.125   19.4  0.3614   50.9  0.2787 -124.4
 3.700  0.6108  110.2   1.100   18.1  0.3713   49.8  0.2825 -128.0
 3.800  0.6143  108.4   1.075   16.7  0.3813   48.8  0.2875 -131.6
 3.900  0.6183  106.7   1.052   15.2  0.3915   47.8  0.2934 -135.0
 4.000  0.6228  105.0   1.029   13.7  0.4017   46.8  0.3004 -138.2
 4.100  0.6258  103.4   1.009   12.6  0.4108   45.5  0.3048 -141.4
 4.200  0.6293  101.9   0.989   11.5  0.4202   44.3  0.3101 -144.4
 4.300  0.6333  100.4   0.970   10.4  0.4297   43.1  0.3162 -147.4
 4.400  0.6377   98.9   0.951    9.2  0.4394   42.0  0.3231 -150.2
 4.500  0.6425   97.4   0.932    7.9  0.4492   40.9  0.3308 -152.9
 4.600  0.6440   96.0   0.917    7.0  0.4571   39.7  0.3347 -155.7
 4.700  0.6459   94.7   0.903    6.0  0.4653   38.5  0.3395 -158.5
 4.800  0.6482   93.4   0.889    5.0  0.4736   37.3  0.3450 -161.2
 4.900  0.6508   92.0   0.875    4.0  0.4821   36.2  0.3513 -163.8
 5.000  0.6537   90.7   0.862    2.9  0.4908   35.1  0.3582 -166.3
 5.100  0.6564   89.4   0.850    2.2  0.4981   33.9  0.3604 -169.1
 5.200  0.6595   88.1   0.838    1.4  0.5056   32.8  0.3635 -171.8
 5.300  0.6629   86.9   0.826    0.6  0.5133   31.7  0.3674 -174.5
 5.400  0.6666   85.6   0.814   -0.2  0.5212   30.6  0.3721 -177.1
 5.500  0.6706   84.4   0.802   -1.0  0.5292   29.6  0.3776 -179.7
 5.600  0.6710   83.3   0.794   -1.7  0.5360   28.4  0.3807  177.9
 5.700  0.6717   82.1   0.786   -2.4  0.5431   27.2  0.3845  175.5
 5.800  0.6727   81.0   0.778   -3.1  0.5504   26.1  0.3890  173.2
 5.900  0.6739   79.8   0.771   -3.9  0.5579   25.0  0.3940  170.9
 6.000  0.6754   78.7   0.763   -4.6  0.5656   23.9  0.3997  168.7
!
!  f       NFmin   Gammaopt  rn/50
! GHz       dB    MAG  ANG    -
!
! noise parameter not available yet for this operation point!
!
! (c) 2015  Infineon Technologies AG, Munich
