! Infineon Technologies  Discrete & RF Semiconductors
! BFR93AW
! VCE = 0.75 V,  IC =  2.0 mA
! Common Emitter S-Parameters:                            Nov 2015
# GHz  S  MA  R  50
!  f         S11            S21            S12            S22
! GHz     MAG   ANG      MAG   ANG      MAG   ANG      MAG   ANG
 0.030  0.9144  -12.7   7.038  172.5  0.0179   82.4  0.9941   -5.4
 0.035  0.9134  -14.4   7.018  171.2  0.0208   81.3  0.9896   -6.2
 0.040  0.9132  -16.1   7.002  169.9  0.0237   80.4  0.9853   -7.1
 0.045  0.9138  -17.8   6.990  168.6  0.0266   79.7  0.9812   -7.9
 0.050  0.9152  -19.5   6.981  167.2  0.0295   79.1  0.9774   -8.8
 0.055  0.9089  -21.3   6.941  166.1  0.0321   77.4  0.9724   -9.6
 0.060  0.9036  -23.2   6.904  164.9  0.0347   75.9  0.9676  -10.4
 0.065  0.8993  -25.0   6.869  163.7  0.0373   74.6  0.9630  -11.2
 0.070  0.8959  -26.9   6.838  162.5  0.0399   73.5  0.9586  -12.0
 0.075  0.8935  -28.8   6.810  161.3  0.0426   72.5  0.9544  -12.8
 0.080  0.8920  -30.7   6.784  160.1  0.0453   71.6  0.9503  -13.6
 0.085  0.8915  -32.6   6.762  158.9  0.0479   70.9  0.9465  -14.4
 0.090  0.8920  -34.5   6.742  157.7  0.0506   70.2  0.9429  -15.3
 0.095  0.8935  -36.4   6.726  156.5  0.0533   69.6  0.9394  -16.1
 0.100  0.8960  -38.3   6.713  155.2  0.0560   69.0  0.9362  -17.0
 0.105  0.8881  -40.0   6.652  154.2  0.0580   67.8  0.9295  -17.6
 0.110  0.8809  -41.7   6.594  153.1  0.0600   66.7  0.9230  -18.3
 0.115  0.8745  -43.4   6.537  152.0  0.0620   65.7  0.9166  -18.9
 0.120  0.8689  -45.2   6.483  150.9  0.0641   64.7  0.9103  -19.6
 0.125  0.8642  -46.9   6.432  149.8  0.0662   63.8  0.9041  -20.2
 0.130  0.8603  -48.7   6.383  148.7  0.0683   62.9  0.8980  -20.9
 0.135  0.8572  -50.5   6.336  147.6  0.0704   62.1  0.8921  -21.6
 0.140  0.8550  -52.3   6.292  146.4  0.0725   61.3  0.8863  -22.3
 0.145  0.8537  -54.1   6.251  145.2  0.0746   60.6  0.8806  -23.0
 0.150  0.8532  -56.0   6.212  144.0  0.0768   59.9  0.8751  -23.7
 0.155  0.8474  -57.4   6.153  143.1  0.0784   59.0  0.8686  -24.2
 0.160  0.8421  -58.8   6.095  142.3  0.0800   58.2  0.8621  -24.8
 0.165  0.8374  -60.2   6.038  141.4  0.0817   57.4  0.8557  -25.3
 0.170  0.8331  -61.7   5.983  140.5  0.0833   56.7  0.8494  -25.8
 0.175  0.8294  -63.1   5.930  139.6  0.0850   55.9  0.8432  -26.4
 0.180  0.8262  -64.6   5.878  138.6  0.0867   55.2  0.8370  -27.0
 0.185  0.8236  -66.0   5.828  137.7  0.0884   54.6  0.8310  -27.5
 0.190  0.8215  -67.5   5.779  136.7  0.0901   53.9  0.8250  -28.1
 0.195  0.8200  -69.0   5.732  135.7  0.0918   53.3  0.8191  -28.7
 0.200  0.8190  -70.5   5.687  134.7  0.0935   52.7  0.8133  -29.3
 0.220  0.7982  -75.7   5.462  131.6  0.0980   50.0  0.7880  -30.9
 0.240  0.7843  -81.1   5.254  128.2  0.1027   47.6  0.7633  -32.6
 0.260  0.7724  -86.2   5.058  125.1  0.1068   45.5  0.7407  -34.1
 0.280  0.7609  -90.8   4.868  122.5  0.1104   43.6  0.7198  -35.4
 0.300  0.7545  -95.5   4.690  119.6  0.1140   41.8  0.6994  -36.7
 0.320  0.7394  -99.0   4.517  117.7  0.1159   40.4  0.6819  -37.5
 0.340  0.7272 -102.6   4.350  115.6  0.1179   39.0  0.6646  -38.4
 0.360  0.7180 -106.4   4.189  113.4  0.1199   37.6  0.6474  -39.3
 0.380  0.7119 -110.2   4.035  111.0  0.1221   36.3  0.6305  -40.3
 0.400  0.7090 -114.0   3.889  108.4  0.1243   35.1  0.6137  -41.3
 0.420  0.6996 -116.8   3.766  106.8  0.1253   34.2  0.6013  -41.9
 0.440  0.6920 -119.6   3.647  105.2  0.1264   33.3  0.5890  -42.5
 0.450  0.6888 -121.1   3.588  104.3  0.1269   32.9  0.5829  -42.8
 0.460  0.6861 -122.6   3.530  103.4  0.1274   32.5  0.5768  -43.1
 0.480  0.6820 -125.5   3.418  101.5  0.1286   31.6  0.5646  -43.8
 0.500  0.6797 -128.5   3.310   99.4  0.1297   30.7  0.5525  -44.5
 0.520  0.6747 -130.7   3.215   98.2  0.1301   30.2  0.5444  -44.9
 0.540  0.6706 -132.8   3.121   96.8  0.1305   29.6  0.5364  -45.4
 0.560  0.6675 -135.0   3.030   95.5  0.1310   29.1  0.5284  -45.8
 0.580  0.6654 -137.3   2.940   94.0  0.1314   28.6  0.5204  -46.3
 0.600  0.6643 -139.5   2.852   92.4  0.1319   28.1  0.5125  -46.8
 0.620  0.6608 -141.4   2.783   91.3  0.1322   27.8  0.5067  -47.3
 0.640  0.6580 -143.2   2.716   90.1  0.1324   27.4  0.5010  -47.7
 0.660  0.6559 -145.1   2.649   88.9  0.1327   27.1  0.4952  -48.2
 0.680  0.6545 -147.0   2.584   87.6  0.1330   26.7  0.4895  -48.7
 0.700  0.6538 -148.9   2.520   86.3  0.1333   26.4  0.4839  -49.2
 0.720  0.6524 -150.5   2.463   85.3  0.1332   26.3  0.4791  -49.7
 0.740  0.6516 -152.1   2.406   84.3  0.1331   26.1  0.4743  -50.2
 0.760  0.6512 -153.7   2.351   83.2  0.1330   26.0  0.4695  -50.7
 0.780  0.6513 -155.3   2.296   82.0  0.1329   25.8  0.4648  -51.3
 0.800  0.6520 -156.9   2.242   80.8  0.1328   25.7  0.4601  -51.8
 0.820  0.6501 -158.2   2.197   79.9  0.1328   25.8  0.4575  -52.2
 0.840  0.6485 -159.4   2.153   79.0  0.1327   25.8  0.4549  -52.6
 0.860  0.6472 -160.7   2.109   78.0  0.1327   25.9  0.4523  -53.0
 0.880  0.6463 -162.0   2.066   77.0  0.1326   25.9  0.4497  -53.4
 0.900  0.6457 -163.3   2.023   76.0  0.1326   26.0  0.4472  -53.8
 0.920  0.6449 -164.5   1.986   75.1  0.1323   26.1  0.4449  -54.3
 0.940  0.6444 -165.8   1.950   74.3  0.1321   26.3  0.4426  -54.8
 0.960  0.6441 -167.0   1.915   73.3  0.1318   26.4  0.4404  -55.3
 0.980  0.6442 -168.3   1.880   72.4  0.1316   26.6  0.4382  -55.9
 1.000  0.6446 -169.5   1.845   71.4  0.1313   26.7  0.4360  -56.4
 1.020  0.6446 -170.5   1.815   70.6  0.1312   27.0  0.4342  -57.0
 1.040  0.6447 -171.6   1.785   69.8  0.1311   27.2  0.4324  -57.7
 1.060  0.6451 -172.6   1.756   69.0  0.1310   27.5  0.4307  -58.4
 1.080  0.6457 -173.7   1.727   68.1  0.1309   27.7  0.4290  -59.0
 1.100  0.6465 -174.7   1.698   67.2  0.1308   28.0  0.4274  -59.7
 1.120  0.6471 -175.6   1.672   66.5  0.1306   28.3  0.4265  -60.2
 1.140  0.6478 -176.6   1.646   65.8  0.1304   28.6  0.4257  -60.7
 1.160  0.6487 -177.5   1.621   65.0  0.1302   29.0  0.4248  -61.3
 1.180  0.6498 -178.5   1.596   64.2  0.1301   29.3  0.4240  -61.8
 1.200  0.6510 -179.4   1.571   63.4  0.1299   29.6  0.4233  -62.3
 1.220  0.6509  179.7   1.551   62.8  0.1300   30.1  0.4222  -62.8
 1.240  0.6509  178.8   1.531   62.1  0.1302   30.6  0.4212  -63.4
 1.260  0.6510  178.0   1.511   61.4  0.1303   31.1  0.4202  -63.9
 1.280  0.6513  177.1   1.491   60.7  0.1304   31.6  0.4193  -64.5
 1.300  0.6518  176.2   1.472   60.0  0.1306   32.1  0.4184  -65.0
 1.320  0.6522  175.4   1.453   59.3  0.1308   32.6  0.4178  -65.8
 1.340  0.6528  174.5   1.434   58.6  0.1309   33.1  0.4173  -66.5
 1.360  0.6535  173.7   1.416   57.9  0.1311   33.5  0.4169  -67.3
 1.380  0.6543  172.8   1.397   57.2  0.1313   34.0  0.4166  -68.0
 1.400  0.6553  172.0   1.379   56.4  0.1315   34.5  0.4163  -68.8
 1.420  0.6561  171.3   1.362   55.8  0.1318   35.1  0.4163  -69.4
 1.440  0.6569  170.6   1.345   55.2  0.1320   35.7  0.4164  -69.9
 1.460  0.6579  169.9   1.327   54.5  0.1323   36.3  0.4165  -70.5
 1.480  0.6589  169.2   1.311   53.9  0.1326   36.9  0.4166  -71.0
 1.500  0.6601  168.5   1.294   53.2  0.1329   37.5  0.4168  -71.6
 1.520  0.6599  167.7   1.280   52.6  0.1335   38.0  0.4161  -72.3
 1.540  0.6598  166.9   1.266   52.0  0.1340   38.6  0.4154  -72.9
 1.560  0.6599  166.1   1.253   51.3  0.1346   39.1  0.4147  -73.6
 1.580  0.6601  165.3   1.239   50.7  0.1352   39.6  0.4141  -74.2
 1.600  0.6604  164.5   1.226   50.0  0.1358   40.1  0.4136  -74.9
 1.620  0.6609  163.8   1.213   49.4  0.1366   40.8  0.4137  -75.7
 1.640  0.6615  163.1   1.201   48.9  0.1375   41.4  0.4139  -76.6
 1.660  0.6622  162.3   1.188   48.3  0.1384   42.0  0.4142  -77.4
 1.680  0.6631  161.6   1.176   47.7  0.1393   42.7  0.4146  -78.3
 1.700  0.6640  160.9   1.164   47.1  0.1402   43.3  0.4151  -79.1
 1.720  0.6647  160.3   1.153   46.6  0.1412   43.9  0.4162  -79.7
 1.740  0.6654  159.7   1.141   46.1  0.1423   44.5  0.4173  -80.2
 1.760  0.6662  159.1   1.130   45.6  0.1434   45.1  0.4185  -80.8
 1.780  0.6671  158.5   1.119   45.0  0.1445   45.7  0.4197  -81.3
 1.800  0.6681  157.9   1.108   44.5  0.1456   46.3  0.4210  -81.9
 1.820  0.6685  157.2   1.098   44.0  0.1471   46.8  0.4205  -82.6
 1.840  0.6689  156.6   1.089   43.5  0.1486   47.4  0.4201  -83.3
 1.860  0.6695  155.9   1.080   43.0  0.1501   47.9  0.4197  -83.9
 1.880  0.6701  155.3   1.070   42.4  0.1516   48.4  0.4194  -84.6
 1.900  0.6708  154.6   1.061   41.9  0.1531   48.9  0.4191  -85.3
 1.920  0.6714  153.9   1.051   41.4  0.1546   49.3  0.4200  -86.0
 1.940  0.6722  153.3   1.042   40.9  0.1562   49.8  0.4210  -86.7
 1.960  0.6730  152.6   1.033   40.4  0.1577   50.2  0.4221  -87.4
 1.980  0.6739  152.0   1.023   39.9  0.1592   50.6  0.4232  -88.1
 2.000  0.6749  151.3   1.014   39.4  0.1608   51.0  0.4244  -88.8
 2.020  0.6752  150.7   1.006   39.0  0.1627   51.4  0.4246  -89.4
 2.040  0.6756  150.1   0.998   38.6  0.1646   51.8  0.4249  -90.1
 2.060  0.6761  149.5   0.990   38.2  0.1665   52.2  0.4253  -90.7
 2.080  0.6767  149.0   0.983   37.8  0.1684   52.6  0.4257  -91.3
 2.100  0.6773  148.4   0.975   37.4  0.1703   53.0  0.4261  -92.0
 2.120  0.6780  147.8   0.967   37.0  0.1722   53.3  0.4266  -92.6
 2.140  0.6787  147.2   0.960   36.5  0.1742   53.7  0.4271  -93.2
 2.160  0.6795  146.7   0.952   36.1  0.1761   54.0  0.4277  -93.9
 2.180  0.6804  146.1   0.944   35.7  0.1780   54.4  0.4284  -94.5
 2.200  0.6814  145.5   0.937   35.2  0.1800   54.7  0.4291  -95.1
 2.220  0.6821  144.9   0.930   34.9  0.1822   55.0  0.4300  -95.8
 2.240  0.6830  144.4   0.923   34.5  0.1845   55.2  0.4310  -96.5
 2.260  0.6838  143.8   0.915   34.2  0.1867   55.5  0.4321  -97.2
 2.280  0.6848  143.2   0.908   33.8  0.1890   55.8  0.4332  -97.9
 2.300  0.6858  142.7   0.901   33.4  0.1912   56.0  0.4344  -98.5
 2.320  0.6869  142.1   0.894   33.1  0.1935   56.3  0.4357  -99.2
 2.340  0.6880  141.6   0.887   32.7  0.1957   56.5  0.4370  -99.9
 2.360  0.6892  141.0   0.880   32.3  0.1980   56.7  0.4384 -100.6
 2.380  0.6905  140.5   0.873   31.9  0.2002   57.0  0.4398 -101.2
 2.400  0.6918  139.9   0.866   31.5  0.2025   57.2  0.4413 -101.9
 2.420  0.6922  139.3   0.861   31.2  0.2052   57.3  0.4413 -102.7
 2.440  0.6926  138.8   0.855   30.8  0.2078   57.4  0.4415 -103.5
 2.460  0.6931  138.2   0.850   30.5  0.2105   57.5  0.4417 -104.3
 2.480  0.6937  137.6   0.844   30.1  0.2132   57.5  0.4420 -105.1
 2.500  0.6943  137.0   0.839   29.8  0.2158   57.6  0.4424 -105.9
 2.520  0.6951  136.5   0.834   29.4  0.2185   57.7  0.4429 -106.7
 2.540  0.6958  135.9   0.829   29.0  0.2212   57.8  0.4435 -107.5
 2.560  0.6967  135.3   0.823   28.7  0.2239   57.9  0.4441 -108.3
 2.580  0.6976  134.8   0.818   28.3  0.2265   57.9  0.4449 -109.1
 2.600  0.6986  134.2   0.813   27.9  0.2292   58.0  0.4457 -109.9
 2.620  0.6993  133.7   0.809   27.6  0.2321   58.0  0.4462 -110.6
 2.640  0.7000  133.2   0.804   27.3  0.2349   58.0  0.4468 -111.3
 2.660  0.7008  132.7   0.800   27.1  0.2378   58.0  0.4474 -111.9
 2.680  0.7016  132.2   0.795   26.8  0.2407   58.0  0.4481 -112.6
 2.700  0.7025  131.7   0.791   26.5  0.2435   57.9  0.4489 -113.3
 2.720  0.7035  131.2   0.786   26.2  0.2464   57.9  0.4497 -113.9
 2.740  0.7045  130.7   0.782   25.9  0.2493   57.9  0.4506 -114.6
 2.760  0.7055  130.2   0.778   25.6  0.2522   57.9  0.4515 -115.3
 2.780  0.7066  129.7   0.773   25.3  0.2550   57.9  0.4525 -115.9
 2.800  0.7078  129.2   0.769   25.0  0.2579   57.9  0.4536 -116.6
 2.820  0.7079  128.7   0.765   24.8  0.2607   57.8  0.4543 -117.2
 2.840  0.7081  128.2   0.761   24.5  0.2635   57.8  0.4551 -117.9
 2.860  0.7084  127.7   0.757   24.3  0.2663   57.7  0.4559 -118.5
 2.880  0.7087  127.2   0.753   24.1  0.2691   57.6  0.4568 -119.1
 2.900  0.7091  126.6   0.749   23.8  0.2719   57.6  0.4577 -119.7
 2.920  0.7095  126.1   0.745   23.6  0.2748   57.5  0.4587 -120.4
 2.940  0.7100  125.6   0.741   23.3  0.2776   57.5  0.4597 -121.0
 2.960  0.7106  125.1   0.737   23.1  0.2804   57.4  0.4608 -121.6
 2.980  0.7111  124.6   0.733   22.9  0.2832   57.4  0.4619 -122.2
 3.000  0.7118  124.1   0.729   22.6  0.2860   57.3  0.4631 -122.8
 3.100  0.7123  121.7   0.714   21.7  0.3009   56.1  0.4654 -126.6
 3.200  0.7141  119.4   0.700   20.8  0.3158   55.1  0.4697 -130.3
 3.300  0.7170  117.0   0.686   19.9  0.3309   54.1  0.4758 -133.9
 3.400  0.7212  114.7   0.672   18.9  0.3461   53.2  0.4839 -137.4
 3.500  0.7265  112.4   0.658   17.9  0.3613   52.4  0.4937 -140.8
 3.600  0.7245  110.4   0.649   17.4  0.3745   50.8  0.4956 -144.4
 3.700  0.7234  108.3   0.640   16.8  0.3879   49.4  0.4995 -148.0
 3.800  0.7233  106.3   0.631   16.2  0.4015   48.0  0.5052 -151.5
 3.900  0.7240  104.2   0.622   15.6  0.4154   46.8  0.5128 -154.9
 4.000  0.7257  102.2   0.613   15.0  0.4294   45.6  0.5222 -158.2
 4.100  0.7243  100.5   0.609   14.6  0.4402   43.9  0.5237 -161.3
 4.200  0.7235   98.8   0.605   14.2  0.4514   42.3  0.5267 -164.3
 4.300  0.7234   97.0   0.600   13.8  0.4629   40.7  0.5311 -167.3
 4.400  0.7240   95.3   0.596   13.3  0.4747   39.3  0.5370 -170.2
 4.500  0.7252   93.6   0.592   12.9  0.4868   37.9  0.5442 -173.1
 4.600  0.7222   92.2   0.592   12.4  0.4949   36.4  0.5444 -175.8
 4.700  0.7197   90.7   0.591   11.9  0.5033   34.9  0.5459 -178.5
 4.800  0.7177   89.3   0.591   11.3  0.5121   33.4  0.5486  178.8
 4.900  0.7160   87.9   0.590   10.8  0.5211   32.0  0.5525  176.1
 5.000  0.7149   86.4   0.590   10.3  0.5305   30.7  0.5575  173.5
 5.100  0.7144   85.2   0.590    9.8  0.5368   29.3  0.5561  171.0
 5.200  0.7142   84.0   0.590    9.3  0.5434   28.0  0.5557  168.5
 5.300  0.7143   82.7   0.590    8.8  0.5503   26.7  0.5564  166.0
 5.400  0.7148   81.5   0.590    8.3  0.5575   25.4  0.5581  163.5
 5.500  0.7156   80.3   0.590    7.8  0.5649   24.2  0.5609  161.0
 5.600  0.7135   79.2   0.592    7.1  0.5704   22.9  0.5605  158.8
 5.700  0.7116   78.2   0.595    6.4  0.5762   21.6  0.5609  156.6
 5.800  0.7099   77.1   0.597    5.7  0.5823   20.4  0.5621  154.4
 5.900  0.7085   76.0   0.599    5.1  0.5887   19.2  0.5641  152.3
 6.000  0.7074   74.9   0.602    4.4  0.5953   18.0  0.5669  150.1
!
!  f       NFmin   Gammaopt  rn/50
! GHz       dB    MAG  ANG    -
!
! noise parameter not available yet for this operation point!
!
! (c) 2015  Infineon Technologies AG, Munich
