! Infineon Technologies  Discrete & RF Semiconductors
! BFR92P
! VCE =  1.0 V,  IC =  5.0 mA
! Common Emitter S-Parameters:                            Apr 2014
# GHz  S  MA  R  50
!  f         S11            S21            S12            S22
! GHz     MAG   ANG      MAG   ANG      MAG   ANG      MAG   ANG
 0.010  0.8156   -5.2  15.117  175.9  0.0027   86.7  0.9772   -2.0
 0.020  0.8451   -5.4  15.501  174.5  0.0056   88.7  0.9915   -3.7
 0.030  0.8272   -9.5  15.335  171.8  0.0089   83.2  0.9843   -5.4
 0.040  0.8138  -13.7  15.203  169.1  0.0122   80.7  0.9781   -7.2
 0.050  0.8049  -18.1  15.107  166.3  0.0155   79.3  0.9728   -9.0
 0.060  0.7894  -21.3  14.805  163.8  0.0179   77.2  0.9590  -10.5
 0.070  0.7765  -24.6  14.533  161.2  0.0202   75.5  0.9459  -12.0
 0.080  0.7662  -28.0  14.293  158.5  0.0226   74.2  0.9334  -13.6
 0.090  0.7588  -31.5  14.085  155.7  0.0250   73.2  0.9217  -15.2
 0.100  0.7542  -35.1  13.912  152.8  0.0274   72.3  0.9108  -16.9
 0.110  0.7405  -38.0  13.680  150.9  0.0296   70.9  0.8971  -18.2
 0.120  0.7287  -41.0  13.464  148.9  0.0318   69.6  0.8839  -19.5
 0.130  0.7190  -44.1  13.264  146.8  0.0340   68.6  0.8712  -20.8
 0.140  0.7115  -47.3  13.083  144.7  0.0363   67.6  0.8589  -22.2
 0.150  0.7062  -50.5  12.920  142.5  0.0385   66.8  0.8472  -23.6
 0.200  0.6277  -63.7  11.507  132.5  0.0465   61.8  0.7694  -27.7
 0.250  0.5784  -74.7  10.344  125.5  0.0534   58.5  0.7115  -31.3
 0.300  0.5262  -85.9   9.270  118.4  0.0590   56.0  0.6516  -33.3
 0.350  0.4832  -94.0   8.406  114.0  0.0636   55.0  0.6114  -34.4
 0.400  0.4516 -103.5   7.604  108.6  0.0683   54.2  0.5715  -35.7
 0.450  0.4237 -109.9   6.972  105.2  0.0719   54.0  0.5449  -36.1
 0.500  0.4018 -117.1   6.369  101.1  0.0756   53.8  0.5183  -36.6
 0.600  0.3690 -129.2   5.451   94.9  0.0827   54.0  0.4803  -37.0
 0.700  0.3476 -139.9   4.767   89.7  0.0904   54.4  0.4540  -37.2
 0.800  0.3344 -150.2   4.235   85.1  0.0977   55.0  0.4346  -37.8
 0.900  0.3225 -158.9   3.817   80.8  0.1059   55.8  0.4195  -38.6
 1.000  0.3178 -166.6   3.474   77.1  0.1133   56.4  0.4075  -39.4
 1.100  0.3141 -173.4   3.188   73.6  0.1219   56.8  0.4002  -40.2
 1.200  0.3144  179.8   2.949   70.3  0.1306   57.1  0.3921  -41.3
 1.300  0.3131  173.5   2.747   67.1  0.1387   57.1  0.3848  -42.4
 1.400  0.3139  167.8   2.569   64.0  0.1470   56.9  0.3791  -43.7
 1.500  0.3187  162.6   2.421   60.9  0.1562   57.1  0.3741  -45.4
 1.600  0.3258  156.8   2.291   58.0  0.1651   56.8  0.3676  -47.0
 1.700  0.3272  151.8   2.171   55.2  0.1740   56.4  0.3624  -48.6
 1.800  0.3355  147.9   2.070   52.5  0.1837   56.1  0.3593  -50.4
 1.900  0.3409  143.8   1.974   49.9  0.1930   55.7  0.3524  -52.3
 2.000  0.3493  139.6   1.889   47.3  0.2025   55.4  0.3478  -54.0
 2.100  0.3559  135.8   1.816   44.9  0.2118   54.7  0.3431  -56.1
 2.200  0.3639  132.2   1.746   42.4  0.2212   54.0  0.3389  -58.2
 2.300  0.3734  128.7   1.682   40.1  0.2310   53.3  0.3328  -60.3
 2.400  0.3843  125.3   1.621   37.6  0.2409   52.6  0.3271  -62.5
 2.500  0.3944  122.6   1.570   35.4  0.2504   51.9  0.3215  -65.1
 2.600  0.4054  120.1   1.522   33.1  0.2599   51.3  0.3166  -67.7
 2.700  0.4152  116.9   1.474   31.0  0.2705   50.4  0.3107  -70.2
 2.800  0.4262  113.8   1.428   28.8  0.2811   49.6  0.3054  -72.7
 2.900  0.4356  111.4   1.392   26.8  0.2910   48.6  0.2989  -75.9
 3.000  0.4457  109.1   1.357   24.6  0.3010   47.6  0.2934  -79.3
 3.100  0.4530  106.9   1.322   22.9  0.3112   46.3  0.2859  -82.8
 3.200  0.4610  104.8   1.288   21.1  0.3215   45.1  0.2796  -86.4
 3.300  0.4697  102.7   1.256   19.2  0.3320   44.0  0.2744  -90.2
 3.400  0.4788  100.7   1.225   17.3  0.3425   43.0  0.2705  -94.2
 3.500  0.4886   98.8   1.195   15.2  0.3532   42.0  0.2679  -98.2
 3.600  0.4977   97.3   1.170   13.7  0.3630   40.8  0.2615 -102.6
 3.700  0.5070   95.8   1.147   12.2  0.3729   39.6  0.2566 -107.1
 3.800  0.5168   94.4   1.124   10.5  0.3830   38.5  0.2534 -111.8
 3.900  0.5268   93.0   1.102    8.9  0.3932   37.5  0.2520 -116.6
 4.000  0.5371   91.7   1.081    7.1  0.4035   36.5  0.2523 -121.4
 4.100  0.5455   90.1   1.062    5.7  0.4125   35.1  0.2487 -126.6
 4.200  0.5542   88.5   1.043    4.2  0.4217   33.7  0.2471 -131.9
 4.300  0.5634   86.9   1.025    2.6  0.4312   32.4  0.2477 -137.2
 4.400  0.5730   85.4   1.007    1.0  0.4409   31.1  0.2504 -142.4
 4.500  0.5830   84.0   0.991   -0.6  0.4508   29.9  0.2551 -147.5
 4.600  0.5876   82.6   0.974   -1.9  0.4587   28.5  0.2549 -152.4
 4.700  0.5926   81.2   0.958   -3.3  0.4668   27.1  0.2565 -157.3
 4.800  0.5979   79.8   0.942   -4.7  0.4753   25.8  0.2600 -162.1
 4.900  0.6036   78.4   0.927   -6.2  0.4839   24.5  0.2653 -166.8
 5.000  0.6096   77.1   0.913   -7.7  0.4928   23.3  0.2722 -171.2
 5.100  0.6142   75.7   0.899   -8.8  0.4997   21.9  0.2760 -175.2
 5.200  0.6190   74.4   0.884   -9.9  0.5068   20.5  0.2811 -179.2
 5.300  0.6243   73.1   0.871  -11.0  0.5143   19.2  0.2875  177.1
 5.400  0.6298   71.8   0.857  -12.2  0.5220   17.9  0.2950  173.5
 5.500  0.6357   70.5   0.844  -13.4  0.5300   16.6  0.3037  170.1
 5.600  0.6407   69.3   0.836  -14.3  0.5370   15.2  0.3107  166.8
 5.700  0.6460   68.2   0.829  -15.2  0.5443   13.8  0.3187  163.7
 5.800  0.6516   67.1   0.822  -16.2  0.5519   12.4  0.3276  160.8
 5.900  0.6574   66.0   0.815  -17.1  0.5598   11.1  0.3373  158.0
 6.000  0.6634   64.9   0.808  -18.1  0.5680    9.8  0.3478  155.4
!
!  f       NFmin   Gammaopt  rn/50
! GHz       dB    MAG  ANG    -
!
! noise parameter not available yet for this operation point!
!
! (c) 2014  Infineon Technologies AG, Munich
