! Infineon Technologies  Discrete & RF Semiconductors
! BFR93A
! VCE =  3.0 V,  IC =  20 mA
! Common Emitter S-Parameters:                            Nov 2015
# GHz  S  MA  R  50
!  f         S11            S21            S12            S22
! GHz     MAG   ANG      MAG   ANG      MAG   ANG      MAG   ANG
 0.010  0.5893  -12.0  40.084  171.8  0.0039   85.3  0.9574   -6.5
 0.015  0.5791  -17.7  39.473  168.1  0.0059   81.5  0.9441   -9.6
 0.020  0.5749  -23.6  39.032  164.3  0.0079   79.6  0.9336  -12.8
 0.025  0.5550  -28.3  37.878  161.5  0.0094   76.5  0.9085  -15.1
 0.030  0.5391  -33.4  36.822  158.5  0.0109   74.3  0.8849  -17.5
 0.035  0.5277  -38.7  35.873  155.3  0.0124   72.6  0.8630  -20.0
 0.040  0.5209  -44.2  35.039  152.0  0.0139   71.3  0.8429  -22.7
 0.045  0.5191  -49.7  34.328  148.5  0.0155   70.3  0.8247  -25.5
 0.050  0.5221  -55.3  33.749  144.9  0.0170   69.4  0.8085  -28.4
 0.055  0.5059  -58.4  32.681  143.4  0.0179   68.3  0.7857  -29.5
 0.060  0.4912  -61.6  31.637  141.8  0.0189   67.2  0.7632  -30.7
 0.065  0.4782  -65.1  30.619  140.1  0.0198   66.3  0.7410  -31.9
 0.070  0.4671  -68.7  29.631  138.2  0.0208   65.5  0.7192  -33.2
 0.075  0.4579  -72.5  28.675  136.3  0.0218   64.7  0.6978  -34.6
 0.080  0.4507  -76.4  27.755  134.2  0.0227   64.0  0.6769  -36.1
 0.085  0.4458  -80.4  26.873  132.0  0.0237   63.4  0.6564  -37.7
 0.090  0.4431  -84.6  26.035  129.6  0.0247   62.8  0.6364  -39.3
 0.095  0.4427  -88.7  25.245  127.1  0.0256   62.2  0.6170  -41.1
 0.100  0.4446  -92.8  24.507  124.4  0.0266   61.7  0.5983  -43.0
 0.105  0.4369  -94.9  23.851  123.5  0.0273   61.6  0.5843  -43.4
 0.110  0.4298  -97.0  23.201  122.6  0.0279   61.4  0.5703  -43.9
 0.115  0.4233  -99.2  22.558  121.5  0.0286   61.3  0.5564  -44.4
 0.120  0.4174 -101.5  21.922  120.5  0.0293   61.2  0.5425  -44.9
 0.125  0.4123 -103.8  21.294  119.4  0.0299   61.0  0.5287  -45.5
 0.130  0.4078 -106.2  20.675  118.2  0.0306   60.9  0.5149  -46.1
 0.135  0.4041 -108.7  20.065  116.9  0.0313   60.8  0.5011  -46.7
 0.140  0.4011 -111.1  19.466  115.6  0.0320   60.7  0.4875  -47.3
 0.145  0.3989 -113.7  18.878  114.1  0.0326   60.6  0.4738  -48.0
 0.150  0.3974 -116.2  18.303  112.6  0.0333   60.5  0.4603  -48.7
 0.155  0.3939 -117.7  17.904  112.0  0.0339   60.7  0.4520  -48.9
 0.160  0.3907 -119.2  17.506  111.4  0.0345   60.8  0.4437  -49.0
 0.165  0.3877 -120.7  17.111  110.7  0.0351   61.0  0.4353  -49.2
 0.170  0.3850 -122.3  16.718  110.1  0.0357   61.1  0.4270  -49.4
 0.175  0.3826 -123.9  16.327  109.3  0.0363   61.3  0.4187  -49.6
 0.180  0.3805 -125.5  15.940  108.6  0.0370   61.4  0.4104  -49.8
 0.185  0.3787 -127.1  15.555  107.8  0.0376   61.5  0.4021  -50.0
 0.190  0.3773 -128.7  15.173  107.0  0.0382   61.7  0.3939  -50.2
 0.195  0.3761 -130.4  14.794  106.1  0.0388   61.8  0.3856  -50.5
 0.200  0.3752 -132.0  14.419  105.2  0.0394   61.9  0.3773  -50.7
 0.220  0.3689 -136.4  13.368  103.3  0.0418   62.4  0.3558  -50.9
 0.240  0.3648 -140.8  12.334  101.1  0.0443   62.8  0.3343  -51.1
 0.260  0.3618 -144.6  11.457   99.2  0.0467   63.3  0.3163  -51.2
 0.280  0.3591 -147.7  10.726   97.7  0.0492   63.9  0.3020  -51.1
 0.300  0.3574 -150.9  10.004   96.0  0.0516   64.4  0.2877  -51.0
 0.320  0.3556 -153.5   9.519   95.0  0.0542   64.9  0.2785  -50.8
 0.340  0.3546 -156.0   9.038   93.8  0.0568   65.4  0.2693  -50.7
 0.360  0.3543 -158.6   8.561   92.6  0.0593   65.8  0.2602  -50.5
 0.380  0.3547 -161.2   8.088   91.2  0.0619   66.2  0.2510  -50.3
 0.400  0.3558 -163.8   7.621   89.6  0.0645   66.5  0.2418  -50.1
 0.420  0.3548 -165.6   7.328   88.8  0.0671   66.7  0.2368  -50.0
 0.440  0.3541 -167.5   7.036   87.9  0.0697   66.8  0.2318  -49.8
 0.450  0.3539 -168.4   6.891   87.4  0.0710   66.9  0.2293  -49.7
 0.460  0.3538 -169.3   6.747   86.9  0.0724   67.0  0.2269  -49.6
 0.480  0.3539 -171.2   6.459   85.9  0.0750   67.1  0.2219  -49.5
 0.500  0.3543 -173.0   6.174   84.7  0.0776   67.2  0.2169  -49.3
 0.520  0.3543 -174.4   5.974   84.0  0.0803   67.3  0.2133  -49.3
 0.540  0.3545 -175.7   5.775   83.2  0.0829   67.3  0.2098  -49.3
 0.560  0.3549 -177.1   5.577   82.4  0.0856   67.4  0.2062  -49.2
 0.580  0.3555 -178.4   5.380   81.5  0.0882   67.4  0.2027  -49.2
 0.600  0.3563 -179.8   5.185   80.6  0.0909   67.5  0.1991  -49.2
 0.620  0.3567  179.1   5.040   79.9  0.0936   67.5  0.1967  -49.3
 0.640  0.3573  177.9   4.897   79.2  0.0963   67.4  0.1944  -49.5
 0.660  0.3580  176.8   4.754   78.4  0.0989   67.4  0.1920  -49.6
 0.680  0.3588  175.6   4.612   77.6  0.1016   67.3  0.1897  -49.8
 0.700  0.3598  174.5   4.471   76.7  0.1043   67.3  0.1873  -49.9
 0.720  0.3604  173.6   4.363   76.1  0.1070   67.2  0.1853  -50.1
 0.740  0.3611  172.6   4.256   75.4  0.1096   67.2  0.1833  -50.3
 0.760  0.3619  171.7   4.149   74.7  0.1123   67.1  0.1813  -50.5
 0.780  0.3627  170.8   4.043   74.0  0.1149   67.1  0.1793  -50.7
 0.800  0.3637  169.9   3.938   73.2  0.1176   67.0  0.1773  -50.9
 0.820  0.3650  168.9   3.853   72.6  0.1203   66.8  0.1757  -51.2
 0.840  0.3664  168.0   3.768   72.0  0.1230   66.7  0.1741  -51.6
 0.860  0.3678  167.0   3.684   71.4  0.1256   66.5  0.1725  -52.0
 0.880  0.3694  166.0   3.600   70.8  0.1283   66.3  0.1710  -52.3
 0.900  0.3711  165.1   3.517   70.1  0.1310   66.2  0.1694  -52.7
 0.920  0.3714  164.3   3.451   69.5  0.1336   66.0  0.1683  -53.0
 0.940  0.3719  163.5   3.385   68.9  0.1362   65.9  0.1671  -53.3
 0.960  0.3723  162.8   3.320   68.3  0.1389   65.7  0.1660  -53.6
 0.980  0.3729  162.0   3.255   67.6  0.1415   65.5  0.1649  -54.0
 1.000  0.3735  161.2   3.190   66.9  0.1441   65.4  0.1638  -54.3
 1.020  0.3746  160.4   3.137   66.3  0.1467   65.2  0.1627  -54.8
 1.040  0.3758  159.7   3.083   65.8  0.1494   65.0  0.1616  -55.4
 1.060  0.3771  158.9   3.031   65.2  0.1520   64.8  0.1605  -56.0
 1.080  0.3784  158.1   2.978   64.5  0.1547   64.6  0.1594  -56.5
 1.100  0.3798  157.4   2.926   63.9  0.1573   64.4  0.1583  -57.1
 1.120  0.3820  156.6   2.880   63.4  0.1599   64.2  0.1572  -57.6
 1.140  0.3843  155.9   2.835   62.8  0.1625   64.0  0.1561  -58.2
 1.160  0.3866  155.2   2.790   62.2  0.1652   63.8  0.1550  -58.7
 1.180  0.3890  154.4   2.745   61.6  0.1678   63.6  0.1539  -59.2
 1.200  0.3915  153.7   2.701   61.0  0.1704   63.4  0.1528  -59.8
 1.220  0.3924  153.1   2.661   60.4  0.1729   63.1  0.1519  -60.3
 1.240  0.3934  152.4   2.621   59.9  0.1754   62.9  0.1511  -60.9
 1.260  0.3944  151.8   2.582   59.3  0.1778   62.7  0.1502  -61.5
 1.280  0.3955  151.1   2.543   58.6  0.1803   62.4  0.1494  -62.0
 1.300  0.3966  150.5   2.504   58.0  0.1828   62.2  0.1486  -62.6
 1.320  0.3973  149.8   2.471   57.5  0.1853   62.0  0.1480  -63.2
 1.340  0.3981  149.2   2.437   56.9  0.1878   61.8  0.1474  -63.8
 1.360  0.3989  148.5   2.404   56.4  0.1904   61.6  0.1468  -64.4
 1.380  0.3998  147.9   2.372   55.8  0.1929   61.5  0.1462  -65.0
 1.400  0.4007  147.2   2.339   55.2  0.1954   61.3  0.1457  -65.6
 1.420  0.4015  146.7   2.309   54.7  0.1979   61.0  0.1448  -66.3
 1.440  0.4023  146.1   2.278   54.2  0.2005   60.8  0.1439  -67.1
 1.460  0.4031  145.6   2.248   53.6  0.2030   60.6  0.1430  -67.9
 1.480  0.4040  145.0   2.219   53.1  0.2056   60.3  0.1421  -68.6
 1.500  0.4049  144.5   2.189   52.5  0.2081   60.1  0.1413  -69.4
 1.520  0.4063  143.9   2.167   52.0  0.2106   59.8  0.1406  -70.2
 1.540  0.4078  143.4   2.145   51.6  0.2130   59.6  0.1399  -71.1
 1.560  0.4093  142.8   2.123   51.1  0.2155   59.4  0.1392  -71.9
 1.580  0.4108  142.3   2.101   50.6  0.2180   59.1  0.1386  -72.7
 1.600  0.4124  141.7   2.079   50.1  0.2205   58.9  0.1380  -73.6
 1.620  0.4140  141.1   2.059   49.6  0.2229   58.7  0.1377  -74.3
 1.640  0.4157  140.5   2.039   49.1  0.2253   58.4  0.1374  -75.0
 1.660  0.4174  139.9   2.018   48.6  0.2277   58.2  0.1371  -75.8
 1.680  0.4192  139.3   1.999   48.0  0.2301   58.0  0.1368  -76.5
 1.700  0.4210  138.7   1.979   47.5  0.2325   57.8  0.1366  -77.2
 1.720  0.4217  138.2   1.960   47.0  0.2350   57.5  0.1364  -78.0
 1.740  0.4224  137.7   1.941   46.5  0.2374   57.3  0.1363  -78.9
 1.760  0.4231  137.1   1.923   46.0  0.2399   57.1  0.1362  -79.7
 1.780  0.4239  136.6   1.904   45.4  0.2423   56.8  0.1361  -80.6
 1.800  0.4247  136.1   1.886   44.9  0.2448   56.6  0.1360  -81.4
 1.820  0.4253  135.6   1.868   44.4  0.2472   56.4  0.1357  -82.2
 1.840  0.4259  135.1   1.850   43.9  0.2496   56.1  0.1355  -83.0
 1.860  0.4265  134.7   1.833   43.4  0.2520   55.9  0.1353  -83.7
 1.880  0.4272  134.2   1.815   42.9  0.2544   55.6  0.1351  -84.5
 1.900  0.4279  133.7   1.798   42.4  0.2568   55.4  0.1349  -85.3
 1.920  0.4289  133.2   1.784   42.0  0.2592   55.2  0.1347  -86.0
 1.940  0.4300  132.6   1.770   41.5  0.2616   54.9  0.1344  -86.8
 1.960  0.4311  132.1   1.756   41.0  0.2640   54.7  0.1342  -87.5
 1.980  0.4323  131.5   1.743   40.6  0.2665   54.5  0.1341  -88.3
 2.000  0.4335  131.0   1.729   40.1  0.2689   54.3  0.1339  -89.0
 2.020  0.4350  130.5   1.715   39.7  0.2712   54.0  0.1338  -89.8
 2.040  0.4366  130.1   1.701   39.2  0.2736   53.7  0.1337  -90.6
 2.060  0.4382  129.6   1.687   38.8  0.2759   53.4  0.1336  -91.4
 2.080  0.4398  129.2   1.673   38.3  0.2783   53.2  0.1335  -92.2
 2.100  0.4415  128.8   1.660   37.9  0.2806   52.9  0.1335  -93.0
 2.120  0.4431  128.3   1.646   37.4  0.2830   52.6  0.1335  -93.8
 2.140  0.4448  127.9   1.633   37.0  0.2854   52.4  0.1335  -94.6
 2.160  0.4466  127.5   1.619   36.5  0.2877   52.1  0.1335  -95.4
 2.180  0.4483  127.0   1.606   36.0  0.2901   51.9  0.1336  -96.2
 2.200  0.4501  126.6   1.593   35.5  0.2925   51.6  0.1337  -97.0
 2.220  0.4507  126.2   1.583   35.1  0.2948   51.3  0.1337  -97.9
 2.240  0.4514  125.7   1.573   34.7  0.2971   51.0  0.1337  -98.8
 2.260  0.4521  125.3   1.563   34.2  0.2995   50.8  0.1338  -99.7
 2.280  0.4528  124.9   1.553   33.8  0.3018   50.5  0.1339 -100.6
 2.300  0.4535  124.5   1.543   33.4  0.3042   50.2  0.1340 -101.5
 2.320  0.4542  124.1   1.533   32.9  0.3065   50.0  0.1342 -102.4
 2.340  0.4550  123.6   1.523   32.5  0.3089   49.7  0.1343 -103.3
 2.360  0.4558  123.2   1.514   32.0  0.3113   49.5  0.1346 -104.1
 2.380  0.4567  122.8   1.504   31.6  0.3136   49.2  0.1348 -105.0
 2.400  0.4575  122.4   1.495   31.1  0.3160   49.0  0.1351 -105.9
 2.420  0.4592  121.9   1.486   30.7  0.3182   48.7  0.1352 -106.9
 2.440  0.4609  121.5   1.476   30.3  0.3204   48.5  0.1353 -107.9
 2.460  0.4626  121.0   1.467   29.8  0.3227   48.2  0.1355 -108.8
 2.480  0.4644  120.6   1.458   29.4  0.3249   48.0  0.1357 -109.8
 2.500  0.4662  120.2   1.448   29.0  0.3272   47.7  0.1360 -110.8
 2.520  0.4680  119.7   1.439   28.5  0.3294   47.5  0.1363 -111.8
 2.540  0.4698  119.3   1.430   28.1  0.3317   47.2  0.1367 -112.7
 2.560  0.4717  118.9   1.422   27.6  0.3340   47.0  0.1370 -113.7
 2.580  0.4736  118.4   1.413   27.2  0.3362   46.7  0.1374 -114.7
 2.600  0.4755  118.0   1.404   26.7  0.3385   46.5  0.1379 -115.6
 2.620  0.4763  117.5   1.396   26.3  0.3406   46.2  0.1380 -116.6
 2.640  0.4771  117.1   1.389   25.9  0.3427   45.9  0.1382 -117.7
 2.660  0.4780  116.6   1.381   25.5  0.3449   45.6  0.1385 -118.7
 2.680  0.4789  116.2   1.374   25.1  0.3470   45.3  0.1388 -119.8
 2.700  0.4798  115.7   1.367   24.7  0.3491   45.1  0.1391 -120.8
 2.720  0.4808  115.3   1.359   24.2  0.3513   44.8  0.1395 -121.8
 2.740  0.4818  114.8   1.352   23.8  0.3535   44.5  0.1399 -122.9
 2.760  0.4828  114.4   1.345   23.4  0.3556   44.2  0.1403 -123.9
 2.780  0.4838  113.9   1.338   22.9  0.3578   44.0  0.1408 -124.9
 2.800  0.4849  113.5   1.331   22.5  0.3600   43.7  0.1414 -125.9
 2.820  0.4863  113.0   1.324   22.1  0.3621   43.4  0.1419 -127.0
 2.840  0.4878  112.6   1.317   21.8  0.3643   43.1  0.1424 -128.0
 2.860  0.4893  112.2   1.309   21.4  0.3664   42.9  0.1430 -129.1
 2.880  0.4909  111.7   1.302   21.0  0.3685   42.6  0.1436 -130.1
 2.900  0.4924  111.3   1.295   20.7  0.3707   42.3  0.1443 -131.2
 2.920  0.4940  110.8   1.288   20.3  0.3729   42.0  0.1450 -132.2
 2.940  0.4957  110.4   1.281   19.9  0.3750   41.8  0.1458 -133.2
 2.960  0.4973  110.0   1.275   19.5  0.3772   41.5  0.1466 -134.2
 2.980  0.4990  109.5   1.268   19.1  0.3794   41.3  0.1475 -135.2
 3.000  0.5007  109.1   1.261   18.7  0.3816   41.0  0.1484 -136.2
!
!  f       NFmin   Gammaopt  rn/50
! GHz       dB    MAG  ANG    -
!
! noise parameter not available yet for this operation point!
!
! (c) 2015  Infineon Technologies AG, Munich
