! Infineon Technologies  Discrete & RF Semiconductors
! BFR93A
! VCE =  4.0 V,  IC =  5.0 mA
! Common Emitter S-Parameters:                            Nov 2015
# GHz  S  MA  R  50
!  f         S11            S21            S12            S22
! GHz     MAG   ANG      MAG   ANG      MAG   ANG      MAG   ANG
 0.010  0.8412   -5.1  15.159  176.0  0.0042   87.1  0.9890   -2.5
 0.015  0.8366   -7.5  15.096  174.2  0.0063   85.0  0.9862   -3.7
 0.020  0.8335  -10.0  15.048  172.4  0.0085   83.9  0.9838   -4.9
 0.025  0.8260  -12.4  14.929  170.7  0.0104   81.8  0.9777   -6.1
 0.030  0.8200  -14.8  14.823  168.9  0.0123   80.3  0.9721   -7.2
 0.035  0.8155  -17.3  14.732  167.1  0.0142   79.2  0.9668   -8.4
 0.040  0.8125  -19.8  14.654  165.3  0.0162   78.4  0.9620   -9.6
 0.045  0.8110  -22.3  14.592  163.5  0.0181   77.7  0.9576  -10.8
 0.050  0.8111  -24.8  14.544  161.7  0.0200   77.2  0.9536  -12.0
 0.055  0.7993  -26.9  14.365  160.3  0.0216   75.5  0.9441  -12.9
 0.060  0.7885  -29.0  14.194  158.9  0.0232   74.0  0.9347  -13.8
 0.065  0.7788  -31.2  14.031  157.5  0.0248   72.7  0.9257  -14.7
 0.070  0.7703  -33.4  13.878  156.1  0.0265   71.6  0.9168  -15.6
 0.075  0.7630  -35.7  13.733  154.6  0.0281   70.6  0.9082  -16.6
 0.080  0.7569  -38.0  13.598  153.1  0.0297   69.7  0.8999  -17.5
 0.085  0.7521  -40.3  13.473  151.5  0.0314   68.9  0.8918  -18.5
 0.090  0.7485  -42.7  13.358  149.9  0.0331   68.2  0.8840  -19.5
 0.095  0.7463  -45.1  13.253  148.3  0.0347   67.6  0.8764  -20.6
 0.100  0.7453  -47.5  13.159  146.7  0.0364   67.0  0.8692  -21.6
 0.105  0.7344  -49.2  12.966  145.6  0.0375   66.0  0.8591  -22.2
 0.110  0.7242  -50.9  12.777  144.4  0.0387   65.1  0.8491  -22.8
 0.115  0.7147  -52.7  12.594  143.3  0.0398   64.3  0.8392  -23.5
 0.120  0.7059  -54.6  12.417  142.0  0.0410   63.4  0.8294  -24.1
 0.125  0.6979  -56.4  12.245  140.8  0.0421   62.7  0.8197  -24.8
 0.130  0.6906  -58.4  12.080  139.5  0.0433   62.0  0.8101  -25.5
 0.135  0.6841  -60.3  11.920  138.2  0.0444   61.3  0.8006  -26.2
 0.140  0.6784  -62.3  11.767  136.8  0.0456   60.6  0.7913  -26.9
 0.145  0.6736  -64.3  11.621  135.4  0.0468   60.0  0.7821  -27.6
 0.150  0.6696  -66.4  11.482  134.0  0.0480   59.4  0.7730  -28.4
 0.155  0.6607  -67.9  11.320  133.1  0.0488   58.9  0.7645  -28.8
 0.160  0.6523  -69.4  11.160  132.3  0.0496   58.4  0.7561  -29.1
 0.165  0.6443  -70.9  11.003  131.4  0.0505   57.9  0.7477  -29.5
 0.170  0.6368  -72.5  10.849  130.4  0.0513   57.4  0.7394  -29.9
 0.175  0.6298  -74.1  10.697  129.5  0.0521   57.0  0.7310  -30.3
 0.180  0.6233  -75.7  10.549  128.5  0.0529   56.5  0.7227  -30.7
 0.185  0.6173  -77.4  10.404  127.5  0.0538   56.1  0.7145  -31.2
 0.190  0.6118  -79.1  10.262  126.5  0.0546   55.7  0.7063  -31.6
 0.195  0.6069  -80.8  10.124  125.4  0.0555   55.3  0.6981  -32.0
 0.200  0.6026  -82.6   9.989  124.3  0.0563   54.9  0.6900  -32.5
 0.220  0.5784  -87.7   9.455  121.4  0.0588   53.6  0.6627  -33.5
 0.240  0.5591  -93.2   8.948  118.2  0.0613   52.4  0.6356  -34.6
 0.260  0.5433  -98.2   8.491  115.4  0.0635   51.5  0.6117  -35.5
 0.280  0.5293 -102.7   8.072  113.1  0.0654   50.9  0.5910  -36.1
 0.300  0.5186 -107.4   7.667  110.5  0.0672   50.4  0.5704  -36.7
 0.320  0.5040 -110.8   7.339  108.9  0.0690   50.2  0.5556  -37.0
 0.340  0.4912 -114.3   7.018  107.1  0.0707   50.0  0.5408  -37.2
 0.360  0.4804 -118.0   6.704  105.2  0.0725   49.8  0.5261  -37.5
 0.380  0.4717 -121.9   6.398  103.1  0.0742   49.7  0.5113  -37.8
 0.400  0.4652 -125.9   6.102  100.8  0.0760   49.5  0.4966  -38.1
 0.420  0.4572 -128.7   5.885   99.6  0.0775   49.6  0.4875  -38.2
 0.440  0.4502 -131.5   5.671   98.2  0.0790   49.6  0.4784  -38.3
 0.450  0.4471 -133.0   5.565   97.5  0.0797   49.7  0.4739  -38.4
 0.460  0.4444 -134.4   5.460   96.8  0.0805   49.7  0.4694  -38.4
 0.480  0.4398 -137.4   5.254   95.2  0.0820   49.7  0.4603  -38.6
 0.500  0.4364 -140.5   5.051   93.5  0.0835   49.8  0.4512  -38.7
 0.520  0.4318 -142.7   4.898   92.5  0.0851   50.0  0.4450  -38.8
 0.540  0.4279 -145.0   4.746   91.4  0.0866   50.3  0.4388  -38.9
 0.560  0.4246 -147.2   4.597   90.2  0.0882   50.5  0.4325  -39.0
 0.580  0.4221 -149.6   4.449   88.9  0.0897   50.7  0.4263  -39.1
 0.600  0.4202 -151.9   4.304   87.6  0.0913   50.9  0.4201  -39.2
 0.620  0.4177 -153.7   4.189   86.7  0.0929   51.2  0.4159  -39.3
 0.640  0.4157 -155.5   4.076   85.7  0.0945   51.4  0.4117  -39.5
 0.660  0.4140 -157.3   3.963   84.7  0.0962   51.6  0.4074  -39.6
 0.680  0.4127 -159.1   3.852   83.6  0.0978   51.9  0.4032  -39.8
 0.700  0.4119 -160.9   3.743   82.4  0.0994   52.1  0.3990  -39.9
 0.720  0.4110 -162.5   3.656   81.6  0.1010   52.4  0.3959  -40.1
 0.740  0.4103 -164.0   3.570   80.7  0.1026   52.6  0.3927  -40.2
 0.760  0.4100 -165.6   3.484   79.8  0.1042   52.9  0.3896  -40.4
 0.780  0.4100 -167.1   3.400   78.8  0.1058   53.2  0.3864  -40.5
 0.800  0.4103 -168.7   3.316   77.8  0.1074   53.4  0.3833  -40.7
 0.820  0.4100 -170.2   3.246   77.1  0.1091   53.6  0.3808  -40.9
 0.840  0.4099 -171.7   3.177   76.3  0.1108   53.7  0.3784  -41.2
 0.860  0.4101 -173.2   3.108   75.5  0.1125   53.9  0.3760  -41.4
 0.880  0.4106 -174.7   3.040   74.7  0.1142   54.0  0.3735  -41.7
 0.900  0.4114 -176.2   2.973   73.8  0.1159   54.2  0.3711  -41.9
 0.920  0.4110 -177.4   2.917   73.0  0.1177   54.3  0.3694  -42.2
 0.940  0.4107 -178.7   2.862   72.3  0.1194   54.5  0.3676  -42.4
 0.960  0.4107 -179.9   2.807   71.4  0.1212   54.6  0.3659  -42.7
 0.980  0.4109  178.8   2.753   70.6  0.1229   54.8  0.3642  -42.9
 1.000  0.4112  177.6   2.699   69.7  0.1247   54.9  0.3625  -43.2
 1.020  0.4118  176.5   2.655   69.0  0.1266   55.0  0.3608  -43.6
 1.040  0.4126  175.4   2.611   68.3  0.1284   55.2  0.3592  -43.9
 1.060  0.4135  174.3   2.568   67.6  0.1303   55.3  0.3576  -44.3
 1.080  0.4146  173.3   2.525   66.9  0.1321   55.4  0.3560  -44.7
 1.100  0.4158  172.2   2.483   66.1  0.1340   55.5  0.3544  -45.1
 1.120  0.4170  171.1   2.446   65.4  0.1359   55.6  0.3529  -45.5
 1.140  0.4183  170.1   2.410   64.8  0.1378   55.7  0.3515  -45.9
 1.160  0.4198  169.1   2.374   64.1  0.1396   55.8  0.3500  -46.2
 1.180  0.4214  168.0   2.338   63.3  0.1415   55.9  0.3486  -46.6
 1.200  0.4232  167.0   2.303   62.6  0.1434   56.0  0.3472  -47.0
 1.220  0.4236  166.0   2.269   62.0  0.1452   56.1  0.3460  -47.4
 1.240  0.4241  165.1   2.236   61.3  0.1471   56.1  0.3449  -47.8
 1.260  0.4248  164.1   2.202   60.6  0.1489   56.2  0.3438  -48.1
 1.280  0.4255  163.2   2.170   59.9  0.1508   56.2  0.3427  -48.5
 1.300  0.4264  162.2   2.137   59.2  0.1526   56.3  0.3416  -48.9
 1.320  0.4268  161.4   2.109   58.6  0.1545   56.4  0.3409  -49.3
 1.340  0.4274  160.6   2.081   58.0  0.1564   56.4  0.3401  -49.7
 1.360  0.4280  159.7   2.053   57.4  0.1584   56.5  0.3394  -50.2
 1.380  0.4287  158.9   2.026   56.8  0.1603   56.5  0.3388  -50.6
 1.400  0.4295  158.1   1.999   56.1  0.1622   56.6  0.3381  -51.0
 1.420  0.4299  157.3   1.974   55.5  0.1642   56.6  0.3369  -51.5
 1.440  0.4305  156.5   1.948   54.9  0.1662   56.6  0.3357  -52.0
 1.460  0.4311  155.6   1.923   54.2  0.1683   56.7  0.3346  -52.5
 1.480  0.4318  154.8   1.899   53.6  0.1703   56.7  0.3335  -53.0
 1.500  0.4326  154.0   1.874   52.9  0.1723   56.7  0.3324  -53.5
 1.520  0.4339  153.3   1.854   52.3  0.1743   56.7  0.3315  -54.0
 1.540  0.4353  152.5   1.835   51.8  0.1763   56.6  0.3306  -54.6
 1.560  0.4367  151.8   1.815   51.2  0.1782   56.6  0.3297  -55.1
 1.580  0.4382  151.0   1.796   50.6  0.1802   56.5  0.3288  -55.7
 1.600  0.4398  150.3   1.777   50.0  0.1822   56.5  0.3280  -56.2
 1.620  0.4417  149.6   1.760   49.5  0.1842   56.5  0.3273  -56.7
 1.640  0.4437  149.0   1.744   48.9  0.1862   56.5  0.3267  -57.3
 1.660  0.4458  148.3   1.727   48.4  0.1883   56.4  0.3261  -57.8
 1.680  0.4479  147.6   1.711   47.8  0.1903   56.4  0.3255  -58.4
 1.700  0.4501  147.0   1.695   47.2  0.1923   56.4  0.3249  -58.9
 1.720  0.4511  146.3   1.678   46.6  0.1945   56.4  0.3246  -59.4
 1.740  0.4521  145.6   1.662   46.1  0.1967   56.4  0.3243  -60.0
 1.760  0.4533  144.9   1.646   45.5  0.1989   56.3  0.3240  -60.5
 1.780  0.4544  144.2   1.630   44.9  0.2011   56.3  0.3237  -61.1
 1.800  0.4557  143.5   1.614   44.3  0.2033   56.3  0.3235  -61.6
 1.820  0.4562  142.9   1.599   43.8  0.2055   56.2  0.3229  -62.2
 1.840  0.4568  142.3   1.584   43.3  0.2076   56.2  0.3224  -62.8
 1.860  0.4575  141.7   1.570   42.8  0.2098   56.1  0.3218  -63.3
 1.880  0.4582  141.1   1.555   42.3  0.2119   56.1  0.3214  -63.9
 1.900  0.4589  140.5   1.541   41.8  0.2141   56.0  0.3209  -64.5
 1.920  0.4605  139.9   1.529   41.3  0.2163   55.9  0.3204  -65.1
 1.940  0.4621  139.2   1.516   40.8  0.2184   55.8  0.3200  -65.6
 1.960  0.4637  138.6   1.504   40.3  0.2206   55.8  0.3195  -66.2
 1.980  0.4654  138.0   1.492   39.7  0.2227   55.7  0.3192  -66.7
 2.000  0.4672  137.4   1.480   39.2  0.2249   55.6  0.3188  -67.3
 2.020  0.4686  136.8   1.469   38.7  0.2272   55.5  0.3183  -67.9
 2.040  0.4701  136.1   1.457   38.2  0.2295   55.4  0.3179  -68.5
 2.060  0.4716  135.5   1.446   37.8  0.2317   55.3  0.3175  -69.1
 2.080  0.4732  134.9   1.435   37.3  0.2340   55.2  0.3172  -69.6
 2.100  0.4748  134.2   1.424   36.7  0.2363   55.1  0.3168  -70.2
 2.120  0.4765  133.6   1.413   36.2  0.2386   55.0  0.3165  -70.8
 2.140  0.4782  133.0   1.402   35.7  0.2409   54.9  0.3163  -71.4
 2.160  0.4800  132.4   1.391   35.2  0.2431   54.8  0.3161  -72.0
 2.180  0.4819  131.8   1.380   34.6  0.2454   54.7  0.3159  -72.6
 2.200  0.4838  131.2   1.370   34.1  0.2477   54.6  0.3157  -73.2
 2.220  0.4840  130.7   1.361   33.7  0.2501   54.4  0.3153  -73.8
 2.240  0.4843  130.2   1.352   33.3  0.2525   54.3  0.3150  -74.5
 2.260  0.4846  129.7   1.342   32.8  0.2549   54.1  0.3148  -75.1
 2.280  0.4850  129.2   1.333   32.4  0.2572   54.0  0.3145  -75.8
 2.300  0.4854  128.7   1.325   32.0  0.2596   53.8  0.3143  -76.4
 2.320  0.4858  128.2   1.316   31.5  0.2620   53.7  0.3142  -77.1
 2.340  0.4863  127.7   1.307   31.1  0.2644   53.5  0.3141  -77.7
 2.360  0.4868  127.2   1.298   30.6  0.2668   53.4  0.3140  -78.4
 2.380  0.4873  126.7   1.290   30.2  0.2692   53.2  0.3140  -79.0
 2.400  0.4879  126.2   1.281   29.7  0.2716   53.1  0.3140  -79.7
 2.420  0.4895  125.6   1.272   29.3  0.2740   52.9  0.3136  -80.4
 2.440  0.4911  125.1   1.264   28.8  0.2764   52.8  0.3133  -81.1
 2.460  0.4927  124.5   1.255   28.4  0.2789   52.6  0.3131  -81.8
 2.480  0.4944  124.0   1.246   28.0  0.2813   52.5  0.3128  -82.5
 2.500  0.4961  123.4   1.238   27.5  0.2837   52.3  0.3127  -83.2
 2.520  0.4979  122.9   1.230   27.1  0.2862   52.2  0.3125  -83.9
 2.540  0.4997  122.3   1.221   26.6  0.2886   52.0  0.3125  -84.6
 2.560  0.5016  121.8   1.213   26.1  0.2910   51.9  0.3124  -85.3
 2.580  0.5035  121.2   1.205   25.7  0.2935   51.7  0.3124  -86.0
 2.600  0.5055  120.7   1.197   25.2  0.2959   51.6  0.3125  -86.7
 2.620  0.5065  120.2   1.190   24.8  0.2983   51.4  0.3119  -87.5
 2.640  0.5075  119.8   1.184   24.4  0.3007   51.2  0.3114  -88.2
 2.660  0.5085  119.3   1.178   23.9  0.3032   51.0  0.3110  -89.0
 2.680  0.5096  118.8   1.171   23.5  0.3056   50.8  0.3106  -89.8
 2.700  0.5107  118.4   1.165   23.1  0.3080   50.6  0.3102  -90.5
 2.720  0.5118  117.9   1.159   22.6  0.3104   50.4  0.3100  -91.3
 2.740  0.5130  117.5   1.153   22.2  0.3129   50.2  0.3097  -92.1
 2.760  0.5142  117.0   1.147   21.7  0.3153   50.0  0.3096  -92.8
 2.780  0.5154  116.6   1.141   21.3  0.3178   49.8  0.3095  -93.6
 2.800  0.5167  116.1   1.135   20.8  0.3202   49.6  0.3094  -94.4
 2.820  0.5183  115.6   1.129   20.5  0.3227   49.4  0.3092  -95.2
 2.840  0.5200  115.0   1.123   20.1  0.3253   49.2  0.3091  -96.0
 2.860  0.5217  114.5   1.117   19.8  0.3279   48.9  0.3091  -96.9
 2.880  0.5235  114.0   1.112   19.4  0.3304   48.7  0.3091  -97.7
 2.900  0.5253  113.5   1.106   19.0  0.3330   48.5  0.3092  -98.5
 2.920  0.5271  112.9   1.100   18.7  0.3356   48.3  0.3093  -99.3
 2.940  0.5290  112.4   1.095   18.3  0.3381   48.1  0.3095 -100.1
 2.960  0.5309  111.9   1.089   17.9  0.3407   47.9  0.3098 -101.0
 2.980  0.5329  111.4   1.083   17.6  0.3433   47.7  0.3101 -101.8
 3.000  0.5349  110.9   1.078   17.2  0.3459   47.5  0.3105 -102.6
!
!  f       NFmin   Gammaopt  rn/50
! GHz       dB    MAG  ANG    -
!
! noise parameter not available yet for this operation point!
!
! (c) 2015  Infineon Technologies AG, Munich
