! Infineon Technologies  Discrete & RF Semiconductors
! BFR93A
! VCE = 0.50 V,  IC =  2.5 mA
! Common Emitter S-Parameters:                            Nov 2015
# GHz  S  MA  R  50
!  f         S11            S21            S12            S22
! GHz     MAG   ANG      MAG   ANG      MAG   ANG      MAG   ANG
 0.010  0.8951   -5.3   8.261  176.2  0.0092   87.5  0.9872   -3.2
 0.015  0.8910   -7.9   8.242  174.3  0.0138   84.8  0.9845   -4.7
 0.020  0.8887  -10.5   8.233  172.4  0.0184   83.4  0.9826   -6.3
 0.025  0.8810  -13.0   8.168  170.7  0.0226   80.7  0.9758   -7.8
 0.030  0.8750  -15.6   8.110  169.0  0.0269   78.9  0.9697   -9.3
 0.035  0.8708  -18.2   8.060  167.2  0.0312   77.5  0.9643  -10.9
 0.040  0.8684  -20.8   8.018  165.4  0.0355   76.5  0.9596  -12.4
 0.045  0.8678  -23.4   7.984  163.6  0.0399   75.7  0.9556  -14.0
 0.050  0.8690  -26.0   7.957  161.8  0.0442   75.1  0.9523  -15.6
 0.055  0.8575  -28.2   7.863  160.4  0.0477   73.0  0.9417  -16.8
 0.060  0.8473  -30.4   7.774  159.0  0.0512   71.3  0.9315  -18.1
 0.065  0.8384  -32.7   7.690  157.5  0.0547   69.7  0.9218  -19.3
 0.070  0.8309  -35.1   7.611  156.1  0.0583   68.4  0.9126  -20.6
 0.075  0.8248  -37.5   7.537  154.6  0.0620   67.2  0.9038  -21.9
 0.080  0.8202  -39.9   7.468  153.0  0.0656   66.1  0.8955  -23.3
 0.085  0.8170  -42.3   7.405  151.4  0.0693   65.1  0.8877  -24.7
 0.090  0.8153  -44.8   7.348  149.9  0.0730   64.3  0.8804  -26.0
 0.095  0.8152  -47.2   7.296  148.2  0.0767   63.5  0.8737  -27.5
 0.100  0.8165  -49.7   7.250  146.6  0.0804   62.8  0.8675  -28.9
 0.105  0.8061  -51.6   7.149  145.4  0.0828   61.6  0.8562  -29.8
 0.110  0.7966  -53.5   7.050  144.2  0.0852   60.4  0.8451  -30.8
 0.115  0.7880  -55.4   6.955  143.0  0.0876   59.3  0.8343  -31.7
 0.120  0.7803  -57.4   6.864  141.8  0.0901   58.2  0.8237  -32.7
 0.125  0.7736  -59.4   6.775  140.5  0.0926   57.2  0.8134  -33.7
 0.130  0.7678  -61.5   6.690  139.1  0.0951   56.3  0.8033  -34.8
 0.135  0.7631  -63.5   6.609  137.8  0.0977   55.4  0.7935  -35.8
 0.140  0.7594  -65.6   6.532  136.4  0.1003   54.6  0.7840  -36.9
 0.145  0.7567  -67.8   6.458  135.0  0.1029   53.8  0.7747  -38.1
 0.150  0.7550  -69.9   6.389  133.5  0.1055   53.0  0.7658  -39.2
 0.155  0.7465  -71.5   6.304  132.6  0.1072   52.2  0.7562  -39.9
 0.160  0.7386  -73.1   6.221  131.6  0.1088   51.4  0.7467  -40.6
 0.165  0.7313  -74.8   6.139  130.7  0.1105   50.7  0.7373  -41.3
 0.170  0.7247  -76.4   6.059  129.7  0.1122   50.0  0.7280  -42.0
 0.175  0.7186  -78.2   5.981  128.7  0.1139   49.3  0.7189  -42.8
 0.180  0.7133  -79.9   5.905  127.6  0.1157   48.6  0.7098  -43.5
 0.185  0.7086  -81.7   5.831  126.6  0.1174   48.0  0.7010  -44.3
 0.190  0.7045  -83.5   5.759  125.5  0.1192   47.3  0.6922  -45.1
 0.195  0.7012  -85.3   5.689  124.4  0.1210   46.7  0.6836  -46.0
 0.200  0.6986  -87.1   5.621  123.2  0.1228   46.1  0.6751  -46.8
 0.220  0.6766  -92.6   5.332  120.1  0.1272   43.9  0.6431  -49.0
 0.240  0.6611  -98.3   5.060  116.6  0.1318   41.9  0.6122  -51.4
 0.260  0.6485 -103.6   4.816  113.5  0.1358   40.2  0.5850  -53.5
 0.280  0.6367 -108.2   4.590  110.8  0.1391   38.7  0.5610  -55.2
 0.300  0.6292 -113.0   4.375  107.9  0.1425   37.4  0.5376  -57.1
 0.320  0.6157 -116.5   4.190  106.1  0.1445   36.4  0.5188  -58.2
 0.340  0.6045 -120.1   4.010  104.1  0.1465   35.5  0.5003  -59.5
 0.360  0.5958 -123.8   3.835  102.0  0.1486   34.6  0.4820  -60.8
 0.380  0.5897 -127.6   3.665   99.6  0.1507   33.7  0.4639  -62.2
 0.400  0.5863 -131.5   3.503   97.0  0.1529   32.8  0.4462  -63.7
 0.420  0.5791 -134.2   3.380   95.6  0.1542   32.3  0.4343  -64.5
 0.440  0.5733 -137.0   3.260   94.0  0.1555   31.8  0.4225  -65.4
 0.450  0.5709 -138.4   3.200   93.2  0.1562   31.5  0.4166  -65.8
 0.460  0.5688 -139.8   3.142   92.3  0.1568   31.3  0.4108  -66.3
 0.480  0.5657 -142.6   3.027   90.5  0.1582   30.8  0.3992  -67.3
 0.500  0.5640 -145.5   2.915   88.6  0.1595   30.3  0.3877  -68.3
 0.520  0.5605 -147.7   2.829   87.3  0.1604   30.1  0.3794  -69.0
 0.540  0.5577 -149.9   2.744   86.0  0.1613   29.9  0.3711  -69.8
 0.560  0.5558 -152.1   2.661   84.6  0.1623   29.7  0.3629  -70.6
 0.580  0.5548 -154.4   2.580   83.1  0.1632   29.5  0.3547  -71.5
 0.600  0.5546 -156.6   2.500   81.5  0.1641   29.3  0.3467  -72.4
 0.620  0.5520 -158.3   2.434   80.4  0.1649   29.3  0.3411  -73.1
 0.640  0.5499 -160.0   2.370   79.2  0.1658   29.3  0.3355  -73.8
 0.660  0.5483 -161.7   2.306   78.0  0.1666   29.2  0.3300  -74.5
 0.680  0.5472 -163.4   2.243   76.7  0.1675   29.2  0.3246  -75.3
 0.700  0.5466 -165.1   2.182   75.3  0.1683   29.2  0.3192  -76.1
 0.720  0.5458 -166.6   2.134   74.3  0.1691   29.3  0.3150  -76.8
 0.740  0.5453 -168.2   2.087   73.2  0.1698   29.4  0.3109  -77.6
 0.760  0.5453 -169.7   2.040   72.2  0.1706   29.5  0.3069  -78.3
 0.780  0.5457 -171.3   1.994   71.0  0.1713   29.6  0.3028  -79.1
 0.800  0.5464 -172.8   1.949   69.8  0.1721   29.7  0.2989  -79.9
 0.820  0.5458 -174.1   1.909   68.9  0.1730   29.8  0.2960  -80.6
 0.840  0.5455 -175.4   1.870   68.0  0.1738   29.9  0.2932  -81.4
 0.860  0.5454 -176.8   1.832   67.0  0.1747   30.1  0.2905  -82.1
 0.880  0.5457 -178.1   1.794   66.0  0.1755   30.2  0.2878  -82.9
 0.900  0.5462 -179.4   1.756   65.0  0.1764   30.3  0.2851  -83.7
 0.920  0.5462  179.4   1.725   64.1  0.1774   30.5  0.2832  -84.4
 0.940  0.5463  178.2   1.694   63.2  0.1783   30.7  0.2814  -85.1
 0.960  0.5468  177.1   1.664   62.3  0.1793   30.8  0.2796  -85.8
 0.980  0.5474  175.9   1.634   61.3  0.1802   31.0  0.2778  -86.6
 1.000  0.5483  174.7   1.605   60.3  0.1812   31.2  0.2761  -87.3
 1.020  0.5488  173.6   1.581   59.5  0.1823   31.4  0.2749  -88.1
 1.040  0.5495  172.6   1.557   58.7  0.1834   31.6  0.2737  -89.0
 1.060  0.5504  171.5   1.533   57.9  0.1845   31.9  0.2726  -89.8
 1.080  0.5514  170.5   1.510   57.0  0.1856   32.1  0.2715  -90.6
 1.100  0.5527  169.4   1.487   56.1  0.1867   32.3  0.2705  -91.5
 1.120  0.5539  168.4   1.467   55.3  0.1879   32.5  0.2695  -92.3
 1.140  0.5552  167.5   1.447   54.5  0.1891   32.7  0.2685  -93.2
 1.160  0.5567  166.5   1.427   53.7  0.1904   32.9  0.2676  -94.1
 1.180  0.5584  165.5   1.408   52.9  0.1916   33.1  0.2667  -94.9
 1.200  0.5602  164.6   1.389   52.0  0.1928   33.3  0.2659  -95.8
 1.220  0.5604  163.6   1.370   51.2  0.1941   33.5  0.2654  -96.6
 1.240  0.5607  162.6   1.351   50.4  0.1954   33.7  0.2649  -97.5
 1.260  0.5613  161.7   1.332   49.6  0.1966   33.9  0.2645  -98.3
 1.280  0.5620  160.7   1.313   48.8  0.1979   34.1  0.2642  -99.2
 1.300  0.5628  159.7   1.295   47.9  0.1992   34.3  0.2639 -100.0
 1.320  0.5632  158.9   1.280   47.3  0.2007   34.5  0.2641 -100.8
 1.340  0.5637  158.2   1.264   46.6  0.2021   34.8  0.2643 -101.6
 1.360  0.5642  157.4   1.249   45.9  0.2036   35.0  0.2645 -102.3
 1.380  0.5649  156.7   1.235   45.2  0.2050   35.3  0.2648 -103.1
 1.400  0.5657  155.9   1.220   44.5  0.2065   35.5  0.2652 -103.9
 1.420  0.5656  155.1   1.206   43.9  0.2081   35.7  0.2654 -104.8
 1.440  0.5656  154.3   1.192   43.2  0.2097   35.9  0.2656 -105.8
 1.460  0.5657  153.4   1.178   42.6  0.2113   36.1  0.2659 -106.7
 1.480  0.5659  152.6   1.164   41.9  0.2129   36.3  0.2663 -107.7
 1.500  0.5663  151.8   1.151   41.2  0.2145   36.5  0.2667 -108.6
 1.520  0.5685  151.1   1.140   40.6  0.2162   36.6  0.2672 -109.5
 1.540  0.5708  150.4   1.129   40.0  0.2178   36.8  0.2677 -110.4
 1.560  0.5732  149.7   1.119   39.4  0.2195   36.9  0.2683 -111.3
 1.580  0.5757  149.0   1.108   38.7  0.2211   37.1  0.2690 -112.1
 1.600  0.5782  148.3   1.098   38.1  0.2228   37.2  0.2697 -113.0
 1.620  0.5795  147.6   1.088   37.6  0.2247   37.4  0.2701 -113.9
 1.640  0.5810  147.0   1.078   37.0  0.2265   37.5  0.2706 -114.8
 1.660  0.5825  146.3   1.068   36.5  0.2284   37.7  0.2712 -115.7
 1.680  0.5840  145.7   1.058   35.9  0.2302   37.8  0.2718 -116.5
 1.700  0.5857  145.0   1.048   35.3  0.2321   38.0  0.2725 -117.4
 1.720  0.5861  144.3   1.040   34.7  0.2342   38.1  0.2738 -118.2
 1.740  0.5865  143.6   1.032   34.1  0.2363   38.2  0.2751 -119.1
 1.760  0.5870  143.0   1.024   33.5  0.2385   38.4  0.2765 -119.9
 1.780  0.5876  142.3   1.016   32.8  0.2406   38.5  0.2780 -120.7
 1.800  0.5883  141.6   1.008   32.2  0.2427   38.6  0.2795 -121.5
 1.820  0.5884  140.9   1.000   31.7  0.2448   38.7  0.2805 -122.4
 1.840  0.5886  140.2   0.991   31.3  0.2469   38.8  0.2815 -123.2
 1.860  0.5888  139.5   0.983   30.8  0.2490   38.8  0.2826 -124.0
 1.880  0.5892  138.8   0.975   30.3  0.2511   38.9  0.2838 -124.9
 1.900  0.5896  138.1   0.967   29.8  0.2532   39.0  0.2850 -125.7
 1.920  0.5905  137.5   0.960   29.3  0.2555   39.1  0.2859 -126.5
 1.940  0.5914  136.9   0.953   28.8  0.2578   39.2  0.2870 -127.3
 1.960  0.5924  136.2   0.946   28.3  0.2602   39.2  0.2880 -128.1
 1.980  0.5935  135.6   0.940   27.8  0.2625   39.3  0.2891 -128.9
 2.000  0.5946  135.0   0.933   27.3  0.2648   39.4  0.2903 -129.7
 2.020  0.5955  134.4   0.926   26.9  0.2673   39.4  0.2913 -130.5
 2.040  0.5964  133.8   0.920   26.4  0.2698   39.4  0.2925 -131.4
 2.060  0.5973  133.2   0.914   26.0  0.2723   39.4  0.2936 -132.2
 2.080  0.5984  132.6   0.907   25.6  0.2748   39.4  0.2949 -133.0
 2.100  0.5995  132.0   0.901   25.1  0.2773   39.3  0.2962 -133.8
 2.120  0.6007  131.4   0.895   24.7  0.2798   39.3  0.2975 -134.6
 2.140  0.6019  130.8   0.888   24.2  0.2823   39.3  0.2989 -135.4
 2.160  0.6032  130.3   0.882   23.8  0.2848   39.3  0.3004 -136.2
 2.180  0.6046  129.7   0.876   23.3  0.2873   39.3  0.3019 -137.0
 2.200  0.6060  129.1   0.870   22.8  0.2898   39.3  0.3035 -137.8
 2.220  0.6066  128.5   0.865   22.4  0.2925   39.2  0.3048 -138.7
 2.240  0.6072  128.0   0.861   22.0  0.2951   39.1  0.3061 -139.5
 2.260  0.6079  127.4   0.856   21.6  0.2978   39.0  0.3075 -140.4
 2.280  0.6086  126.9   0.852   21.3  0.3005   38.9  0.3090 -141.2
 2.300  0.6094  126.3   0.847   20.9  0.3031   38.8  0.3105 -142.1
 2.320  0.6103  125.8   0.843   20.5  0.3058   38.7  0.3121 -142.9
 2.340  0.6112  125.2   0.838   20.0  0.3085   38.7  0.3138 -143.7
 2.360  0.6122  124.7   0.834   19.6  0.3112   38.6  0.3155 -144.5
 2.380  0.6132  124.1   0.829   19.2  0.3138   38.5  0.3173 -145.3
 2.400  0.6143  123.6   0.825   18.8  0.3165   38.4  0.3192 -146.1
 2.420  0.6154  123.0   0.821   18.5  0.3192   38.3  0.3206 -146.9
 2.440  0.6166  122.5   0.816   18.1  0.3219   38.1  0.3221 -147.8
 2.460  0.6179  121.9   0.812   17.8  0.3246   38.0  0.3236 -148.6
 2.480  0.6192  121.3   0.807   17.4  0.3272   37.9  0.3252 -149.4
 2.500  0.6206  120.8   0.803   17.0  0.3299   37.8  0.3269 -150.2
 2.520  0.6220  120.2   0.799   16.7  0.3326   37.7  0.3286 -151.0
 2.540  0.6235  119.7   0.795   16.3  0.3353   37.5  0.3304 -151.8
 2.560  0.6251  119.1   0.790   16.0  0.3380   37.4  0.3322 -152.6
 2.580  0.6267  118.5   0.786   15.6  0.3407   37.3  0.3341 -153.3
 2.600  0.6284  118.0   0.782   15.2  0.3434   37.2  0.3361 -154.1
 2.620  0.6287  117.5   0.779   14.9  0.3461   37.0  0.3374 -155.0
 2.640  0.6290  117.0   0.776   14.5  0.3487   36.8  0.3389 -155.8
 2.660  0.6294  116.4   0.772   14.2  0.3514   36.6  0.3404 -156.6
 2.680  0.6299  115.9   0.769   13.9  0.3540   36.4  0.3419 -157.5
 2.700  0.6304  115.4   0.766   13.5  0.3567   36.3  0.3436 -158.3
 2.720  0.6309  114.9   0.763   13.2  0.3594   36.1  0.3453 -159.1
 2.740  0.6315  114.4   0.760   12.8  0.3621   35.9  0.3471 -159.9
 2.760  0.6321  113.8   0.757   12.5  0.3647   35.7  0.3489 -160.7
 2.780  0.6328  113.3   0.754   12.2  0.3674   35.6  0.3508 -161.5
 2.800  0.6336  112.8   0.751   11.8  0.3701   35.4  0.3528 -162.3
 2.820  0.6343  112.3   0.748   11.6  0.3729   35.1  0.3546 -163.2
 2.840  0.6350  111.7   0.745   11.3  0.3757   34.9  0.3564 -164.0
 2.860  0.6359  111.2   0.742   11.1  0.3785   34.6  0.3583 -164.8
 2.880  0.6367  110.6   0.738   10.9  0.3813   34.4  0.3603 -165.7
 2.900  0.6376  110.1   0.735   10.6  0.3841   34.2  0.3624 -166.5
 2.920  0.6386  109.5   0.732   10.4  0.3869   33.9  0.3645 -167.3
 2.940  0.6397  109.0   0.729   10.1  0.3898   33.7  0.3667 -168.1
 2.960  0.6407  108.5   0.726    9.9  0.3926   33.5  0.3690 -168.9
 2.980  0.6419  107.9   0.723    9.6  0.3955   33.2  0.3714 -169.6
 3.000  0.6431  107.4   0.720    9.4  0.3983   33.0  0.3738 -170.4
!
!  f       NFmin   Gammaopt  rn/50
! GHz       dB    MAG  ANG    -
!
! noise parameter not available yet for this operation point!
!
! (c) 2015  Infineon Technologies AG, Munich
