! Infineon Technologies  Discrete & RF Semiconductors
! BFR93AW
! VCE =  2.0 V,  IC =  65 mA
! Common Emitter S-Parameters:                            Nov 2015
# GHz  S  MA  R  50
!  f         S11            S21            S12            S22
! GHz     MAG   ANG      MAG   ANG      MAG   ANG      MAG   ANG
 0.030  0.2889 -116.5  57.184  147.0  0.0070   64.8  0.7125  -29.2
 0.035  0.3166 -122.3  53.861  143.1  0.0078   63.7  0.6717  -32.5
 0.040  0.3471 -127.2  50.821  138.7  0.0087   62.9  0.6335  -36.3
 0.045  0.3797 -131.3  48.115  133.8  0.0096   62.2  0.5984  -40.5
 0.050  0.4139 -134.7  45.806  128.3  0.0105   61.7  0.5669  -45.3
 0.055  0.4190 -137.3  43.851  127.2  0.0111   62.2  0.5444  -46.1
 0.060  0.4250 -139.8  41.915  125.9  0.0117   62.6  0.5220  -47.0
 0.065  0.4317 -142.2  40.001  124.6  0.0123   63.0  0.4997  -48.0
 0.070  0.4391 -144.5  38.111  123.1  0.0130   63.3  0.4776  -49.0
 0.075  0.4473 -146.8  36.249  121.4  0.0136   63.6  0.4557  -50.1
 0.080  0.4562 -149.0  34.421  119.6  0.0142   63.9  0.4339  -51.4
 0.085  0.4657 -151.0  32.631  117.6  0.0148   64.2  0.4124  -52.8
 0.090  0.4757 -153.0  30.887  115.3  0.0155   64.4  0.3911  -54.3
 0.095  0.4863 -154.9  29.196  112.8  0.0161   64.6  0.3702  -56.0
 0.100  0.4975 -156.8  27.568  110.0  0.0167   64.8  0.3496  -57.9
 0.105  0.4992 -157.8  26.708  109.4  0.0172   65.3  0.3398  -58.1
 0.110  0.5011 -158.7  25.850  108.8  0.0177   65.7  0.3301  -58.3
 0.115  0.5031 -159.6  24.995  108.2  0.0182   66.1  0.3203  -58.5
 0.120  0.5052 -160.5  24.144  107.5  0.0187   66.5  0.3106  -58.7
 0.125  0.5075 -161.5  23.297  106.7  0.0191   66.9  0.3009  -58.9
 0.130  0.5099 -162.4  22.454  105.9  0.0196   67.2  0.2912  -59.1
 0.135  0.5124 -163.3  21.616  105.0  0.0201   67.6  0.2814  -59.4
 0.140  0.5150 -164.1  20.783  104.1  0.0206   67.9  0.2717  -59.7
 0.145  0.5178 -165.0  19.956  103.1  0.0211   68.2  0.2620  -60.0
 0.150  0.5207 -165.9  19.136  102.0  0.0216   68.5  0.2523  -60.3
 0.155  0.5209 -166.4  18.681  101.6  0.0221   68.9  0.2474  -60.3
 0.160  0.5212 -166.9  18.227  101.2  0.0227   69.3  0.2426  -60.4
 0.165  0.5215 -167.5  17.774  100.8  0.0232   69.7  0.2377  -60.4
 0.170  0.5218 -168.0  17.322  100.3  0.0238   70.0  0.2329  -60.4
 0.175  0.5222 -168.5  16.872   99.8  0.0243   70.4  0.2280  -60.5
 0.180  0.5226 -169.0  16.422   99.3  0.0249   70.7  0.2232  -60.5
 0.185  0.5231 -169.5  15.974   98.8  0.0254   71.0  0.2183  -60.6
 0.190  0.5236 -170.1  15.527   98.2  0.0260   71.3  0.2135  -60.6
 0.195  0.5242 -170.6  15.082   97.6  0.0265   71.6  0.2086  -60.7
 0.200  0.5248 -171.1  14.639   97.0  0.0271   71.9  0.2038  -60.7
 0.220  0.5264 -172.8  13.496   95.8  0.0293   72.8  0.1908  -60.5
 0.240  0.5286 -174.5  12.360   94.5  0.0314   73.6  0.1779  -60.3
 0.260  0.5305 -175.9  11.411   93.2  0.0336   74.0  0.1680  -60.1
 0.280  0.5320 -176.9  10.644   92.2  0.0357   74.2  0.1612  -59.7
 0.300  0.5336 -177.9   9.882   91.0  0.0379   74.3  0.1544  -59.4
 0.320  0.5342 -178.9   9.392   90.3  0.0402   74.6  0.1492  -59.2
 0.340  0.5349 -179.8   8.903   89.6  0.0425   74.8  0.1440  -58.9
 0.360  0.5358  179.2   8.416   88.8  0.0449   75.0  0.1388  -58.7
 0.380  0.5368  178.3   7.931   87.8  0.0472   75.2  0.1336  -58.4
 0.400  0.5380  177.3   7.448   86.7  0.0495   75.3  0.1284  -58.1
 0.420  0.5386  176.5   7.157   86.1  0.0518   75.4  0.1254  -58.3
 0.440  0.5394  175.8   6.866   85.4  0.0541   75.5  0.1225  -58.5
 0.450  0.5398  175.4   6.721   85.1  0.0552   75.6  0.1210  -58.6
 0.460  0.5402  175.0   6.576   84.8  0.0564   75.6  0.1195  -58.7
 0.480  0.5412  174.3   6.288   84.0  0.0587   75.7  0.1166  -59.0
 0.500  0.5422  173.6   6.000   83.2  0.0610   75.8  0.1137  -59.2
 0.520  0.5428  173.0   5.803   82.7  0.0633   75.7  0.1123  -59.4
 0.540  0.5434  172.5   5.606   82.1  0.0656   75.7  0.1109  -59.7
 0.560  0.5441  171.9   5.410   81.5  0.0678   75.6  0.1096  -59.9
 0.580  0.5449  171.4   5.215   80.9  0.0701   75.6  0.1082  -60.1
 0.600  0.5457  170.8   5.020   80.2  0.0724   75.5  0.1068  -60.4
 0.620  0.5456  170.1   4.881   79.7  0.0747   75.5  0.1058  -61.0
 0.640  0.5456  169.5   4.743   79.1  0.0770   75.5  0.1049  -61.5
 0.660  0.5457  168.8   4.606   78.5  0.0794   75.6  0.1039  -62.1
 0.680  0.5459  168.2   4.469   77.9  0.0817   75.6  0.1030  -62.7
 0.700  0.5461  167.5   4.332   77.2  0.0840   75.6  0.1021  -63.3
 0.720  0.5473  166.9   4.225   76.7  0.0862   75.5  0.1009  -64.3
 0.740  0.5485  166.4   4.118   76.2  0.0884   75.3  0.0998  -65.3
 0.760  0.5497  165.8   4.012   75.7  0.0905   75.2  0.0987  -66.3
 0.780  0.5510  165.3   3.906   75.1  0.0927   75.1  0.0976  -67.3
 0.800  0.5524  164.7   3.800   74.5  0.0949   75.0  0.0966  -68.4
 0.820  0.5523  164.2   3.719   74.0  0.0974   74.8  0.0966  -68.9
 0.840  0.5523  163.7   3.639   73.6  0.0999   74.7  0.0967  -69.4
 0.860  0.5523  163.3   3.559   73.1  0.1024   74.6  0.0968  -70.0
 0.880  0.5523  162.8   3.479   72.5  0.1049   74.4  0.0968  -70.5
 0.900  0.5524  162.3   3.400   72.0  0.1074   74.3  0.0969  -71.0
 0.920  0.5528  161.7   3.334   71.5  0.1095   74.1  0.0965  -71.8
 0.940  0.5532  161.2   3.269   71.0  0.1117   73.9  0.0962  -72.6
 0.960  0.5536  160.6   3.204   70.5  0.1138   73.7  0.0958  -73.4
 0.980  0.5541  160.1   3.139   70.0  0.1160   73.5  0.0955  -74.2
 1.000  0.5547  159.5   3.075   69.4  0.1181   73.3  0.0952  -75.0
 1.020  0.5554  159.0   3.022   69.0  0.1204   73.2  0.0952  -76.5
 1.040  0.5561  158.5   2.970   68.5  0.1227   73.0  0.0953  -78.1
 1.060  0.5569  158.1   2.918   68.0  0.1250   72.9  0.0955  -79.6
 1.080  0.5577  157.6   2.866   67.5  0.1273   72.8  0.0957  -81.1
 1.100  0.5586  157.1   2.814   67.0  0.1296   72.7  0.0960  -82.6
 1.120  0.5598  156.7   2.769   66.6  0.1319   72.5  0.0964  -83.2
 1.140  0.5610  156.2   2.725   66.1  0.1342   72.3  0.0967  -83.9
 1.160  0.5622  155.8   2.681   65.7  0.1366   72.1  0.0971  -84.5
 1.180  0.5635  155.3   2.637   65.2  0.1389   72.0  0.0975  -85.2
 1.200  0.5648  154.9   2.593   64.7  0.1412   71.8  0.0979  -85.8
 1.220  0.5646  154.4   2.557   64.2  0.1435   71.6  0.0979  -86.4
 1.240  0.5645  154.0   2.522   63.8  0.1458   71.4  0.0978  -86.9
 1.260  0.5643  153.5   2.486   63.3  0.1482   71.2  0.0978  -87.5
 1.280  0.5642  153.1   2.451   62.8  0.1505   71.1  0.0978  -88.0
 1.300  0.5642  152.6   2.416   62.3  0.1528   70.9  0.0978  -88.6
 1.320  0.5649  152.1   2.384   61.9  0.1550   70.7  0.0985  -90.2
 1.340  0.5657  151.7   2.351   61.4  0.1572   70.5  0.0993  -91.8
 1.360  0.5664  151.2   2.319   61.0  0.1593   70.3  0.1002  -93.4
 1.380  0.5672  150.8   2.287   60.5  0.1615   70.1  0.1011  -95.0
 1.400  0.5681  150.3   2.255   60.0  0.1637   69.9  0.1021  -96.5
 1.420  0.5686  149.9   2.227   59.6  0.1659   69.7  0.1029  -97.2
 1.440  0.5691  149.5   2.199   59.2  0.1681   69.5  0.1037  -97.8
 1.460  0.5696  149.2   2.171   58.7  0.1704   69.3  0.1045  -98.5
 1.480  0.5701  148.8   2.144   58.3  0.1726   69.2  0.1054  -99.1
 1.500  0.5707  148.4   2.116   57.8  0.1748   69.0  0.1062  -99.7
 1.520  0.5709  147.9   2.093   57.4  0.1771   68.8  0.1061 -100.5
 1.540  0.5711  147.4   2.070   56.9  0.1794   68.5  0.1061 -101.3
 1.560  0.5714  146.8   2.047   56.5  0.1817   68.3  0.1061 -102.2
 1.580  0.5717  146.3   2.025   56.1  0.1840   68.1  0.1061 -103.0
 1.600  0.5721  145.8   2.002   55.6  0.1863   67.9  0.1061 -103.8
 1.620  0.5730  145.4   1.980   55.2  0.1886   67.7  0.1077 -105.1
 1.640  0.5740  144.9   1.958   54.7  0.1909   67.5  0.1093 -106.4
 1.660  0.5749  144.5   1.937   54.3  0.1931   67.3  0.1109 -107.6
 1.680  0.5760  144.0   1.915   53.9  0.1954   67.1  0.1126 -108.8
 1.700  0.5770  143.6   1.894   53.4  0.1977   66.9  0.1144 -109.9
 1.720  0.5776  143.2   1.876   53.0  0.1999   66.7  0.1159 -110.3
 1.740  0.5783  142.8   1.859   52.6  0.2021   66.5  0.1173 -110.7
 1.760  0.5790  142.5   1.841   52.2  0.2043   66.3  0.1188 -111.1
 1.780  0.5797  142.1   1.823   51.8  0.2065   66.2  0.1203 -111.5
 1.800  0.5805  141.7   1.806   51.4  0.2087   66.0  0.1218 -111.9
 1.820  0.5806  141.3   1.790   51.0  0.2110   65.8  0.1216 -112.6
 1.840  0.5807  140.8   1.774   50.6  0.2132   65.5  0.1215 -113.3
 1.860  0.5808  140.4   1.758   50.2  0.2155   65.3  0.1214 -113.9
 1.880  0.5810  139.9   1.742   49.8  0.2177   65.1  0.1213 -114.6
 1.900  0.5812  139.5   1.726   49.4  0.2200   64.9  0.1212 -115.3
 1.920  0.5823  139.1   1.711   49.0  0.2221   64.7  0.1231 -116.1
 1.940  0.5834  138.7   1.695   48.5  0.2242   64.4  0.1251 -116.9
 1.960  0.5845  138.2   1.680   48.1  0.2263   64.2  0.1271 -117.6
 1.980  0.5857  137.8   1.665   47.7  0.2284   64.0  0.1291 -118.3
 2.000  0.5869  137.4   1.650   47.2  0.2305   63.8  0.1311 -119.0
 2.020  0.5871  137.0   1.638   46.9  0.2328   63.6  0.1315 -119.6
 2.040  0.5873  136.6   1.625   46.5  0.2350   63.3  0.1320 -120.2
 2.060  0.5876  136.2   1.613   46.2  0.2373   63.1  0.1325 -120.7
 2.080  0.5878  135.8   1.601   45.8  0.2396   62.9  0.1329 -121.3
 2.100  0.5881  135.4   1.589   45.5  0.2419   62.7  0.1334 -121.9
 2.120  0.5885  135.0   1.577   45.1  0.2441   62.5  0.1339 -122.4
 2.140  0.5888  134.6   1.565   44.7  0.2464   62.3  0.1345 -123.0
 2.160  0.5892  134.2   1.553   44.4  0.2487   62.1  0.1350 -123.5
 2.180  0.5897  133.8   1.541   44.0  0.2510   61.9  0.1355 -124.1
 2.200  0.5901  133.4   1.529   43.6  0.2533   61.7  0.1361 -124.6
 2.220  0.5907  133.0   1.518   43.3  0.2554   61.5  0.1375 -125.1
 2.240  0.5914  132.6   1.507   42.9  0.2574   61.2  0.1389 -125.7
 2.260  0.5921  132.2   1.497   42.6  0.2595   61.0  0.1404 -126.2
 2.280  0.5928  131.8   1.486   42.2  0.2616   60.8  0.1418 -126.7
 2.300  0.5935  131.4   1.475   41.9  0.2637   60.6  0.1433 -127.2
 2.320  0.5943  131.0   1.465   41.5  0.2657   60.3  0.1447 -127.7
 2.340  0.5951  130.7   1.454   41.1  0.2678   60.1  0.1462 -128.1
 2.360  0.5959  130.3   1.444   40.8  0.2699   59.9  0.1477 -128.6
 2.380  0.5967  129.9   1.433   40.4  0.2720   59.7  0.1492 -129.1
 2.400  0.5976  129.5   1.423   40.0  0.2741   59.5  0.1507 -129.5
 2.420  0.5982  129.1   1.414   39.6  0.2763   59.2  0.1516 -130.4
 2.440  0.5988  128.7   1.406   39.3  0.2784   59.0  0.1525 -131.2
 2.460  0.5994  128.2   1.397   38.9  0.2806   58.7  0.1534 -132.1
 2.480  0.6001  127.8   1.388   38.5  0.2828   58.5  0.1544 -132.9
 2.500  0.6007  127.4   1.380   38.2  0.2850   58.2  0.1554 -133.7
 2.520  0.6015  127.0   1.371   37.8  0.2872   58.0  0.1564 -134.5
 2.540  0.6022  126.5   1.363   37.4  0.2894   57.7  0.1575 -135.4
 2.560  0.6030  126.1   1.355   37.0  0.2916   57.5  0.1586 -136.1
 2.580  0.6038  125.7   1.346   36.6  0.2938   57.2  0.1597 -136.9
 2.600  0.6047  125.3   1.338   36.2  0.2960   57.0  0.1609 -137.7
 2.620  0.6054  125.0   1.331   35.9  0.2981   56.8  0.1617 -138.2
 2.640  0.6061  124.6   1.323   35.5  0.3003   56.5  0.1626 -138.7
 2.660  0.6068  124.3   1.316   35.2  0.3025   56.3  0.1635 -139.2
 2.680  0.6076  123.9   1.309   34.9  0.3046   56.1  0.1644 -139.7
 2.700  0.6084  123.6   1.302   34.5  0.3068   55.9  0.1653 -140.2
 2.720  0.6092  123.2   1.295   34.2  0.3090   55.6  0.1662 -140.6
 2.740  0.6100  122.9   1.288   33.9  0.3111   55.4  0.1671 -141.1
 2.760  0.6108  122.6   1.281   33.5  0.3133   55.2  0.1680 -141.6
 2.780  0.6117  122.2   1.274   33.2  0.3155   55.0  0.1689 -142.0
 2.800  0.6126  121.9   1.267   32.8  0.3177   54.8  0.1699 -142.5
 2.820  0.6128  121.5   1.261   32.5  0.3196   54.6  0.1711 -143.0
 2.840  0.6129  121.1   1.254   32.2  0.3215   54.3  0.1723 -143.5
 2.860  0.6132  120.7   1.248   31.9  0.3234   54.1  0.1736 -144.0
 2.880  0.6134  120.3   1.241   31.6  0.3254   53.8  0.1748 -144.5
 2.900  0.6137  119.9   1.235   31.2  0.3273   53.6  0.1761 -144.9
 2.920  0.6140  119.5   1.229   30.9  0.3292   53.4  0.1773 -145.4
 2.940  0.6143  119.1   1.222   30.6  0.3312   53.2  0.1786 -145.9
 2.960  0.6147  118.7   1.216   30.3  0.3331   52.9  0.1799 -146.3
 2.980  0.6151  118.3   1.210   29.9  0.3350   52.7  0.1812 -146.8
 3.000  0.6155  117.9   1.204   29.6  0.3370   52.5  0.1825 -147.2
 3.100  0.6187  116.1   1.177   28.2  0.3464   51.2  0.1889 -150.4
 3.200  0.6225  114.4   1.151   26.7  0.3561   49.9  0.1958 -153.5
 3.300  0.6269  112.7   1.126   25.1  0.3658   48.8  0.2032 -156.3
 3.400  0.6318  111.0   1.102   23.5  0.3757   47.7  0.2111 -158.9
 3.500  0.6373  109.3   1.079   21.8  0.3858   46.6  0.2194 -161.3
 3.600  0.6383  107.7   1.058   20.6  0.3940   45.3  0.2259 -164.4
 3.700  0.6397  106.1   1.037   19.3  0.4025   44.1  0.2331 -167.3
 3.800  0.6417  104.5   1.017   18.0  0.4111   42.9  0.2408 -170.0
 3.900  0.6441  102.9   0.998   16.6  0.4199   41.8  0.2491 -172.6
 4.000  0.6471  101.3   0.979   15.2  0.4288   40.7  0.2578 -175.0
 4.100  0.6494   99.9   0.963   14.2  0.4360   39.4  0.2640 -177.2
 4.200  0.6520   98.5   0.946   13.1  0.4434   38.2  0.2705 -179.4
 4.300  0.6551   97.1   0.931   12.0  0.4511   37.0  0.2775  178.6
 4.400  0.6586   95.7   0.915   10.8  0.4589   35.8  0.2847  176.6
 4.500  0.6624   94.3   0.900    9.6  0.4669   34.7  0.2923  174.8
 4.600  0.6628   93.1   0.888    8.6  0.4731   33.5  0.2973  172.8
 4.700  0.6634   91.8   0.876    7.6  0.4794   32.4  0.3027  170.9
 4.800  0.6644   90.6   0.865    6.6  0.4859   31.3  0.3084  169.0
 4.900  0.6656   89.4   0.854    5.6  0.4926   30.2  0.3144  167.2
 5.000  0.6672   88.2   0.843    4.5  0.4995   29.2  0.3207  165.5
 5.100  0.6696   87.0   0.833    3.7  0.5051   28.1  0.3247  163.4
 5.200  0.6724   85.8   0.823    2.9  0.5108   27.1  0.3292  161.4
 5.300  0.6754   84.7   0.813    2.0  0.5167   26.1  0.3341  159.4
 5.400  0.6787   83.5   0.803    1.2  0.5228   25.1  0.3394  157.5
 5.500  0.6822   82.4   0.794    0.3  0.5290   24.1  0.3450  155.6
 5.600  0.6824   81.3   0.787   -0.5  0.5344   23.0  0.3491  153.8
 5.700  0.6829   80.3   0.781   -1.2  0.5399   22.0  0.3535  152.0
 5.800  0.6836   79.2   0.774   -2.0  0.5457   20.9  0.3582  150.3
 5.900  0.6845   78.2   0.768   -2.8  0.5516   19.9  0.3633  148.6
 6.000  0.6857   77.1   0.762   -3.6  0.5577   18.9  0.3686  147.0
!
!  f       NFmin   Gammaopt  rn/50
! GHz       dB    MAG  ANG    -
!
! noise parameter not available yet for this operation point!
!
! (c) 2015  Infineon Technologies AG, Munich
