! Infineon Technologies  Discrete & RF Semiconductors
! BFR93A
! VCE =  6.0 V,  IC =  40 mA
! Common Emitter S-Parameters:                            Nov 2015
# GHz  S  MA  R  50
!  f         S11            S21            S12            S22
! GHz     MAG   ANG      MAG   ANG      MAG   ANG      MAG   ANG
 0.010  0.5735  -13.2  52.089  170.2  0.0031   84.2  0.9406   -6.7
 0.015  0.5604  -19.5  50.997  166.0  0.0047   80.2  0.9242   -9.7
 0.020  0.5545  -26.1  50.193  161.6  0.0063   78.2  0.9106  -12.9
 0.025  0.5306  -30.9  48.316  158.6  0.0074   75.7  0.8827  -15.0
 0.030  0.5106  -36.0  46.581  155.4  0.0085   73.9  0.8561  -17.1
 0.035  0.4952  -41.6  45.004  151.9  0.0097   72.5  0.8307  -19.5
 0.040  0.4847  -47.4  43.602  148.2  0.0108   71.3  0.8069  -21.9
 0.045  0.4794  -53.5  42.393  144.3  0.0120   70.4  0.7846  -24.5
 0.050  0.4795  -59.6  41.393  140.2  0.0131   69.7  0.7640  -27.3
 0.055  0.4628  -62.5  39.919  138.8  0.0139   69.0  0.7425  -28.0
 0.060  0.4473  -65.5  38.471  137.3  0.0146   68.3  0.7210  -28.8
 0.065  0.4332  -68.8  37.053  135.6  0.0154   67.7  0.6998  -29.6
 0.070  0.4206  -72.3  35.666  133.9  0.0161   67.2  0.6786  -30.4
 0.075  0.4097  -76.0  34.317  132.0  0.0169   66.7  0.6576  -31.3
 0.080  0.4006  -79.9  33.008  129.9  0.0176   66.3  0.6368  -32.3
 0.085  0.3934  -84.0  31.745  127.7  0.0184   65.8  0.6162  -33.3
 0.090  0.3882  -88.1  30.533  125.3  0.0192   65.5  0.5958  -34.4
 0.095  0.3851  -92.4  29.380  122.7  0.0199   65.1  0.5757  -35.6
 0.100  0.3842  -96.7  28.292  119.9  0.0207   64.8  0.5558  -36.9
 0.105  0.3768  -98.6  27.489  119.1  0.0213   64.9  0.5443  -37.0
 0.110  0.3698 -100.6  26.691  118.2  0.0218   64.9  0.5328  -37.1
 0.115  0.3633 -102.7  25.900  117.3  0.0224   65.0  0.5214  -37.2
 0.120  0.3573 -104.9  25.115  116.4  0.0230   65.0  0.5099  -37.3
 0.125  0.3518 -107.1  24.338  115.4  0.0235   65.1  0.4984  -37.4
 0.130  0.3468 -109.4  23.570  114.3  0.0241   65.1  0.4870  -37.5
 0.135  0.3424 -111.7  22.810  113.1  0.0247   65.2  0.4755  -37.6
 0.140  0.3386 -114.1  22.060  111.9  0.0253   65.2  0.4640  -37.7
 0.145  0.3355 -116.6  21.322  110.5  0.0258   65.3  0.4526  -37.9
 0.150  0.3329 -119.1  20.596  109.1  0.0264   65.3  0.4411  -38.0
 0.155  0.3296 -120.5  20.130  108.6  0.0270   65.5  0.4349  -37.9
 0.160  0.3265 -121.9  19.665  108.0  0.0276   65.7  0.4288  -37.8
 0.165  0.3237 -123.3  19.202  107.5  0.0281   65.9  0.4226  -37.7
 0.170  0.3210 -124.8  18.741  106.8  0.0287   66.1  0.4165  -37.6
 0.175  0.3185 -126.2  18.283  106.2  0.0293   66.3  0.4103  -37.5
 0.180  0.3163 -127.7  17.826  105.5  0.0299   66.5  0.4042  -37.4
 0.185  0.3142 -129.2  17.373  104.8  0.0305   66.6  0.3980  -37.3
 0.190  0.3124 -130.8  16.922  104.1  0.0310   66.8  0.3919  -37.1
 0.195  0.3109 -132.3  16.474  103.3  0.0316   66.9  0.3857  -37.0
 0.200  0.3095 -133.9  16.029  102.5  0.0322   67.1  0.3796  -36.9
 0.220  0.3039 -138.2  14.833  100.8  0.0346   67.8  0.3648  -36.3
 0.240  0.3001 -142.6  13.651   98.9  0.0369   68.4  0.3500  -35.6
 0.260  0.2975 -146.2  12.651   97.2  0.0393   69.0  0.3380  -35.0
 0.280  0.2953 -149.0  11.825   95.8  0.0417   69.5  0.3288  -34.4
 0.300  0.2939 -151.9  11.006   94.3  0.0441   70.0  0.3196  -33.8
 0.320  0.2922 -154.3  10.470   93.4  0.0466   70.4  0.3139  -33.4
 0.340  0.2911 -156.8   9.937   92.4  0.0491   70.7  0.3083  -33.0
 0.360  0.2905 -159.3   9.407   91.3  0.0516   71.0  0.3027  -32.6
 0.380  0.2905 -161.7   8.880   90.1  0.0541   71.3  0.2971  -32.2
 0.400  0.2910 -164.2   8.359   88.7  0.0566   71.5  0.2915  -31.7
 0.420  0.2904 -166.1   8.033   87.9  0.0591   71.6  0.2885  -31.5
 0.440  0.2901 -168.0   7.709   87.1  0.0615   71.6  0.2855  -31.4
 0.450  0.2901 -169.0   7.548   86.7  0.0627   71.7  0.2840  -31.3
 0.460  0.2902 -169.9   7.387   86.2  0.0640   71.7  0.2826  -31.2
 0.480  0.2905 -171.8   7.066   85.3  0.0664   71.7  0.2796  -31.1
 0.500  0.2912 -173.7   6.748   84.2  0.0689   71.8  0.2766  -30.9
 0.520  0.2912 -174.9   6.531   83.5  0.0714   71.8  0.2744  -30.9
 0.540  0.2913 -176.1   6.314   82.8  0.0739   71.7  0.2722  -30.8
 0.560  0.2915 -177.4   6.099   82.1  0.0765   71.7  0.2700  -30.8
 0.580  0.2919 -178.6   5.885   81.3  0.0790   71.6  0.2678  -30.7
 0.600  0.2924 -179.8   5.672   80.4  0.0815   71.6  0.2656  -30.7
 0.620  0.2934  179.1   5.514   79.8  0.0840   71.5  0.2641  -30.8
 0.640  0.2945  178.1   5.356   79.1  0.0865   71.4  0.2625  -31.0
 0.660  0.2958  177.0   5.199   78.4  0.0890   71.3  0.2610  -31.1
 0.680  0.2971  175.9   5.043   77.7  0.0915   71.2  0.2594  -31.3
 0.700  0.2985  174.9   4.888   76.9  0.0940   71.1  0.2579  -31.4
 0.720  0.2995  173.9   4.771   76.3  0.0965   71.0  0.2566  -31.6
 0.740  0.3005  172.9   4.654   75.7  0.0989   70.9  0.2553  -31.8
 0.760  0.3017  171.9   4.538   75.0  0.1014   70.8  0.2539  -31.9
 0.780  0.3029  171.0   4.422   74.3  0.1038   70.7  0.2526  -32.1
 0.800  0.3042  170.0   4.307   73.6  0.1063   70.6  0.2513  -32.3
 0.820  0.3049  169.0   4.213   73.1  0.1087   70.4  0.2500  -32.6
 0.840  0.3058  167.9   4.119   72.5  0.1111   70.2  0.2488  -32.9
 0.860  0.3067  166.9   4.026   71.9  0.1135   70.0  0.2475  -33.1
 0.880  0.3078  165.9   3.933   71.3  0.1159   69.8  0.2462  -33.4
 0.900  0.3089  164.9   3.841   70.7  0.1183   69.6  0.2450  -33.7
 0.920  0.3099  164.1   3.768   70.1  0.1208   69.4  0.2441  -34.0
 0.940  0.3109  163.4   3.695   69.5  0.1233   69.2  0.2432  -34.3
 0.960  0.3120  162.6   3.623   68.9  0.1257   69.0  0.2423  -34.5
 0.980  0.3132  161.8   3.551   68.3  0.1282   68.9  0.2415  -34.8
 1.000  0.3144  161.1   3.480   67.6  0.1307   68.7  0.2406  -35.1
 1.020  0.3159  160.4   3.421   67.1  0.1331   68.5  0.2396  -35.5
 1.040  0.3175  159.7   3.362   66.5  0.1355   68.3  0.2385  -35.9
 1.060  0.3191  159.0   3.303   65.9  0.1380   68.1  0.2375  -36.3
 1.080  0.3207  158.3   3.245   65.3  0.1404   67.9  0.2365  -36.8
 1.100  0.3224  157.6   3.187   64.7  0.1428   67.7  0.2355  -37.2
 1.120  0.3243  156.9   3.138   64.2  0.1452   67.5  0.2345  -37.6
 1.140  0.3263  156.3   3.090   63.7  0.1476   67.2  0.2334  -38.0
 1.160  0.3283  155.6   3.042   63.1  0.1501   67.0  0.2324  -38.4
 1.180  0.3304  154.9   2.994   62.6  0.1525   66.8  0.2314  -38.8
 1.200  0.3325  154.3   2.946   62.0  0.1549   66.6  0.2304  -39.2
 1.220  0.3334  153.6   2.902   61.5  0.1572   66.4  0.2296  -39.6
 1.240  0.3344  153.0   2.858   60.9  0.1596   66.1  0.2288  -40.0
 1.260  0.3354  152.3   2.814   60.4  0.1619   65.9  0.2280  -40.5
 1.280  0.3364  151.7   2.770   59.8  0.1643   65.7  0.2273  -40.9
 1.300  0.3375  151.0   2.727   59.2  0.1666   65.5  0.2265  -41.3
 1.320  0.3382  150.4   2.690   58.7  0.1689   65.3  0.2258  -41.7
 1.340  0.3388  149.8   2.654   58.1  0.1712   65.1  0.2250  -42.1
 1.360  0.3396  149.3   2.618   57.6  0.1734   64.9  0.2243  -42.6
 1.380  0.3403  148.7   2.582   57.0  0.1757   64.7  0.2236  -43.0
 1.400  0.3411  148.1   2.546   56.4  0.1780   64.5  0.2229  -43.4
 1.420  0.3426  147.5   2.513   55.9  0.1803   64.2  0.2217  -43.9
 1.440  0.3441  146.9   2.480   55.4  0.1826   64.0  0.2206  -44.4
 1.460  0.3457  146.3   2.447   54.9  0.1849   63.8  0.2195  -44.9
 1.480  0.3473  145.7   2.414   54.4  0.1872   63.5  0.2184  -45.4
 1.500  0.3490  145.1   2.382   53.9  0.1895   63.3  0.2173  -45.9
 1.520  0.3506  144.5   2.357   53.4  0.1918   63.1  0.2164  -46.4
 1.540  0.3523  143.9   2.333   52.9  0.1940   62.8  0.2155  -47.0
 1.560  0.3540  143.3   2.308   52.4  0.1963   62.6  0.2146  -47.5
 1.580  0.3558  142.7   2.284   51.9  0.1985   62.4  0.2137  -48.1
 1.600  0.3576  142.1   2.260   51.4  0.2008   62.2  0.2129  -48.6
 1.620  0.3598  141.6   2.238   50.9  0.2031   62.0  0.2123  -49.2
 1.640  0.3621  141.1   2.217   50.5  0.2054   61.7  0.2117  -49.7
 1.660  0.3644  140.6   2.195   50.0  0.2078   61.5  0.2112  -50.3
 1.680  0.3667  140.1   2.174   49.5  0.2101   61.3  0.2106  -50.8
 1.700  0.3691  139.6   2.153   49.0  0.2124   61.1  0.2101  -51.4
 1.720  0.3695  139.1   2.131   48.5  0.2147   60.8  0.2096  -52.0
 1.740  0.3700  138.6   2.110   48.0  0.2169   60.6  0.2090  -52.5
 1.760  0.3705  138.2   2.088   47.5  0.2192   60.4  0.2085  -53.1
 1.780  0.3710  137.7   2.067   47.0  0.2215   60.1  0.2081  -53.6
 1.800  0.3715  137.2   2.046   46.5  0.2238   59.9  0.2076  -54.2
 1.820  0.3725  136.7   2.027   46.1  0.2260   59.7  0.2069  -54.7
 1.840  0.3736  136.2   2.008   45.6  0.2282   59.4  0.2063  -55.3
 1.860  0.3747  135.8   1.989   45.2  0.2304   59.2  0.2057  -55.8
 1.880  0.3758  135.3   1.971   44.8  0.2327   59.0  0.2051  -56.4
 1.900  0.3770  134.8   1.952   44.3  0.2349   58.8  0.2045  -56.9
 1.920  0.3785  134.3   1.935   43.8  0.2372   58.6  0.2040  -57.4
 1.940  0.3800  133.8   1.919   43.3  0.2394   58.3  0.2035  -58.0
 1.960  0.3816  133.3   1.902   42.8  0.2417   58.1  0.2031  -58.5
 1.980  0.3832  132.9   1.886   42.3  0.2439   57.9  0.2026  -59.1
 2.000  0.3848  132.4   1.870   41.8  0.2462   57.7  0.2022  -59.6
 2.020  0.3862  131.9   1.855   41.4  0.2484   57.5  0.2016  -60.2
 2.040  0.3877  131.4   1.840   41.0  0.2507   57.2  0.2011  -60.8
 2.060  0.3892  130.9   1.826   40.6  0.2529   57.0  0.2006  -61.4
 2.080  0.3908  130.4   1.811   40.1  0.2552   56.7  0.2001  -62.0
 2.100  0.3923  129.8   1.797   39.7  0.2574   56.5  0.1996  -62.6
 2.120  0.3939  129.4   1.782   39.2  0.2597   56.3  0.1991  -63.2
 2.140  0.3955  128.9   1.768   38.8  0.2620   56.0  0.1987  -63.8
 2.160  0.3972  128.4   1.754   38.3  0.2642   55.8  0.1983  -64.4
 2.180  0.3989  127.9   1.740   37.9  0.2665   55.6  0.1979  -65.0
 2.200  0.4006  127.4   1.726   37.4  0.2688   55.4  0.1975  -65.6
 2.220  0.4015  127.0   1.714   37.0  0.2710   55.1  0.1971  -66.2
 2.240  0.4025  126.6   1.703   36.6  0.2731   54.9  0.1966  -66.9
 2.260  0.4035  126.2   1.691   36.1  0.2753   54.6  0.1963  -67.5
 2.280  0.4044  125.8   1.680   35.7  0.2775   54.4  0.1959  -68.1
 2.300  0.4055  125.4   1.669   35.3  0.2797   54.1  0.1955  -68.8
 2.320  0.4065  125.0   1.658   34.8  0.2819   53.9  0.1952  -69.4
 2.340  0.4075  124.6   1.647   34.4  0.2841   53.6  0.1949  -70.1
 2.360  0.4086  124.2   1.636   33.9  0.2863   53.4  0.1947  -70.7
 2.380  0.4097  123.8   1.625   33.5  0.2885   53.1  0.1944  -71.4
 2.400  0.4108  123.4   1.614   33.0  0.2907   52.9  0.1942  -72.0
 2.420  0.4126  122.9   1.603   32.6  0.2929   52.6  0.1936  -72.7
 2.440  0.4144  122.4   1.592   32.2  0.2950   52.4  0.1930  -73.4
 2.460  0.4162  122.0   1.581   31.8  0.2972   52.1  0.1924  -74.1
 2.480  0.4181  121.5   1.571   31.3  0.2994   51.9  0.1919  -74.9
 2.500  0.4200  121.0   1.560   30.9  0.3016   51.6  0.1914  -75.6
 2.520  0.4219  120.6   1.549   30.5  0.3038   51.4  0.1909  -76.3
 2.540  0.4239  120.1   1.539   30.1  0.3060   51.1  0.1904  -77.1
 2.560  0.4259  119.7   1.528   29.6  0.3082   50.9  0.1900  -77.8
 2.580  0.4279  119.2   1.518   29.2  0.3104   50.6  0.1896  -78.6
 2.600  0.4299  118.8   1.508   28.7  0.3126   50.4  0.1893  -79.3
 2.620  0.4311  118.4   1.500   28.3  0.3147   50.2  0.1886  -80.1
 2.640  0.4323  118.0   1.492   27.9  0.3167   49.9  0.1879  -80.9
 2.660  0.4336  117.6   1.485   27.5  0.3188   49.7  0.1873  -81.6
 2.680  0.4349  117.2   1.477   27.1  0.3209   49.4  0.1867  -82.4
 2.700  0.4361  116.8   1.470   26.7  0.3229   49.2  0.1861  -83.2
 2.720  0.4375  116.4   1.462   26.2  0.3250   49.0  0.1856  -84.0
 2.740  0.4388  116.0   1.455   25.8  0.3271   48.8  0.1851  -84.9
 2.760  0.4401  115.7   1.447   25.4  0.3292   48.5  0.1847  -85.7
 2.780  0.4415  115.3   1.440   24.9  0.3313   48.3  0.1843  -86.5
 2.800  0.4429  114.9   1.433   24.5  0.3334   48.1  0.1839  -87.3
 2.820  0.4445  114.4   1.425   24.1  0.3356   47.8  0.1835  -88.2
 2.840  0.4461  114.0   1.418   23.8  0.3377   47.6  0.1830  -89.1
 2.860  0.4477  113.5   1.410   23.4  0.3399   47.3  0.1827  -89.9
 2.880  0.4494  113.1   1.403   23.0  0.3421   47.1  0.1824  -90.8
 2.900  0.4511  112.6   1.396   22.6  0.3443   46.8  0.1821  -91.7
 2.920  0.4528  112.2   1.388   22.3  0.3465   46.6  0.1819  -92.6
 2.940  0.4545  111.7   1.381   21.9  0.3487   46.3  0.1817  -93.5
 2.960  0.4563  111.3   1.374   21.5  0.3509   46.1  0.1815  -94.4
 2.980  0.4581  110.8   1.367   21.1  0.3531   45.8  0.1815  -95.3
 3.000  0.4599  110.4   1.360   20.7  0.3553   45.6  0.1814  -96.2
!
!  f       NFmin   Gammaopt  rn/50
! GHz       dB    MAG  ANG    -
!
! noise parameter not available yet for this operation point!
!
! (c) 2015  Infineon Technologies AG, Munich
