! Infineon Technologies  Discrete & RF Semiconductors
! BFR93A
! VCE = 0.50 V,  IC =  5.0 mA
! Common Emitter S-Parameters:                            Nov 2015
# GHz  S  MA  R  50
!  f         S11            S21            S12            S22
! GHz     MAG   ANG      MAG   ANG      MAG   ANG      MAG   ANG
 0.010  0.8159   -8.4  15.098  174.4  0.0091   85.7  0.9747   -5.5
 0.015  0.8083  -12.4  14.979  171.7  0.0135   82.4  0.9676   -8.1
 0.020  0.8048  -16.5  14.894  168.9  0.0179   80.7  0.9625  -10.8
 0.025  0.7901  -20.2  14.657  166.6  0.0217   77.2  0.9469  -13.1
 0.030  0.7788  -24.1  14.445  164.2  0.0255   74.8  0.9330  -15.5
 0.035  0.7712  -28.0  14.258  161.8  0.0294   73.0  0.9207  -18.0
 0.040  0.7672  -32.0  14.098  159.3  0.0333   71.6  0.9102  -20.6
 0.045  0.7670  -36.0  13.966  156.7  0.0373   70.5  0.9016  -23.2
 0.050  0.7705  -40.0  13.862  154.1  0.0412   69.6  0.8948  -25.8
 0.055  0.7530  -42.9  13.573  152.5  0.0438   67.4  0.8754  -27.4
 0.060  0.7375  -45.8  13.295  150.9  0.0464   65.5  0.8567  -29.1
 0.065  0.7240  -48.9  13.029  149.2  0.0491   63.7  0.8387  -30.8
 0.070  0.7128  -52.1  12.774  147.4  0.0518   62.2  0.8216  -32.6
 0.075  0.7039  -55.4  12.533  145.5  0.0545   60.8  0.8053  -34.5
 0.080  0.6973  -58.8  12.305  143.6  0.0573   59.5  0.7899  -36.5
 0.085  0.6932  -62.3  12.092  141.6  0.0601   58.4  0.7755  -38.5
 0.090  0.6916  -65.7  11.894  139.5  0.0629   57.3  0.7622  -40.6
 0.095  0.6926  -69.2  11.711  137.4  0.0657   56.4  0.7499  -42.8
 0.100  0.6960  -72.6  11.546  135.2  0.0686   55.5  0.7387  -45.1
 0.105  0.6846  -74.7  11.302  134.1  0.0700   54.5  0.7234  -46.2
 0.110  0.6741  -76.9  11.063  132.9  0.0715   53.6  0.7083  -47.3
 0.115  0.6647  -79.2  10.828  131.7  0.0729   52.7  0.6935  -48.5
 0.120  0.6563  -81.5  10.599  130.4  0.0744   51.8  0.6790  -49.7
 0.125  0.6491  -83.9  10.375  129.1  0.0759   50.9  0.6649  -51.0
 0.130  0.6429  -86.3  10.157  127.7  0.0774   50.1  0.6511  -52.3
 0.135  0.6379  -88.7   9.944  126.3  0.0789   49.4  0.6376  -53.7
 0.140  0.6342  -91.2   9.739  124.8  0.0805   48.6  0.6246  -55.1
 0.145  0.6316  -93.8   9.540  123.2  0.0820   47.9  0.6119  -56.6
 0.150  0.6303  -96.3   9.349  121.6  0.0836   47.2  0.5997  -58.2
 0.155  0.6237  -98.0   9.176  120.8  0.0845   46.7  0.5889  -59.0
 0.160  0.6176  -99.7   9.004  120.0  0.0854   46.3  0.5783  -59.8
 0.165  0.6120 -101.4   8.834  119.1  0.0864   45.8  0.5677  -60.6
 0.170  0.6070 -103.2   8.666  118.2  0.0873   45.4  0.5573  -61.4
 0.175  0.6026 -105.0   8.501  117.3  0.0882   44.9  0.5470  -62.3
 0.180  0.5988 -106.8   8.338  116.3  0.0892   44.5  0.5369  -63.2
 0.185  0.5956 -108.6   8.177  115.3  0.0901   44.1  0.5269  -64.2
 0.190  0.5931 -110.5   8.019  114.3  0.0911   43.7  0.5170  -65.2
 0.195  0.5911 -112.3   7.863  113.2  0.0920   43.3  0.5073  -66.2
 0.200  0.5898 -114.2   7.711  112.1  0.0930   42.9  0.4978  -67.3
 0.220  0.5765 -119.4   7.206  109.6  0.0957   41.9  0.4671  -69.9
 0.240  0.5681 -124.8   6.717  106.6  0.0984   41.0  0.4374  -72.8
 0.260  0.5617 -129.5   6.294  104.0  0.1009   40.3  0.4120  -75.4
 0.280  0.5557 -133.5   5.929  101.8  0.1030   40.0  0.3902  -77.5
 0.300  0.5524 -137.6   5.574   99.4  0.1052   39.7  0.3690  -79.8
 0.320  0.5455 -140.6   5.315   98.0  0.1072   39.7  0.3539  -81.3
 0.340  0.5402 -143.6   5.059   96.5  0.1091   39.7  0.3390  -82.8
 0.360  0.5364 -146.7   4.808   94.8  0.1111   39.8  0.3243  -84.6
 0.380  0.5342 -149.9   4.561   92.9  0.1130   39.8  0.3100  -86.4
 0.400  0.5336 -153.0   4.319   90.8  0.1150   39.8  0.2961  -88.5
 0.420  0.5308 -155.2   4.157   89.7  0.1169   40.0  0.2872  -89.7
 0.440  0.5289 -157.4   3.998   88.4  0.1187   40.1  0.2784  -90.9
 0.450  0.5282 -158.5   3.918   87.8  0.1196   40.2  0.2740  -91.5
 0.460  0.5277 -159.6   3.840   87.1  0.1206   40.3  0.2697  -92.2
 0.480  0.5272 -161.8   3.684   85.7  0.1224   40.4  0.2612  -93.6
 0.500  0.5276 -164.0   3.531   84.1  0.1243   40.6  0.2529  -95.1
 0.520  0.5261 -165.7   3.420   83.1  0.1263   40.9  0.2470  -96.2
 0.540  0.5250 -167.4   3.310   82.0  0.1283   41.1  0.2413  -97.4
 0.560  0.5244 -169.2   3.201   80.9  0.1304   41.4  0.2356  -98.6
 0.580  0.5243 -170.9   3.093   79.7  0.1324   41.7  0.2301  -99.9
 0.600  0.5247 -172.6   2.987   78.4  0.1344   41.9  0.2247 -101.3
 0.620  0.5244 -174.0   2.906   77.5  0.1365   42.1  0.2210 -102.3
 0.640  0.5243 -175.3   2.826   76.5  0.1386   42.4  0.2173 -103.4
 0.660  0.5246 -176.7   2.747   75.5  0.1408   42.6  0.2138 -104.5
 0.680  0.5251 -178.0   2.669   74.4  0.1429   42.8  0.2103 -105.6
 0.700  0.5260 -179.4   2.592   73.3  0.1450   43.0  0.2069 -106.8
 0.720  0.5258  179.5   2.532   72.5  0.1471   43.2  0.2043 -107.8
 0.740  0.5259  178.3   2.473   71.6  0.1492   43.5  0.2018 -108.9
 0.760  0.5261  177.2   2.414   70.7  0.1513   43.7  0.1994 -110.0
 0.780  0.5265  176.0   2.356   69.7  0.1534   43.9  0.1971 -111.1
 0.800  0.5272  174.9   2.299   68.7  0.1555   44.1  0.1948 -112.3
 0.820  0.5274  173.8   2.251   68.0  0.1577   44.2  0.1934 -113.3
 0.840  0.5278  172.7   2.204   67.2  0.1600   44.4  0.1920 -114.3
 0.860  0.5284  171.6   2.157   66.4  0.1622   44.5  0.1907 -115.3
 0.880  0.5292  170.5   2.110   65.6  0.1645   44.7  0.1894 -116.4
 0.900  0.5302  169.4   2.064   64.7  0.1667   44.8  0.1882 -117.4
 0.920  0.5305  168.4   2.027   63.9  0.1691   44.9  0.1873 -118.3
 0.940  0.5310  167.4   1.991   63.1  0.1715   45.0  0.1864 -119.1
 0.960  0.5317  166.5   1.955   62.3  0.1738   45.0  0.1856 -120.0
 0.980  0.5324  165.5   1.919   61.4  0.1762   45.1  0.1848 -120.9
 1.000  0.5334  164.5   1.884   60.5  0.1786   45.2  0.1841 -121.8
 1.020  0.5341  163.7   1.854   59.8  0.1809   45.3  0.1839 -122.7
 1.040  0.5350  162.8   1.824   59.1  0.1832   45.4  0.1837 -123.6
 1.060  0.5359  162.0   1.795   58.4  0.1856   45.4  0.1836 -124.5
 1.080  0.5370  161.1   1.766   57.7  0.1879   45.5  0.1835 -125.4
 1.100  0.5382  160.3   1.737   56.9  0.1902   45.6  0.1835 -126.3
 1.120  0.5398  159.5   1.712   56.2  0.1926   45.6  0.1835 -127.3
 1.140  0.5415  158.7   1.688   55.5  0.1951   45.6  0.1835 -128.2
 1.160  0.5433  157.9   1.664   54.7  0.1975   45.6  0.1835 -129.2
 1.180  0.5452  157.1   1.640   54.0  0.2000   45.6  0.1836 -130.1
 1.200  0.5472  156.3   1.617   53.2  0.2024   45.6  0.1838 -131.1
 1.220  0.5473  155.5   1.595   52.5  0.2048   45.6  0.1840 -131.9
 1.240  0.5476  154.7   1.573   51.8  0.2072   45.6  0.1842 -132.7
 1.260  0.5479  154.0   1.552   51.1  0.2096   45.5  0.1845 -133.6
 1.280  0.5484  153.2   1.531   50.4  0.2120   45.5  0.1848 -134.4
 1.300  0.5489  152.4   1.510   49.6  0.2144   45.5  0.1851 -135.2
 1.320  0.5495  151.7   1.491   49.0  0.2168   45.5  0.1858 -135.9
 1.340  0.5501  151.0   1.473   48.4  0.2192   45.5  0.1865 -136.7
 1.360  0.5508  150.4   1.454   47.8  0.2217   45.4  0.1872 -137.4
 1.380  0.5516  149.7   1.436   47.2  0.2241   45.4  0.1879 -138.1
 1.400  0.5525  149.0   1.418   46.5  0.2265   45.4  0.1887 -138.8
 1.420  0.5524  148.3   1.402   45.9  0.2290   45.3  0.1896 -139.6
 1.440  0.5525  147.6   1.386   45.3  0.2316   45.3  0.1906 -140.5
 1.460  0.5526  147.0   1.370   44.7  0.2341   45.2  0.1916 -141.3
 1.480  0.5527  146.3   1.354   44.0  0.2367   45.2  0.1926 -142.1
 1.500  0.5530  145.6   1.338   43.4  0.2392   45.1  0.1937 -142.9
 1.520  0.5548  145.0   1.326   42.8  0.2415   45.0  0.1947 -143.7
 1.540  0.5566  144.3   1.314   42.2  0.2438   44.9  0.1958 -144.4
 1.560  0.5586  143.7   1.302   41.6  0.2462   44.8  0.1969 -145.1
 1.580  0.5606  143.1   1.291   41.0  0.2485   44.7  0.1980 -145.9
 1.600  0.5626  142.5   1.279   40.4  0.2508   44.6  0.1992 -146.6
 1.620  0.5637  141.9   1.267   39.9  0.2533   44.5  0.2001 -147.3
 1.640  0.5649  141.3   1.255   39.4  0.2558   44.4  0.2011 -148.0
 1.660  0.5661  140.6   1.243   38.9  0.2583   44.3  0.2021 -148.7
 1.680  0.5674  140.0   1.232   38.3  0.2608   44.2  0.2031 -149.3
 1.700  0.5688  139.4   1.220   37.8  0.2633   44.1  0.2041 -150.0
 1.720  0.5687  138.8   1.210   37.2  0.2659   44.0  0.2056 -150.6
 1.740  0.5686  138.3   1.199   36.7  0.2685   43.8  0.2071 -151.1
 1.760  0.5685  137.7   1.189   36.1  0.2712   43.7  0.2086 -151.7
 1.780  0.5685  137.2   1.179   35.5  0.2738   43.5  0.2101 -152.3
 1.800  0.5686  136.6   1.169   34.9  0.2764   43.4  0.2117 -152.8
 1.820  0.5691  136.0   1.160   34.5  0.2788   43.3  0.2130 -153.4
 1.840  0.5697  135.4   1.151   34.0  0.2813   43.2  0.2144 -154.1
 1.860  0.5703  134.8   1.142   33.5  0.2837   43.0  0.2158 -154.7
 1.880  0.5710  134.2   1.133   33.1  0.2862   42.9  0.2173 -155.3
 1.900  0.5718  133.6   1.124   32.6  0.2886   42.8  0.2187 -155.9
 1.920  0.5733  133.0   1.116   32.1  0.2911   42.7  0.2199 -156.5
 1.940  0.5748  132.4   1.107   31.5  0.2936   42.6  0.2212 -157.1
 1.960  0.5764  131.8   1.099   31.0  0.2962   42.4  0.2225 -157.7
 1.980  0.5780  131.2   1.091   30.5  0.2987   42.3  0.2238 -158.3
 2.000  0.5797  130.6   1.083   29.9  0.3012   42.2  0.2251 -158.9
 2.020  0.5803  130.1   1.076   29.5  0.3037   42.0  0.2263 -159.5
 2.040  0.5810  129.5   1.069   29.0  0.3062   41.8  0.2276 -160.1
 2.060  0.5817  129.0   1.062   28.6  0.3088   41.6  0.2289 -160.7
 2.080  0.5825  128.5   1.055   28.1  0.3113   41.4  0.2302 -161.3
 2.100  0.5833  128.0   1.048   27.7  0.3138   41.2  0.2315 -161.9
 2.120  0.5842  127.5   1.041   27.2  0.3163   41.0  0.2329 -162.5
 2.140  0.5851  126.9   1.035   26.7  0.3189   40.8  0.2343 -163.1
 2.160  0.5861  126.4   1.028   26.3  0.3214   40.7  0.2357 -163.7
 2.180  0.5871  125.9   1.021   25.8  0.3240   40.5  0.2371 -164.2
 2.200  0.5882  125.4   1.015   25.3  0.3265   40.3  0.2386 -164.8
 2.220  0.5887  124.9   1.010   24.9  0.3290   40.1  0.2401 -165.4
 2.240  0.5892  124.4   1.004   24.5  0.3316   39.8  0.2416 -166.1
 2.260  0.5898  123.9   0.999   24.1  0.3341   39.6  0.2432 -166.7
 2.280  0.5904  123.5   0.994   23.7  0.3367   39.4  0.2448 -167.3
 2.300  0.5910  123.0   0.988   23.3  0.3392   39.2  0.2464 -168.0
 2.320  0.5917  122.5   0.983   22.8  0.3418   38.9  0.2480 -168.6
 2.340  0.5925  122.0   0.978   22.4  0.3444   38.7  0.2497 -169.2
 2.360  0.5932  121.6   0.973   22.0  0.3469   38.5  0.2514 -169.7
 2.380  0.5940  121.1   0.968   21.5  0.3495   38.3  0.2531 -170.3
 2.400  0.5949  120.6   0.963   21.1  0.3521   38.1  0.2549 -170.9
 2.420  0.5958  120.1   0.958   20.7  0.3545   37.9  0.2566 -171.5
 2.440  0.5968  119.6   0.953   20.3  0.3569   37.6  0.2582 -172.1
 2.460  0.5978  119.1   0.948   19.9  0.3593   37.4  0.2599 -172.7
 2.480  0.5989  118.6   0.942   19.5  0.3617   37.2  0.2617 -173.2
 2.500  0.6000  118.1   0.937   19.1  0.3641   37.0  0.2634 -173.8
 2.520  0.6011  117.6   0.932   18.7  0.3665   36.7  0.2652 -174.4
 2.540  0.6023  117.1   0.927   18.3  0.3689   36.5  0.2670 -174.9
 2.560  0.6036  116.6   0.923   17.9  0.3713   36.3  0.2689 -175.4
 2.580  0.6049  116.1   0.918   17.4  0.3738   36.1  0.2707 -176.0
 2.600  0.6062  115.6   0.913   17.0  0.3762   35.9  0.2726 -176.5
 2.620  0.6064  115.1   0.909   16.6  0.3784   35.6  0.2743 -177.1
 2.640  0.6067  114.6   0.905   16.3  0.3806   35.4  0.2760 -177.8
 2.660  0.6071  114.1   0.901   15.9  0.3829   35.1  0.2778 -178.4
 2.680  0.6074  113.6   0.897   15.6  0.3851   34.8  0.2795 -179.0
 2.700  0.6079  113.1   0.894   15.2  0.3874   34.6  0.2814 -179.6
 2.720  0.6083  112.6   0.890   14.8  0.3896   34.3  0.2832  179.7
 2.740  0.6089  112.1   0.886   14.4  0.3919   34.0  0.2851  179.1
 2.760  0.6094  111.6   0.882   14.1  0.3941   33.8  0.2870  178.6
 2.780  0.6100  111.1   0.879   13.7  0.3964   33.5  0.2889  178.0
 2.800  0.6107  110.6   0.875   13.3  0.3987   33.3  0.2909  177.4
 2.820  0.6117  110.1   0.871   13.0  0.4010   33.0  0.2929  176.8
 2.840  0.6127  109.7   0.867   12.7  0.4033   32.7  0.2949  176.2
 2.860  0.6138  109.2   0.863   12.3  0.4056   32.4  0.2969  175.6
 2.880  0.6149  108.7   0.859   12.0  0.4080   32.1  0.2989  175.0
 2.900  0.6161  108.3   0.855   11.7  0.4103   31.9  0.3010  174.5
 2.920  0.6172  107.8   0.851   11.4  0.4127   31.6  0.3031  173.9
 2.940  0.6185  107.4   0.847   11.0  0.4150   31.3  0.3053  173.3
 2.960  0.6197  106.9   0.843   10.7  0.4174   31.0  0.3075  172.8
 2.980  0.6211  106.5   0.839   10.3  0.4198   30.8  0.3097  172.2
 3.000  0.6224  106.0   0.835   10.0  0.4222   30.5  0.3119  171.7
!
!  f       NFmin   Gammaopt  rn/50
! GHz       dB    MAG  ANG    -
!
! noise parameter not available yet for this operation point!
!
! (c) 2015  Infineon Technologies AG, Munich
