! Infineon Technologies  Discrete & RF Semiconductors
! BFR92P
! VCE =  4.0 V,  IC =  20 mA
! Common Emitter S-Parameters:                            Apr 2014
# GHz  S  MA  R  50
!  f         S11            S21            S12            S22
! GHz     MAG   ANG      MAG   ANG      MAG   ANG      MAG   ANG
 0.010  0.5677   -9.2  36.992  172.7  0.0022   84.2  0.9656   -3.1
 0.020  0.5773  -13.9  37.129  168.5  0.0042   86.0  0.9860   -6.4
 0.030  0.5496  -21.5  35.820  163.7  0.0061   81.1  0.9576   -9.0
 0.040  0.5324  -29.6  34.782  158.5  0.0081   78.6  0.9312  -11.8
 0.050  0.5267  -38.2  34.042  153.1  0.0100   77.0  0.9072  -14.7
 0.060  0.4987  -43.1  32.330  149.9  0.0113   74.5  0.8775  -16.1
 0.070  0.4747  -48.5  30.731  146.3  0.0126   72.5  0.8483  -17.6
 0.080  0.4554  -54.5  29.264  142.4  0.0140   70.9  0.8198  -19.2
 0.090  0.4414  -60.9  27.949  138.0  0.0153   69.6  0.7919  -20.9
 0.100  0.4332  -67.6  26.810  133.3  0.0167   68.5  0.7648  -22.7
 0.110  0.4180  -71.5  25.661  131.3  0.0176   68.0  0.7444  -23.3
 0.120  0.4049  -75.7  24.545  129.2  0.0186   67.5  0.7240  -23.8
 0.130  0.3940  -80.2  23.467  126.8  0.0195   67.1  0.7037  -24.5
 0.140  0.3857  -84.9  22.432  124.2  0.0205   66.7  0.6835  -25.1
 0.150  0.3801  -89.7  21.448  121.4  0.0214   66.3  0.6634  -25.8
 0.200  0.3251 -106.2  17.260  112.6  0.0256   66.2  0.5914  -25.5
 0.250  0.3003 -117.9  14.414  107.1  0.0302   67.4  0.5510  -25.4
 0.300  0.2847 -129.7  12.303  102.1  0.0346   68.0  0.5188  -24.4
 0.350  0.2720 -137.5  10.886   99.2  0.0388   69.1  0.5016  -23.9
 0.400  0.2647 -145.9   9.505   95.5  0.0431   70.0  0.4845  -23.3
 0.450  0.2568 -151.4   8.597   93.3  0.0477   70.8  0.4759  -23.0
 0.500  0.2513 -157.1   7.705   90.5  0.0524   71.4  0.4673  -22.7
 0.600  0.2490 -166.4   6.479   86.2  0.0609   72.0  0.4569  -22.6
 0.700  0.2456 -174.3   5.591   82.5  0.0700   72.2  0.4500  -22.8
 0.800  0.2487  178.2   4.920   79.1  0.0789   72.3  0.4444  -23.7
 0.900  0.2501  171.4   4.410   75.9  0.0879   72.1  0.4389  -24.8
 1.000  0.2525  166.9   3.993   73.0  0.0973   71.9  0.4363  -26.0
 1.100  0.2547  162.3   3.646   70.2  0.1068   71.4  0.4353  -27.2
 1.200  0.2598  157.3   3.361   67.6  0.1157   71.0  0.4321  -28.6
 1.300  0.2642  152.8   3.125   65.0  0.1256   70.1  0.4287  -30.0
 1.400  0.2679  148.4   2.914   62.4  0.1350   69.5  0.4262  -31.6
 1.500  0.2735  144.6   2.738   59.9  0.1448   68.8  0.4236  -33.4
 1.600  0.2835  140.2   2.587   57.4  0.1541   68.0  0.4197  -35.2
 1.700  0.2884  136.7   2.449   55.0  0.1637   67.0  0.4166  -36.9
 1.800  0.2951  133.9   2.331   52.7  0.1731   66.5  0.4146  -38.7
 1.900  0.3020  130.8   2.219   50.4  0.1832   65.3  0.4091  -40.6
 2.000  0.3112  127.4   2.121   48.2  0.1925   64.8  0.4056  -42.4
 2.100  0.3187  124.4   2.037   46.0  0.2023   63.7  0.4017  -44.4
 2.200  0.3270  121.6   1.956   43.7  0.2121   62.7  0.3983  -46.4
 2.300  0.3355  118.9   1.883   41.6  0.2218   61.7  0.3927  -48.4
 2.400  0.3446  116.4   1.813   39.4  0.2316   60.7  0.3876  -50.4
 2.500  0.3554  114.4   1.755   37.5  0.2412   59.8  0.3823  -52.7
 2.600  0.3665  112.6   1.699   35.4  0.2509   58.9  0.3776  -55.1
 2.700  0.3763  109.9   1.644   33.5  0.2613   57.8  0.3718  -57.2
 2.800  0.3870  107.3   1.592   31.4  0.2718   56.8  0.3665  -59.4
 2.900  0.3961  105.5   1.551   29.5  0.2815   55.6  0.3595  -62.2
 3.000  0.4056  103.8   1.512   27.5  0.2914   54.4  0.3534  -65.1
 3.100  0.4135  101.9   1.473   25.9  0.3015   53.0  0.3452  -67.9
 3.200  0.4219  100.1   1.436   24.1  0.3118   51.7  0.3379  -70.9
 3.300  0.4306   98.4   1.400   22.3  0.3222   50.5  0.3316  -74.0
 3.400  0.4397   96.8   1.365   20.4  0.3327   49.4  0.3262  -77.2
 3.500  0.4492   95.2   1.332   18.4  0.3434   48.3  0.3219  -80.5
 3.600  0.4585   94.1   1.305   16.9  0.3533   47.0  0.3135  -84.0
 3.700  0.4680   92.9   1.279   15.4  0.3633   45.8  0.3064  -87.8
 3.800  0.4777   91.9   1.254   13.8  0.3735   44.7  0.3007  -91.7
 3.900  0.4875   90.9   1.230   12.2  0.3838   43.6  0.2964  -95.7
 4.000  0.4975   89.9   1.207   10.5  0.3943   42.6  0.2936  -99.8
 4.100  0.5065   88.5   1.186    9.0  0.4037   41.1  0.2858 -104.2
 4.200  0.5158   87.2   1.165    7.5  0.4134   39.7  0.2798 -108.8
 4.300  0.5254   85.9   1.146    6.0  0.4234   38.4  0.2757 -113.6
 4.400  0.5352   84.6   1.127    4.4  0.4335   37.1  0.2735 -118.5
 4.500  0.5453   83.4   1.109    2.7  0.4439   35.9  0.2734 -123.4
 4.600  0.5512   82.1   1.090    1.3  0.4523   34.4  0.2685 -128.0
 4.700  0.5574   80.8   1.072   -0.2  0.4610   32.9  0.2655 -132.8
 4.800  0.5638   79.5   1.055   -1.7  0.4700   31.5  0.2643 -137.6
 4.900  0.5705   78.3   1.039   -3.3  0.4792   30.2  0.2650 -142.4
 5.000  0.5775   77.1   1.023   -4.9  0.4887   28.9  0.2675 -147.2
 5.100  0.5834   75.8   1.006   -6.1  0.4962   27.4  0.2673 -151.6
 5.200  0.5896   74.5   0.990   -7.3  0.5040   26.0  0.2687 -156.0
 5.300  0.5961   73.2   0.974   -8.5  0.5121   24.6  0.2716 -160.3
 5.400  0.6029   72.0   0.959   -9.8  0.5205   23.2  0.2760 -164.5
 5.500  0.6100   70.8   0.944  -11.1  0.5292   21.9  0.2819 -168.6
 5.600  0.6158   69.7   0.934  -12.1  0.5368   20.4  0.2865 -172.5
 5.700  0.6219   68.5   0.925  -13.2  0.5448   19.0  0.2924 -176.3
 5.800  0.6282   67.4   0.916  -14.2  0.5532   17.6  0.2995 -179.9
 5.900  0.6347   66.4   0.907  -15.3  0.5618   16.3  0.3077  176.6
 6.000  0.6414   65.3   0.899  -16.4  0.5707   15.0  0.3170  173.4
!
!  f       NFmin   Gammaopt  rn/50
! GHz       dB    MAG  ANG    -
!
! noise parameter not available yet for this operation point!
!
! (c) 2014  Infineon Technologies AG, Munich
