! Infineon Technologies  Discrete & RF Semiconductors
! BFR93A
! VCE =  6.0 V,  IC =  5.0 mA
! Common Emitter S-Parameters:                            Nov 2015
# GHz  S  MA  R  50
!  f         S11            S21            S12            S22
! GHz     MAG   ANG      MAG   ANG      MAG   ANG      MAG   ANG
 0.010  0.8515   -4.6  14.948  176.2  0.0037   86.6  0.9902   -2.2
 0.015  0.8477   -6.9  14.907  174.5  0.0055   85.0  0.9878   -3.2
 0.020  0.8454   -9.3  14.879  172.7  0.0073   84.2  0.9857   -4.3
 0.025  0.8386  -11.5  14.770  171.1  0.0090   82.2  0.9806   -5.3
 0.030  0.8330  -13.8  14.673  169.4  0.0108   80.8  0.9759   -6.3
 0.035  0.8288  -16.1  14.589  167.7  0.0125   79.9  0.9714   -7.3
 0.040  0.8259  -18.4  14.518  166.0  0.0143   79.1  0.9673   -8.3
 0.045  0.8243  -20.7  14.459  164.3  0.0160   78.6  0.9634   -9.4
 0.050  0.8241  -23.0  14.413  162.6  0.0178   78.1  0.9599  -10.4
 0.055  0.8129  -24.9  14.250  161.3  0.0192   76.5  0.9518  -11.2
 0.060  0.8026  -26.9  14.094  159.9  0.0207   75.0  0.9438  -12.0
 0.065  0.7934  -29.0  13.947  158.6  0.0221   73.8  0.9360  -12.8
 0.070  0.7851  -31.0  13.807  157.2  0.0236   72.7  0.9284  -13.6
 0.075  0.7779  -33.2  13.677  155.7  0.0251   71.8  0.9211  -14.5
 0.080  0.7718  -35.3  13.554  154.3  0.0265   70.9  0.9139  -15.3
 0.085  0.7668  -37.5  13.441  152.8  0.0280   70.2  0.9069  -16.2
 0.090  0.7630  -39.7  13.337  151.3  0.0295   69.5  0.9002  -17.1
 0.095  0.7602  -42.0  13.242  149.8  0.0310   68.9  0.8936  -18.0
 0.100  0.7587  -44.2  13.157  148.2  0.0325   68.3  0.8873  -18.9
 0.105  0.7483  -45.8  12.976  147.1  0.0335   67.4  0.8781  -19.4
 0.110  0.7384  -47.5  12.800  146.0  0.0346   66.5  0.8690  -20.0
 0.115  0.7293  -49.2  12.629  144.8  0.0356   65.6  0.8600  -20.5
 0.120  0.7208  -50.9  12.464  143.6  0.0367   64.8  0.8511  -21.1
 0.125  0.7129  -52.7  12.304  142.3  0.0377   64.1  0.8423  -21.7
 0.130  0.7058  -54.6  12.150  141.1  0.0388   63.4  0.8335  -22.3
 0.135  0.6994  -56.4  12.002  139.8  0.0399   62.7  0.8249  -22.9
 0.140  0.6938  -58.3  11.860  138.5  0.0409   62.1  0.8163  -23.5
 0.145  0.6890  -60.2  11.725  137.1  0.0420   61.5  0.8079  -24.2
 0.150  0.6849  -62.2  11.597  135.7  0.0431   60.9  0.7995  -24.8
 0.155  0.6760  -63.6  11.442  134.8  0.0439   60.4  0.7918  -25.1
 0.160  0.6675  -65.0  11.290  134.0  0.0447   59.9  0.7841  -25.5
 0.165  0.6594  -66.5  11.140  133.1  0.0455   59.4  0.7764  -25.8
 0.170  0.6518  -68.0  10.994  132.2  0.0463   59.0  0.7688  -26.2
 0.175  0.6446  -69.6  10.850  131.2  0.0471   58.5  0.7612  -26.6
 0.180  0.6379  -71.2  10.709  130.2  0.0479   58.1  0.7536  -26.9
 0.185  0.6317  -72.8  10.572  129.2  0.0487   57.7  0.7461  -27.3
 0.190  0.6261  -74.4  10.437  128.2  0.0495   57.3  0.7386  -27.7
 0.195  0.6209  -76.1  10.306  127.2  0.0503   56.9  0.7311  -28.1
 0.200  0.6163  -77.8  10.179  126.1  0.0511   56.5  0.7237  -28.5
 0.220  0.5901  -82.7   9.656  123.2  0.0534   55.1  0.6986  -29.4
 0.240  0.5685  -88.0   9.160  120.0  0.0558   53.9  0.6736  -30.3
 0.260  0.5501  -92.9   8.710  117.1  0.0580   53.0  0.6514  -31.0
 0.280  0.5332  -97.3   8.292  114.7  0.0599   52.5  0.6319  -31.5
 0.300  0.5196 -102.0   7.890  112.1  0.0619   52.0  0.6125  -32.0
 0.320  0.5039 -105.3   7.558  110.5  0.0635   51.8  0.5985  -32.2
 0.340  0.4901 -108.9   7.232  108.7  0.0651   51.6  0.5846  -32.4
 0.360  0.4781 -112.6   6.914  106.8  0.0668   51.4  0.5706  -32.7
 0.380  0.4684 -116.5   6.605  104.7  0.0684   51.2  0.5566  -32.9
 0.400  0.4608 -120.5   6.305  102.4  0.0700   51.0  0.5427  -33.2
 0.420  0.4518 -123.3   6.085  101.1  0.0714   51.0  0.5341  -33.3
 0.440  0.4438 -126.1   5.867   99.7  0.0729   51.0  0.5256  -33.4
 0.450  0.4403 -127.6   5.760   99.0  0.0736   51.1  0.5213  -33.4
 0.460  0.4371 -129.1   5.654   98.2  0.0743   51.1  0.5170  -33.4
 0.480  0.4315 -132.2   5.445   96.6  0.0758   51.1  0.5085  -33.5
 0.500  0.4272 -135.3   5.240   94.9  0.0772   51.1  0.4999  -33.6
 0.520  0.4218 -137.6   5.082   93.8  0.0786   51.3  0.4941  -33.7
 0.540  0.4171 -139.9   4.925   92.7  0.0801   51.5  0.4882  -33.8
 0.560  0.4130 -142.3   4.771   91.5  0.0815   51.7  0.4824  -33.8
 0.580  0.4097 -144.7   4.619   90.3  0.0830   51.9  0.4765  -33.9
 0.600  0.4072 -147.2   4.469   88.9  0.0844   52.1  0.4707  -34.0
 0.620  0.4041 -149.0   4.350   88.0  0.0859   52.4  0.4668  -34.1
 0.640  0.4014 -150.9   4.233   87.0  0.0874   52.6  0.4629  -34.2
 0.660  0.3992 -152.8   4.116   86.0  0.0888   52.9  0.4590  -34.3
 0.680  0.3974 -154.7   4.001   84.9  0.0903   53.2  0.4551  -34.4
 0.700  0.3960 -156.6   3.888   83.7  0.0918   53.4  0.4512  -34.5
 0.720  0.3946 -158.3   3.798   82.9  0.0933   53.7  0.4482  -34.7
 0.740  0.3935 -160.0   3.708   82.0  0.0948   53.9  0.4452  -34.8
 0.760  0.3928 -161.7   3.620   81.1  0.0963   54.2  0.4422  -35.0
 0.780  0.3925 -163.5   3.532   80.1  0.0978   54.5  0.4393  -35.1
 0.800  0.3925 -165.2   3.446   79.1  0.0993   54.7  0.4363  -35.3
 0.820  0.3916 -166.7   3.374   78.4  0.1009   54.9  0.4339  -35.5
 0.840  0.3910 -168.3   3.303   77.6  0.1025   55.1  0.4314  -35.7
 0.860  0.3907 -169.8   3.232   76.8  0.1040   55.3  0.4290  -36.0
 0.880  0.3907 -171.4   3.162   76.0  0.1056   55.4  0.4266  -36.2
 0.900  0.3909 -172.9   3.093   75.1  0.1072   55.6  0.4242  -36.4
 0.920  0.3903 -174.2   3.035   74.4  0.1088   55.7  0.4226  -36.6
 0.940  0.3899 -175.5   2.978   73.6  0.1105   55.9  0.4211  -36.8
 0.960  0.3898 -176.8   2.921   72.8  0.1121   56.0  0.4196  -37.1
 0.980  0.3898 -178.1   2.865   72.0  0.1138   56.2  0.4180  -37.3
 1.000  0.3900 -179.4   2.810   71.1  0.1154   56.3  0.4165  -37.5
 1.020  0.3907  179.4   2.764   70.4  0.1171   56.5  0.4149  -37.8
 1.040  0.3916  178.3   2.718   69.7  0.1188   56.6  0.4134  -38.1
 1.060  0.3926  177.2   2.672   69.0  0.1206   56.8  0.4118  -38.5
 1.080  0.3938  176.0   2.627   68.2  0.1223   56.9  0.4103  -38.8
 1.100  0.3951  174.9   2.583   67.4  0.1240   57.1  0.4088  -39.1
 1.120  0.3961  173.8   2.544   66.8  0.1258   57.2  0.4075  -39.4
 1.140  0.3972  172.7   2.506   66.1  0.1275   57.3  0.4061  -39.8
 1.160  0.3985  171.6   2.468   65.4  0.1293   57.4  0.4048  -40.1
 1.180  0.3999  170.6   2.430   64.7  0.1310   57.5  0.4035  -40.5
 1.200  0.4014  169.5   2.393   64.0  0.1328   57.6  0.4022  -40.8
 1.220  0.4017  168.5   2.358   63.3  0.1345   57.7  0.4012  -41.2
 1.240  0.4021  167.5   2.324   62.7  0.1362   57.8  0.4003  -41.5
 1.260  0.4027  166.6   2.289   62.0  0.1380   57.8  0.3993  -41.9
 1.280  0.4033  165.6   2.255   61.2  0.1397   57.9  0.3984  -42.2
 1.300  0.4041  164.6   2.222   60.5  0.1414   58.0  0.3975  -42.6
 1.320  0.4042  163.7   2.192   59.9  0.1433   58.1  0.3967  -43.0
 1.340  0.4044  162.8   2.163   59.3  0.1451   58.2  0.3960  -43.3
 1.360  0.4047  162.0   2.134   58.7  0.1470   58.2  0.3952  -43.7
 1.380  0.4051  161.1   2.105   58.1  0.1488   58.3  0.3945  -44.0
 1.400  0.4056  160.2   2.076   57.4  0.1507   58.4  0.3938  -44.4
 1.420  0.4067  159.4   2.049   56.8  0.1525   58.4  0.3926  -44.9
 1.440  0.4079  158.5   2.021   56.2  0.1543   58.5  0.3914  -45.3
 1.460  0.4092  157.7   1.994   55.6  0.1562   58.5  0.3902  -45.8
 1.480  0.4106  156.9   1.968   55.0  0.1580   58.6  0.3891  -46.2
 1.500  0.4121  156.1   1.941   54.3  0.1598   58.6  0.3880  -46.7
 1.520  0.4133  155.3   1.922   53.7  0.1617   58.6  0.3870  -47.1
 1.540  0.4146  154.5   1.903   53.2  0.1636   58.6  0.3861  -47.6
 1.560  0.4159  153.7   1.884   52.6  0.1654   58.6  0.3852  -48.0
 1.580  0.4174  153.0   1.865   52.0  0.1673   58.6  0.3843  -48.5
 1.600  0.4189  152.2   1.847   51.4  0.1692   58.6  0.3834  -48.9
 1.620  0.4208  151.4   1.829   50.8  0.1711   58.6  0.3828  -49.4
 1.640  0.4228  150.7   1.811   50.3  0.1730   58.6  0.3822  -49.9
 1.660  0.4249  150.0   1.793   49.7  0.1750   58.6  0.3816  -50.3
 1.680  0.4270  149.2   1.775   49.1  0.1769   58.6  0.3811  -50.8
 1.700  0.4292  148.5   1.758   48.5  0.1788   58.6  0.3806  -51.3
 1.720  0.4297  147.8   1.741   47.9  0.1809   58.6  0.3802  -51.8
 1.740  0.4303  147.1   1.723   47.4  0.1829   58.6  0.3798  -52.3
 1.760  0.4309  146.5   1.706   46.8  0.1850   58.5  0.3794  -52.8
 1.780  0.4316  145.8   1.690   46.2  0.1870   58.5  0.3791  -53.3
 1.800  0.4323  145.1   1.673   45.6  0.1891   58.5  0.3788  -53.8
 1.820  0.4331  144.4   1.658   45.1  0.1912   58.5  0.3782  -54.3
 1.840  0.4340  143.7   1.642   44.7  0.1932   58.5  0.3777  -54.8
 1.860  0.4349  143.1   1.627   44.2  0.1953   58.4  0.3772  -55.3
 1.880  0.4359  142.4   1.612   43.7  0.1973   58.4  0.3767  -55.8
 1.900  0.4369  141.7   1.597   43.2  0.1994   58.4  0.3763  -56.3
 1.920  0.4386  141.1   1.584   42.7  0.2015   58.3  0.3757  -56.8
 1.940  0.4404  140.5   1.571   42.2  0.2036   58.3  0.3751  -57.3
 1.960  0.4422  139.9   1.558   41.7  0.2056   58.2  0.3745  -57.7
 1.980  0.4440  139.4   1.545   41.1  0.2077   58.2  0.3740  -58.2
 2.000  0.4459  138.8   1.532   40.6  0.2098   58.1  0.3735  -58.7
 2.020  0.4469  138.2   1.520   40.1  0.2120   58.0  0.3730  -59.2
 2.040  0.4480  137.6   1.508   39.7  0.2142   57.9  0.3726  -59.8
 2.060  0.4492  136.9   1.496   39.2  0.2164   57.8  0.3722  -60.3
 2.080  0.4504  136.3   1.484   38.7  0.2186   57.8  0.3719  -60.8
 2.100  0.4516  135.7   1.473   38.2  0.2207   57.7  0.3716  -61.3
 2.120  0.4529  135.1   1.461   37.8  0.2229   57.6  0.3713  -61.9
 2.140  0.4543  134.5   1.450   37.3  0.2251   57.5  0.3710  -62.4
 2.160  0.4557  133.9   1.438   36.7  0.2273   57.4  0.3708  -62.9
 2.180  0.4571  133.3   1.427   36.2  0.2295   57.4  0.3706  -63.5
 2.200  0.4586  132.7   1.416   35.7  0.2317   57.3  0.3704  -64.0
 2.220  0.4597  132.2   1.407   35.3  0.2340   57.2  0.3700  -64.6
 2.240  0.4609  131.7   1.397   34.8  0.2362   57.0  0.3696  -65.1
 2.260  0.4622  131.2   1.388   34.4  0.2385   56.9  0.3692  -65.7
 2.280  0.4634  130.7   1.379   33.9  0.2407   56.8  0.3689  -66.3
 2.300  0.4647  130.2   1.369   33.5  0.2430   56.7  0.3686  -66.8
 2.320  0.4660  129.7   1.360   33.0  0.2452   56.6  0.3684  -67.4
 2.340  0.4674  129.2   1.351   32.5  0.2475   56.4  0.3682  -68.0
 2.360  0.4688  128.7   1.342   32.1  0.2498   56.3  0.3680  -68.6
 2.380  0.4702  128.2   1.334   31.6  0.2520   56.2  0.3679  -69.1
 2.400  0.4717  127.7   1.325   31.1  0.2543   56.1  0.3678  -69.7
 2.420  0.4731  127.1   1.316   30.7  0.2567   55.9  0.3673  -70.3
 2.440  0.4746  126.5   1.307   30.2  0.2590   55.8  0.3668  -70.9
 2.460  0.4762  125.9   1.298   29.8  0.2614   55.7  0.3664  -71.5
 2.480  0.4778  125.3   1.289   29.3  0.2638   55.5  0.3660  -72.2
 2.500  0.4794  124.7   1.280   28.8  0.2661   55.4  0.3656  -72.8
 2.520  0.4811  124.2   1.271   28.4  0.2685   55.2  0.3653  -73.4
 2.540  0.4829  123.6   1.262   27.9  0.2709   55.1  0.3650  -74.0
 2.560  0.4847  123.0   1.254   27.4  0.2732   55.0  0.3648  -74.7
 2.580  0.4865  122.5   1.245   26.9  0.2756   54.8  0.3646  -75.3
 2.600  0.4884  121.9   1.237   26.4  0.2780   54.7  0.3645  -75.9
 2.620  0.4894  121.4   1.230   26.0  0.2804   54.5  0.3638  -76.6
 2.640  0.4904  120.9   1.223   25.6  0.2828   54.3  0.3631  -77.3
 2.660  0.4914  120.4   1.216   25.2  0.2852   54.2  0.3625  -77.9
 2.680  0.4925  119.9   1.209   24.8  0.2876   54.0  0.3619  -78.6
 2.700  0.4936  119.4   1.203   24.4  0.2900   53.8  0.3614  -79.3
 2.720  0.4948  118.9   1.196   23.9  0.2924   53.6  0.3609  -80.0
 2.740  0.4960  118.4   1.189   23.5  0.2948   53.5  0.3605  -80.7
 2.760  0.4972  117.9   1.183   23.1  0.2973   53.3  0.3602  -81.4
 2.780  0.4985  117.4   1.176   22.6  0.2997   53.2  0.3599  -82.1
 2.800  0.4998  116.9   1.170   22.2  0.3021   53.0  0.3596  -82.8
 2.820  0.5010  116.4   1.164   21.8  0.3046   52.8  0.3592  -83.5
 2.840  0.5022  115.9   1.158   21.5  0.3072   52.6  0.3589  -84.2
 2.860  0.5035  115.5   1.152   21.1  0.3097   52.4  0.3586  -85.0
 2.880  0.5048  115.0   1.146   20.7  0.3123   52.2  0.3584  -85.7
 2.900  0.5062  114.5   1.140   20.3  0.3148   52.0  0.3583  -86.4
 2.920  0.5076  114.0   1.135   19.9  0.3174   51.8  0.3582  -87.1
 2.940  0.5090  113.6   1.129   19.5  0.3199   51.6  0.3582  -87.8
 2.960  0.5104  113.1   1.123   19.1  0.3225   51.5  0.3582  -88.6
 2.980  0.5119  112.7   1.118   18.7  0.3250   51.3  0.3583  -89.3
 3.000  0.5134  112.2   1.112   18.3  0.3276   51.1  0.3584  -90.0
!
!  f       NFmin   Gammaopt  rn/50
! GHz       dB    MAG  ANG    -
!
! noise parameter not available yet for this operation point!
!
! (c) 2015  Infineon Technologies AG, Munich
