! Infineon Technologies  Discrete & RF Semiconductors
! BFR93A
! VCE =  5.0 V,  IC =  10 mA
! Common Emitter S-Parameters:                            Nov 2015
# GHz  S  MA  R  50
!  f         S11            S21            S12            S22
! GHz     MAG   ANG      MAG   ANG      MAG   ANG      MAG   ANG
 0.010  0.7546   -7.0  25.541  174.5  0.0037   87.4  0.9804   -3.7
 0.015  0.7476  -10.4  25.375  172.0  0.0055   83.2  0.9750   -5.4
 0.020  0.7434  -13.9  25.257  169.5  0.0073   81.1  0.9704   -7.1
 0.025  0.7305  -17.1  24.882  167.3  0.0089   79.0  0.9586   -8.6
 0.030  0.7200  -20.3  24.544  165.0  0.0105   77.5  0.9475  -10.2
 0.035  0.7118  -23.7  24.246  162.7  0.0122   76.5  0.9372  -11.8
 0.040  0.7061  -27.1  23.990  160.3  0.0138   75.7  0.9276  -13.5
 0.045  0.7029  -30.5  23.776  157.9  0.0155   75.0  0.9189  -15.2
 0.050  0.7023  -34.0  23.605  155.4  0.0171   74.5  0.9109  -16.9
 0.055  0.6863  -36.4  23.125  153.9  0.0183   72.9  0.8959  -17.9
 0.060  0.6716  -38.9  22.663  152.3  0.0195   71.4  0.8811  -18.9
 0.065  0.6583  -41.6  22.218  150.6  0.0207   70.2  0.8667  -19.9
 0.070  0.6464  -44.3  21.793  148.9  0.0219   69.1  0.8525  -21.0
 0.075  0.6360  -47.1  21.388  147.1  0.0231   68.1  0.8387  -22.1
 0.080  0.6272  -50.0  21.005  145.3  0.0243   67.2  0.8251  -23.3
 0.085  0.6201  -53.0  20.644  143.4  0.0256   66.3  0.8120  -24.5
 0.090  0.6147  -56.1  20.308  141.4  0.0268   65.6  0.7992  -25.7
 0.095  0.6111  -59.2  19.997  139.3  0.0281   64.9  0.7867  -27.0
 0.100  0.6093  -62.3  19.712  137.2  0.0293   64.3  0.7747  -28.3
 0.105  0.5972  -64.1  19.304  136.1  0.0301   63.7  0.7620  -28.8
 0.110  0.5858  -66.0  18.903  135.0  0.0308   63.1  0.7493  -29.3
 0.115  0.5750  -68.0  18.509  133.8  0.0316   62.5  0.7367  -29.9
 0.120  0.5649  -70.0  18.124  132.6  0.0323   61.9  0.7242  -30.5
 0.125  0.5556  -72.2  17.748  131.3  0.0331   61.4  0.7118  -31.0
 0.130  0.5470  -74.3  17.381  129.9  0.0339   60.9  0.6994  -31.6
 0.135  0.5393  -76.6  17.024  128.5  0.0347   60.4  0.6871  -32.3
 0.140  0.5324  -78.9  16.677  127.1  0.0354   60.0  0.6749  -32.9
 0.145  0.5265  -81.3  16.342  125.6  0.0362   59.5  0.6628  -33.6
 0.150  0.5214  -83.7  16.018  124.0  0.0370   59.1  0.6508  -34.3
 0.155  0.5135  -85.2  15.724  123.3  0.0376   58.9  0.6419  -34.5
 0.160  0.5060  -86.7  15.433  122.5  0.0382   58.7  0.6330  -34.8
 0.165  0.4989  -88.3  15.145  121.7  0.0388   58.5  0.6241  -35.0
 0.170  0.4922  -90.0  14.860  120.8  0.0394   58.3  0.6152  -35.3
 0.175  0.4859  -91.6  14.578  120.0  0.0400   58.1  0.6064  -35.6
 0.180  0.4800  -93.3  14.299  119.1  0.0406   58.0  0.5975  -35.8
 0.185  0.4745  -95.1  14.025  118.1  0.0412   57.8  0.5887  -36.1
 0.190  0.4696  -96.9  13.754  117.2  0.0418   57.6  0.5799  -36.4
 0.195  0.4650  -98.7  13.487  116.2  0.0424   57.5  0.5711  -36.7
 0.200  0.4610 -100.6  13.225  115.1  0.0430   57.3  0.5623  -37.0
 0.220  0.4430 -105.7  12.371  112.7  0.0450   57.1  0.5370  -37.4
 0.240  0.4288 -111.2  11.543  109.9  0.0471   56.9  0.5117  -37.9
 0.260  0.4178 -116.0  10.822  107.4  0.0491   57.0  0.4903  -38.1
 0.280  0.4085 -120.0  10.194  105.5  0.0510   57.2  0.4726  -38.2
 0.300  0.4012 -124.1   9.578  103.3  0.0529   57.5  0.4550  -38.2
 0.320  0.3920 -127.3   9.135  102.0  0.0548   57.8  0.4435  -38.1
 0.340  0.3841 -130.6   8.697  100.6  0.0568   58.1  0.4319  -38.0
 0.360  0.3775 -134.0   8.264   99.1  0.0587   58.4  0.4204  -37.9
 0.380  0.3723 -137.6   7.839   97.3  0.0607   58.7  0.4088  -37.8
 0.400  0.3686 -141.2   7.421   95.4  0.0626   58.9  0.3973  -37.7
 0.420  0.3641 -143.7   7.144   94.4  0.0646   59.2  0.3908  -37.6
 0.440  0.3602 -146.2   6.870   93.3  0.0666   59.6  0.3842  -37.5
 0.450  0.3586 -147.5   6.733   92.7  0.0676   59.7  0.3809  -37.4
 0.460  0.3571 -148.8   6.598   92.1  0.0687   59.9  0.3777  -37.4
 0.480  0.3547 -151.4   6.329   90.8  0.0707   60.1  0.3711  -37.2
 0.500  0.3530 -154.0   6.064   89.4  0.0727   60.4  0.3646  -37.1
 0.520  0.3511 -155.9   5.872   88.5  0.0748   60.7  0.3602  -37.1
 0.540  0.3495 -157.8   5.681   87.6  0.0769   60.9  0.3559  -37.0
 0.560  0.3484 -159.8   5.491   86.7  0.0790   61.2  0.3515  -37.0
 0.580  0.3476 -161.7   5.304   85.6  0.0811   61.4  0.3472  -36.9
 0.600  0.3473 -163.7   5.118   84.5  0.0832   61.6  0.3428  -36.9
 0.620  0.3466 -165.2   4.977   83.7  0.0853   61.8  0.3398  -37.0
 0.640  0.3462 -166.8   4.838   82.9  0.0875   61.9  0.3368  -37.0
 0.660  0.3461 -168.3   4.699   82.0  0.0896   62.1  0.3339  -37.1
 0.680  0.3462 -169.9   4.562   81.1  0.0918   62.3  0.3309  -37.1
 0.700  0.3465 -171.4   4.426   80.1  0.0939   62.4  0.3279  -37.2
 0.720  0.3461 -172.8   4.320   79.4  0.0960   62.5  0.3256  -37.3
 0.740  0.3460 -174.1   4.215   78.7  0.0982   62.6  0.3232  -37.4
 0.760  0.3460 -175.5   4.111   77.9  0.1003   62.7  0.3209  -37.6
 0.780  0.3463 -176.8   4.008   77.1  0.1025   62.7  0.3185  -37.7
 0.800  0.3467 -178.2   3.905   76.2  0.1046   62.8  0.3162  -37.8
 0.820  0.3473 -179.5   3.822   75.6  0.1067   62.8  0.3143  -38.0
 0.840  0.3480  179.3   3.739   74.9  0.1088   62.9  0.3124  -38.2
 0.860  0.3489  178.0   3.657   74.3  0.1110   62.9  0.3105  -38.4
 0.880  0.3500  176.7   3.576   73.5  0.1131   63.0  0.3087  -38.6
 0.900  0.3512  175.5   3.495   72.8  0.1152   63.0  0.3068  -38.8
 0.920  0.3510  174.5   3.428   72.1  0.1174   63.0  0.3055  -39.0
 0.940  0.3509  173.4   3.362   71.4  0.1195   63.0  0.3042  -39.3
 0.960  0.3510  172.4   3.297   70.7  0.1217   62.9  0.3029  -39.5
 0.980  0.3511  171.3   3.232   70.0  0.1238   62.9  0.3017  -39.8
 1.000  0.3514  170.3   3.167   69.2  0.1260   62.9  0.3004  -40.0
 1.020  0.3529  169.3   3.114   68.6  0.1282   62.8  0.2991  -40.4
 1.040  0.3546  168.4   3.062   68.0  0.1304   62.8  0.2977  -40.7
 1.060  0.3563  167.5   3.010   67.3  0.1327   62.7  0.2964  -41.1
 1.080  0.3581  166.5   2.959   66.7  0.1349   62.7  0.2951  -41.4
 1.100  0.3600  165.6   2.908   66.0  0.1371   62.6  0.2938  -41.8
 1.120  0.3613  164.7   2.864   65.4  0.1393   62.5  0.2925  -42.1
 1.140  0.3627  163.8   2.819   64.8  0.1415   62.4  0.2912  -42.5
 1.160  0.3642  162.9   2.776   64.2  0.1436   62.4  0.2899  -42.8
 1.180  0.3658  162.1   2.732   63.6  0.1458   62.3  0.2886  -43.2
 1.200  0.3675  161.2   2.689   62.9  0.1480   62.2  0.2873  -43.5
 1.220  0.3689  160.4   2.649   62.3  0.1502   62.1  0.2864  -43.9
 1.240  0.3705  159.5   2.610   61.7  0.1524   62.0  0.2854  -44.3
 1.260  0.3721  158.7   2.571   61.0  0.1545   62.0  0.2845  -44.6
 1.280  0.3737  157.9   2.532   60.4  0.1567   61.9  0.2836  -45.0
 1.300  0.3755  157.1   2.494   59.7  0.1589   61.8  0.2827  -45.4
 1.320  0.3759  156.3   2.460   59.2  0.1611   61.7  0.2819  -45.8
 1.340  0.3765  155.6   2.427   58.6  0.1633   61.6  0.2812  -46.2
 1.360  0.3770  154.8   2.394   58.1  0.1655   61.5  0.2804  -46.5
 1.380  0.3777  154.1   2.361   57.5  0.1677   61.4  0.2797  -46.9
 1.400  0.3784  153.3   2.328   56.9  0.1699   61.3  0.2790  -47.3
 1.420  0.3791  152.7   2.298   56.3  0.1721   61.2  0.2778  -47.8
 1.440  0.3799  152.1   2.269   55.8  0.1743   61.0  0.2767  -48.2
 1.460  0.3807  151.4   2.239   55.2  0.1765   60.9  0.2755  -48.7
 1.480  0.3816  150.8   2.210   54.6  0.1787   60.7  0.2744  -49.2
 1.500  0.3825  150.2   2.181   54.0  0.1809   60.6  0.2733  -49.7
 1.520  0.3844  149.5   2.159   53.5  0.1831   60.5  0.2724  -50.2
 1.540  0.3863  148.7   2.137   53.0  0.1852   60.4  0.2715  -50.7
 1.560  0.3883  148.0   2.115   52.4  0.1874   60.2  0.2706  -51.2
 1.580  0.3903  147.3   2.093   51.9  0.1895   60.1  0.2697  -51.7
 1.600  0.3924  146.6   2.072   51.3  0.1917   60.0  0.2689  -52.2
 1.620  0.3944  145.9   2.052   50.8  0.1939   59.8  0.2682  -52.7
 1.640  0.3965  145.3   2.031   50.3  0.1962   59.7  0.2676  -53.2
 1.660  0.3987  144.6   2.011   49.7  0.1984   59.5  0.2670  -53.8
 1.680  0.4009  143.9   1.992   49.2  0.2007   59.4  0.2664  -54.3
 1.700  0.4031  143.3   1.972   48.6  0.2029   59.2  0.2658  -54.8
 1.720  0.4033  142.8   1.952   48.1  0.2051   59.0  0.2654  -55.3
 1.740  0.4035  142.3   1.932   47.6  0.2073   58.9  0.2650  -55.8
 1.760  0.4037  141.9   1.912   47.0  0.2094   58.7  0.2647  -56.4
 1.780  0.4040  141.4   1.892   46.5  0.2116   58.6  0.2643  -56.9
 1.800  0.4043  140.9   1.873   45.9  0.2138   58.4  0.2640  -57.4
 1.820  0.4051  140.3   1.856   45.5  0.2160   58.3  0.2634  -57.9
 1.840  0.4060  139.6   1.839   45.0  0.2182   58.1  0.2629  -58.5
 1.860  0.4070  139.0   1.823   44.5  0.2205   58.0  0.2624  -59.0
 1.880  0.4080  138.3   1.806   44.1  0.2227   57.8  0.2619  -59.6
 1.900  0.4090  137.7   1.790   43.6  0.2249   57.7  0.2614  -60.1
 1.920  0.4105  137.2   1.775   43.1  0.2271   57.5  0.2608  -60.6
 1.940  0.4120  136.6   1.760   42.6  0.2293   57.4  0.2603  -61.1
 1.960  0.4136  136.1   1.745   42.1  0.2316   57.2  0.2597  -61.6
 1.980  0.4152  135.5   1.730   41.6  0.2338   57.1  0.2592  -62.1
 2.000  0.4169  135.0   1.715   41.1  0.2360   56.9  0.2587  -62.6
 2.020  0.4181  134.4   1.701   40.6  0.2382   56.7  0.2582  -63.2
 2.040  0.4193  133.9   1.688   40.2  0.2404   56.5  0.2577  -63.7
 2.060  0.4206  133.3   1.675   39.7  0.2426   56.3  0.2573  -64.3
 2.080  0.4218  132.8   1.662   39.2  0.2449   56.1  0.2568  -64.9
 2.100  0.4232  132.3   1.648   38.7  0.2471   56.0  0.2564  -65.4
 2.120  0.4246  131.7   1.636   38.3  0.2493   55.8  0.2561  -66.0
 2.140  0.4260  131.2   1.623   37.8  0.2515   55.6  0.2557  -66.6
 2.160  0.4274  130.7   1.610   37.2  0.2537   55.4  0.2554  -67.1
 2.180  0.4289  130.1   1.597   36.7  0.2560   55.3  0.2551  -67.7
 2.200  0.4304  129.6   1.585   36.2  0.2582   55.1  0.2548  -68.3
 2.220  0.4314  129.2   1.574   35.8  0.2604   54.9  0.2544  -68.9
 2.240  0.4324  128.7   1.564   35.4  0.2627   54.7  0.2540  -69.5
 2.260  0.4334  128.3   1.554   35.0  0.2649   54.4  0.2536  -70.1
 2.280  0.4345  127.9   1.543   34.5  0.2671   54.2  0.2533  -70.8
 2.300  0.4356  127.5   1.533   34.1  0.2694   54.0  0.2530  -71.4
 2.320  0.4367  127.1   1.523   33.7  0.2716   53.8  0.2528  -72.0
 2.340  0.4378  126.6   1.513   33.3  0.2738   53.6  0.2525  -72.6
 2.360  0.4389  126.2   1.503   32.8  0.2761   53.4  0.2523  -73.3
 2.380  0.4401  125.8   1.493   32.4  0.2783   53.2  0.2521  -73.9
 2.400  0.4413  125.4   1.483   31.9  0.2806   53.0  0.2520  -74.5
 2.420  0.4428  124.9   1.473   31.5  0.2828   52.8  0.2515  -75.2
 2.440  0.4443  124.3   1.463   31.0  0.2851   52.6  0.2510  -75.8
 2.460  0.4459  123.8   1.454   30.6  0.2873   52.4  0.2506  -76.5
 2.480  0.4475  123.3   1.444   30.2  0.2896   52.2  0.2502  -77.2
 2.500  0.4491  122.8   1.434   29.7  0.2919   52.0  0.2498  -77.9
 2.520  0.4508  122.2   1.425   29.3  0.2941   51.8  0.2495  -78.6
 2.540  0.4525  121.7   1.416   28.8  0.2964   51.6  0.2492  -79.2
 2.560  0.4543  121.2   1.406   28.3  0.2987   51.4  0.2489  -79.9
 2.580  0.4561  120.7   1.397   27.9  0.3009   51.2  0.2487  -80.6
 2.600  0.4579  120.2   1.388   27.4  0.3032   51.0  0.2485  -81.3
 2.620  0.4592  119.7   1.381   27.0  0.3054   50.8  0.2479  -82.0
 2.640  0.4605  119.2   1.374   26.6  0.3076   50.5  0.2473  -82.8
 2.660  0.4619  118.8   1.366   26.1  0.3098   50.3  0.2468  -83.5
 2.680  0.4633  118.3   1.359   25.7  0.3120   50.1  0.2463  -84.2
 2.700  0.4647  117.8   1.353   25.3  0.3142   49.9  0.2458  -85.0
 2.720  0.4662  117.3   1.346   24.8  0.3165   49.6  0.2454  -85.7
 2.740  0.4677  116.9   1.339   24.4  0.3187   49.4  0.2451  -86.5
 2.760  0.4692  116.4   1.332   23.9  0.3209   49.2  0.2447  -87.2
 2.780  0.4707  116.0   1.326   23.5  0.3232   49.0  0.2444  -87.9
 2.800  0.4723  115.5   1.319   23.0  0.3254   48.8  0.2442  -88.7
 2.820  0.4739  115.0   1.311   22.6  0.3277   48.6  0.2439  -89.5
 2.840  0.4754  114.6   1.304   22.3  0.3300   48.3  0.2436  -90.3
 2.860  0.4770  114.1   1.297   21.9  0.3323   48.1  0.2433  -91.1
 2.880  0.4787  113.7   1.289   21.5  0.3347   47.8  0.2431  -91.9
 2.900  0.4803  113.3   1.282   21.2  0.3370   47.6  0.2430  -92.7
 2.920  0.4820  112.8   1.275   20.8  0.3393   47.4  0.2429  -93.6
 2.940  0.4838  112.4   1.267   20.4  0.3417   47.2  0.2428  -94.4
 2.960  0.4855  112.0   1.260   20.0  0.3440   46.9  0.2429  -95.2
 2.980  0.4873  111.5   1.253   19.6  0.3463   46.7  0.2429  -96.0
 3.000  0.4891  111.1   1.246   19.2  0.3487   46.5  0.2430  -96.8
!
!  f       NFmin   Gammaopt  rn/50
! GHz       dB    MAG  ANG    -
!
! noise parameter not available yet for this operation point!
!
! (c) 2015  Infineon Technologies AG, Munich
