! Infineon Technologies  Discrete & RF Semiconductors
! BFR93AW
! VCE =  8.0 V,  IC =  6.5 mA
! Common Emitter S-Parameters:                            Nov 2015
# GHz  S  MA  R  50
!  f         S11            S21            S12            S22
! GHz     MAG   ANG      MAG   ANG      MAG   ANG      MAG   ANG
 0.030  0.7898  -17.5  19.597  169.0  0.0093   80.4  0.9826   -7.1
 0.035  0.7867  -20.0  19.486  167.2  0.0108   79.3  0.9750   -8.2
 0.040  0.7851  -22.5  19.395  165.4  0.0124   78.4  0.9677   -9.3
 0.045  0.7850  -25.0  19.323  163.6  0.0139   77.7  0.9608  -10.4
 0.050  0.7864  -27.5  19.272  161.7  0.0155   77.2  0.9542  -11.6
 0.055  0.7751  -29.8  19.028  160.3  0.0167   75.2  0.9444  -12.4
 0.060  0.7651  -32.1  18.795  158.9  0.0179   73.5  0.9349  -13.3
 0.065  0.7564  -34.5  18.575  157.4  0.0191   72.0  0.9255  -14.2
 0.070  0.7491  -37.0  18.367  155.9  0.0203   70.6  0.9164  -15.1
 0.075  0.7432  -39.5  18.172  154.4  0.0215   69.4  0.9075  -16.0
 0.080  0.7387  -42.1  17.990  152.8  0.0228   68.4  0.8989  -16.9
 0.085  0.7357  -44.6  17.822  151.2  0.0240   67.5  0.8905  -17.8
 0.090  0.7342  -47.2  17.669  149.5  0.0253   66.6  0.8823  -18.8
 0.095  0.7342  -49.8  17.530  147.9  0.0265   65.8  0.8744  -19.8
 0.100  0.7357  -52.4  17.406  146.2  0.0278   65.1  0.8667  -20.8
 0.105  0.7251  -54.3  17.136  145.1  0.0286   64.3  0.8567  -21.3
 0.110  0.7154  -56.3  16.873  144.0  0.0294   63.6  0.8468  -21.9
 0.115  0.7065  -58.3  16.616  142.8  0.0302   62.9  0.8370  -22.4
 0.120  0.6986  -60.4  16.366  141.6  0.0311   62.3  0.8272  -23.0
 0.125  0.6916  -62.5  16.124  140.4  0.0319   61.7  0.8175  -23.6
 0.130  0.6855  -64.7  15.889  139.1  0.0327   61.1  0.8079  -24.2
 0.135  0.6804  -66.9  15.662  137.8  0.0335   60.5  0.7984  -24.8
 0.140  0.6764  -69.1  15.444  136.5  0.0344   60.0  0.7890  -25.5
 0.145  0.6734  -71.3  15.234  135.1  0.0352   59.5  0.7797  -26.1
 0.150  0.6714  -73.6  15.034  133.7  0.0361   59.0  0.7705  -26.8
 0.155  0.6645  -75.1  14.812  132.9  0.0366   58.4  0.7624  -27.1
 0.160  0.6580  -76.6  14.592  132.1  0.0372   57.9  0.7543  -27.5
 0.165  0.6520  -78.1  14.376  131.2  0.0377   57.3  0.7462  -27.8
 0.170  0.6465  -79.7  14.163  130.3  0.0383   56.8  0.7382  -28.2
 0.175  0.6415  -81.3  13.954  129.4  0.0388   56.3  0.7302  -28.5
 0.180  0.6369  -82.9  13.749  128.5  0.0394   55.8  0.7223  -28.9
 0.185  0.6329  -84.6  13.547  127.5  0.0399   55.4  0.7143  -29.3
 0.190  0.6294  -86.2  13.349  126.5  0.0405   54.9  0.7064  -29.7
 0.195  0.6265  -87.9  13.155  125.5  0.0410   54.4  0.6985  -30.1
 0.200  0.6241  -89.6  12.966  124.4  0.0416   54.0  0.6907  -30.5
 0.220  0.6027  -94.9  12.238  121.7  0.0436   52.5  0.6637  -31.2
 0.240  0.5869 -100.5  11.540  118.7  0.0456   51.1  0.6368  -32.0
 0.260  0.5746 -105.5  10.920  116.0  0.0472   50.3  0.6139  -32.6
 0.280  0.5641 -109.9  10.362  113.8  0.0484   50.1  0.5948  -32.9
 0.300  0.5570 -114.4   9.821  111.3  0.0496   49.9  0.5758  -33.3
 0.320  0.5459 -117.6   9.395  109.9  0.0507   49.7  0.5621  -33.4
 0.340  0.5367 -120.9   8.976  108.3  0.0518   49.6  0.5484  -33.5
 0.360  0.5292 -124.3   8.564  106.6  0.0529   49.4  0.5346  -33.5
 0.380  0.5237 -127.8   8.160  104.7  0.0540   49.3  0.5209  -33.6
 0.400  0.5202 -131.4   7.767  102.6  0.0551   49.2  0.5072  -33.7
 0.420  0.5148 -133.8   7.490  101.5  0.0561   49.4  0.4987  -33.7
 0.440  0.5103 -136.3   7.216  100.2  0.0571   49.6  0.4902  -33.7
 0.450  0.5084 -137.5   7.080   99.6  0.0576   49.7  0.4859  -33.7
 0.460  0.5067 -138.8   6.945   98.9  0.0581   49.8  0.4817  -33.7
 0.480  0.5042 -141.3   6.679   97.5  0.0592   50.0  0.4732  -33.8
 0.500  0.5026 -143.9   6.417   96.0  0.0602   50.2  0.4647  -33.8
 0.520  0.5000 -145.7   6.217   95.1  0.0612   50.6  0.4596  -33.8
 0.540  0.4979 -147.5   6.018   94.2  0.0623   51.0  0.4544  -33.8
 0.560  0.4963 -149.4   5.821   93.1  0.0633   51.4  0.4493  -33.8
 0.580  0.4952 -151.2   5.626   92.1  0.0644   51.8  0.4441  -33.8
 0.600  0.4946 -153.1   5.433   90.9  0.0654   52.2  0.4390  -33.8
 0.620  0.4930 -154.7   5.290   90.1  0.0665   52.5  0.4354  -33.9
 0.640  0.4917 -156.2   5.149   89.3  0.0676   52.8  0.4319  -34.0
 0.660  0.4908 -157.8   5.008   88.4  0.0688   53.1  0.4283  -34.1
 0.680  0.4903 -159.4   4.869   87.5  0.0699   53.4  0.4248  -34.2
 0.700  0.4902 -161.0   4.731   86.5  0.0710   53.7  0.4212  -34.3
 0.720  0.4897 -162.3   4.617   85.8  0.0720   54.2  0.4181  -34.5
 0.740  0.4896 -163.7   4.504   85.0  0.0731   54.7  0.4149  -34.6
 0.760  0.4896 -165.0   4.392   84.2  0.0741   55.1  0.4118  -34.8
 0.780  0.4900 -166.4   4.281   83.4  0.0752   55.6  0.4086  -34.9
 0.800  0.4906 -167.7   4.171   82.5  0.0762   56.0  0.4055  -35.1
 0.820  0.4898 -168.8   4.083   81.8  0.0774   56.3  0.4040  -35.2
 0.840  0.4892 -169.9   3.996   81.2  0.0786   56.7  0.4025  -35.4
 0.860  0.4888 -170.9   3.910   80.4  0.0797   57.0  0.4011  -35.5
 0.880  0.4885 -172.0   3.824   79.7  0.0809   57.3  0.3996  -35.7
 0.900  0.4884 -173.1   3.739   78.9  0.0821   57.6  0.3981  -35.8
 0.920  0.4880 -174.1   3.668   78.3  0.0834   58.0  0.3966  -36.0
 0.940  0.4877 -175.1   3.597   77.7  0.0847   58.4  0.3951  -36.2
 0.960  0.4876 -176.2   3.526   77.0  0.0860   58.8  0.3936  -36.5
 0.980  0.4877 -177.2   3.456   76.3  0.0873   59.1  0.3922  -36.7
 1.000  0.4879 -178.2   3.387   75.6  0.0886   59.5  0.3907  -36.9
 1.020  0.4885 -179.1   3.329   75.0  0.0899   59.8  0.3891  -37.3
 1.040  0.4892 -179.9   3.272   74.4  0.0912   60.2  0.3875  -37.7
 1.060  0.4901  179.2   3.215   73.7  0.0924   60.5  0.3859  -38.1
 1.080  0.4910  178.4   3.158   73.1  0.0937   60.8  0.3843  -38.6
 1.100  0.4921  177.5   3.102   72.4  0.0950   61.1  0.3828  -39.0
 1.120  0.4928  176.7   3.053   71.9  0.0963   61.3  0.3822  -39.3
 1.140  0.4936  175.9   3.003   71.3  0.0975   61.5  0.3817  -39.5
 1.160  0.4946  175.0   2.955   70.7  0.0988   61.7  0.3811  -39.8
 1.180  0.4956  174.2   2.906   70.1  0.1000   61.8  0.3805  -40.0
 1.200  0.4967  173.4   2.858   69.5  0.1013   62.0  0.3800  -40.3
 1.220  0.4966  172.7   2.818   69.0  0.1028   62.3  0.3795  -40.6
 1.240  0.4966  172.0   2.778   68.5  0.1043   62.6  0.3789  -40.9
 1.260  0.4966  171.3   2.738   67.9  0.1058   62.9  0.3784  -41.1
 1.280  0.4967  170.6   2.698   67.4  0.1073   63.1  0.3779  -41.4
 1.300  0.4969  169.9   2.659   66.8  0.1088   63.4  0.3774  -41.7
 1.320  0.4976  169.2   2.624   66.3  0.1102   63.5  0.3763  -42.2
 1.340  0.4984  168.4   2.588   65.7  0.1117   63.6  0.3753  -42.7
 1.360  0.4992  167.7   2.553   65.2  0.1131   63.8  0.3743  -43.3
 1.380  0.5002  166.9   2.518   64.6  0.1146   63.9  0.3733  -43.8
 1.400  0.5012  166.2   2.484   64.0  0.1160   64.0  0.3724  -44.3
 1.420  0.5020  165.6   2.452   63.5  0.1174   64.3  0.3722  -44.7
 1.440  0.5029  165.0   2.420   63.0  0.1188   64.5  0.3720  -45.0
 1.460  0.5038  164.5   2.388   62.5  0.1203   64.7  0.3718  -45.4
 1.480  0.5048  163.9   2.356   61.9  0.1217   65.0  0.3717  -45.7
 1.500  0.5058  163.3   2.325   61.4  0.1231   65.2  0.3715  -46.1
 1.520  0.5058  162.6   2.299   60.9  0.1247   65.3  0.3707  -46.5
 1.540  0.5060  161.9   2.273   60.4  0.1263   65.4  0.3699  -46.8
 1.560  0.5062  161.1   2.248   59.9  0.1280   65.4  0.3691  -47.2
 1.580  0.5064  160.4   2.222   59.3  0.1296   65.5  0.3683  -47.5
 1.600  0.5068  159.7   2.197   58.8  0.1312   65.6  0.3675  -47.9
 1.620  0.5080  159.1   2.173   58.3  0.1328   65.7  0.3670  -48.5
 1.640  0.5092  158.5   2.150   57.8  0.1344   65.8  0.3665  -49.1
 1.660  0.5105  157.9   2.127   57.3  0.1359   65.8  0.3660  -49.7
 1.680  0.5119  157.3   2.104   56.7  0.1375   65.9  0.3656  -50.3
 1.700  0.5133  156.7   2.081   56.2  0.1391   66.0  0.3652  -50.9
 1.720  0.5140  156.2   2.060   55.8  0.1408   66.1  0.3657  -51.3
 1.740  0.5148  155.7   2.039   55.3  0.1425   66.2  0.3661  -51.7
 1.760  0.5156  155.1   2.018   54.8  0.1443   66.2  0.3666  -52.2
 1.780  0.5165  154.6   1.997   54.4  0.1460   66.3  0.3672  -52.6
 1.800  0.5174  154.1   1.976   53.9  0.1477   66.4  0.3677  -53.0
 1.820  0.5176  153.6   1.958   53.5  0.1495   66.5  0.3672  -53.4
 1.840  0.5178  153.1   1.940   53.0  0.1513   66.6  0.3666  -53.8
 1.860  0.5180  152.5   1.922   52.6  0.1532   66.7  0.3661  -54.2
 1.880  0.5183  152.0   1.905   52.2  0.1550   66.8  0.3657  -54.6
 1.900  0.5186  151.5   1.887   51.7  0.1568   66.9  0.3652  -55.0
 1.920  0.5199  150.9   1.870   51.2  0.1585   66.9  0.3653  -55.6
 1.940  0.5212  150.3   1.853   50.8  0.1602   66.9  0.3654  -56.1
 1.960  0.5226  149.7   1.836   50.3  0.1618   66.9  0.3656  -56.7
 1.980  0.5241  149.1   1.819   49.8  0.1635   66.9  0.3658  -57.2
 2.000  0.5256  148.5   1.802   49.3  0.1652   66.9  0.3660  -57.8
 2.020  0.5260  148.0   1.787   48.9  0.1671   66.9  0.3659  -58.2
 2.040  0.5264  147.5   1.773   48.5  0.1691   66.9  0.3658  -58.6
 2.060  0.5268  147.1   1.758   48.1  0.1710   66.9  0.3658  -59.0
 2.080  0.5273  146.6   1.743   47.7  0.1729   66.9  0.3657  -59.4
 2.100  0.5278  146.1   1.729   47.3  0.1749   66.9  0.3657  -59.8
 2.120  0.5283  145.6   1.715   46.9  0.1768   66.9  0.3657  -60.2
 2.140  0.5289  145.1   1.700   46.5  0.1787   66.9  0.3657  -60.6
 2.160  0.5295  144.7   1.686   46.1  0.1806   66.9  0.3658  -61.0
 2.180  0.5302  144.2   1.672   45.6  0.1826   66.9  0.3658  -61.4
 2.200  0.5309  143.7   1.658   45.2  0.1845   66.9  0.3659  -61.8
 2.220  0.5319  143.2   1.645   44.8  0.1864   66.9  0.3662  -62.3
 2.240  0.5330  142.7   1.633   44.4  0.1883   66.8  0.3665  -62.8
 2.260  0.5341  142.2   1.620   44.0  0.1902   66.8  0.3669  -63.4
 2.280  0.5353  141.7   1.608   43.6  0.1921   66.7  0.3673  -63.9
 2.300  0.5365  141.2   1.595   43.2  0.1940   66.7  0.3677  -64.4
 2.320  0.5377  140.7   1.583   42.8  0.1959   66.7  0.3682  -64.9
 2.340  0.5390  140.2   1.571   42.4  0.1978   66.6  0.3687  -65.5
 2.360  0.5403  139.8   1.559   42.0  0.1997   66.6  0.3692  -66.0
 2.380  0.5417  139.3   1.547   41.5  0.2016   66.5  0.3697  -66.5
 2.400  0.5431  138.8   1.535   41.1  0.2035   66.5  0.3703  -67.0
 2.420  0.5438  138.3   1.525   40.7  0.2056   66.4  0.3696  -67.6
 2.440  0.5445  137.8   1.514   40.3  0.2077   66.3  0.3690  -68.2
 2.460  0.5452  137.3   1.504   39.9  0.2098   66.2  0.3684  -68.8
 2.480  0.5460  136.7   1.494   39.5  0.2119   66.1  0.3679  -69.4
 2.500  0.5469  136.2   1.484   39.1  0.2140   66.0  0.3674  -70.0
 2.520  0.5477  135.7   1.473   38.6  0.2161   65.9  0.3669  -70.6
 2.540  0.5487  135.2   1.463   38.2  0.2182   65.8  0.3665  -71.2
 2.560  0.5496  134.7   1.454   37.8  0.2203   65.7  0.3661  -71.8
 2.580  0.5506  134.2   1.444   37.3  0.2224   65.6  0.3658  -72.4
 2.600  0.5517  133.7   1.434   36.9  0.2245   65.5  0.3655  -73.0
 2.620  0.5529  133.3   1.426   36.6  0.2267   65.4  0.3656  -73.5
 2.640  0.5540  132.9   1.417   36.2  0.2289   65.3  0.3658  -74.0
 2.660  0.5553  132.5   1.409   35.9  0.2311   65.2  0.3660  -74.5
 2.680  0.5565  132.1   1.401   35.5  0.2333   65.1  0.3663  -75.0
 2.700  0.5578  131.7   1.392   35.2  0.2355   65.0  0.3665  -75.5
 2.720  0.5591  131.3   1.384   34.8  0.2378   64.9  0.3668  -75.9
 2.740  0.5604  130.9   1.376   34.4  0.2400   64.9  0.3671  -76.4
 2.760  0.5617  130.5   1.368   34.1  0.2422   64.8  0.3674  -76.9
 2.780  0.5631  130.1   1.360   33.7  0.2444   64.7  0.3678  -77.4
 2.800  0.5645  129.7   1.352   33.3  0.2466   64.6  0.3682  -77.9
 2.820  0.5651  129.2   1.344   33.0  0.2486   64.5  0.3684  -78.4
 2.840  0.5657  128.8   1.336   32.6  0.2506   64.4  0.3687  -78.9
 2.860  0.5663  128.3   1.328   32.3  0.2526   64.3  0.3690  -79.4
 2.880  0.5670  127.9   1.321   31.9  0.2546   64.1  0.3693  -80.0
 2.900  0.5677  127.4   1.313   31.6  0.2566   64.0  0.3697  -80.5
 2.920  0.5684  127.0   1.305   31.2  0.2586   63.9  0.3701  -81.0
 2.940  0.5692  126.5   1.298   30.9  0.2607   63.8  0.3705  -81.5
 2.960  0.5700  126.1   1.290   30.5  0.2627   63.7  0.3709  -82.0
 2.980  0.5708  125.6   1.282   30.2  0.2647   63.6  0.3714  -82.5
 3.000  0.5717  125.2   1.275   29.8  0.2667   63.5  0.3719  -83.0
 3.100  0.5760  123.1   1.243   28.3  0.2780   62.5  0.3715  -86.2
 3.200  0.5811  121.0   1.211   26.7  0.2894   61.6  0.3722  -89.4
 3.300  0.5870  119.0   1.181   25.1  0.3009   60.8  0.3740  -92.5
 3.400  0.5935  117.0   1.151   23.3  0.3124   60.0  0.3770  -95.6
 3.500  0.6008  115.1   1.123   21.5  0.3240   59.3  0.3811  -98.7
 3.600  0.6032  113.2   1.097   20.3  0.3351   58.1  0.3806 -102.1
 3.700  0.6063  111.4   1.072   19.0  0.3463   57.1  0.3814 -105.5
 3.800  0.6100  109.5   1.047   17.6  0.3576   56.0  0.3835 -108.8
 3.900  0.6144  107.7   1.023   16.2  0.3690   55.1  0.3870 -112.2
 4.000  0.6193  105.9   0.999   14.7  0.3805   54.2  0.3917 -115.4
 4.100  0.6224  104.2   0.979   13.7  0.3911   52.8  0.3931 -118.6
 4.200  0.6261  102.6   0.959   12.6  0.4019   51.5  0.3958 -121.8
 4.300  0.6302  100.9   0.939   11.4  0.4129   50.3  0.3996 -124.9
 4.400  0.6349   99.3   0.920   10.2  0.4241   49.1  0.4046 -128.0
 4.500  0.6401   97.7   0.901    9.0  0.4354   48.0  0.4108 -131.0
 4.600  0.6415   96.3   0.887    8.1  0.4451   46.6  0.4119 -134.1
 4.700  0.6433   94.8   0.872    7.2  0.4551   45.4  0.4142 -137.2
 4.800  0.6455   93.4   0.858    6.3  0.4653   44.1  0.4177 -140.2
 4.900  0.6480   92.0   0.845    5.4  0.4757   42.9  0.4223 -143.2
 5.000  0.6510   90.6   0.831    4.4  0.4863   41.8  0.4281 -146.1
 5.100  0.6534   89.3   0.819    3.7  0.4948   40.5  0.4273 -149.1
 5.200  0.6562   88.0   0.807    3.0  0.5036   39.2  0.4276 -152.1
 5.300  0.6593   86.7   0.795    2.3  0.5127   37.9  0.4291 -155.1
 5.400  0.6627   85.4   0.784    1.6  0.5219   36.8  0.4318 -158.1
 5.500  0.6665   84.1   0.772    0.8  0.5314   35.6  0.4356 -161.0
 5.600  0.6669   82.9   0.765    0.2  0.5393   34.3  0.4359 -163.7
 5.700  0.6675   81.7   0.757   -0.4  0.5475   33.0  0.4372 -166.5
 5.800  0.6685   80.5   0.750   -1.0  0.5560   31.8  0.4395 -169.2
 5.900  0.6697   79.4   0.743   -1.7  0.5647   30.6  0.4427 -171.9
 6.000  0.6712   78.2   0.736   -2.3  0.5736   29.4  0.4469 -174.5
!
!  f       NFmin   Gammaopt  rn/50
! GHz       dB    MAG  ANG    -
!
! noise parameter not available yet for this operation point!
!
! (c) 2015  Infineon Technologies AG, Munich
