! Infineon Technologies  Discrete & RF Semiconductors
! BFR93AW
! VCE =  3.0 V,  IC =  8.0 mA
! Common Emitter S-Parameters:                            Nov 2015
# GHz  S  MA  R  50
!  f         S11            S21            S12            S22
! GHz     MAG   ANG      MAG   ANG      MAG   ANG      MAG   ANG
 0.030  0.7291  -22.2  23.360  166.7  0.0109   78.6  0.9678  -10.0
 0.035  0.7241  -25.4  23.130  164.6  0.0126   77.4  0.9567  -11.5
 0.040  0.7214  -28.6  22.932  162.4  0.0143   76.4  0.9464  -13.1
 0.045  0.7210  -31.9  22.769  160.2  0.0160   75.6  0.9368  -14.7
 0.050  0.7230  -35.1  22.641  157.9  0.0177   75.0  0.9280  -16.4
 0.055  0.7094  -37.8  22.246  156.4  0.0190   73.1  0.9140  -17.5
 0.060  0.6974  -40.6  21.868  154.8  0.0203   71.4  0.9003  -18.6
 0.065  0.6872  -43.5  21.507  153.2  0.0216   69.9  0.8870  -19.7
 0.070  0.6788  -46.5  21.163  151.5  0.0229   68.6  0.8740  -20.9
 0.075  0.6723  -49.6  20.839  149.8  0.0242   67.4  0.8614  -22.1
 0.080  0.6677  -52.7  20.534  148.0  0.0256   66.4  0.8491  -23.3
 0.085  0.6651  -55.8  20.249  146.1  0.0269   65.5  0.8373  -24.6
 0.090  0.6644  -58.9  19.987  144.2  0.0283   64.6  0.8259  -25.9
 0.095  0.6658  -62.1  19.747  142.3  0.0296   63.8  0.8150  -27.2
 0.100  0.6692  -65.2  19.530  140.3  0.0310   63.1  0.8045  -28.6
 0.105  0.6589  -67.3  19.155  139.2  0.0317   62.1  0.7916  -29.2
 0.110  0.6495  -69.5  18.788  138.1  0.0324   61.2  0.7787  -29.8
 0.115  0.6411  -71.7  18.428  136.9  0.0331   60.3  0.7659  -30.5
 0.120  0.6336  -74.0  18.076  135.7  0.0339   59.5  0.7533  -31.2
 0.125  0.6271  -76.4  17.733  134.5  0.0346   58.7  0.7408  -31.9
 0.130  0.6218  -78.8  17.398  133.2  0.0354   57.9  0.7284  -32.6
 0.135  0.6176  -81.2  17.072  131.8  0.0361   57.1  0.7161  -33.3
 0.140  0.6145  -83.6  16.757  130.4  0.0369   56.4  0.7039  -34.1
 0.145  0.6125  -86.1  16.452  128.9  0.0377   55.7  0.6918  -34.9
 0.150  0.6117  -88.6  16.159  127.4  0.0385   55.1  0.6799  -35.7
 0.155  0.6062  -90.2  15.880  126.6  0.0390   54.6  0.6704  -36.1
 0.160  0.6013  -91.8  15.605  125.8  0.0396   54.2  0.6610  -36.4
 0.165  0.5967  -93.4  15.332  125.0  0.0401   53.8  0.6515  -36.8
 0.170  0.5927  -95.1  15.063  124.1  0.0407   53.3  0.6421  -37.2
 0.175  0.5892  -96.7  14.797  123.3  0.0412   52.9  0.6328  -37.6
 0.180  0.5862  -98.4  14.535  122.3  0.0418   52.5  0.6234  -38.1
 0.185  0.5837 -100.1  14.277  121.4  0.0423   52.1  0.6142  -38.5
 0.190  0.5817 -101.8  14.023  120.4  0.0429   51.7  0.6049  -39.0
 0.195  0.5802 -103.6  13.773  119.4  0.0434   51.4  0.5957  -39.4
 0.200  0.5793 -105.3  13.528  118.3  0.0440   51.0  0.5865  -39.9
 0.220  0.5628 -110.4  12.679  115.8  0.0457   50.3  0.5574  -40.6
 0.240  0.5511 -115.8  11.857  113.0  0.0474   49.6  0.5284  -41.5
 0.260  0.5432 -120.6  11.139  110.5  0.0489   49.3  0.5040  -42.1
 0.280  0.5374 -124.7  10.510  108.5  0.0504   49.4  0.4843  -42.5
 0.300  0.5344 -128.9   9.896  106.2  0.0519   49.5  0.4646  -42.9
 0.320  0.5276 -131.9   9.445  104.9  0.0531   49.7  0.4507  -42.9
 0.340  0.5222 -134.9   8.999  103.5  0.0543   49.8  0.4368  -43.0
 0.360  0.5183 -137.9   8.559  102.0  0.0555   50.0  0.4230  -43.0
 0.380  0.5159 -141.1   8.126  100.3  0.0567   50.1  0.4091  -43.1
 0.400  0.5151 -144.2   7.701   98.4  0.0579   50.2  0.3953  -43.1
 0.420  0.5120 -146.3   7.416   97.4  0.0592   50.7  0.3868  -43.1
 0.440  0.5096 -148.4   7.134   96.3  0.0605   51.1  0.3783  -43.1
 0.450  0.5087 -149.5   6.994   95.7  0.0612   51.3  0.3740  -43.1
 0.460  0.5080 -150.6   6.855   95.1  0.0619   51.5  0.3697  -43.1
 0.480  0.5070 -152.7   6.579   93.8  0.0632   51.9  0.3612  -43.1
 0.500  0.5067 -154.8   6.306   92.4  0.0645   52.3  0.3527  -43.1
 0.520  0.5056 -156.4   6.105   91.6  0.0658   52.8  0.3478  -43.1
 0.540  0.5049 -158.0   5.905   90.7  0.0670   53.2  0.3429  -43.1
 0.560  0.5046 -159.6   5.707   89.8  0.0683   53.6  0.3379  -43.0
 0.580  0.5047 -161.2   5.511   88.8  0.0696   54.0  0.3330  -43.0
 0.600  0.5052 -162.8   5.316   87.7  0.0709   54.4  0.3281  -43.0
 0.620  0.5041 -164.1   5.173   87.0  0.0723   54.9  0.3246  -43.1
 0.640  0.5034 -165.4   5.031   86.2  0.0736   55.4  0.3210  -43.2
 0.660  0.5028 -166.8   4.891   85.4  0.0750   55.8  0.3175  -43.4
 0.680  0.5026 -168.1   4.751   84.5  0.0763   56.3  0.3139  -43.5
 0.700  0.5026 -169.4   4.612   83.6  0.0777   56.7  0.3104  -43.6
 0.720  0.5029 -170.5   4.500   82.9  0.0793   56.9  0.3073  -43.8
 0.740  0.5034 -171.6   4.388   82.2  0.0809   57.2  0.3042  -44.1
 0.760  0.5041 -172.8   4.277   81.5  0.0824   57.4  0.3011  -44.3
 0.780  0.5050 -173.9   4.167   80.7  0.0840   57.6  0.2981  -44.6
 0.800  0.5061 -175.0   4.058   79.9  0.0856   57.8  0.2950  -44.8
 0.820  0.5060 -175.9   3.972   79.3  0.0870   58.2  0.2936  -44.9
 0.840  0.5061 -176.9   3.887   78.6  0.0885   58.6  0.2923  -45.1
 0.860  0.5063 -177.8   3.803   78.0  0.0899   58.9  0.2909  -45.2
 0.880  0.5066 -178.8   3.718   77.2  0.0914   59.3  0.2896  -45.4
 0.900  0.5071 -179.7   3.635   76.5  0.0928   59.6  0.2882  -45.5
 0.920  0.5067  179.4   3.565   75.9  0.0944   59.8  0.2868  -45.8
 0.940  0.5064  178.5   3.495   75.3  0.0959   60.0  0.2853  -46.1
 0.960  0.5063  177.6   3.425   74.7  0.0975   60.2  0.2839  -46.3
 0.980  0.5063  176.7   3.357   74.0  0.0990   60.4  0.2825  -46.6
 1.000  0.5064  175.8   3.288   73.3  0.1006   60.6  0.2811  -46.9
 1.020  0.5074  175.0   3.232   72.7  0.1022   60.8  0.2796  -47.4
 1.040  0.5084  174.2   3.176   72.2  0.1037   61.0  0.2782  -48.0
 1.060  0.5096  173.4   3.120   71.6  0.1053   61.2  0.2768  -48.5
 1.080  0.5109  172.7   3.065   70.9  0.1068   61.3  0.2754  -49.0
 1.100  0.5122  171.9   3.010   70.3  0.1084   61.5  0.2740  -49.6
 1.120  0.5132  171.2   2.962   69.8  0.1101   61.7  0.2734  -49.9
 1.140  0.5142  170.6   2.914   69.2  0.1117   61.8  0.2728  -50.2
 1.160  0.5153  169.9   2.867   68.7  0.1134   62.0  0.2722  -50.4
 1.180  0.5165  169.3   2.820   68.1  0.1150   62.1  0.2717  -50.7
 1.200  0.5177  168.6   2.773   67.5  0.1167   62.3  0.2711  -51.0
 1.220  0.5176  167.9   2.734   67.0  0.1185   62.4  0.2706  -51.3
 1.240  0.5175  167.3   2.696   66.4  0.1203   62.5  0.2701  -51.6
 1.260  0.5176  166.6   2.658   65.9  0.1220   62.6  0.2696  -52.0
 1.280  0.5176  166.0   2.620   65.3  0.1238   62.7  0.2692  -52.3
 1.300  0.5178  165.3   2.582   64.7  0.1256   62.8  0.2687  -52.6
 1.320  0.5188  164.6   2.547   64.2  0.1273   62.9  0.2677  -53.3
 1.340  0.5199  164.0   2.513   63.7  0.1290   63.0  0.2668  -53.9
 1.360  0.5211  163.3   2.479   63.1  0.1307   63.0  0.2659  -54.6
 1.380  0.5223  162.7   2.445   62.6  0.1324   63.1  0.2650  -55.3
 1.400  0.5236  162.0   2.411   62.0  0.1341   63.2  0.2642  -56.0
 1.420  0.5242  161.5   2.380   61.5  0.1358   63.3  0.2642  -56.4
 1.440  0.5248  161.0   2.349   61.0  0.1375   63.4  0.2642  -56.9
 1.460  0.5255  160.4   2.319   60.5  0.1391   63.5  0.2642  -57.3
 1.480  0.5262  159.9   2.288   60.0  0.1408   63.6  0.2642  -57.8
 1.500  0.5270  159.4   2.258   59.5  0.1425   63.7  0.2643  -58.2
 1.520  0.5270  158.8   2.233   59.0  0.1443   63.7  0.2634  -58.6
 1.540  0.5271  158.1   2.208   58.5  0.1462   63.7  0.2625  -59.1
 1.560  0.5272  157.5   2.183   58.0  0.1480   63.7  0.2616  -59.5
 1.580  0.5274  156.8   2.158   57.4  0.1499   63.7  0.2607  -60.0
 1.600  0.5277  156.2   2.134   56.9  0.1517   63.7  0.2599  -60.4
 1.620  0.5291  155.7   2.111   56.4  0.1536   63.7  0.2598  -61.2
 1.640  0.5306  155.1   2.088   56.0  0.1555   63.7  0.2598  -61.9
 1.660  0.5321  154.6   2.066   55.5  0.1574   63.8  0.2599  -62.7
 1.680  0.5336  154.0   2.043   55.0  0.1593   63.8  0.2600  -63.4
 1.700  0.5352  153.5   2.021   54.5  0.1612   63.8  0.2601  -64.2
 1.720  0.5356  153.0   2.001   54.1  0.1630   63.8  0.2608  -64.7
 1.740  0.5361  152.5   1.981   53.6  0.1647   63.8  0.2615  -65.2
 1.760  0.5366  152.0   1.961   53.1  0.1665   63.9  0.2622  -65.6
 1.780  0.5371  151.5   1.941   52.7  0.1682   63.9  0.2629  -66.1
 1.800  0.5377  151.0   1.921   52.2  0.1700   63.9  0.2637  -66.6
 1.820  0.5381  150.5   1.903   51.8  0.1721   63.8  0.2631  -67.1
 1.840  0.5385  150.0   1.885   51.3  0.1742   63.8  0.2626  -67.5
 1.860  0.5389  149.5   1.868   50.9  0.1764   63.7  0.2620  -68.0
 1.880  0.5394  149.0   1.850   50.5  0.1785   63.7  0.2615  -68.4
 1.900  0.5399  148.5   1.833   50.0  0.1806   63.6  0.2610  -68.9
 1.920  0.5410  147.9   1.817   49.5  0.1824   63.5  0.2614  -69.6
 1.940  0.5422  147.4   1.800   49.1  0.1842   63.5  0.2619  -70.3
 1.960  0.5434  146.8   1.784   48.6  0.1860   63.4  0.2624  -71.0
 1.980  0.5447  146.3   1.768   48.1  0.1878   63.4  0.2629  -71.7
 2.000  0.5460  145.7   1.752   47.6  0.1896   63.3  0.2635  -72.4
 2.020  0.5463  145.2   1.738   47.2  0.1917   63.2  0.2635  -72.9
 2.040  0.5466  144.8   1.724   46.8  0.1938   63.2  0.2636  -73.3
 2.060  0.5470  144.3   1.710   46.4  0.1958   63.1  0.2637  -73.8
 2.080  0.5474  143.9   1.696   46.0  0.1979   63.0  0.2637  -74.2
 2.100  0.5478  143.4   1.682   45.6  0.2000   63.0  0.2638  -74.7
 2.120  0.5483  142.9   1.668   45.2  0.2021   62.9  0.2640  -75.2
 2.140  0.5488  142.5   1.654   44.8  0.2042   62.9  0.2641  -75.6
 2.160  0.5493  142.0   1.641   44.4  0.2062   62.8  0.2642  -76.1
 2.180  0.5499  141.6   1.627   43.9  0.2083   62.8  0.2644  -76.5
 2.200  0.5505  141.1   1.614   43.5  0.2104   62.7  0.2646  -77.0
 2.220  0.5516  140.6   1.602   43.1  0.2124   62.6  0.2652  -77.6
 2.240  0.5527  140.2   1.590   42.8  0.2143   62.5  0.2659  -78.2
 2.260  0.5539  139.7   1.578   42.4  0.2163   62.4  0.2665  -78.8
 2.280  0.5551  139.3   1.566   42.0  0.2182   62.4  0.2672  -79.4
 2.300  0.5564  138.8   1.554   41.6  0.2202   62.3  0.2679  -80.0
 2.320  0.5576  138.4   1.542   41.2  0.2222   62.2  0.2687  -80.6
 2.340  0.5590  137.9   1.531   40.8  0.2241   62.1  0.2695  -81.2
 2.360  0.5603  137.5   1.519   40.4  0.2261   62.0  0.2703  -81.7
 2.380  0.5617  137.0   1.507   40.0  0.2280   62.0  0.2711  -82.3
 2.400  0.5631  136.6   1.496   39.6  0.2300   61.9  0.2720  -82.9
 2.420  0.5637  136.1   1.486   39.2  0.2321   61.7  0.2717  -83.6
 2.440  0.5643  135.6   1.476   38.8  0.2342   61.6  0.2714  -84.4
 2.460  0.5650  135.1   1.467   38.4  0.2363   61.4  0.2712  -85.1
 2.480  0.5657  134.6   1.457   38.0  0.2385   61.3  0.2710  -85.8
 2.500  0.5665  134.1   1.448   37.6  0.2406   61.1  0.2708  -86.5
 2.520  0.5673  133.6   1.438   37.1  0.2427   61.0  0.2708  -87.3
 2.540  0.5681  133.2   1.429   36.7  0.2448   60.8  0.2707  -88.0
 2.560  0.5690  132.7   1.419   36.3  0.2469   60.7  0.2707  -88.7
 2.580  0.5699  132.2   1.410   35.8  0.2491   60.5  0.2707  -89.5
 2.600  0.5709  131.7   1.401   35.4  0.2512   60.4  0.2708  -90.2
 2.620  0.5720  131.3   1.393   35.1  0.2534   60.3  0.2712  -90.7
 2.640  0.5731  130.9   1.385   34.7  0.2556   60.1  0.2715  -91.3
 2.660  0.5743  130.5   1.376   34.4  0.2579   60.0  0.2720  -91.8
 2.680  0.5754  130.2   1.368   34.0  0.2601   59.9  0.2724  -92.4
 2.700  0.5766  129.8   1.360   33.7  0.2623   59.7  0.2728  -92.9
 2.720  0.5779  129.4   1.352   33.3  0.2646   59.6  0.2733  -93.5
 2.740  0.5791  129.0   1.344   33.0  0.2668   59.5  0.2738  -94.0
 2.760  0.5804  128.6   1.337   32.6  0.2690   59.3  0.2744  -94.5
 2.780  0.5817  128.3   1.329   32.3  0.2713   59.2  0.2749  -95.1
 2.800  0.5830  127.9   1.321   31.9  0.2735   59.1  0.2755  -95.6
 2.820  0.5833  127.5   1.313   31.6  0.2755   59.0  0.2761  -96.2
 2.840  0.5836  127.0   1.306   31.2  0.2774   58.8  0.2767  -96.7
 2.860  0.5839  126.6   1.299   30.9  0.2794   58.7  0.2774  -97.3
 2.880  0.5843  126.1   1.291   30.5  0.2814   58.5  0.2781  -97.9
 2.900  0.5847  125.7   1.284   30.2  0.2833   58.4  0.2788  -98.4
 2.920  0.5851  125.3   1.277   29.8  0.2853   58.2  0.2796  -99.0
 2.940  0.5856  124.8   1.269   29.5  0.2873   58.1  0.2803  -99.6
 2.960  0.5861  124.4   1.262   29.1  0.2892   58.0  0.2811 -100.1
 2.980  0.5866  123.9   1.255   28.8  0.2912   57.8  0.2820 -100.7
 3.000  0.5872  123.5   1.248   28.4  0.2932   57.7  0.2828 -101.2
 3.100  0.5917  121.5   1.218   26.9  0.3041   56.6  0.2845 -104.8
 3.200  0.5968  119.5   1.188   25.4  0.3151   55.7  0.2874 -108.4
 3.300  0.6026  117.6   1.159   23.7  0.3262   54.8  0.2913 -111.9
 3.400  0.6092  115.7   1.132   22.0  0.3374   53.9  0.2963 -115.3
 3.500  0.6163  113.9   1.105   20.2  0.3486   53.1  0.3023 -118.6
 3.600  0.6183  112.1   1.080   19.0  0.3588   51.9  0.3046 -122.3
 3.700  0.6209  110.3   1.056   17.7  0.3692   50.8  0.3081 -125.9
 3.800  0.6241  108.5   1.033   16.3  0.3796   49.7  0.3128 -129.4
 3.900  0.6279  106.7   1.010   14.9  0.3903   48.7  0.3187 -132.8
 4.000  0.6323  105.0   0.988   13.4  0.4010   47.7  0.3256 -136.1
 4.100  0.6351  103.4   0.969   12.4  0.4104   46.4  0.3296 -139.3
 4.200  0.6383  101.8   0.950   11.3  0.4200   45.1  0.3345 -142.4
 4.300  0.6421  100.2   0.932   10.2  0.4298   43.9  0.3405 -145.4
 4.400  0.6463   98.6   0.914    9.0  0.4398   42.8  0.3473 -148.2
 4.500  0.6510   97.1   0.896    7.8  0.4500   41.7  0.3549 -151.0
 4.600  0.6524   95.7   0.882    6.9  0.4585   40.4  0.3584 -153.9
 4.700  0.6541   94.3   0.869    6.0  0.4672   39.2  0.3629 -156.8
 4.800  0.6563   92.9   0.855    5.1  0.4761   38.0  0.3682 -159.6
 4.900  0.6588   91.6   0.842    4.1  0.4852   36.9  0.3744 -162.3
 5.000  0.6617   90.2   0.829    3.1  0.4945   35.8  0.3814 -164.9
 5.100  0.6639   88.9   0.818    2.4  0.5019   34.6  0.3833 -167.7
 5.200  0.6664   87.7   0.806    1.7  0.5095   33.4  0.3861 -170.5
 5.300  0.6692   86.4   0.795    1.0  0.5173   32.2  0.3898 -173.2
 5.400  0.6723   85.2   0.784    0.3  0.5254   31.1  0.3944 -175.9
 5.500  0.6757   84.0   0.773   -0.5  0.5336   30.0  0.3998 -178.5
 5.600  0.6757   82.8   0.766   -1.2  0.5404   28.8  0.4022  179.0
 5.700  0.6760   81.7   0.759   -1.8  0.5474   27.6  0.4054  176.6
 5.800  0.6766   80.5   0.752   -2.5  0.5546   26.4  0.4093  174.2
 5.900  0.6775   79.4   0.745   -3.2  0.5621   25.3  0.4139  171.9
 6.000  0.6786   78.2   0.738   -3.9  0.5698   24.2  0.4191  169.6
!
!  f       NFmin   Gammaopt  rn/50
! GHz       dB    MAG  ANG    -
!
! noise parameter not available yet for this operation point!
!
! (c) 2015  Infineon Technologies AG, Munich
