! Infineon Technologies  Discrete & RF Semiconductors
! BFR93AW
! VCE =  10. V,  IC =  4.0 mA
! Common Emitter S-Parameters:                            Nov 2015
# GHz  S  MA  R  50
!  f         S11            S21            S12            S22
! GHz     MAG   ANG      MAG   ANG      MAG   ANG      MAG   ANG
 0.030  0.8686  -13.4  13.083  171.6  0.0095   82.7  0.9853   -4.8
 0.035  0.8664  -15.2  13.032  170.2  0.0110   81.5  0.9823   -5.6
 0.040  0.8650  -17.0  12.988  168.8  0.0125   80.6  0.9795   -6.4
 0.045  0.8645  -18.8  12.952  167.4  0.0140   79.9  0.9769   -7.2
 0.050  0.8650  -20.7  12.925  165.9  0.0155   79.4  0.9744   -8.0
 0.055  0.8574  -22.6  12.829  164.7  0.0169   77.8  0.9689   -8.7
 0.060  0.8508  -24.5  12.738  163.5  0.0183   76.5  0.9635   -9.4
 0.065  0.8451  -26.4  12.653  162.3  0.0197   75.4  0.9582  -10.1
 0.070  0.8404  -28.4  12.575  161.0  0.0211   74.4  0.9531  -10.8
 0.075  0.8367  -30.4  12.502  159.7  0.0225   73.6  0.9482  -11.5
 0.080  0.8340  -32.4  12.435  158.4  0.0239   72.8  0.9434  -12.2
 0.085  0.8324  -34.4  12.375  157.1  0.0253   72.1  0.9387  -12.9
 0.090  0.8318  -36.5  12.321  155.8  0.0267   71.5  0.9342  -13.6
 0.095  0.8322  -38.5  12.274  154.5  0.0281   71.0  0.9298  -14.3
 0.100  0.8337  -40.5  12.233  153.2  0.0296   70.5  0.9256  -15.1
 0.105  0.8244  -42.2  12.100  152.2  0.0306   69.3  0.9186  -15.6
 0.110  0.8158  -44.0  11.972  151.1  0.0316   68.2  0.9116  -16.1
 0.115  0.8080  -45.8  11.848  150.0  0.0326   67.2  0.9047  -16.6
 0.120  0.8010  -47.6  11.729  148.9  0.0336   66.2  0.8979  -17.1
 0.125  0.7948  -49.4  11.614  147.8  0.0346   65.3  0.8911  -17.6
 0.130  0.7895  -51.3  11.504  146.6  0.0356   64.5  0.8844  -18.2
 0.135  0.7850  -53.2  11.398  145.4  0.0366   63.7  0.8778  -18.7
 0.140  0.7814  -55.1  11.298  144.2  0.0377   62.9  0.8713  -19.3
 0.145  0.7787  -57.0  11.202  143.0  0.0387   62.2  0.8649  -19.8
 0.150  0.7769  -59.0  11.112  141.7  0.0398   61.5  0.8585  -20.4
 0.155  0.7703  -60.4  10.988  140.9  0.0406   60.8  0.8520  -20.8
 0.160  0.7642  -61.7  10.867  140.0  0.0414   60.1  0.8455  -21.1
 0.165  0.7585  -63.2  10.748  139.2  0.0422   59.5  0.8391  -21.5
 0.170  0.7532  -64.6  10.632  138.3  0.0430   58.8  0.8326  -21.9
 0.175  0.7485  -66.0  10.518  137.4  0.0438   58.2  0.8263  -22.3
 0.180  0.7442  -67.5  10.407  136.5  0.0446   57.6  0.8199  -22.7
 0.185  0.7404  -69.0  10.299  135.5  0.0454   57.1  0.8136  -23.1
 0.190  0.7371  -70.5  10.193  134.6  0.0462   56.5  0.8074  -23.5
 0.195  0.7344  -72.0  10.091  133.6  0.0471   56.0  0.8012  -23.9
 0.200  0.7321  -73.5   9.991  132.6  0.0479   55.5  0.7950  -24.3
 0.220  0.7076  -78.6   9.540  129.7  0.0502   53.7  0.7713  -25.3
 0.240  0.6890  -84.0   9.116  126.5  0.0526   52.1  0.7478  -26.3
 0.260  0.6736  -89.0   8.725  123.6  0.0546   50.6  0.7269  -27.1
 0.280  0.6595  -93.5   8.357  121.2  0.0563   49.4  0.7084  -27.8
 0.300  0.6498  -98.2   8.005  118.5  0.0580   48.2  0.6901  -28.5
 0.320  0.6346 -101.6   7.691  116.8  0.0591   47.5  0.6757  -28.8
 0.340  0.6217 -105.1   7.385  115.0  0.0602   46.9  0.6613  -29.1
 0.360  0.6113 -108.7   7.087  113.0  0.0614   46.3  0.6469  -29.5
 0.380  0.6034 -112.5   6.799  110.8  0.0625   45.7  0.6326  -29.8
 0.400  0.5982 -116.3   6.521  108.4  0.0636   45.1  0.6183  -30.1
 0.420  0.5896 -119.0   6.306  107.1  0.0645   44.8  0.6087  -30.3
 0.440  0.5824 -121.7   6.095  105.6  0.0654   44.5  0.5990  -30.5
 0.450  0.5793 -123.1   5.991  104.9  0.0658   44.3  0.5942  -30.6
 0.460  0.5765 -124.5   5.888  104.1  0.0662   44.2  0.5894  -30.7
 0.480  0.5721 -127.4   5.685  102.5  0.0671   43.9  0.5797  -30.9
 0.500  0.5691 -130.3   5.487  100.8  0.0680   43.6  0.5701  -31.1
 0.520  0.5642 -132.4   5.323   99.7  0.0686   43.6  0.5641  -31.2
 0.540  0.5601 -134.5   5.161   98.6  0.0692   43.7  0.5581  -31.3
 0.560  0.5567 -136.7   5.001   97.4  0.0699   43.7  0.5522  -31.5
 0.580  0.5542 -138.9   4.844   96.2  0.0705   43.8  0.5462  -31.6
 0.600  0.5525 -141.1   4.689   94.8  0.0711   43.8  0.5402  -31.7
 0.620  0.5490 -142.9   4.571   93.9  0.0718   44.1  0.5360  -31.9
 0.640  0.5461 -144.7   4.455   93.0  0.0725   44.5  0.5318  -32.0
 0.660  0.5437 -146.6   4.339   92.0  0.0731   44.8  0.5276  -32.2
 0.680  0.5419 -148.4   4.225   90.9  0.0738   45.1  0.5235  -32.3
 0.700  0.5407 -150.3   4.113   89.8  0.0745   45.4  0.5193  -32.5
 0.720  0.5387 -151.9   4.017   88.9  0.0751   45.7  0.5156  -32.7
 0.740  0.5372 -153.4   3.923   88.1  0.0757   46.0  0.5118  -33.0
 0.760  0.5360 -155.0   3.829   87.1  0.0764   46.3  0.5081  -33.2
 0.780  0.5352 -156.6   3.736   86.1  0.0770   46.5  0.5044  -33.5
 0.800  0.5349 -158.2   3.645   85.1  0.0776   46.8  0.5007  -33.7
 0.820  0.5337 -159.5   3.570   84.4  0.0783   47.2  0.4989  -33.9
 0.840  0.5328 -160.7   3.495   83.6  0.0789   47.7  0.4970  -34.0
 0.860  0.5321 -162.0   3.422   82.8  0.0796   48.1  0.4952  -34.2
 0.880  0.5317 -163.2   3.348   82.0  0.0802   48.5  0.4933  -34.3
 0.900  0.5315 -164.5   3.276   81.1  0.0809   48.9  0.4915  -34.5
 0.920  0.5303 -165.7   3.215   80.4  0.0816   49.3  0.4897  -34.7
 0.940  0.5293 -166.8   3.154   79.7  0.0824   49.7  0.4880  -35.0
 0.960  0.5285 -168.0   3.093   78.9  0.0831   50.1  0.4862  -35.2
 0.980  0.5280 -169.2   3.033   78.1  0.0839   50.5  0.4844  -35.5
 1.000  0.5277 -170.4   2.974   77.3  0.0846   50.9  0.4827  -35.7
 1.020  0.5280 -171.5   2.924   76.6  0.0854   51.3  0.4809  -36.1
 1.040  0.5286 -172.5   2.875   76.0  0.0862   51.7  0.4792  -36.5
 1.060  0.5293 -173.6   2.826   75.3  0.0870   52.1  0.4775  -36.9
 1.080  0.5301 -174.6   2.778   74.5  0.0879   52.4  0.4758  -37.3
 1.100  0.5312 -175.7   2.730   73.8  0.0887   52.8  0.4741  -37.7
 1.120  0.5317 -176.6   2.687   73.2  0.0895   53.3  0.4734  -38.0
 1.140  0.5323 -177.6   2.644   72.6  0.0904   53.7  0.4726  -38.3
 1.160  0.5331 -178.5   2.601   71.9  0.0912   54.2  0.4719  -38.5
 1.180  0.5340 -179.5   2.559   71.3  0.0920   54.7  0.4712  -38.8
 1.200  0.5351  179.6   2.517   70.6  0.0929   55.1  0.4705  -39.1
 1.220  0.5345  178.8   2.482   70.0  0.0940   55.6  0.4698  -39.4
 1.240  0.5341  178.0   2.448   69.5  0.0951   56.0  0.4692  -39.7
 1.260  0.5337  177.2   2.414   68.9  0.0962   56.5  0.4685  -40.1
 1.280  0.5335  176.4   2.380   68.2  0.0973   56.9  0.4679  -40.4
 1.300  0.5333  175.6   2.346   67.6  0.0984   57.3  0.4673  -40.7
 1.320  0.5340  174.8   2.315   67.0  0.0994   57.7  0.4662  -41.2
 1.340  0.5348  173.9   2.283   66.4  0.1004   58.1  0.4651  -41.6
 1.360  0.5358  173.1   2.252   65.8  0.1014   58.5  0.4640  -42.1
 1.380  0.5368  172.2   2.221   65.2  0.1025   58.9  0.4629  -42.5
 1.400  0.5380  171.4   2.191   64.6  0.1035   59.3  0.4619  -43.0
 1.420  0.5389  170.7   2.163   64.0  0.1047   59.7  0.4616  -43.4
 1.440  0.5399  170.0   2.136   63.5  0.1058   60.0  0.4614  -43.8
 1.460  0.5409  169.4   2.108   62.9  0.1070   60.4  0.4611  -44.1
 1.480  0.5420  168.7   2.081   62.3  0.1082   60.8  0.4609  -44.5
 1.500  0.5432  168.0   2.054   61.7  0.1094   61.1  0.4607  -44.9
 1.520  0.5428  167.2   2.031   61.2  0.1107   61.4  0.4598  -45.3
 1.540  0.5426  166.5   2.009   60.7  0.1120   61.7  0.4589  -45.7
 1.560  0.5424  165.7   1.986   60.1  0.1133   62.0  0.4581  -46.0
 1.580  0.5423  165.0   1.964   59.6  0.1146   62.3  0.4572  -46.4
 1.600  0.5423  164.2   1.942   59.0  0.1159   62.6  0.4564  -46.8
 1.620  0.5432  163.5   1.921   58.5  0.1173   62.9  0.4558  -47.4
 1.640  0.5441  162.7   1.901   57.9  0.1187   63.2  0.4553  -47.9
 1.660  0.5452  162.0   1.880   57.4  0.1202   63.5  0.4548  -48.5
 1.680  0.5464  161.2   1.860   56.8  0.1216   63.7  0.4543  -49.0
 1.700  0.5476  160.5   1.840   56.2  0.1230   64.0  0.4539  -49.6
 1.720  0.5485  159.9   1.822   55.7  0.1245   64.3  0.4544  -50.0
 1.740  0.5494  159.4   1.803   55.2  0.1260   64.6  0.4550  -50.4
 1.760  0.5504  158.8   1.785   54.7  0.1275   64.9  0.4556  -50.8
 1.780  0.5514  158.3   1.767   54.2  0.1290   65.1  0.4562  -51.2
 1.800  0.5525  157.7   1.749   53.7  0.1305   65.4  0.4568  -51.6
 1.820  0.5524  157.1   1.733   53.3  0.1322   65.6  0.4561  -52.0
 1.840  0.5524  156.5   1.717   52.8  0.1339   65.9  0.4555  -52.4
 1.860  0.5524  156.0   1.701   52.3  0.1355   66.1  0.4549  -52.9
 1.880  0.5525  155.4   1.685   51.9  0.1372   66.3  0.4543  -53.3
 1.900  0.5526  154.8   1.669   51.4  0.1389   66.5  0.4537  -53.7
 1.920  0.5538  154.1   1.654   50.9  0.1406   66.6  0.4538  -54.2
 1.940  0.5550  153.4   1.639   50.4  0.1422   66.7  0.4540  -54.8
 1.960  0.5564  152.8   1.624   49.9  0.1439   66.9  0.4542  -55.3
 1.980  0.5578  152.1   1.609   49.4  0.1455   67.0  0.4545  -55.9
 2.000  0.5593  151.4   1.594   48.9  0.1472   67.1  0.4548  -56.4
 2.020  0.5596  150.9   1.581   48.5  0.1490   67.3  0.4547  -56.8
 2.040  0.5600  150.3   1.568   48.1  0.1509   67.4  0.4546  -57.2
 2.060  0.5604  149.8   1.555   47.7  0.1527   67.6  0.4545  -57.7
 2.080  0.5608  149.3   1.542   47.3  0.1545   67.7  0.4544  -58.1
 2.100  0.5613  148.7   1.529   46.8  0.1563   67.8  0.4544  -58.5
 2.120  0.5618  148.2   1.517   46.4  0.1582   68.0  0.4544  -58.9
 2.140  0.5624  147.7   1.504   46.0  0.1600   68.1  0.4544  -59.3
 2.160  0.5631  147.2   1.492   45.5  0.1618   68.2  0.4544  -59.8
 2.180  0.5638  146.6   1.479   45.1  0.1637   68.4  0.4545  -60.2
 2.200  0.5645  146.1   1.467   44.6  0.1655   68.5  0.4546  -60.6
 2.220  0.5655  145.5   1.455   44.2  0.1674   68.6  0.4549  -61.1
 2.240  0.5666  145.0   1.444   43.8  0.1694   68.6  0.4552  -61.6
 2.260  0.5678  144.5   1.432   43.4  0.1713   68.7  0.4555  -62.1
 2.280  0.5690  143.9   1.421   43.0  0.1732   68.8  0.4559  -62.6
 2.300  0.5702  143.4   1.410   42.6  0.1751   68.8  0.4563  -63.1
 2.320  0.5715  142.8   1.398   42.2  0.1771   68.9  0.4567  -63.6
 2.340  0.5729  142.3   1.387   41.7  0.1790   68.9  0.4572  -64.1
 2.360  0.5743  141.8   1.376   41.3  0.1809   69.0  0.4577  -64.6
 2.380  0.5757  141.2   1.365   40.9  0.1829   69.0  0.4582  -65.1
 2.400  0.5772  140.7   1.354   40.4  0.1848   69.1  0.4588  -65.6
 2.420  0.5777  140.1   1.345   40.0  0.1871   69.0  0.4581  -66.2
 2.440  0.5783  139.6   1.336   39.6  0.1893   69.0  0.4574  -66.7
 2.460  0.5789  139.0   1.327   39.2  0.1916   68.9  0.4568  -67.3
 2.480  0.5796  138.5   1.318   38.8  0.1938   68.9  0.4562  -67.9
 2.500  0.5803  137.9   1.309   38.4  0.1961   68.8  0.4556  -68.5
 2.520  0.5811  137.4   1.300   37.9  0.1984   68.8  0.4551  -69.1
 2.540  0.5819  136.8   1.292   37.5  0.2006   68.7  0.4547  -69.6
 2.560  0.5828  136.3   1.283   37.1  0.2029   68.7  0.4543  -70.2
 2.580  0.5837  135.7   1.274   36.6  0.2051   68.6  0.4539  -70.8
 2.600  0.5847  135.2   1.266   36.2  0.2074   68.6  0.4536  -71.4
 2.620  0.5857  134.7   1.258   35.9  0.2097   68.6  0.4537  -71.9
 2.640  0.5868  134.3   1.251   35.5  0.2121   68.5  0.4539  -72.4
 2.660  0.5879  133.8   1.243   35.2  0.2144   68.5  0.4540  -72.9
 2.680  0.5890  133.4   1.236   34.8  0.2167   68.5  0.4542  -73.4
 2.700  0.5901  132.9   1.228   34.5  0.2190   68.4  0.4545  -74.0
 2.720  0.5913  132.5   1.221   34.1  0.2214   68.4  0.4548  -74.5
 2.740  0.5926  132.0   1.214   33.7  0.2237   68.4  0.4551  -75.0
 2.760  0.5939  131.6   1.206   33.4  0.2260   68.4  0.4555  -75.5
 2.780  0.5952  131.1   1.199   33.0  0.2284   68.3  0.4559  -76.0
 2.800  0.5965  130.7   1.192   32.6  0.2307   68.3  0.4563  -76.5
 2.820  0.5970  130.2   1.185   32.3  0.2329   68.2  0.4564  -77.0
 2.840  0.5975  129.7   1.178   32.0  0.2350   68.1  0.4566  -77.5
 2.860  0.5980  129.2   1.171   31.6  0.2372   68.0  0.4568  -78.0
 2.880  0.5986  128.8   1.164   31.3  0.2394   67.9  0.4570  -78.5
 2.900  0.5992  128.3   1.156   31.0  0.2415   67.8  0.4573  -79.0
 2.920  0.5999  127.8   1.150   30.6  0.2437   67.7  0.4576  -79.4
 2.940  0.6006  127.3   1.143   30.3  0.2459   67.7  0.4579  -79.9
 2.960  0.6014  126.9   1.136   29.9  0.2481   67.6  0.4583  -80.4
 2.980  0.6022  126.4   1.129   29.6  0.2502   67.5  0.4587  -80.9
 3.000  0.6030  125.9   1.122   29.2  0.2524   67.4  0.4591  -81.4
 3.100  0.6070  123.6   1.093   27.8  0.2650   66.4  0.4581  -84.5
 3.200  0.6120  121.4   1.065   26.2  0.2778   65.6  0.4584  -87.7
 3.300  0.6179  119.2   1.038   24.7  0.2905   64.8  0.4601  -90.8
 3.400  0.6246  117.1   1.011   23.0  0.3033   64.1  0.4632  -93.9
 3.500  0.6322  115.0   0.986   21.2  0.3162   63.4  0.4676  -96.9
 3.600  0.6334  113.0   0.963   20.1  0.3287   62.1  0.4661 -100.2
 3.700  0.6354  111.0   0.941   18.9  0.3413   61.0  0.4662 -103.5
 3.800  0.6382  109.1   0.919   17.7  0.3540   59.9  0.4679 -106.8
 3.900  0.6417  107.1   0.898   16.4  0.3668   58.8  0.4711 -110.1
 4.000  0.6459  105.2   0.877   15.1  0.3798   57.9  0.4758 -113.3
 4.100  0.6480  103.4   0.860   14.3  0.3917   56.4  0.4758 -116.5
 4.200  0.6507  101.7   0.843   13.4  0.4038   54.9  0.4772 -119.7
 4.300  0.6541   99.9   0.826   12.5  0.4162   53.6  0.4802 -122.8
 4.400  0.6580   98.2   0.809   11.6  0.4288   52.3  0.4845 -126.0
 4.500  0.6625   96.5   0.793   10.6  0.4416   51.1  0.4903 -129.0
 4.600  0.6628   95.0   0.782    9.9  0.4522   49.6  0.4896 -132.1
 4.700  0.6635   93.5   0.771    9.2  0.4631   48.1  0.4904 -135.2
 4.800  0.6647   92.0   0.760    8.5  0.4743   46.8  0.4926 -138.3
 4.900  0.6663   90.6   0.750    7.8  0.4857   45.5  0.4962 -141.4
 5.000  0.6684   89.1   0.739    7.0  0.4974   44.2  0.5012 -144.4
 5.100  0.6694   87.8   0.730    6.5  0.5063   42.7  0.4983 -147.4
 5.200  0.6707   86.4   0.722    5.9  0.5156   41.3  0.4968 -150.4
 5.300  0.6724   85.1   0.714    5.4  0.5251   39.9  0.4967 -153.5
 5.400  0.6745   83.8   0.705    4.8  0.5350   38.6  0.4979 -156.5
 5.500  0.6769   82.5   0.697    4.2  0.5451   37.3  0.5006 -159.5
 5.600  0.6763   81.3   0.693    3.7  0.5531   35.9  0.4989 -162.2
 5.700  0.6759   80.1   0.688    3.3  0.5614   34.5  0.4984 -165.0
 5.800  0.6759   78.9   0.684    2.8  0.5701   33.1  0.4990 -167.7
 5.900  0.6761   77.7   0.680    2.3  0.5790   31.8  0.5007 -170.5
 6.000  0.6767   76.5   0.676    1.8  0.5883   30.5  0.5036 -173.2
!
!  f       NFmin   Gammaopt  rn/50
! GHz       dB    MAG  ANG    -
!
! noise parameter not available yet for this operation point!
!
! (c) 2015  Infineon Technologies AG, Munich
