! Infineon Technologies  Discrete & RF Semiconductors
! BFR93AW
! VCE =  4.0 V,  IC =  30 mA
! Common Emitter S-Parameters:                            Nov 2015
# GHz  S  MA  R  50
!  f         S11            S21            S12            S22
! GHz     MAG   ANG      MAG   ANG      MAG   ANG      MAG   ANG
 0.030  0.3912  -49.5  51.372  156.3  0.0077   73.3  0.8750  -18.6
 0.035  0.3895  -56.4  49.714  152.9  0.0086   71.0  0.8487  -21.1
 0.040  0.3933  -63.2  48.241  149.3  0.0096   69.2  0.8241  -23.8
 0.045  0.4026  -69.8  46.970  145.5  0.0105   67.7  0.8015  -26.7
 0.050  0.4169  -76.0  45.917  141.5  0.0115   66.4  0.7810  -29.7
 0.055  0.4085  -79.8  44.337  140.1  0.0121   65.8  0.7576  -30.6
 0.060  0.4019  -83.8  42.787  138.5  0.0128   65.2  0.7345  -31.6
 0.065  0.3974  -87.9  41.271  136.9  0.0134   64.7  0.7116  -32.7
 0.070  0.3949  -92.1  39.791  135.1  0.0141   64.3  0.6890  -33.8
 0.075  0.3946  -96.3  38.353  133.2  0.0147   63.9  0.6666  -35.0
 0.080  0.3964 -100.5  36.962  131.1  0.0153   63.5  0.6445  -36.2
 0.085  0.4002 -104.6  35.622  128.8  0.0159   63.1  0.6228  -37.6
 0.090  0.4061 -108.7  34.341  126.4  0.0166   62.8  0.6015  -39.1
 0.095  0.4140 -112.6  33.125  123.8  0.0172   62.5  0.5806  -40.6
 0.100  0.4237 -116.3  31.980  121.1  0.0179   62.2  0.5601  -42.3
 0.105  0.4216 -118.3  31.074  120.3  0.0184   62.3  0.5470  -42.5
 0.110  0.4201 -120.4  30.174  119.5  0.0189   62.3  0.5339  -42.8
 0.115  0.4191 -122.4  29.280  118.6  0.0194   62.3  0.5208  -43.0
 0.120  0.4187 -124.5  28.395  117.6  0.0199   62.3  0.5077  -43.3
 0.125  0.4188 -126.6  27.518  116.6  0.0204   62.4  0.4946  -43.6
 0.130  0.4194 -128.7  26.650  115.5  0.0210   62.4  0.4816  -44.0
 0.135  0.4206 -130.8  25.792  114.3  0.0215   62.5  0.4686  -44.3
 0.140  0.4223 -132.8  24.946  113.1  0.0220   62.5  0.4556  -44.6
 0.145  0.4246 -134.8  24.112  111.8  0.0225   62.5  0.4426  -45.0
 0.150  0.4274 -136.8  23.291  110.4  0.0230   62.5  0.4296  -45.4
 0.155  0.4267 -137.9  22.771  109.9  0.0234   62.8  0.4225  -45.4
 0.160  0.4261 -139.1  22.252  109.3  0.0239   63.1  0.4153  -45.5
 0.165  0.4257 -140.2  21.736  108.8  0.0243   63.3  0.4082  -45.5
 0.170  0.4254 -141.3  21.222  108.2  0.0248   63.6  0.4011  -45.5
 0.175  0.4253 -142.4  20.711  107.5  0.0252   63.9  0.3939  -45.6
 0.180  0.4254 -143.6  20.202  106.9  0.0257   64.1  0.3868  -45.6
 0.185  0.4257 -144.7  19.695  106.2  0.0261   64.3  0.3797  -45.7
 0.190  0.4261 -145.8  19.192  105.5  0.0266   64.6  0.3726  -45.7
 0.195  0.4267 -147.0  18.692  104.7  0.0270   64.8  0.3654  -45.8
 0.200  0.4274 -148.1  18.196  103.9  0.0275   65.0  0.3583  -45.8
 0.220  0.4266 -151.5  16.827  102.3  0.0294   65.4  0.3391  -45.4
 0.240  0.4272 -154.8  15.473  100.4  0.0313   65.8  0.3199  -44.9
 0.260  0.4286 -157.6  14.336   98.7  0.0330   66.5  0.3048  -44.4
 0.280  0.4300 -159.9  13.405   97.4  0.0347   67.4  0.2940  -43.8
 0.300  0.4321 -162.1  12.482   95.9  0.0364   68.2  0.2831  -43.3
 0.320  0.4316 -163.7  11.873   95.1  0.0383   68.8  0.2756  -42.8
 0.340  0.4314 -165.4  11.267   94.2  0.0402   69.3  0.2681  -42.4
 0.360  0.4316 -167.0  10.664   93.2  0.0422   69.7  0.2606  -41.8
 0.380  0.4322 -168.7  10.065   92.0  0.0441   70.2  0.2531  -41.3
 0.400  0.4331 -170.3   9.471   90.7  0.0460   70.6  0.2457  -40.7
 0.420  0.4337 -171.5   9.104   90.0  0.0479   70.8  0.2414  -40.5
 0.440  0.4346 -172.8   8.738   89.3  0.0498   70.9  0.2371  -40.3
 0.450  0.4351 -173.4   8.556   88.9  0.0508   71.0  0.2350  -40.2
 0.460  0.4356 -174.0   8.374   88.5  0.0518   71.1  0.2329  -40.1
 0.480  0.4369 -175.2   8.011   87.6  0.0537   71.2  0.2286  -39.8
 0.500  0.4383 -176.4   7.651   86.6  0.0557   71.3  0.2244  -39.6
 0.520  0.4388 -177.3   7.401   86.0  0.0577   71.5  0.2220  -39.5
 0.540  0.4394 -178.2   7.151   85.4  0.0597   71.7  0.2197  -39.4
 0.560  0.4401 -179.0   6.902   84.8  0.0617   71.9  0.2173  -39.2
 0.580  0.4410 -179.9   6.655   84.1  0.0637   72.0  0.2150  -39.1
 0.600  0.4419  179.2   6.408   83.3  0.0657   72.2  0.2126  -39.0
 0.620  0.4422  178.4   6.231   82.7  0.0677   72.3  0.2110  -39.1
 0.640  0.4426  177.6   6.054   82.1  0.0696   72.4  0.2094  -39.2
 0.660  0.4430  176.8   5.878   81.5  0.0716   72.5  0.2077  -39.3
 0.680  0.4436  176.0   5.703   80.8  0.0735   72.5  0.2061  -39.4
 0.700  0.4442  175.2   5.529   80.1  0.0755   72.6  0.2045  -39.5
 0.720  0.4451  174.4   5.392   79.6  0.0775   72.6  0.2025  -39.8
 0.740  0.4460  173.6   5.255   79.0  0.0795   72.6  0.2004  -40.0
 0.760  0.4470  172.8   5.119   78.5  0.0814   72.5  0.1984  -40.3
 0.780  0.4481  172.1   4.984   77.8  0.0834   72.5  0.1963  -40.6
 0.800  0.4493  171.3   4.849   77.2  0.0854   72.5  0.1943  -40.9
 0.820  0.4497  170.7   4.745   76.7  0.0874   72.5  0.1938  -41.1
 0.840  0.4502  170.2   4.641   76.2  0.0894   72.6  0.1934  -41.3
 0.860  0.4507  169.6   4.538   75.7  0.0915   72.6  0.1929  -41.4
 0.880  0.4512  169.1   4.435   75.2  0.0935   72.7  0.1925  -41.6
 0.900  0.4518  168.5   4.333   74.6  0.0955   72.7  0.1920  -41.8
 0.920  0.4519  167.9   4.248   74.1  0.0976   72.6  0.1912  -42.1
 0.940  0.4520  167.2   4.164   73.6  0.0998   72.5  0.1903  -42.4
 0.960  0.4522  166.6   4.080   73.1  0.1019   72.4  0.1895  -42.8
 0.980  0.4524  165.9   3.996   72.6  0.1041   72.4  0.1887  -43.1
 1.000  0.4527  165.3   3.913   72.0  0.1062   72.3  0.1879  -43.4
 1.020  0.4540  164.8   3.845   71.5  0.1081   72.2  0.1867  -44.0
 1.040  0.4553  164.3   3.778   71.1  0.1100   72.1  0.1856  -44.7
 1.060  0.4567  163.7   3.711   70.6  0.1120   72.1  0.1845  -45.4
 1.080  0.4581  163.2   3.644   70.0  0.1139   72.0  0.1834  -46.0
 1.100  0.4596  162.7   3.577   69.5  0.1158   71.9  0.1823  -46.7
 1.120  0.4607  162.2   3.519   69.1  0.1177   71.8  0.1820  -47.0
 1.140  0.4618  161.7   3.461   68.6  0.1197   71.6  0.1818  -47.4
 1.160  0.4629  161.1   3.404   68.1  0.1216   71.5  0.1816  -47.7
 1.180  0.4641  160.6   3.347   67.6  0.1236   71.3  0.1813  -48.1
 1.200  0.4653  160.1   3.290   67.1  0.1255   71.2  0.1811  -48.4
 1.220  0.4652  159.6   3.243   66.7  0.1276   71.1  0.1809  -48.8
 1.240  0.4652  159.1   3.197   66.2  0.1297   71.1  0.1807  -49.1
 1.260  0.4653  158.6   3.150   65.8  0.1319   71.0  0.1805  -49.5
 1.280  0.4653  158.1   3.104   65.3  0.1340   71.0  0.1804  -49.8
 1.300  0.4654  157.6   3.058   64.8  0.1361   70.9  0.1802  -50.2
 1.320  0.4665  157.1   3.016   64.3  0.1381   70.7  0.1794  -51.0
 1.340  0.4677  156.6   2.975   63.9  0.1401   70.5  0.1786  -51.9
 1.360  0.4689  156.1   2.934   63.4  0.1420   70.3  0.1778  -52.8
 1.380  0.4701  155.6   2.893   62.9  0.1440   70.2  0.1771  -53.6
 1.400  0.4714  155.1   2.852   62.4  0.1460   70.0  0.1764  -54.5
 1.420  0.4722  154.7   2.815   62.0  0.1479   69.9  0.1763  -55.0
 1.440  0.4731  154.4   2.779   61.6  0.1498   69.8  0.1763  -55.4
 1.460  0.4739  154.0   2.743   61.1  0.1518   69.8  0.1762  -55.9
 1.480  0.4748  153.7   2.707   60.7  0.1537   69.7  0.1762  -56.3
 1.500  0.4757  153.3   2.671   60.2  0.1556   69.6  0.1762  -56.8
 1.520  0.4755  152.7   2.640   59.8  0.1577   69.4  0.1756  -57.3
 1.540  0.4754  152.1   2.610   59.4  0.1597   69.3  0.1749  -57.7
 1.560  0.4754  151.6   2.580   58.9  0.1618   69.1  0.1743  -58.2
 1.580  0.4754  151.0   2.550   58.5  0.1638   69.0  0.1737  -58.6
 1.600  0.4754  150.4   2.520   58.0  0.1659   68.8  0.1731  -59.1
 1.620  0.4772  149.9   2.493   57.6  0.1679   68.6  0.1730  -60.1
 1.640  0.4790  149.4   2.466   57.1  0.1699   68.4  0.1729  -61.1
 1.660  0.4809  148.9   2.439   56.7  0.1720   68.2  0.1728  -62.0
 1.680  0.4828  148.5   2.413   56.3  0.1740   68.0  0.1728  -63.0
 1.700  0.4847  148.0   2.386   55.8  0.1760   67.8  0.1729  -64.0
 1.720  0.4854  147.6   2.362   55.4  0.1780   67.7  0.1737  -64.5
 1.740  0.4861  147.2   2.338   55.0  0.1800   67.6  0.1744  -65.0
 1.760  0.4868  146.7   2.314   54.6  0.1820   67.4  0.1752  -65.5
 1.780  0.4875  146.3   2.291   54.2  0.1840   67.3  0.1760  -66.0
 1.800  0.4883  145.9   2.267   53.8  0.1860   67.2  0.1768  -66.5
 1.820  0.4882  145.5   2.246   53.4  0.1881   67.0  0.1763  -66.9
 1.840  0.4882  145.1   2.225   53.0  0.1902   66.9  0.1758  -67.3
 1.860  0.4881  144.8   2.204   52.6  0.1923   66.7  0.1753  -67.8
 1.880  0.4881  144.4   2.183   52.1  0.1944   66.6  0.1749  -68.2
 1.900  0.4881  144.0   2.162   51.7  0.1965   66.4  0.1744  -68.6
 1.920  0.4896  143.5   2.142   51.3  0.1984   66.2  0.1750  -69.5
 1.940  0.4911  143.0   2.122   50.9  0.2002   66.0  0.1756  -70.5
 1.960  0.4926  142.6   2.103   50.5  0.2021   65.9  0.1762  -71.4
 1.980  0.4942  142.1   2.083   50.0  0.2039   65.7  0.1769  -72.3
 2.000  0.4958  141.6   2.064   49.6  0.2058   65.5  0.1777  -73.2
 2.020  0.4962  141.2   2.047   49.2  0.2079   65.3  0.1777  -73.7
 2.040  0.4966  140.8   2.031   48.9  0.2100   65.1  0.1777  -74.1
 2.060  0.4970  140.4   2.014   48.5  0.2120   65.0  0.1777  -74.6
 2.080  0.4974  140.0   1.998   48.2  0.2141   64.8  0.1778  -75.0
 2.100  0.4979  139.6   1.981   47.8  0.2162   64.6  0.1778  -75.5
 2.120  0.4984  139.3   1.965   47.4  0.2183   64.4  0.1779  -75.9
 2.140  0.4989  138.9   1.949   47.0  0.2204   64.3  0.1779  -76.4
 2.160  0.4995  138.5   1.933   46.6  0.2225   64.1  0.1780  -76.8
 2.180  0.5000  138.1   1.917   46.2  0.2246   64.0  0.1781  -77.3
 2.200  0.5006  137.7   1.901   45.8  0.2267   63.8  0.1782  -77.7
 2.220  0.5016  137.3   1.887   45.5  0.2286   63.6  0.1788  -78.4
 2.240  0.5027  136.9   1.873   45.1  0.2306   63.4  0.1794  -79.1
 2.260  0.5038  136.5   1.859   44.7  0.2325   63.2  0.1800  -79.7
 2.280  0.5049  136.0   1.844   44.4  0.2345   63.0  0.1806  -80.4
 2.300  0.5061  135.6   1.831   44.0  0.2364   62.9  0.1813  -81.1
 2.320  0.5072  135.2   1.817   43.6  0.2384   62.7  0.1820  -81.7
 2.340  0.5084  134.8   1.803   43.3  0.2403   62.5  0.1827  -82.4
 2.360  0.5097  134.4   1.789   42.9  0.2423   62.3  0.1834  -83.0
 2.380  0.5109  134.0   1.776   42.5  0.2442   62.2  0.1842  -83.7
 2.400  0.5122  133.6   1.762   42.1  0.2462   62.0  0.1850  -84.3
 2.420  0.5130  133.2   1.750   41.7  0.2482   61.8  0.1848  -85.1
 2.440  0.5138  132.7   1.739   41.4  0.2502   61.6  0.1846  -85.9
 2.460  0.5146  132.3   1.727   41.0  0.2523   61.3  0.1844  -86.7
 2.480  0.5154  131.9   1.716   40.6  0.2543   61.1  0.1843  -87.5
 2.500  0.5163  131.5   1.705   40.2  0.2563   60.9  0.1842  -88.2
 2.520  0.5172  131.1   1.693   39.8  0.2583   60.7  0.1841  -89.0
 2.540  0.5181  130.6   1.682   39.4  0.2604   60.5  0.1841  -89.8
 2.560  0.5191  130.2   1.671   39.0  0.2624   60.3  0.1841  -90.6
 2.580  0.5201  129.8   1.660   38.6  0.2645   60.1  0.1841  -91.4
 2.600  0.5211  129.4   1.649   38.2  0.2665   59.9  0.1842  -92.2
 2.620  0.5221  129.1   1.639   37.9  0.2686   59.7  0.1846  -92.8
 2.640  0.5232  128.7   1.630   37.5  0.2707   59.5  0.1849  -93.3
 2.660  0.5242  128.4   1.620   37.2  0.2728   59.3  0.1853  -93.9
 2.680  0.5253  128.1   1.611   36.8  0.2749   59.1  0.1857  -94.4
 2.700  0.5264  127.8   1.601   36.5  0.2770   59.0  0.1861  -95.0
 2.720  0.5275  127.5   1.592   36.1  0.2791   58.8  0.1866  -95.5
 2.740  0.5286  127.1   1.583   35.8  0.2812   58.6  0.1870  -96.1
 2.760  0.5298  126.8   1.573   35.4  0.2833   58.4  0.1875  -96.6
 2.780  0.5309  126.5   1.564   35.1  0.2854   58.3  0.1880  -97.2
 2.800  0.5321  126.2   1.555   34.7  0.2875   58.1  0.1885  -97.7
 2.820  0.5326  125.8   1.546   34.4  0.2893   57.9  0.1891  -98.3
 2.840  0.5331  125.4   1.538   34.0  0.2911   57.7  0.1897  -98.9
 2.860  0.5336  125.0   1.529   33.7  0.2929   57.5  0.1904  -99.5
 2.880  0.5341  124.6   1.521   33.4  0.2947   57.4  0.1910 -100.1
 2.900  0.5347  124.2   1.512   33.0  0.2965   57.2  0.1917 -100.7
 2.920  0.5353  123.8   1.504   32.7  0.2983   57.0  0.1924 -101.3
 2.940  0.5359  123.4   1.496   32.4  0.3001   56.8  0.1931 -101.9
 2.960  0.5365  123.0   1.487   32.0  0.3020   56.6  0.1939 -102.5
 2.980  0.5372  122.6   1.479   31.7  0.3038   56.5  0.1946 -103.0
 3.000  0.5379  122.2   1.471   31.3  0.3056   56.3  0.1954 -103.6
 3.100  0.5428  120.4   1.435   29.8  0.3152   55.2  0.1974 -107.5
 3.200  0.5483  118.6   1.401   28.3  0.3249   54.1  0.2002 -111.3
 3.300  0.5543  116.8   1.367   26.6  0.3347   53.1  0.2040 -115.0
 3.400  0.5608  115.1   1.335   24.9  0.3446   52.1  0.2085 -118.5
 3.500  0.5678  113.4   1.304   23.1  0.3546   51.2  0.2138 -121.9
 3.600  0.5710  111.8   1.275   21.8  0.3633   50.0  0.2165 -125.8
 3.700  0.5746  110.1   1.248   20.4  0.3722   48.9  0.2201 -129.6
 3.800  0.5786  108.5   1.221   18.9  0.3811   47.8  0.2247 -133.3
 3.900  0.5831  107.0   1.194   17.4  0.3903   46.8  0.2301 -136.8
 4.000  0.5881  105.4   1.169   15.8  0.3995   45.8  0.2364 -140.1
 4.100  0.5922  103.9   1.146   14.6  0.4076   44.6  0.2409 -143.2
 4.200  0.5966  102.5   1.124   13.4  0.4160   43.4  0.2461 -146.2
 4.300  0.6015  101.1   1.102   12.2  0.4244   42.2  0.2520 -149.0
 4.400  0.6067   99.7   1.081   10.9  0.4331   41.1  0.2584 -151.7
 4.500  0.6122   98.3   1.060    9.5  0.4419   40.1  0.2654 -154.3
 4.600  0.6145   97.0   1.043    8.4  0.4493   39.0  0.2697 -157.1
 4.700  0.6172   95.7   1.026    7.3  0.4568   37.9  0.2746 -159.8
 4.800  0.6202   94.4   1.010    6.2  0.4645   36.8  0.2801 -162.3
 4.900  0.6235   93.1   0.994    5.0  0.4723   35.8  0.2861 -164.8
 5.000  0.6271   91.8   0.978    3.8  0.4803   34.8  0.2927 -167.2
 5.100  0.6306   90.6   0.963    2.9  0.4871   33.7  0.2957 -169.9
 5.200  0.6344   89.4   0.948    2.0  0.4940   32.6  0.2993 -172.5
 5.300  0.6384   88.2   0.934    1.1  0.5011   31.6  0.3036 -175.1
 5.400  0.6427   87.0   0.920    0.1  0.5084   30.6  0.3084 -177.6
 5.500  0.6473   85.9   0.906   -0.9  0.5158   29.6  0.3138  180.0
 5.600  0.6492   84.8   0.895   -1.7  0.5223   28.5  0.3175  177.6
 5.700  0.6513   83.7   0.885   -2.6  0.5289   27.4  0.3217  175.3
 5.800  0.6537   82.6   0.875   -3.4  0.5358   26.3  0.3264  173.1
 5.900  0.6563   81.5   0.865   -4.3  0.5428   25.3  0.3316  170.9
 6.000  0.6591   80.4   0.855   -5.2  0.5500   24.3  0.3373  168.8
!
!  f       NFmin   Gammaopt  rn/50
! GHz       dB    MAG  ANG    -
!
! noise parameter not available yet for this operation point!
!
! (c) 2015  Infineon Technologies AG, Munich
