! Infineon Technologies  Discrete & RF Semiconductors
! BFR93AW
! VCE = 0.50 V,  IC =  65 mA
! Common Emitter S-Parameters:                            Nov 2015
# GHz  S  MA  R  50
!  f         S11            S21            S12            S22
! GHz     MAG   ANG      MAG   ANG      MAG   ANG      MAG   ANG
 0.030  0.7266 -157.4  14.457  120.8  0.0168   42.6  0.4530 -148.3
 0.035  0.7468 -160.3  12.876  118.1  0.0176   42.1  0.4662 -152.3
 0.040  0.7687 -163.0  11.333  114.6  0.0184   41.7  0.4815 -156.0
 0.045  0.7923 -165.6   9.843  110.1  0.0192   41.3  0.4987 -159.5
 0.050  0.8175 -168.0   8.434  104.1  0.0201   40.9  0.5177 -162.7
 0.055  0.8191 -168.9   8.018  103.5  0.0207   42.3  0.5185 -163.7
 0.060  0.8209 -169.7   7.603  102.9  0.0214   43.6  0.5195 -164.7
 0.065  0.8229 -170.6   7.189  102.2  0.0220   44.8  0.5206 -165.7
 0.070  0.8251 -171.5   6.776  101.4  0.0227   45.9  0.5219 -166.7
 0.075  0.8275 -172.4   6.364  100.6  0.0234   47.0  0.5234 -167.7
 0.080  0.8300 -173.2   5.954   99.6  0.0241   48.0  0.5250 -168.7
 0.085  0.8327 -174.0   5.546   98.4  0.0248   49.0  0.5267 -169.7
 0.090  0.8356 -174.8   5.141   97.1  0.0255   49.9  0.5286 -170.6
 0.095  0.8387 -175.7   4.739   95.5  0.0262   50.8  0.5307 -171.6
 0.100  0.8419 -176.5   4.341   93.7  0.0269   51.6  0.5329 -172.5
 0.105  0.8422 -176.8   4.197   93.4  0.0276   52.4  0.5332 -172.9
 0.110  0.8425 -177.1   4.054   93.1  0.0284   53.1  0.5335 -173.2
 0.115  0.8428 -177.4   3.910   92.7  0.0291   53.8  0.5338 -173.6
 0.120  0.8432 -177.7   3.767   92.3  0.0299   54.5  0.5342 -173.9
 0.125  0.8436 -178.1   3.624   91.9  0.0307   55.1  0.5346 -174.3
 0.130  0.8441 -178.4   3.481   91.5  0.0315   55.7  0.5350 -174.7
 0.135  0.8445 -178.7   3.338   91.0  0.0322   56.3  0.5354 -175.1
 0.140  0.8450 -179.0   3.196   90.5  0.0330   56.8  0.5359 -175.4
 0.145  0.8455 -179.3   3.054   89.9  0.0338   57.3  0.5364 -175.8
 0.150  0.8460 -179.6   2.912   89.3  0.0346   57.8  0.5369 -176.1
 0.155  0.8458 -179.9   2.841   89.0  0.0354   58.3  0.5369 -176.3
 0.160  0.8456  179.8   2.771   88.7  0.0363   58.8  0.5369 -176.6
 0.165  0.8454  179.6   2.700   88.4  0.0371   59.3  0.5369 -176.8
 0.170  0.8452  179.3   2.630   88.1  0.0379   59.8  0.5369 -177.0
 0.175  0.8450  179.0   2.559   87.7  0.0388   60.2  0.5369 -177.3
 0.180  0.8449  178.7   2.489   87.4  0.0396   60.7  0.5370 -177.5
 0.185  0.8448  178.4   2.419   87.0  0.0405   61.1  0.5370 -177.7
 0.190  0.8447  178.2   2.349   86.6  0.0413   61.5  0.5371 -177.9
 0.195  0.8446  177.9   2.279   86.2  0.0422   61.8  0.5371 -178.2
 0.200  0.8446  177.6   2.209   85.7  0.0430   62.2  0.5372 -178.4
 0.220  0.8440  176.7   2.036   84.8  0.0465   63.6  0.5375 -179.0
 0.240  0.8436  175.8   1.865   83.6  0.0500   64.9  0.5379 -179.7
 0.260  0.8437  175.1   1.723   82.6  0.0535   65.8  0.5381  179.8
 0.280  0.8443  174.4   1.610   81.6  0.0570   66.5  0.5383  179.3
 0.300  0.8450  173.8   1.498   80.5  0.0604   67.1  0.5384  178.8
 0.320  0.8444  173.1   1.427   79.8  0.0640   67.5  0.5388  178.3
 0.340  0.8440  172.4   1.357   79.0  0.0675   67.9  0.5392  177.8
 0.360  0.8437  171.8   1.287   78.2  0.0711   68.3  0.5396  177.3
 0.380  0.8435  171.1   1.217   77.2  0.0747   68.5  0.5401  176.8
 0.400  0.8434  170.4   1.147   76.2  0.0783   68.8  0.5406  176.3
 0.420  0.8427  169.8   1.106   75.5  0.0818   68.8  0.5414  175.9
 0.440  0.8420  169.3   1.065   74.8  0.0853   68.9  0.5423  175.6
 0.450  0.8417  169.0   1.045   74.4  0.0871   68.9  0.5427  175.4
 0.460  0.8414  168.7   1.025   74.0  0.0889   68.9  0.5431  175.2
 0.480  0.8409  168.1   0.984   73.1  0.0924   69.0  0.5441  174.9
 0.500  0.8405  167.5   0.944   72.2  0.0960   69.0  0.5450  174.5
 0.520  0.8404  167.0   0.918   71.6  0.0995   68.9  0.5456  174.2
 0.540  0.8404  166.5   0.892   71.0  0.1030   68.9  0.5463  173.9
 0.560  0.8405  166.0   0.866   70.3  0.1065   68.8  0.5470  173.5
 0.580  0.8406  165.5   0.841   69.6  0.1100   68.8  0.5477  173.2
 0.600  0.8408  165.0   0.815   68.8  0.1135   68.7  0.5484  172.9
 0.620  0.8401  164.4   0.797   68.1  0.1171   68.5  0.5493  172.6
 0.640  0.8395  163.7   0.779   67.4  0.1207   68.4  0.5503  172.2
 0.660  0.8390  163.1   0.761   66.7  0.1242   68.3  0.5512  171.9
 0.680  0.8387  162.4   0.743   65.9  0.1278   68.1  0.5522  171.5
 0.700  0.8384  161.8   0.725   65.1  0.1314   68.0  0.5532  171.2
 0.720  0.8387  161.2   0.712   64.6  0.1348   67.8  0.5544  170.9
 0.740  0.8391  160.7   0.698   64.0  0.1382   67.6  0.5557  170.6
 0.760  0.8396  160.1   0.685   63.4  0.1416   67.4  0.5570  170.3
 0.780  0.8402  159.6   0.672   62.8  0.1450   67.3  0.5583  170.0
 0.800  0.8408  159.0   0.659   62.2  0.1484   67.1  0.5596  169.7
 0.820  0.8407  158.5   0.650   61.7  0.1518   66.8  0.5601  169.4
 0.840  0.8406  158.1   0.641   61.2  0.1552   66.5  0.5606  169.1
 0.860  0.8405  157.6   0.632   60.7  0.1587   66.3  0.5611  168.8
 0.880  0.8405  157.2   0.624   60.1  0.1621   66.0  0.5616  168.5
 0.900  0.8406  156.7   0.615   59.6  0.1655   65.8  0.5621  168.2
 0.920  0.8399  156.1   0.607   59.1  0.1689   65.5  0.5628  167.9
 0.940  0.8393  155.5   0.600   58.6  0.1723   65.3  0.5636  167.5
 0.960  0.8388  155.0   0.593   58.0  0.1757   65.1  0.5643  167.2
 0.980  0.8384  154.4   0.585   57.5  0.1791   64.8  0.5651  166.8
 1.000  0.8381  153.8   0.578   56.9  0.1825   64.6  0.5659  166.5
 1.020  0.8381  153.3   0.572   56.5  0.1856   64.3  0.5675  166.3
 1.040  0.8382  152.9   0.567   56.0  0.1888   64.0  0.5690  166.0
 1.060  0.8383  152.4   0.561   55.6  0.1919   63.7  0.5706  165.8
 1.080  0.8385  152.0   0.556   55.2  0.1950   63.4  0.5722  165.5
 1.100  0.8387  151.5   0.550   54.7  0.1982   63.1  0.5738  165.3
 1.120  0.8388  151.0   0.546   54.3  0.2014   62.8  0.5741  165.0
 1.140  0.8390  150.5   0.541   53.9  0.2045   62.5  0.5745  164.7
 1.160  0.8393  150.0   0.537   53.5  0.2077   62.2  0.5749  164.4
 1.180  0.8396  149.5   0.532   53.1  0.2109   62.0  0.5753  164.1
 1.200  0.8400  149.0   0.528   52.7  0.2141   61.7  0.5757  163.8
 1.220  0.8392  148.4   0.525   52.2  0.2175   61.3  0.5759  163.4
 1.240  0.8385  147.9   0.523   51.8  0.2209   61.0  0.5761  163.0
 1.260  0.8379  147.3   0.520   51.3  0.2243   60.6  0.5763  162.5
 1.280  0.8374  146.8   0.518   50.8  0.2277   60.3  0.5766  162.1
 1.300  0.8369  146.2   0.515   50.3  0.2311   60.0  0.5769  161.7
 1.320  0.8363  145.7   0.512   50.0  0.2340   59.7  0.5783  161.5
 1.340  0.8358  145.3   0.510   49.6  0.2370   59.4  0.5798  161.3
 1.360  0.8354  144.8   0.507   49.3  0.2400   59.1  0.5813  161.0
 1.380  0.8350  144.4   0.505   48.9  0.2429   58.9  0.5827  160.8
 1.400  0.8346  143.9   0.502   48.6  0.2459   58.6  0.5842  160.6
 1.420  0.8343  143.5   0.500   48.3  0.2490   58.3  0.5848  160.3
 1.440  0.8340  143.1   0.498   48.0  0.2521   58.1  0.5853  160.1
 1.460  0.8337  142.6   0.497   47.8  0.2552   57.8  0.5859  159.8
 1.480  0.8336  142.2   0.495   47.5  0.2583   57.5  0.5865  159.6
 1.500  0.8334  141.8   0.493   47.2  0.2614   57.3  0.5871  159.3
 1.520  0.8329  141.3   0.491   46.9  0.2643   56.9  0.5873  158.9
 1.540  0.8324  140.7   0.490   46.5  0.2672   56.5  0.5875  158.5
 1.560  0.8320  140.2   0.488   46.2  0.2701   56.1  0.5877  158.0
 1.580  0.8317  139.6   0.487   45.8  0.2730   55.8  0.5880  157.6
 1.600  0.8315  139.1   0.485   45.5  0.2759   55.4  0.5883  157.2
 1.620  0.8308  138.6   0.484   45.2  0.2785   55.1  0.5890  157.1
 1.640  0.8301  138.2   0.483   44.9  0.2810   54.9  0.5896  156.9
 1.660  0.8295  137.7   0.481   44.6  0.2836   54.6  0.5903  156.8
 1.680  0.8290  137.3   0.480   44.3  0.2862   54.4  0.5909  156.6
 1.700  0.8285  136.8   0.479   44.0  0.2888   54.1  0.5916  156.5
 1.720  0.8285  136.4   0.479   43.8  0.2918   53.8  0.5917  156.3
 1.740  0.8285  136.0   0.479   43.6  0.2948   53.6  0.5919  156.0
 1.760  0.8286  135.5   0.478   43.4  0.2978   53.3  0.5920  155.8
 1.780  0.8287  135.1   0.478   43.2  0.3009   53.0  0.5922  155.5
 1.800  0.8289  134.7   0.478   43.0  0.3039   52.8  0.5924  155.3
 1.820  0.8280  134.2   0.478   42.7  0.3066   52.4  0.5925  154.9
 1.840  0.8271  133.8   0.477   42.4  0.3093   52.0  0.5925  154.4
 1.860  0.8262  133.3   0.477   42.1  0.3121   51.6  0.5927  154.0
 1.880  0.8254  132.9   0.476   41.8  0.3148   51.3  0.5928  153.5
 1.900  0.8247  132.4   0.476   41.5  0.3176   50.9  0.5930  153.1
 1.920  0.8239  131.9   0.476   41.3  0.3201   50.6  0.5933  152.9
 1.940  0.8232  131.5   0.475   41.0  0.3227   50.3  0.5936  152.7
 1.960  0.8226  131.0   0.475   40.8  0.3252   50.0  0.5939  152.6
 1.980  0.8220  130.6   0.474   40.5  0.3277   49.7  0.5942  152.4
 2.000  0.8214  130.1   0.474   40.3  0.3303   49.4  0.5945  152.2
 2.020  0.8209  129.7   0.474   40.1  0.3329   49.1  0.5946  151.9
 2.040  0.8204  129.2   0.475   39.8  0.3355   48.7  0.5947  151.5
 2.060  0.8199  128.8   0.475   39.6  0.3381   48.4  0.5948  151.2
 2.080  0.8195  128.4   0.475   39.3  0.3407   48.1  0.5950  150.9
 2.100  0.8191  128.0   0.476   39.1  0.3433   47.8  0.5952  150.5
 2.120  0.8188  127.5   0.476   38.9  0.3460   47.5  0.5953  150.2
 2.140  0.8185  127.1   0.477   38.6  0.3486   47.2  0.5956  149.9
 2.160  0.8183  126.7   0.477   38.4  0.3513   46.9  0.5958  149.6
 2.180  0.8181  126.2   0.478   38.1  0.3539   46.6  0.5960  149.2
 2.200  0.8180  125.8   0.478   37.9  0.3566   46.3  0.5963  148.9
 2.220  0.8173  125.4   0.478   37.7  0.3589   46.0  0.5962  148.7
 2.240  0.8167  125.0   0.479   37.5  0.3612   45.7  0.5962  148.4
 2.260  0.8161  124.6   0.479   37.4  0.3636   45.4  0.5962  148.2
 2.280  0.8155  124.2   0.480   37.2  0.3659   45.1  0.5961  147.9
 2.300  0.8150  123.9   0.480   37.0  0.3683   44.9  0.5961  147.7
 2.320  0.8145  123.5   0.481   36.8  0.3707   44.6  0.5961  147.5
 2.340  0.8141  123.1   0.481   36.6  0.3730   44.3  0.5961  147.2
 2.360  0.8137  122.7   0.482   36.5  0.3754   44.0  0.5961  147.0
 2.380  0.8133  122.3   0.482   36.3  0.3778   43.8  0.5962  146.7
 2.400  0.8130  121.9   0.483   36.1  0.3802   43.5  0.5962  146.5
 2.420  0.8123  121.4   0.483   35.8  0.3822   43.2  0.5966  146.2
 2.440  0.8116  121.0   0.484   35.6  0.3842   42.8  0.5970  145.9
 2.460  0.8109  120.5   0.484   35.3  0.3863   42.5  0.5975  145.6
 2.480  0.8103  120.1   0.484   35.1  0.3883   42.2  0.5979  145.3
 2.500  0.8098  119.6   0.484   34.8  0.3903   41.9  0.5984  144.9
 2.520  0.8093  119.1   0.485   34.5  0.3924   41.5  0.5989  144.6
 2.540  0.8089  118.7   0.485   34.3  0.3945   41.2  0.5994  144.3
 2.560  0.8085  118.2   0.485   34.0  0.3966   40.9  0.6000  144.0
 2.580  0.8082  117.8   0.486   33.8  0.3987   40.6  0.6005  143.7
 2.600  0.8079  117.3   0.486   33.5  0.4008   40.3  0.6011  143.4
 2.620  0.8075  116.9   0.487   33.3  0.4028   40.0  0.6007  143.1
 2.640  0.8071  116.6   0.488   33.0  0.4047   39.7  0.6003  142.8
 2.660  0.8068  116.2   0.488   32.8  0.4067   39.4  0.5999  142.4
 2.680  0.8065  115.9   0.489   32.5  0.4087   39.1  0.5995  142.1
 2.700  0.8062  115.5   0.490   32.3  0.4108   38.8  0.5992  141.8
 2.720  0.8060  115.1   0.491   32.1  0.4128   38.5  0.5988  141.5
 2.740  0.8057  114.8   0.492   31.8  0.4148   38.2  0.5985  141.2
 2.760  0.8056  114.4   0.492   31.6  0.4169   37.9  0.5982  140.8
 2.780  0.8054  114.1   0.493   31.3  0.4189   37.6  0.5980  140.5
 2.800  0.8053  113.7   0.494   31.1  0.4210   37.3  0.5977  140.2
 2.820  0.8044  113.3   0.495   30.9  0.4229   37.0  0.5979  140.0
 2.840  0.8036  112.9   0.496   30.6  0.4248   36.7  0.5981  139.7
 2.860  0.8028  112.5   0.497   30.4  0.4267   36.4  0.5983  139.5
 2.880  0.8021  112.1   0.498   30.1  0.4286   36.1  0.5985  139.2
 2.900  0.8013  111.8   0.499   29.9  0.4305   35.9  0.5987  139.0
 2.920  0.8007  111.4   0.500   29.6  0.4324   35.6  0.5990  138.8
 2.940  0.8000  111.0   0.502   29.4  0.4343   35.3  0.5992  138.5
 2.960  0.7994  110.6   0.503   29.2  0.4363   35.0  0.5995  138.3
 2.980  0.7988  110.2   0.504   28.9  0.4382   34.8  0.5997  138.0
 3.000  0.7983  109.8   0.505   28.7  0.4402   34.5  0.6000  137.8
 3.100  0.7950  108.1   0.508   27.5  0.4470   33.0  0.6007  136.5
 3.200  0.7925  106.4   0.512   26.3  0.4541   31.5  0.6018  135.1
 3.300  0.7906  104.7   0.515   25.2  0.4615   30.1  0.6031  133.8
 3.400  0.7895  102.9   0.519   24.0  0.4692   28.7  0.6048  132.5
 3.500  0.7891  101.2   0.523   22.9  0.4771   27.4  0.6068  131.2
 3.600  0.7845   99.7   0.525   21.8  0.4816   26.0  0.6082  129.9
 3.700  0.7804   98.2   0.528   20.7  0.4864   24.7  0.6100  128.5
 3.800  0.7769   96.6   0.530   19.7  0.4915   23.4  0.6121  127.2
 3.900  0.7740   95.1   0.533   18.6  0.4968   22.1  0.6146  125.9
 4.000  0.7716   93.5   0.536   17.6  0.5023   20.9  0.6173  124.6
 4.100  0.7691   92.2   0.537   16.6  0.5055   19.7  0.6156  123.5
 4.200  0.7669   90.9   0.539   15.6  0.5090   18.4  0.6142  122.4
 4.300  0.7651   89.6   0.541   14.6  0.5127   17.2  0.6129  121.3
 4.400  0.7638   88.3   0.543   13.7  0.5166   16.1  0.6119  120.1
 4.500  0.7628   87.0   0.545   12.7  0.5207   14.9  0.6112  119.0
 4.600  0.7594   85.9   0.547   11.7  0.5227   14.0  0.6085  118.0
 4.700  0.7562   84.8   0.549   10.8  0.5249   13.0  0.6059  117.0
 4.800  0.7534   83.7   0.551    9.8  0.5273   12.1  0.6036  116.0
 4.900  0.7508   82.5   0.553    8.8  0.5297   11.2  0.6015  114.9
 5.000  0.7485   81.4   0.555    7.9  0.5323   10.3  0.5995  113.9
 5.100  0.7479   80.4   0.556    7.1  0.5346    9.5  0.5982  112.8
 5.200  0.7475   79.4   0.557    6.3  0.5369    8.7  0.5970  111.8
 5.300  0.7474   78.4   0.558    5.5  0.5394    7.9  0.5961  110.7
 5.400  0.7475   77.4   0.560    4.7  0.5420    7.1  0.5954  109.7
 5.500  0.7478   76.4   0.561    3.9  0.5447    6.3  0.5949  108.6
 5.600  0.7458   75.5   0.562    3.1  0.5474    5.4  0.5946  107.6
 5.700  0.7440   74.5   0.564    2.2  0.5501    4.5  0.5946  106.7
 5.800  0.7425   73.6   0.565    1.4  0.5531    3.6  0.5946  105.7
 5.900  0.7411   72.6   0.567    0.5  0.5561    2.8  0.5949  104.8
 6.000  0.7399   71.7   0.569   -0.3  0.5593    1.9  0.5953  103.8
!
!  f       NFmin   Gammaopt  rn/50
! GHz       dB    MAG  ANG    -
!
! noise parameter not available yet for this operation point!
!
! (c) 2015  Infineon Technologies AG, Munich
