! Infineon Technologies  Discrete & RF Semiconductors
! BFR93A
! VCE =  1.0 V,  IC =  8.0 mA
! Common Emitter S-Parameters:                            Nov 2015
# GHz  S  MA  R  50
!  f         S11            S21            S12            S22
! GHz     MAG   ANG      MAG   ANG      MAG   ANG      MAG   ANG
 0.010  0.7456   -9.2  21.975  173.8  0.0065   85.4  0.9702   -5.7
 0.015  0.7387  -13.6  21.771  170.9  0.0096   82.2  0.9623   -8.4
 0.020  0.7362  -18.1  21.625  167.9  0.0127   80.6  0.9567  -11.2
 0.025  0.7194  -22.1  21.213  165.4  0.0154   77.2  0.9386  -13.5
 0.030  0.7061  -26.2  20.842  162.9  0.0181   74.9  0.9221  -15.9
 0.035  0.6967  -30.5  20.513  160.3  0.0208   73.1  0.9073  -18.4
 0.040  0.6912  -34.8  20.230  157.5  0.0236   71.8  0.8943  -21.0
 0.045  0.6898  -39.2  19.993  154.7  0.0263   70.8  0.8831  -23.6
 0.050  0.6924  -43.6  19.804  151.9  0.0291   69.9  0.8738  -26.3
 0.055  0.6748  -46.6  19.330  150.3  0.0308   67.9  0.8530  -27.8
 0.060  0.6590  -49.7  18.871  148.7  0.0326   66.2  0.8328  -29.3
 0.065  0.6453  -52.9  18.429  146.9  0.0344   64.6  0.8132  -30.9
 0.070  0.6338  -56.3  18.005  145.1  0.0362   63.2  0.7942  -32.6
 0.075  0.6245  -59.8  17.600  143.2  0.0380   62.0  0.7760  -34.4
 0.080  0.6177  -63.4  17.215  141.2  0.0399   60.8  0.7586  -36.2
 0.085  0.6133  -67.0  16.852  139.1  0.0417   59.8  0.7420  -38.2
 0.090  0.6114  -70.7  16.513  136.9  0.0436   58.8  0.7263  -40.2
 0.095  0.6121  -74.4  16.198  134.7  0.0455   57.9  0.7116  -42.3
 0.100  0.6153  -78.1  15.910  132.3  0.0474   57.1  0.6978  -44.5
 0.105  0.6045  -80.2  15.544  131.2  0.0484   56.4  0.6822  -45.4
 0.110  0.5946  -82.4  15.184  130.1  0.0494   55.7  0.6669  -46.3
 0.115  0.5856  -84.7  14.830  129.0  0.0503   55.1  0.6517  -47.3
 0.120  0.5775  -87.0  14.482  127.8  0.0513   54.4  0.6367  -48.4
 0.125  0.5704  -89.4  14.141  126.5  0.0523   53.8  0.6219  -49.4
 0.130  0.5644  -91.9  13.808  125.1  0.0533   53.2  0.6074  -50.6
 0.135  0.5594  -94.4  13.482  123.7  0.0543   52.7  0.5931  -51.8
 0.140  0.5555  -96.9  13.165  122.3  0.0554   52.1  0.5791  -53.0
 0.145  0.5527  -99.5  12.857  120.7  0.0564   51.6  0.5653  -54.3
 0.150  0.5510 -102.1  12.559  119.1  0.0574   51.1  0.5519  -55.7
 0.155  0.5454 -103.7  12.311  118.4  0.0581   50.9  0.5416  -56.3
 0.160  0.5403 -105.4  12.064  117.6  0.0589   50.6  0.5313  -56.9
 0.165  0.5357 -107.1  11.820  116.8  0.0596   50.4  0.5211  -57.5
 0.170  0.5316 -108.8  11.578  116.0  0.0603   50.2  0.5109  -58.2
 0.175  0.5279 -110.6  11.339  115.2  0.0610   49.9  0.5009  -58.9
 0.180  0.5247 -112.3  11.102  114.3  0.0618   49.7  0.4909  -59.6
 0.185  0.5221 -114.1  10.868  113.3  0.0625   49.5  0.4809  -60.3
 0.190  0.5199 -115.9  10.637  112.4  0.0632   49.3  0.4711  -61.1
 0.195  0.5183 -117.8  10.409  111.4  0.0640   49.1  0.4614  -61.9
 0.200  0.5172 -119.6  10.185  110.3  0.0647   48.9  0.4517  -62.7
 0.220  0.5064 -124.6   9.489  107.9  0.0671   48.6  0.4228  -64.5
 0.240  0.4996 -129.7   8.811  105.2  0.0694   48.4  0.3944  -66.6
 0.260  0.4943 -134.1   8.231  102.8  0.0717   48.4  0.3702  -68.3
 0.280  0.4889 -137.8   7.738  100.9  0.0740   48.5  0.3499  -69.7
 0.300  0.4857 -141.6   7.255   98.8  0.0763   48.7  0.3298  -71.2
 0.320  0.4808 -144.5   6.912   97.6  0.0786   49.1  0.3161  -72.1
 0.340  0.4771 -147.4   6.572   96.2  0.0808   49.5  0.3024  -73.0
 0.360  0.4746 -150.3   6.236   94.7  0.0831   49.9  0.2888  -74.1
 0.380  0.4735 -153.3   5.905   93.0  0.0854   50.3  0.2753  -75.2
 0.400  0.4736 -156.3   5.580   91.1  0.0877   50.6  0.2620  -76.5
 0.420  0.4714 -158.4   5.368   90.1  0.0900   50.9  0.2539  -77.2
 0.440  0.4699 -160.4   5.159   89.0  0.0923   51.2  0.2458  -77.9
 0.450  0.4694 -161.5   5.054   88.4  0.0934   51.4  0.2418  -78.3
 0.460  0.4690 -162.5   4.951   87.7  0.0945   51.5  0.2377  -78.7
 0.480  0.4687 -164.6   4.746   86.4  0.0968   51.8  0.2297  -79.5
 0.500  0.4690 -166.7   4.543   85.0  0.0991   52.1  0.2218  -80.4
 0.520  0.4680 -168.3   4.399   84.1  0.1016   52.4  0.2163  -81.1
 0.540  0.4674 -169.9   4.256   83.2  0.1041   52.7  0.2107  -81.8
 0.560  0.4671 -171.6   4.114   82.2  0.1065   53.0  0.2053  -82.5
 0.580  0.4672 -173.2   3.973   81.1  0.1090   53.2  0.1998  -83.3
 0.600  0.4677 -174.8   3.834   80.0  0.1115   53.5  0.1944  -84.1
 0.620  0.4676 -176.1   3.728   79.2  0.1140   53.7  0.1908  -84.8
 0.640  0.4677 -177.4   3.622   78.3  0.1166   53.8  0.1872  -85.5
 0.660  0.4681 -178.7   3.518   77.4  0.1191   54.0  0.1836  -86.2
 0.680  0.4687  180.0   3.414   76.4  0.1217   54.2  0.1801  -87.0
 0.700  0.4696  178.7   3.312   75.4  0.1242   54.3  0.1766  -87.8
 0.720  0.4697  177.6   3.234   74.6  0.1267   54.5  0.1739  -88.5
 0.740  0.4700  176.5   3.156   73.8  0.1293   54.6  0.1711  -89.3
 0.760  0.4705  175.5   3.080   73.0  0.1318   54.7  0.1685  -90.1
 0.780  0.4711  174.4   3.003   72.1  0.1344   54.9  0.1658  -90.9
 0.800  0.4719  173.3   2.928   71.2  0.1369   55.0  0.1632  -91.7
 0.820  0.4725  172.2   2.866   70.5  0.1395   55.0  0.1614  -92.5
 0.840  0.4733  171.1   2.805   69.9  0.1421   55.0  0.1595  -93.3
 0.860  0.4742  170.0   2.744   69.1  0.1446   55.1  0.1578  -94.2
 0.880  0.4753  169.0   2.683   68.4  0.1472   55.1  0.1560  -95.0
 0.900  0.4766  167.9   2.623   67.6  0.1498   55.1  0.1543  -95.9
 0.920  0.4763  167.0   2.575   66.9  0.1525   55.1  0.1531  -96.6
 0.940  0.4762  166.1   2.526   66.2  0.1551   55.1  0.1519  -97.4
 0.960  0.4762  165.2   2.479   65.4  0.1578   55.0  0.1507  -98.1
 0.980  0.4763  164.3   2.432   64.6  0.1604   55.0  0.1496  -98.9
 1.000  0.4765  163.4   2.385   63.8  0.1631   55.0  0.1485  -99.7
 1.020  0.4775  162.6   2.346   63.2  0.1657   55.0  0.1478 -100.6
 1.040  0.4786  161.7   2.307   62.5  0.1683   54.9  0.1471 -101.4
 1.060  0.4799  160.9   2.269   61.9  0.1710   54.9  0.1465 -102.3
 1.080  0.4812  160.1   2.231   61.2  0.1736   54.8  0.1459 -103.2
 1.100  0.4826  159.3   2.193   60.5  0.1762   54.8  0.1453 -104.1
 1.120  0.4845  158.5   2.161   59.9  0.1789   54.7  0.1447 -105.0
 1.140  0.4866  157.8   2.129   59.2  0.1816   54.6  0.1441 -106.0
 1.160  0.4887  157.0   2.097   58.5  0.1842   54.5  0.1436 -107.0
 1.180  0.4909  156.2   2.065   57.8  0.1869   54.4  0.1431 -107.9
 1.200  0.4932  155.5   2.034   57.1  0.1896   54.3  0.1427 -108.9
 1.220  0.4939  154.7   2.005   56.5  0.1922   54.2  0.1424 -109.8
 1.240  0.4947  154.0   1.976   55.8  0.1948   54.0  0.1421 -110.6
 1.260  0.4956  153.2   1.947   55.1  0.1973   53.9  0.1418 -111.5
 1.280  0.4966  152.5   1.918   54.4  0.1999   53.7  0.1416 -112.3
 1.300  0.4977  151.7   1.890   53.7  0.2025   53.6  0.1414 -113.2
 1.320  0.4979  151.0   1.866   53.1  0.2051   53.5  0.1415 -114.0
 1.340  0.4982  150.3   1.842   52.5  0.2077   53.4  0.1416 -114.8
 1.360  0.4986  149.7   1.819   51.9  0.2104   53.2  0.1418 -115.5
 1.380  0.4990  149.0   1.795   51.3  0.2130   53.1  0.1420 -116.3
 1.400  0.4995  148.3   1.772   50.7  0.2156   53.0  0.1422 -117.1
 1.420  0.4998  147.7   1.750   50.1  0.2182   52.9  0.1424 -118.1
 1.440  0.5001  147.0   1.728   49.5  0.2207   52.7  0.1427 -119.1
 1.460  0.5005  146.4   1.707   48.9  0.2233   52.6  0.1430 -120.1
 1.480  0.5009  145.7   1.685   48.3  0.2258   52.4  0.1434 -121.1
 1.500  0.5014  145.1   1.664   47.6  0.2284   52.3  0.1438 -122.1
 1.520  0.5030  144.5   1.647   47.1  0.2310   52.1  0.1443 -123.1
 1.540  0.5046  143.8   1.630   46.6  0.2335   51.9  0.1448 -124.0
 1.560  0.5063  143.2   1.614   46.1  0.2361   51.7  0.1454 -124.9
 1.580  0.5081  142.6   1.597   45.5  0.2386   51.6  0.1460 -125.9
 1.600  0.5099  142.0   1.581   45.0  0.2412   51.4  0.1466 -126.8
 1.620  0.5119  141.4   1.566   44.5  0.2437   51.2  0.1471 -127.6
 1.640  0.5139  140.8   1.551   44.0  0.2462   51.0  0.1476 -128.4
 1.660  0.5160  140.2   1.537   43.4  0.2486   50.8  0.1482 -129.2
 1.680  0.5182  139.7   1.522   42.9  0.2511   50.7  0.1488 -129.9
 1.700  0.5204  139.1   1.508   42.3  0.2536   50.5  0.1494 -130.7
 1.720  0.5200  138.6   1.495   41.8  0.2563   50.3  0.1504 -131.4
 1.740  0.5197  138.1   1.482   41.2  0.2589   50.1  0.1515 -132.1
 1.760  0.5194  137.6   1.469   40.6  0.2616   49.9  0.1526 -132.8
 1.780  0.5191  137.1   1.456   40.1  0.2642   49.7  0.1537 -133.5
 1.800  0.5189  136.6   1.443   39.5  0.2669   49.5  0.1548 -134.2
 1.820  0.5197  136.0   1.431   39.0  0.2694   49.3  0.1556 -135.0
 1.840  0.5205  135.4   1.419   38.5  0.2719   49.1  0.1565 -135.7
 1.860  0.5214  134.8   1.407   38.0  0.2743   49.0  0.1574 -136.4
 1.880  0.5224  134.2   1.396   37.5  0.2768   48.8  0.1583 -137.2
 1.900  0.5234  133.6   1.384   37.0  0.2793   48.6  0.1592 -137.9
 1.920  0.5245  133.0   1.373   36.5  0.2818   48.4  0.1599 -138.6
 1.940  0.5256  132.4   1.362   36.1  0.2843   48.2  0.1606 -139.4
 1.960  0.5267  131.9   1.351   35.6  0.2868   48.0  0.1614 -140.1
 1.980  0.5279  131.3   1.341   35.1  0.2894   47.8  0.1622 -140.8
 2.000  0.5292  130.7   1.330   34.6  0.2919   47.6  0.1630 -141.5
 2.020  0.5301  130.2   1.320   34.1  0.2944   47.4  0.1639 -142.2
 2.040  0.5310  129.7   1.311   33.7  0.2969   47.1  0.1648 -142.9
 2.060  0.5320  129.2   1.301   33.2  0.2994   46.9  0.1657 -143.7
 2.080  0.5330  128.7   1.292   32.7  0.3020   46.6  0.1667 -144.4
 2.100  0.5340  128.2   1.283   32.2  0.3045   46.4  0.1676 -145.1
 2.120  0.5351  127.7   1.274   31.7  0.3070   46.2  0.1686 -145.7
 2.140  0.5362  127.2   1.265   31.2  0.3096   46.0  0.1697 -146.4
 2.160  0.5374  126.8   1.256   30.7  0.3121   45.7  0.1707 -147.1
 2.180  0.5386  126.3   1.247   30.2  0.3146   45.5  0.1718 -147.7
 2.200  0.5398  125.8   1.238   29.7  0.3172   45.3  0.1729 -148.4
 2.220  0.5404  125.3   1.231   29.3  0.3197   45.0  0.1740 -149.1
 2.240  0.5410  124.9   1.223   28.8  0.3221   44.8  0.1751 -149.9
 2.260  0.5417  124.4   1.216   28.4  0.3246   44.5  0.1762 -150.6
 2.280  0.5424  123.9   1.209   28.0  0.3270   44.3  0.1773 -151.3
 2.300  0.5431  123.4   1.202   27.5  0.3295   44.0  0.1785 -152.0
 2.320  0.5439  123.0   1.195   27.1  0.3320   43.8  0.1797 -152.7
 2.340  0.5447  122.5   1.188   26.6  0.3345   43.5  0.1810 -153.3
 2.360  0.5455  122.0   1.181   26.1  0.3370   43.3  0.1822 -154.0
 2.380  0.5464  121.6   1.175   25.7  0.3395   43.0  0.1835 -154.7
 2.400  0.5473  121.1   1.168   25.2  0.3420   42.8  0.1848 -155.3
 2.420  0.5485  120.6   1.161   24.8  0.3444   42.5  0.1861 -156.0
 2.440  0.5497  120.1   1.154   24.4  0.3467   42.3  0.1875 -156.8
 2.460  0.5510  119.7   1.147   24.0  0.3491   42.0  0.1889 -157.5
 2.480  0.5523  119.2   1.140   23.5  0.3515   41.8  0.1903 -158.2
 2.500  0.5536  118.7   1.133   23.1  0.3539   41.5  0.1917 -158.9
 2.520  0.5550  118.3   1.126   22.7  0.3563   41.3  0.1932 -159.6
 2.540  0.5564  117.8   1.119   22.2  0.3587   41.0  0.1947 -160.2
 2.560  0.5578  117.3   1.112   21.8  0.3611   40.8  0.1962 -160.9
 2.580  0.5593  116.9   1.106   21.4  0.3635   40.5  0.1977 -161.6
 2.600  0.5608  116.4   1.099   20.9  0.3659   40.3  0.1993 -162.2
 2.620  0.5613  115.9   1.094   20.5  0.3681   40.0  0.2006 -163.0
 2.640  0.5619  115.4   1.088   20.1  0.3704   39.7  0.2020 -163.7
 2.660  0.5625  114.9   1.083   19.7  0.3726   39.5  0.2034 -164.4
 2.680  0.5631  114.5   1.078   19.3  0.3749   39.2  0.2048 -165.2
 2.700  0.5638  114.0   1.072   18.9  0.3771   38.9  0.2063 -165.9
 2.720  0.5645  113.5   1.067   18.5  0.3794   38.6  0.2077 -166.6
 2.740  0.5652  113.0   1.062   18.1  0.3817   38.4  0.2093 -167.3
 2.760  0.5660  112.6   1.057   17.7  0.3840   38.1  0.2108 -168.0
 2.780  0.5668  112.1   1.052   17.3  0.3863   37.9  0.2124 -168.6
 2.800  0.5677  111.6   1.047   16.9  0.3886   37.6  0.2140 -169.3
 2.820  0.5688  111.1   1.042   16.5  0.3908   37.3  0.2157 -170.0
 2.840  0.5699  110.6   1.037   16.2  0.3931   37.0  0.2174 -170.7
 2.860  0.5711  110.2   1.033   15.8  0.3953   36.7  0.2191 -171.4
 2.880  0.5724  109.7   1.028   15.5  0.3976   36.4  0.2209 -172.1
 2.900  0.5736  109.2   1.023   15.1  0.3998   36.2  0.2227 -172.8
 2.920  0.5749  108.8   1.019   14.7  0.4021   35.9  0.2245 -173.5
 2.940  0.5763  108.3   1.014   14.3  0.4044   35.6  0.2264 -174.1
 2.960  0.5776  107.8   1.010   14.0  0.4067   35.3  0.2282 -174.7
 2.980  0.5790  107.4   1.005   13.6  0.4090   35.1  0.2302 -175.4
 3.000  0.5805  106.9   1.001   13.2  0.4113   34.8  0.2321 -176.0
!
!  f       NFmin   Gammaopt  rn/50
! GHz       dB    MAG  ANG    -
!
! noise parameter not available yet for this operation point!
!
! (c) 2015  Infineon Technologies AG, Munich
