! Infineon Technologies  Discrete & RF Semiconductors
! BFR93AW
! VCE = 0.75 V,  IC =  5.0 mA
! Common Emitter S-Parameters:                            Nov 2015
# GHz  S  MA  R  50
!  f         S11            S21            S12            S22
! GHz     MAG   ANG      MAG   ANG      MAG   ANG      MAG   ANG
 0.030  0.8003  -20.6  15.820  168.0  0.0168   79.1  0.9628  -10.4
 0.035  0.7975  -23.6  15.718  166.0  0.0194   77.1  0.9551  -12.0
 0.040  0.7969  -26.6  15.635  164.0  0.0220   75.6  0.9481  -13.7
 0.045  0.7985  -29.6  15.573  161.9  0.0246   74.4  0.9420  -15.4
 0.050  0.8022  -32.5  15.531  159.8  0.0272   73.4  0.9367  -17.2
 0.055  0.7892  -35.1  15.300  158.3  0.0292   71.3  0.9232  -18.4
 0.060  0.7779  -37.8  15.079  156.8  0.0312   69.5  0.9102  -19.7
 0.065  0.7683  -40.6  14.870  155.2  0.0332   67.9  0.8976  -21.0
 0.070  0.7607  -43.5  14.672  153.6  0.0352   66.5  0.8854  -22.3
 0.075  0.7550  -46.4  14.486  151.9  0.0373   65.2  0.8738  -23.7
 0.080  0.7512  -49.3  14.313  150.2  0.0394   64.1  0.8627  -25.1
 0.085  0.7494  -52.2  14.153  148.5  0.0415   63.1  0.8521  -26.5
 0.090  0.7496  -55.2  14.006  146.7  0.0436   62.2  0.8421  -28.0
 0.095  0.7518  -58.2  13.873  144.9  0.0457   61.4  0.8326  -29.5
 0.100  0.7560  -61.1  13.754  143.0  0.0478   60.6  0.8238  -31.1
 0.105  0.7453  -63.2  13.515  141.9  0.0491   59.5  0.8109  -31.9
 0.110  0.7357  -65.4  13.282  140.7  0.0504   58.5  0.7981  -32.8
 0.115  0.7272  -67.6  13.054  139.5  0.0517   57.6  0.7855  -33.6
 0.120  0.7198  -69.9  12.832  138.3  0.0530   56.7  0.7731  -34.5
 0.125  0.7135  -72.2  12.617  137.0  0.0543   55.8  0.7608  -35.4
 0.130  0.7085  -74.6  12.408  135.7  0.0557   55.0  0.7488  -36.4
 0.135  0.7046  -77.0  12.206  134.3  0.0570   54.2  0.7370  -37.4
 0.140  0.7020  -79.4  12.011  132.9  0.0584   53.5  0.7255  -38.5
 0.145  0.7006  -81.8  11.823  131.4  0.0598   52.8  0.7142  -39.5
 0.150  0.7005  -84.2  11.644  129.9  0.0612   52.1  0.7031  -40.6
 0.155  0.6947  -85.8  11.460  129.1  0.0620   51.5  0.6930  -41.2
 0.160  0.6895  -87.4  11.278  128.3  0.0628   50.9  0.6830  -41.8
 0.165  0.6848  -89.0  11.099  127.4  0.0637   50.3  0.6730  -42.4
 0.170  0.6807  -90.7  10.922  126.5  0.0645   49.7  0.6631  -43.0
 0.175  0.6771  -92.4  10.748  125.6  0.0653   49.1  0.6533  -43.7
 0.180  0.6742  -94.0  10.577  124.6  0.0662   48.6  0.6436  -44.4
 0.185  0.6718  -95.7  10.409  123.6  0.0670   48.0  0.6340  -45.1
 0.190  0.6700  -97.5  10.244  122.6  0.0679   47.5  0.6245  -45.8
 0.195  0.6689  -99.2  10.082  121.6  0.0687   47.0  0.6151  -46.5
 0.200  0.6683 -100.9   9.924  120.5  0.0696   46.5  0.6058  -47.3
 0.220  0.6501 -106.3   9.326  117.8  0.0716   45.1  0.5727  -48.9
 0.240  0.6380 -111.9   8.751  114.8  0.0736   43.7  0.5402  -50.6
 0.260  0.6299 -116.9   8.248  112.1  0.0755   42.7  0.5126  -52.1
 0.280  0.6236 -121.1   7.806  109.9  0.0773   41.8  0.4897  -53.3
 0.300  0.6207 -125.4   7.376  107.4  0.0791   41.0  0.4670  -54.6
 0.320  0.6125 -128.5   7.045  105.9  0.0804   40.7  0.4499  -55.2
 0.340  0.6061 -131.6   6.720  104.4  0.0817   40.4  0.4329  -55.9
 0.360  0.6016 -134.8   6.400  102.6  0.0829   40.2  0.4159  -56.6
 0.380  0.5989 -138.0   6.087  100.7  0.0842   39.9  0.3991  -57.3
 0.400  0.5982 -141.3   5.781   98.6  0.0855   39.6  0.3823  -58.2
 0.420  0.5944 -143.5   5.570   97.5  0.0865   39.7  0.3716  -58.7
 0.440  0.5914 -145.8   5.361   96.2  0.0875   39.8  0.3609  -59.1
 0.450  0.5903 -146.9   5.257   95.6  0.0880   39.8  0.3556  -59.4
 0.460  0.5894 -148.0   5.154   94.9  0.0885   39.8  0.3503  -59.7
 0.480  0.5883 -150.3   4.951   93.5  0.0896   39.9  0.3397  -60.3
 0.500  0.5882 -152.6   4.751   91.9  0.0906   40.0  0.3291  -60.9
 0.520  0.5869 -154.2   4.602   91.0  0.0916   40.2  0.3225  -61.2
 0.540  0.5862 -155.8   4.454   90.0  0.0926   40.4  0.3159  -61.5
 0.560  0.5858 -157.5   4.307   89.0  0.0937   40.6  0.3093  -61.9
 0.580  0.5860 -159.1   4.162   87.9  0.0947   40.8  0.3027  -62.2
 0.600  0.5866 -160.7   4.018   86.7  0.0957   41.0  0.2961  -62.6
 0.620  0.5849 -162.1   3.912   85.8  0.0968   41.4  0.2915  -63.0
 0.640  0.5836 -163.5   3.806   84.9  0.0978   41.7  0.2869  -63.4
 0.660  0.5827 -164.9   3.702   84.0  0.0989   42.0  0.2824  -63.8
 0.680  0.5821 -166.4   3.598   83.0  0.0999   42.4  0.2778  -64.3
 0.700  0.5819 -167.8   3.496   81.9  0.1010   42.7  0.2733  -64.7
 0.720  0.5818 -169.0   3.412   81.1  0.1021   43.1  0.2696  -65.2
 0.740  0.5820 -170.2   3.328   80.3  0.1033   43.4  0.2660  -65.8
 0.760  0.5824 -171.5   3.245   79.5  0.1044   43.8  0.2624  -66.3
 0.780  0.5831 -172.7   3.163   78.6  0.1056   44.2  0.2588  -66.9
 0.800  0.5841 -173.9   3.081   77.7  0.1067   44.5  0.2552  -67.5
 0.820  0.5839 -174.8   3.017   77.0  0.1080   44.9  0.2532  -67.8
 0.840  0.5838 -175.7   2.954   76.3  0.1094   45.3  0.2512  -68.1
 0.860  0.5838 -176.7   2.891   75.6  0.1107   45.7  0.2492  -68.4
 0.880  0.5840 -177.6   2.828   74.8  0.1120   46.1  0.2472  -68.8
 0.900  0.5844 -178.5   2.766   74.0  0.1134   46.5  0.2452  -69.1
 0.920  0.5845 -179.4   2.714   73.3  0.1147   46.8  0.2435  -69.6
 0.940  0.5847  179.7   2.662   72.6  0.1160   47.0  0.2419  -70.1
 0.960  0.5851  178.7   2.610   71.9  0.1172   47.3  0.2403  -70.6
 0.980  0.5856  177.8   2.559   71.2  0.1185   47.6  0.2387  -71.1
 1.000  0.5863  176.9   2.508   70.4  0.1198   47.8  0.2371  -71.6
 1.020  0.5865  176.1   2.465   69.8  0.1211   48.1  0.2360  -72.4
 1.040  0.5869  175.3   2.423   69.1  0.1224   48.4  0.2350  -73.2
 1.060  0.5873  174.6   2.381   68.4  0.1237   48.7  0.2340  -74.0
 1.080  0.5878  173.8   2.339   67.7  0.1251   49.0  0.2330  -74.9
 1.100  0.5885  173.0   2.298   67.0  0.1264   49.3  0.2321  -75.7
 1.120  0.5894  172.2   2.262   66.4  0.1278   49.6  0.2316  -76.1
 1.140  0.5904  171.5   2.226   65.8  0.1293   49.9  0.2311  -76.6
 1.160  0.5915  170.7   2.191   65.2  0.1307   50.2  0.2306  -77.0
 1.180  0.5928  170.0   2.156   64.6  0.1322   50.4  0.2301  -77.5
 1.200  0.5941  169.2   2.121   63.9  0.1336   50.7  0.2296  -77.9
 1.220  0.5939  168.5   2.093   63.3  0.1351   50.9  0.2288  -78.4
 1.240  0.5938  167.8   2.064   62.7  0.1367   51.1  0.2281  -78.9
 1.260  0.5938  167.1   2.036   62.1  0.1382   51.3  0.2273  -79.4
 1.280  0.5939  166.4   2.009   61.5  0.1398   51.5  0.2266  -79.9
 1.300  0.5941  165.7   1.981   60.8  0.1413   51.7  0.2259  -80.4
 1.320  0.5950  165.0   1.955   60.3  0.1429   51.9  0.2259  -81.3
 1.340  0.5960  164.3   1.929   59.7  0.1446   52.1  0.2260  -82.2
 1.360  0.5971  163.7   1.903   59.1  0.1462   52.3  0.2261  -83.1
 1.380  0.5983  163.0   1.877   58.5  0.1479   52.5  0.2263  -84.0
 1.400  0.5996  162.3   1.852   57.9  0.1495   52.7  0.2265  -84.9
 1.420  0.6004  161.8   1.829   57.4  0.1511   53.0  0.2270  -85.4
 1.440  0.6013  161.3   1.806   56.8  0.1527   53.2  0.2274  -86.0
 1.460  0.6022  160.8   1.784   56.3  0.1544   53.4  0.2279  -86.5
 1.480  0.6032  160.3   1.761   55.7  0.1560   53.7  0.2285  -87.1
 1.500  0.6042  159.8   1.739   55.1  0.1576   53.9  0.2290  -87.6
 1.520  0.6041  159.1   1.720   54.6  0.1594   54.0  0.2285  -88.3
 1.540  0.6042  158.4   1.701   54.1  0.1613   54.0  0.2280  -88.9
 1.560  0.6043  157.8   1.682   53.5  0.1631   54.1  0.2275  -89.6
 1.580  0.6045  157.1   1.663   53.0  0.1650   54.1  0.2271  -90.2
 1.600  0.6048  156.4   1.645   52.4  0.1668   54.2  0.2267  -90.9
 1.620  0.6057  155.8   1.628   51.9  0.1685   54.3  0.2276  -91.8
 1.640  0.6066  155.2   1.611   51.4  0.1702   54.5  0.2285  -92.7
 1.660  0.6076  154.6   1.594   50.9  0.1720   54.6  0.2295  -93.6
 1.680  0.6087  154.0   1.577   50.3  0.1737   54.8  0.2305  -94.4
 1.700  0.6098  153.4   1.560   49.8  0.1754   54.9  0.2316  -95.3
 1.720  0.6108  152.9   1.545   49.3  0.1774   55.0  0.2329  -95.8
 1.740  0.6118  152.5   1.530   48.9  0.1794   55.1  0.2342  -96.3
 1.760  0.6128  152.0   1.515   48.4  0.1813   55.1  0.2356  -96.8
 1.780  0.6139  151.6   1.501   47.9  0.1833   55.2  0.2369  -97.2
 1.800  0.6150  151.1   1.486   47.4  0.1853   55.3  0.2383  -97.7
 1.820  0.6146  150.5   1.473   46.9  0.1873   55.4  0.2381  -98.3
 1.840  0.6143  149.9   1.459   46.5  0.1893   55.5  0.2379  -98.9
 1.860  0.6140  149.4   1.446   46.0  0.1914   55.5  0.2377  -99.6
 1.880  0.6138  148.8   1.433   45.5  0.1934   55.6  0.2376 -100.2
 1.900  0.6136  148.2   1.420   45.0  0.1954   55.7  0.2375 -100.8
 1.920  0.6148  147.6   1.407   44.5  0.1974   55.7  0.2390 -101.6
 1.940  0.6161  147.0   1.395   44.0  0.1993   55.7  0.2405 -102.3
 1.960  0.6174  146.5   1.382   43.5  0.2013   55.7  0.2421 -103.0
 1.980  0.6188  145.9   1.370   43.0  0.2032   55.7  0.2437 -103.8
 2.000  0.6202  145.3   1.358   42.5  0.2052   55.7  0.2453 -104.5
 2.020  0.6205  144.8   1.348   42.1  0.2074   55.7  0.2458 -105.1
 2.040  0.6209  144.4   1.337   41.7  0.2095   55.7  0.2463 -105.6
 2.060  0.6213  143.9   1.327   41.3  0.2117   55.7  0.2468 -106.1
 2.080  0.6217  143.4   1.317   40.9  0.2138   55.7  0.2473 -106.7
 2.100  0.6222  142.9   1.307   40.5  0.2160   55.6  0.2479 -107.2
 2.120  0.6228  142.5   1.297   40.1  0.2182   55.6  0.2485 -107.8
 2.140  0.6233  142.0   1.287   39.7  0.2203   55.6  0.2491 -108.3
 2.160  0.6239  141.5   1.277   39.3  0.2225   55.6  0.2497 -108.8
 2.180  0.6246  141.1   1.268   38.8  0.2246   55.6  0.2503 -109.4
 2.200  0.6253  140.6   1.258   38.4  0.2268   55.6  0.2510 -109.9
 2.220  0.6262  140.1   1.249   38.0  0.2289   55.6  0.2523 -110.5
 2.240  0.6271  139.6   1.240   37.6  0.2310   55.5  0.2537 -111.2
 2.260  0.6280  139.2   1.231   37.3  0.2331   55.5  0.2551 -111.8
 2.280  0.6290  138.7   1.222   36.9  0.2352   55.4  0.2566 -112.4
 2.300  0.6301  138.2   1.213   36.5  0.2373   55.4  0.2580 -113.0
 2.320  0.6312  137.8   1.204   36.1  0.2395   55.4  0.2595 -113.6
 2.340  0.6323  137.3   1.196   35.7  0.2416   55.3  0.2611 -114.2
 2.360  0.6334  136.8   1.187   35.2  0.2437   55.3  0.2626 -114.8
 2.380  0.6347  136.4   1.179   34.8  0.2458   55.2  0.2642 -115.3
 2.400  0.6359  135.9   1.170   34.4  0.2479   55.2  0.2658 -115.9
 2.420  0.6363  135.4   1.162   34.0  0.2502   55.1  0.2665 -116.7
 2.440  0.6367  134.9   1.155   33.6  0.2525   54.9  0.2673 -117.5
 2.460  0.6372  134.4   1.147   33.3  0.2548   54.8  0.2681 -118.3
 2.480  0.6378  133.9   1.140   32.9  0.2570   54.7  0.2690 -119.0
 2.500  0.6384  133.4   1.132   32.5  0.2593   54.6  0.2699 -119.8
 2.520  0.6390  132.9   1.125   32.1  0.2616   54.5  0.2709 -120.6
 2.540  0.6397  132.5   1.118   31.7  0.2639   54.3  0.2719 -121.3
 2.560  0.6404  132.0   1.110   31.2  0.2662   54.2  0.2729 -122.1
 2.580  0.6412  131.5   1.103   30.8  0.2685   54.1  0.2740 -122.9
 2.600  0.6420  131.0   1.096   30.4  0.2708   54.0  0.2752 -123.6
 2.620  0.6428  130.6   1.090   30.1  0.2731   53.9  0.2761 -124.2
 2.640  0.6437  130.2   1.084   29.7  0.2755   53.8  0.2771 -124.8
 2.660  0.6446  129.7   1.078   29.4  0.2778   53.7  0.2780 -125.3
 2.680  0.6455  129.3   1.072   29.0  0.2802   53.5  0.2790 -125.9
 2.700  0.6465  128.9   1.066   28.7  0.2825   53.4  0.2801 -126.5
 2.720  0.6475  128.5   1.060   28.3  0.2849   53.3  0.2811 -127.0
 2.740  0.6486  128.0   1.054   28.0  0.2872   53.2  0.2822 -127.6
 2.760  0.6496  127.6   1.048   27.6  0.2896   53.1  0.2833 -128.1
 2.780  0.6508  127.2   1.043   27.3  0.2919   53.0  0.2844 -128.7
 2.800  0.6519  126.8   1.037   26.9  0.2943   52.9  0.2856 -129.2
 2.820  0.6522  126.3   1.032   26.6  0.2965   52.8  0.2868 -129.8
 2.840  0.6525  125.9   1.026   26.3  0.2987   52.6  0.2880 -130.3
 2.860  0.6529  125.4   1.021   26.0  0.3009   52.5  0.2893 -130.9
 2.880  0.6533  125.0   1.015   25.7  0.3031   52.3  0.2906 -131.4
 2.900  0.6537  124.5   1.010   25.3  0.3053   52.2  0.2919 -132.0
 2.920  0.6542  124.1   1.005   25.0  0.3075   52.0  0.2933 -132.5
 2.940  0.6547  123.6   1.000   24.7  0.3097   51.9  0.2946 -133.0
 2.960  0.6553  123.2   0.994   24.4  0.3119   51.8  0.2960 -133.6
 2.980  0.6559  122.7   0.989   24.0  0.3141   51.6  0.2975 -134.1
 3.000  0.6565  122.3   0.984   23.7  0.3163   51.5  0.2989 -134.6
 3.100  0.6591  120.2   0.962   22.4  0.3278   50.4  0.3049 -138.1
 3.200  0.6625  118.1   0.940   21.0  0.3394   49.4  0.3121 -141.4
 3.300  0.6668  116.1   0.919   19.6  0.3511   48.4  0.3202 -144.6
 3.400  0.6719  114.1   0.898   18.1  0.3629   47.5  0.3293 -147.6
 3.500  0.6779  112.1   0.878   16.5  0.3748   46.7  0.3392 -150.5
 3.600  0.6783  110.3   0.861   15.5  0.3851   45.4  0.3454 -153.9
 3.700  0.6794  108.4   0.844   14.4  0.3956   44.2  0.3527 -157.1
 3.800  0.6811  106.6   0.827   13.3  0.4062   43.0  0.3611 -160.2
 3.900  0.6836  104.8   0.811   12.1  0.4170   41.9  0.3705 -163.2
 4.000  0.6867  103.0   0.795   10.9  0.4280   40.9  0.3808 -166.0
 4.100  0.6878  101.4   0.782   10.1  0.4371   39.5  0.3864 -168.7
 4.200  0.6894   99.7   0.770    9.3  0.4465   38.2  0.3929 -171.4
 4.300  0.6916   98.1   0.758    8.4  0.4560   37.0  0.4001 -173.9
 4.400  0.6943   96.5   0.746    7.5  0.4658   35.8  0.4082 -176.3
 4.500  0.6976   94.9   0.734    6.6  0.4758   34.6  0.4169 -178.7
 4.600  0.6968   93.5   0.726    5.9  0.4830   33.3  0.4213  178.9
 4.700  0.6963   92.2   0.718    5.2  0.4905   32.1  0.4264  176.5
 4.800  0.6962   90.8   0.710    4.5  0.4981   30.9  0.4323  174.2
 4.900  0.6966   89.5   0.702    3.8  0.5060   29.7  0.4388  172.0
 5.000  0.6973   88.1   0.694    3.0  0.5141   28.6  0.4460  169.8
 5.100  0.6983   86.8   0.688    2.5  0.5203   27.4  0.4486  167.4
 5.200  0.6996   85.6   0.682    1.9  0.5266   26.2  0.4519  165.1
 5.300  0.7013   84.3   0.676    1.4  0.5332   25.1  0.4559  162.8
 5.400  0.7033   83.0   0.671    0.9  0.5400   24.0  0.4607  160.5
 5.500  0.7057   81.8   0.665    0.3  0.5470   22.9  0.4662  158.3
 5.600  0.7050   80.7   0.662   -0.3  0.5527   21.7  0.4690  156.3
 5.700  0.7045   79.6   0.660   -0.8  0.5587   20.6  0.4724  154.2
 5.800  0.7044   78.4   0.657   -1.4  0.5649   19.5  0.4763  152.3
 5.900  0.7044   77.3   0.654   -2.0  0.5713   18.4  0.4808  150.3
 6.000  0.7048   76.2   0.652   -2.6  0.5779   17.3  0.4859  148.4
!
!  f       NFmin   Gammaopt  rn/50
! GHz       dB    MAG  ANG    -
!
! noise parameter not available yet for this operation point!
!
! (c) 2015  Infineon Technologies AG, Munich
