! Infineon Technologies  Discrete & RF Semiconductors
! BFR93AW
! VCE =  4.0 V,  IC =  2.0 mA
! Common Emitter S-Parameters:                            Nov 2015
# GHz  S  MA  R  50
!  f         S11            S21            S12            S22
! GHz     MAG   ANG      MAG   ANG      MAG   ANG      MAG   ANG
 0.030  0.9178  -10.8   6.996  173.6  0.0115   83.6  0.9946   -3.6
 0.035  0.9178  -12.2   6.990  172.5  0.0133   82.4  0.9926   -4.1
 0.040  0.9183  -13.6   6.986  171.3  0.0151   81.4  0.9906   -4.7
 0.045  0.9194  -15.0   6.985  170.2  0.0169   80.6  0.9887   -5.3
 0.050  0.9210  -16.4   6.987  169.1  0.0187   80.0  0.9869   -5.9
 0.055  0.9164  -18.0   6.959  168.1  0.0205   78.6  0.9840   -6.4
 0.060  0.9126  -19.6   6.933  167.1  0.0224   77.4  0.9811   -7.0
 0.065  0.9094  -21.2   6.909  166.1  0.0242   76.4  0.9783   -7.5
 0.070  0.9070  -22.8   6.887  165.0  0.0261   75.6  0.9756   -8.1
 0.075  0.9052  -24.4   6.867  164.0  0.0280   74.9  0.9730   -8.6
 0.080  0.9042  -26.0   6.850  162.9  0.0299   74.2  0.9705   -9.2
 0.085  0.9039  -27.7   6.835  161.9  0.0317   73.7  0.9681   -9.7
 0.090  0.9044  -29.3   6.823  160.8  0.0336   73.2  0.9657  -10.3
 0.095  0.9056  -30.9   6.813  159.8  0.0355   72.7  0.9635  -10.8
 0.100  0.9075  -32.5   6.805  158.7  0.0374   72.3  0.9613  -11.4
 0.105  0.9008  -34.0   6.758  157.8  0.0388   71.3  0.9568  -11.8
 0.110  0.8947  -35.5   6.712  156.8  0.0402   70.3  0.9524  -12.3
 0.115  0.8892  -37.0   6.668  155.8  0.0416   69.4  0.9481  -12.7
 0.120  0.8844  -38.6   6.627  154.8  0.0431   68.5  0.9438  -13.2
 0.125  0.8803  -40.1   6.587  153.8  0.0445   67.7  0.9396  -13.6
 0.130  0.8768  -41.7   6.549  152.8  0.0460   67.0  0.9354  -14.1
 0.135  0.8740  -43.3   6.514  151.8  0.0474   66.3  0.9313  -14.5
 0.140  0.8718  -44.9   6.480  150.8  0.0489   65.6  0.9273  -15.0
 0.145  0.8703  -46.5   6.448  149.8  0.0504   65.0  0.9233  -15.5
 0.150  0.8695  -48.1   6.419  148.7  0.0519   64.4  0.9194  -16.0
 0.155  0.8647  -49.4   6.370  147.9  0.0531   63.6  0.9149  -16.4
 0.160  0.8603  -50.6   6.322  147.1  0.0544   62.8  0.9105  -16.8
 0.165  0.8564  -51.9   6.276  146.3  0.0557   62.0  0.9060  -17.1
 0.170  0.8528  -53.2   6.230  145.4  0.0570   61.3  0.9017  -17.5
 0.175  0.8498  -54.5   6.186  144.6  0.0582   60.6  0.8973  -17.9
 0.180  0.8471  -55.8   6.144  143.7  0.0595   60.0  0.8930  -18.3
 0.185  0.8449  -57.1   6.103  142.9  0.0608   59.3  0.8888  -18.7
 0.190  0.8432  -58.4   6.063  142.0  0.0622   58.7  0.8846  -19.1
 0.195  0.8418  -59.8   6.025  141.1  0.0635   58.2  0.8804  -19.5
 0.200  0.8410  -61.1   5.988  140.2  0.0648   57.6  0.8763  -19.9
 0.220  0.8195  -66.0   5.793  137.2  0.0684   55.3  0.8578  -21.1
 0.240  0.8042  -71.1   5.615  134.0  0.0722   53.3  0.8396  -22.3
 0.260  0.7910  -75.8   5.441  131.0  0.0754   51.3  0.8226  -23.4
 0.280  0.7783  -80.3   5.266  128.4  0.0782   49.5  0.8067  -24.3
 0.300  0.7704  -84.8   5.103  125.6  0.0810   47.8  0.7910  -25.3
 0.320  0.7538  -88.3   4.934  123.7  0.0828   46.3  0.7771  -25.9
 0.340  0.7401  -91.9   4.772  121.6  0.0846   44.9  0.7632  -26.5
 0.360  0.7295  -95.6   4.616  119.4  0.0864   43.5  0.7494  -27.1
 0.380  0.7220  -99.4   4.468  117.0  0.0883   42.2  0.7357  -27.8
 0.400  0.7178 -103.3   4.328  114.4  0.0903   40.9  0.7221  -28.5
 0.420  0.7069 -106.2   4.203  112.8  0.0913   39.9  0.7118  -28.9
 0.440  0.6979 -109.2   4.081  111.2  0.0924   39.0  0.7016  -29.4
 0.450  0.6941 -110.7   4.022  110.3  0.0929   38.5  0.6965  -29.6
 0.460  0.6908 -112.2   3.963  109.4  0.0934   38.0  0.6914  -29.8
 0.480  0.6857 -115.3   3.850  107.5  0.0945   37.2  0.6812  -30.3
 0.500  0.6826 -118.4   3.740  105.5  0.0956   36.3  0.6711  -30.8
 0.520  0.6761 -120.7   3.637  104.2  0.0961   35.8  0.6642  -31.1
 0.540  0.6707 -123.1   3.537  102.8  0.0966   35.3  0.6573  -31.5
 0.560  0.6664 -125.5   3.438  101.4  0.0971   34.8  0.6505  -31.8
 0.580  0.6633 -127.9   3.342   99.8  0.0977   34.4  0.6436  -32.1
 0.600  0.6614 -130.3   3.248   98.2  0.0982   33.9  0.6368  -32.5
 0.620  0.6562 -132.3   3.173   97.1  0.0984   33.6  0.6317  -32.8
 0.640  0.6517 -134.3   3.098   96.0  0.0987   33.3  0.6265  -33.1
 0.660  0.6480 -136.3   3.026   94.8  0.0989   33.0  0.6214  -33.4
 0.680  0.6452 -138.3   2.954   93.5  0.0992   32.7  0.6164  -33.8
 0.700  0.6432 -140.4   2.884   92.2  0.0994   32.4  0.6113  -34.1
 0.720  0.6406 -142.2   2.821   91.2  0.0994   32.3  0.6070  -34.5
 0.740  0.6385 -144.0   2.758   90.1  0.0994   32.2  0.6028  -34.8
 0.760  0.6372 -145.8   2.697   89.0  0.0994   32.0  0.5986  -35.2
 0.780  0.6364 -147.6   2.636   87.9  0.0994   31.9  0.5944  -35.6
 0.800  0.6363 -149.4   2.577   86.7  0.0994   31.8  0.5902  -36.0
 0.820  0.6343 -150.8   2.526   85.8  0.0994   32.0  0.5877  -36.3
 0.840  0.6326 -152.2   2.476   84.9  0.0993   32.1  0.5852  -36.6
 0.860  0.6314 -153.6   2.427   83.9  0.0993   32.3  0.5827  -36.9
 0.880  0.6305 -155.1   2.378   82.9  0.0992   32.4  0.5802  -37.2
 0.900  0.6300 -156.5   2.330   81.9  0.0992   32.6  0.5778  -37.5
 0.920  0.6285 -157.8   2.288   81.1  0.0991   32.8  0.5756  -37.9
 0.940  0.6274 -159.1   2.246   80.2  0.0989   33.0  0.5735  -38.2
 0.960  0.6265 -160.5   2.205   79.3  0.0988   33.3  0.5713  -38.6
 0.980  0.6261 -161.8   2.165   78.4  0.0986   33.5  0.5692  -38.9
 1.000  0.6259 -163.1   2.125   77.4  0.0985   33.7  0.5671  -39.3
 1.020  0.6254 -164.3   2.091   76.6  0.0985   34.0  0.5651  -39.8
 1.040  0.6251 -165.5   2.057   75.8  0.0985   34.4  0.5632  -40.3
 1.060  0.6251 -166.7   2.023   75.0  0.0985   34.7  0.5613  -40.7
 1.080  0.6254 -167.9   1.991   74.1  0.0985   35.1  0.5594  -41.2
 1.100  0.6260 -169.1   1.958   73.2  0.0985   35.4  0.5576  -41.7
 1.120  0.6260 -170.2   1.928   72.5  0.0984   35.9  0.5567  -42.1
 1.140  0.6262 -171.2   1.898   71.8  0.0984   36.4  0.5557  -42.5
 1.160  0.6267 -172.3   1.868   71.0  0.0984   37.0  0.5548  -42.8
 1.180  0.6273 -173.3   1.839   70.2  0.0983   37.5  0.5540  -43.2
 1.200  0.6282 -174.4   1.810   69.4  0.0983   38.0  0.5531  -43.6
 1.220  0.6275 -175.3   1.786   68.8  0.0985   38.5  0.5522  -44.0
 1.240  0.6269 -176.3   1.763   68.1  0.0987   39.1  0.5513  -44.4
 1.260  0.6265 -177.2   1.740   67.4  0.0989   39.6  0.5505  -44.8
 1.280  0.6263 -178.2   1.717   66.7  0.0991   40.2  0.5497  -45.2
 1.300  0.6262 -179.1   1.694   66.0  0.0993   40.7  0.5489  -45.6
 1.320  0.6265  180.0   1.672   65.3  0.0995   41.3  0.5477  -46.1
 1.340  0.6271  179.0   1.650   64.7  0.0996   42.0  0.5466  -46.7
 1.360  0.6277  178.1   1.628   64.0  0.0998   42.6  0.5456  -47.2
 1.380  0.6286  177.1   1.607   63.2  0.1000   43.3  0.5446  -47.8
 1.400  0.6296  176.2   1.586   62.5  0.1002   43.9  0.5436  -48.3
 1.420  0.6301  175.4   1.566   61.9  0.1006   44.6  0.5433  -48.7
 1.440  0.6307  174.6   1.546   61.3  0.1011   45.3  0.5430  -49.2
 1.460  0.6314  173.9   1.526   60.6  0.1015   46.0  0.5427  -49.6
 1.480  0.6322  173.1   1.506   60.0  0.1020   46.6  0.5425  -50.1
 1.500  0.6332  172.3   1.487   59.3  0.1025   47.3  0.5423  -50.5
 1.520  0.6327  171.4   1.470   58.7  0.1031   48.0  0.5414  -51.0
 1.540  0.6324  170.5   1.454   58.1  0.1038   48.7  0.5405  -51.5
 1.560  0.6323  169.7   1.438   57.5  0.1044   49.4  0.5397  -52.0
 1.580  0.6323  168.8   1.422   56.8  0.1051   50.0  0.5389  -52.5
 1.600  0.6324  167.9   1.406   56.2  0.1058   50.7  0.5382  -53.0
 1.620  0.6328  167.1   1.392   55.6  0.1067   51.4  0.5376  -53.6
 1.640  0.6332  166.4   1.378   55.0  0.1077   52.2  0.5371  -54.3
 1.660  0.6338  165.6   1.364   54.4  0.1087   52.9  0.5367  -54.9
 1.680  0.6345  164.9   1.350   53.8  0.1097   53.6  0.5363  -55.6
 1.700  0.6353  164.1   1.336   53.2  0.1107   54.3  0.5360  -56.2
 1.720  0.6364  163.4   1.322   52.7  0.1119   55.0  0.5365  -56.7
 1.740  0.6376  162.8   1.309   52.2  0.1130   55.6  0.5369  -57.1
 1.760  0.6389  162.1   1.295   51.6  0.1142   56.3  0.5375  -57.6
 1.780  0.6403  161.5   1.282   51.1  0.1154   56.9  0.5380  -58.0
 1.800  0.6418  160.8   1.269   50.5  0.1166   57.5  0.5386  -58.5
 1.820  0.6414  160.1   1.258   50.0  0.1180   58.2  0.5380  -59.0
 1.840  0.6412  159.4   1.247   49.5  0.1195   58.8  0.5374  -59.5
 1.860  0.6410  158.7   1.236   49.0  0.1209   59.4  0.5368  -60.1
 1.880  0.6410  158.0   1.225   48.5  0.1224   60.0  0.5364  -60.6
 1.900  0.6410  157.3   1.214   48.0  0.1239   60.6  0.5359  -61.1
 1.920  0.6419  156.6   1.203   47.5  0.1254   61.1  0.5361  -61.7
 1.940  0.6428  155.9   1.192   47.0  0.1269   61.5  0.5364  -62.3
 1.960  0.6439  155.2   1.181   46.5  0.1284   62.0  0.5368  -62.9
 1.980  0.6450  154.5   1.171   45.9  0.1299   62.4  0.5372  -63.5
 2.000  0.6463  153.8   1.160   45.4  0.1314   62.8  0.5377  -64.1
 2.020  0.6466  153.2   1.150   45.0  0.1333   63.2  0.5375  -64.6
 2.040  0.6469  152.6   1.141   44.6  0.1352   63.7  0.5373  -65.1
 2.060  0.6473  152.0   1.131   44.2  0.1371   64.1  0.5372  -65.6
 2.080  0.6478  151.3   1.122   43.7  0.1390   64.5  0.5371  -66.1
 2.100  0.6483  150.7   1.113   43.3  0.1409   64.9  0.5371  -66.6
 2.120  0.6490  150.1   1.103   42.8  0.1428   65.3  0.5371  -67.1
 2.140  0.6497  149.5   1.094   42.4  0.1448   65.6  0.5371  -67.6
 2.160  0.6504  148.9   1.085   41.9  0.1467   66.0  0.5372  -68.1
 2.180  0.6513  148.3   1.076   41.5  0.1487   66.4  0.5373  -68.6
 2.200  0.6522  147.7   1.067   41.0  0.1506   66.7  0.5375  -69.1
 2.220  0.6529  147.1   1.058   40.6  0.1528   67.0  0.5378  -69.7
 2.240  0.6537  146.5   1.050   40.3  0.1549   67.3  0.5381  -70.3
 2.260  0.6546  145.9   1.042   39.9  0.1571   67.5  0.5385  -70.9
 2.280  0.6555  145.3   1.033   39.5  0.1593   67.8  0.5389  -71.4
 2.300  0.6565  144.7   1.025   39.1  0.1615   68.0  0.5394  -72.0
 2.320  0.6576  144.1   1.017   38.7  0.1636   68.3  0.5400  -72.6
 2.340  0.6588  143.5   1.008   38.3  0.1658   68.5  0.5406  -73.2
 2.360  0.6600  143.0   1.000   37.9  0.1680   68.8  0.5412  -73.7
 2.380  0.6612  142.4   0.992   37.4  0.1702   69.0  0.5419  -74.3
 2.400  0.6626  141.8   0.984   37.0  0.1724   69.2  0.5427  -74.9
 2.420  0.6630  141.2   0.977   36.6  0.1750   69.3  0.5419  -75.6
 2.440  0.6634  140.6   0.971   36.2  0.1777   69.4  0.5412  -76.2
 2.460  0.6639  140.0   0.964   35.9  0.1803   69.4  0.5406  -76.9
 2.480  0.6645  139.4   0.957   35.5  0.1830   69.5  0.5400  -77.6
 2.500  0.6651  138.8   0.951   35.1  0.1856   69.6  0.5395  -78.2
 2.520  0.6659  138.2   0.944   34.7  0.1883   69.6  0.5391  -78.9
 2.540  0.6667  137.6   0.938   34.3  0.1909   69.7  0.5388  -79.6
 2.560  0.6675  137.0   0.932   33.8  0.1936   69.8  0.5385  -80.3
 2.580  0.6685  136.4   0.925   33.4  0.1962   69.8  0.5383  -80.9
 2.600  0.6695  135.8   0.919   33.0  0.1989   69.9  0.5382  -81.6
 2.620  0.6701  135.3   0.914   32.7  0.2018   69.9  0.5382  -82.2
 2.640  0.6708  134.8   0.908   32.4  0.2046   69.9  0.5383  -82.8
 2.660  0.6715  134.3   0.903   32.1  0.2075   69.9  0.5385  -83.3
 2.680  0.6723  133.7   0.897   31.8  0.2103   69.9  0.5387  -83.9
 2.700  0.6731  133.2   0.892   31.5  0.2132   69.9  0.5389  -84.5
 2.720  0.6740  132.7   0.887   31.2  0.2160   69.9  0.5392  -85.1
 2.740  0.6750  132.2   0.882   30.9  0.2189   69.9  0.5396  -85.7
 2.760  0.6760  131.7   0.876   30.5  0.2217   69.9  0.5400  -86.2
 2.780  0.6770  131.2   0.871   30.2  0.2245   69.9  0.5405  -86.8
 2.800  0.6781  130.7   0.866   29.9  0.2274   69.9  0.5410  -87.4
 2.820  0.6784  130.2   0.861   29.6  0.2301   69.8  0.5411  -88.0
 2.840  0.6787  129.6   0.856   29.4  0.2328   69.7  0.5412  -88.5
 2.860  0.6791  129.1   0.851   29.1  0.2356   69.7  0.5414  -89.1
 2.880  0.6795  128.6   0.846   28.8  0.2383   69.6  0.5416  -89.6
 2.900  0.6800  128.0   0.841   28.5  0.2410   69.5  0.5419  -90.2
 2.920  0.6806  127.5   0.836   28.3  0.2437   69.5  0.5423  -90.7
 2.940  0.6812  127.0   0.831   28.0  0.2464   69.4  0.5426  -91.3
 2.960  0.6819  126.5   0.826   27.7  0.2492   69.3  0.5431  -91.8
 2.980  0.6826  125.9   0.821   27.4  0.2519   69.3  0.5436  -92.4
 3.000  0.6834  125.4   0.816   27.1  0.2546   69.2  0.5441  -92.9
 3.100  0.6848  123.0   0.797   26.1  0.2698   68.0  0.5423  -96.3
 3.200  0.6874  120.5   0.778   25.0  0.2852   66.9  0.5425  -99.7
 3.300  0.6913  118.1   0.759   23.8  0.3006   66.0  0.5446 -103.1
 3.400  0.6964  115.7   0.741   22.7  0.3161   65.1  0.5486 -106.5
 3.500  0.7026  113.4   0.723   21.4  0.3317   64.3  0.5544 -109.8
 3.600  0.7011  111.3   0.710   20.7  0.3460   62.7  0.5520 -113.3
 3.700  0.7006  109.2   0.697   20.0  0.3606   61.2  0.5517 -116.9
 3.800  0.7010  107.0   0.684   19.3  0.3755   59.8  0.5534 -120.4
 3.900  0.7024  104.9   0.671   18.6  0.3905   58.5  0.5573 -123.9
 4.000  0.7047  102.8   0.658   17.8  0.4057   57.3  0.5632 -127.3
 4.100  0.7042  101.0   0.651   17.4  0.4183   55.5  0.5616 -130.6
 4.200  0.7043   99.2   0.643   17.0  0.4313   53.8  0.5618 -133.8
 4.300  0.7052   97.4   0.636   16.6  0.4446   52.1  0.5638 -137.1
 4.400  0.7067   95.6   0.628   16.1  0.4583   50.6  0.5677 -140.3
 4.500  0.7090   93.8   0.621   15.7  0.4723   49.2  0.5733 -143.5
 4.600  0.7062   92.3   0.619   15.3  0.4825   47.5  0.5707 -146.6
 4.700  0.7039   90.8   0.616   14.8  0.4932   45.8  0.5698 -149.7
 4.800  0.7021   89.3   0.614   14.4  0.5043   44.2  0.5705 -152.8
 4.900  0.7008   87.8   0.611   13.9  0.5157   42.7  0.5729 -155.9
 5.000  0.6999   86.3   0.609   13.5  0.5275   41.2  0.5769 -158.9
 5.100  0.6993   85.0   0.609   13.1  0.5354   39.6  0.5723 -161.8
 5.200  0.6991   83.7   0.608   12.6  0.5438   38.0  0.5691 -164.7
 5.300  0.6993   82.4   0.608   12.2  0.5525   36.5  0.5675 -167.7
 5.400  0.6998   81.1   0.608   11.7  0.5616   35.0  0.5673 -170.6
 5.500  0.7007   79.8   0.608   11.3  0.5711   33.6  0.5687 -173.6
 5.600  0.6980   78.7   0.609   10.7  0.5777   32.1  0.5657 -176.2
 5.700  0.6957   77.6   0.611   10.1  0.5848   30.7  0.5639 -178.8
 5.800  0.6935   76.5   0.613    9.5  0.5921   29.3  0.5632  178.6
 5.900  0.6916   75.4   0.614    8.9  0.5999   27.9  0.5637  176.0
 6.000  0.6900   74.3   0.616    8.3  0.6079   26.6  0.5654  173.4
!
!  f       NFmin   Gammaopt  rn/50
! GHz       dB    MAG  ANG    -
!
! noise parameter not available yet for this operation point!
!
! (c) 2015  Infineon Technologies AG, Munich
