! Infineon Technologies  Discrete & RF Semiconductors
! BFR93A
! VCE =  12. V,  IC =  15 mA
! Common Emitter S-Parameters:                            Nov 2015
# GHz  S  MA  R  50
!  f         S11            S21            S12            S22
! GHz     MAG   ANG      MAG   ANG      MAG   ANG      MAG   ANG
 0.010  0.7825   -7.0  31.172  173.7  0.0032   81.6  0.9654   -3.7
 0.015  0.7751  -10.4  30.902  171.1  0.0048   80.2  0.9596   -5.4
 0.020  0.7706  -13.9  30.699  168.4  0.0064   79.5  0.9547   -7.2
 0.025  0.7554  -17.0  30.172  166.1  0.0078   77.5  0.9421   -8.7
 0.030  0.7425  -20.2  29.696  163.7  0.0092   76.2  0.9303  -10.2
 0.035  0.7320  -23.5  29.273  161.2  0.0105   75.2  0.9191  -11.8
 0.040  0.7240  -26.9  28.906  158.7  0.0119   74.4  0.9086  -13.5
 0.045  0.7186  -30.4  28.596  156.1  0.0133   73.8  0.8989  -15.1
 0.050  0.7159  -33.9  28.345  153.5  0.0147   73.3  0.8899  -16.8
 0.055  0.6979  -36.1  27.701  152.0  0.0157   72.0  0.8745  -17.7
 0.060  0.6809  -38.5  27.077  150.4  0.0167   70.8  0.8592  -18.6
 0.065  0.6652  -41.0  26.476  148.7  0.0177   69.7  0.8443  -19.5
 0.070  0.6508  -43.5  25.898  146.9  0.0187   68.8  0.8295  -20.5
 0.075  0.6378  -46.2  25.346  145.1  0.0197   68.0  0.8150  -21.5
 0.080  0.6262  -49.0  24.822  143.2  0.0207   67.2  0.8008  -22.6
 0.085  0.6162  -51.9  24.326  141.2  0.0217   66.5  0.7868  -23.7
 0.090  0.6078  -54.9  23.861  139.1  0.0228   65.9  0.7732  -24.8
 0.095  0.6011  -58.0  23.428  136.9  0.0238   65.3  0.7598  -26.0
 0.100  0.5961  -61.1  23.030  134.7  0.0248   64.8  0.7468  -27.2
 0.105  0.5831  -62.7  22.519  133.7  0.0255   64.3  0.7347  -27.6
 0.110  0.5706  -64.4  22.015  132.6  0.0261   63.8  0.7225  -28.0
 0.115  0.5587  -66.2  21.520  131.4  0.0268   63.3  0.7105  -28.4
 0.120  0.5473  -68.1  21.033  130.2  0.0275   62.8  0.6984  -28.9
 0.125  0.5365  -70.0  20.556  129.0  0.0281   62.4  0.6865  -29.3
 0.130  0.5263  -72.0  20.090  127.7  0.0288   62.0  0.6745  -29.8
 0.135  0.5169  -74.1  19.634  126.3  0.0295   61.6  0.6626  -30.2
 0.140  0.5081  -76.3  19.190  124.9  0.0301   61.2  0.6507  -30.7
 0.145  0.5000  -78.5  18.759  123.4  0.0308   60.8  0.6389  -31.3
 0.150  0.4928  -80.8  18.341  121.8  0.0315   60.5  0.6272  -31.8
 0.155  0.4842  -82.1  17.988  121.1  0.0321   60.4  0.6191  -31.9
 0.160  0.4759  -83.5  17.638  120.3  0.0326   60.4  0.6111  -32.1
 0.165  0.4678  -85.0  17.291  119.6  0.0332   60.3  0.6030  -32.2
 0.170  0.4601  -86.4  16.947  118.8  0.0337   60.3  0.5950  -32.4
 0.175  0.4526  -88.0  16.607  117.9  0.0343   60.2  0.5869  -32.5
 0.180  0.4456  -89.6  16.271  117.1  0.0349   60.2  0.5789  -32.6
 0.185  0.4388  -91.2  15.938  116.2  0.0354   60.1  0.5708  -32.8
 0.190  0.4325  -92.9  15.609  115.2  0.0360   60.1  0.5628  -33.0
 0.195  0.4265  -94.6  15.285  114.2  0.0365   60.0  0.5547  -33.1
 0.200  0.4209  -96.4  14.966  113.2  0.0371   60.0  0.5467  -33.3
 0.220  0.4003 -101.1  13.970  110.9  0.0391   60.2  0.5245  -33.3
 0.240  0.3827 -106.2  12.999  108.3  0.0412   60.4  0.5024  -33.4
 0.260  0.3685 -110.8  12.159  106.0  0.0432   60.7  0.4839  -33.3
 0.280  0.3565 -114.7  11.435  104.2  0.0451   61.1  0.4690  -33.2
 0.300  0.3462 -118.8  10.723  102.2  0.0470   61.4  0.4541  -33.0
 0.320  0.3365 -121.9  10.221  101.0  0.0490   61.8  0.4446  -32.8
 0.340  0.3278 -125.1   9.724   99.7  0.0510   62.2  0.4352  -32.5
 0.360  0.3202 -128.5   9.233   98.2  0.0531   62.6  0.4257  -32.3
 0.380  0.3138 -132.1   8.748   96.5  0.0551   62.9  0.4162  -32.0
 0.400  0.3087 -135.8   8.272   94.7  0.0571   63.2  0.4068  -31.7
 0.420  0.3035 -138.3   7.959   93.8  0.0592   63.5  0.4017  -31.5
 0.440  0.2989 -140.9   7.649   92.7  0.0613   63.8  0.3965  -31.4
 0.450  0.2968 -142.2   7.495   92.2  0.0623   63.9  0.3939  -31.3
 0.460  0.2948 -143.5   7.342   91.6  0.0633   64.0  0.3914  -31.2
 0.480  0.2915 -146.2   7.037   90.4  0.0654   64.3  0.3862  -31.1
 0.500  0.2888 -149.0   6.736   89.1  0.0675   64.5  0.3811  -30.9
 0.520  0.2863 -151.1   6.522   88.3  0.0696   64.7  0.3774  -30.8
 0.540  0.2842 -153.2   6.310   87.4  0.0717   64.8  0.3738  -30.8
 0.560  0.2824 -155.3   6.099   86.5  0.0738   65.0  0.3701  -30.7
 0.580  0.2811 -157.5   5.889   85.6  0.0759   65.2  0.3665  -30.7
 0.600  0.2802 -159.7   5.682   84.5  0.0780   65.3  0.3628  -30.6
 0.620  0.2791 -161.2   5.526   83.8  0.0802   65.4  0.3605  -30.6
 0.640  0.2783 -162.7   5.370   83.0  0.0824   65.4  0.3581  -30.7
 0.660  0.2776 -164.2   5.216   82.2  0.0846   65.5  0.3558  -30.7
 0.680  0.2772 -165.8   5.063   81.3  0.0868   65.5  0.3534  -30.8
 0.700  0.2769 -167.3   4.911   80.4  0.0890   65.6  0.3511  -30.8
 0.720  0.2773 -168.8   4.794   79.7  0.0911   65.7  0.3493  -30.9
 0.740  0.2778 -170.2   4.677   79.0  0.0933   65.7  0.3475  -31.0
 0.760  0.2785 -171.6   4.561   78.3  0.0954   65.8  0.3457  -31.1
 0.780  0.2794 -173.1   4.446   77.5  0.0976   65.8  0.3439  -31.2
 0.800  0.2805 -174.5   4.332   76.7  0.0997   65.9  0.3421  -31.3
 0.820  0.2804 -175.8   4.238   76.1  0.1018   65.8  0.3404  -31.5
 0.840  0.2805 -177.1   4.144   75.5  0.1039   65.8  0.3386  -31.7
 0.860  0.2807 -178.5   4.051   74.9  0.1060   65.7  0.3369  -31.8
 0.880  0.2810 -179.8   3.958   74.3  0.1081   65.7  0.3351  -32.0
 0.900  0.2815  178.9   3.866   73.6  0.1102   65.6  0.3334  -32.2
 0.920  0.2814  177.7   3.794   73.0  0.1124   65.5  0.3324  -32.4
 0.940  0.2814  176.6   3.722   72.3  0.1145   65.5  0.3314  -32.6
 0.960  0.2815  175.4   3.650   71.6  0.1167   65.4  0.3304  -32.8
 0.980  0.2817  174.3   3.579   70.9  0.1188   65.4  0.3294  -33.0
 1.000  0.2821  173.1   3.509   70.2  0.1210   65.3  0.3284  -33.2
 1.020  0.2834  172.1   3.449   69.6  0.1232   65.2  0.3272  -33.5
 1.040  0.2847  171.2   3.389   69.0  0.1254   65.1  0.3260  -33.8
 1.060  0.2861  170.3   3.330   68.4  0.1276   65.0  0.3248  -34.1
 1.080  0.2876  169.3   3.271   67.8  0.1298   64.9  0.3237  -34.4
 1.100  0.2892  168.4   3.213   67.1  0.1320   64.8  0.3225  -34.7
 1.120  0.2908  167.5   3.165   66.6  0.1342   64.7  0.3213  -35.0
 1.140  0.2925  166.5   3.116   66.0  0.1363   64.5  0.3201  -35.3
 1.160  0.2943  165.6   3.069   65.4  0.1385   64.4  0.3189  -35.6
 1.180  0.2962  164.7   3.021   64.8  0.1406   64.2  0.3178  -35.9
 1.200  0.2981  163.8   2.974   64.2  0.1428   64.1  0.3166  -36.2
 1.220  0.2989  162.9   2.930   63.6  0.1448   64.0  0.3157  -36.5
 1.240  0.2997  162.0   2.885   63.0  0.1468   63.9  0.3148  -36.9
 1.260  0.3006  161.1   2.842   62.4  0.1489   63.8  0.3140  -37.2
 1.280  0.3016  160.3   2.798   61.8  0.1509   63.7  0.3131  -37.6
 1.300  0.3027  159.4   2.755   61.1  0.1529   63.6  0.3123  -37.9
 1.320  0.3034  158.7   2.718   60.6  0.1551   63.5  0.3116  -38.2
 1.340  0.3042  158.0   2.682   60.1  0.1573   63.3  0.3110  -38.5
 1.360  0.3050  157.3   2.646   59.5  0.1596   63.2  0.3104  -38.8
 1.380  0.3059  156.7   2.610   59.0  0.1618   63.0  0.3097  -39.1
 1.400  0.3068  156.0   2.574   58.4  0.1640   62.9  0.3091  -39.4
 1.420  0.3084  155.2   2.540   57.9  0.1660   62.8  0.3079  -39.8
 1.440  0.3101  154.3   2.505   57.3  0.1680   62.6  0.3067  -40.2
 1.460  0.3118  153.5   2.471   56.8  0.1701   62.5  0.3055  -40.6
 1.480  0.3136  152.7   2.438   56.2  0.1721   62.3  0.3043  -41.0
 1.500  0.3155  151.9   2.404   55.6  0.1741   62.2  0.3031  -41.4
 1.520  0.3172  151.3   2.380   55.1  0.1762   62.0  0.3021  -41.8
 1.540  0.3189  150.7   2.356   54.6  0.1783   61.8  0.3012  -42.2
 1.560  0.3206  150.1   2.333   54.1  0.1804   61.6  0.3003  -42.7
 1.580  0.3224  149.6   2.309   53.5  0.1825   61.4  0.2994  -43.1
 1.600  0.3242  149.0   2.286   53.0  0.1846   61.2  0.2985  -43.5
 1.620  0.3257  148.3   2.264   52.5  0.1867   61.1  0.2978  -43.9
 1.640  0.3273  147.6   2.241   52.0  0.1887   60.9  0.2972  -44.4
 1.660  0.3289  146.9   2.219   51.5  0.1908   60.8  0.2965  -44.8
 1.680  0.3306  146.2   2.198   51.0  0.1928   60.6  0.2959  -45.3
 1.700  0.3323  145.5   2.176   50.5  0.1949   60.5  0.2953  -45.7
 1.720  0.3334  145.0   2.154   50.0  0.1970   60.3  0.2948  -46.1
 1.740  0.3345  144.4   2.133   49.5  0.1991   60.1  0.2943  -46.6
 1.760  0.3357  143.9   2.111   48.9  0.2011   59.9  0.2938  -47.0
 1.780  0.3369  143.4   2.090   48.4  0.2032   59.7  0.2933  -47.5
 1.800  0.3381  142.9   2.069   47.8  0.2053   59.5  0.2929  -47.9
 1.820  0.3391  142.3   2.049   47.4  0.2074   59.4  0.2923  -48.4
 1.840  0.3402  141.6   2.029   46.9  0.2095   59.2  0.2918  -48.8
 1.860  0.3413  141.0   2.009   46.4  0.2115   59.1  0.2912  -49.3
 1.880  0.3424  140.4   1.989   46.0  0.2136   58.9  0.2907  -49.7
 1.900  0.3436  139.8   1.969   45.5  0.2157   58.8  0.2902  -50.2
 1.920  0.3455  139.3   1.952   45.0  0.2178   58.6  0.2897  -50.6
 1.940  0.3474  138.8   1.936   44.5  0.2198   58.4  0.2891  -51.0
 1.960  0.3493  138.3   1.919   44.0  0.2219   58.2  0.2886  -51.4
 1.980  0.3512  137.8   1.903   43.5  0.2239   58.0  0.2881  -51.8
 2.000  0.3532  137.3   1.887   43.0  0.2260   57.8  0.2876  -52.2
 2.020  0.3546  136.8   1.873   42.6  0.2280   57.6  0.2870  -52.7
 2.040  0.3560  136.3   1.859   42.1  0.2301   57.4  0.2864  -53.1
 2.060  0.3574  135.8   1.845   41.6  0.2321   57.2  0.2859  -53.6
 2.080  0.3589  135.3   1.831   41.2  0.2342   57.0  0.2854  -54.1
 2.100  0.3604  134.7   1.817   40.7  0.2362   56.9  0.2848  -54.6
 2.120  0.3619  134.2   1.803   40.2  0.2383   56.7  0.2844  -55.1
 2.140  0.3634  133.8   1.790   39.7  0.2403   56.5  0.2839  -55.5
 2.160  0.3650  133.3   1.776   39.2  0.2424   56.3  0.2834  -56.0
 2.180  0.3666  132.8   1.763   38.7  0.2444   56.2  0.2830  -56.5
 2.200  0.3682  132.3   1.750   38.2  0.2465   56.0  0.2826  -57.0
 2.220  0.3692  131.8   1.737   37.8  0.2486   55.8  0.2821  -57.5
 2.240  0.3703  131.4   1.725   37.4  0.2507   55.6  0.2817  -58.0
 2.260  0.3714  130.9   1.712   37.0  0.2529   55.4  0.2813  -58.5
 2.280  0.3725  130.4   1.700   36.6  0.2550   55.2  0.2809  -59.0
 2.300  0.3736  130.0   1.688   36.1  0.2571   55.0  0.2805  -59.5
 2.320  0.3748  129.5   1.676   35.7  0.2592   54.8  0.2802  -60.0
 2.340  0.3759  129.1   1.664   35.3  0.2614   54.6  0.2798  -60.6
 2.360  0.3771  128.6   1.652   34.8  0.2635   54.4  0.2795  -61.1
 2.380  0.3784  128.1   1.640   34.4  0.2657   54.2  0.2793  -61.6
 2.400  0.3796  127.7   1.628   33.9  0.2678   54.0  0.2790  -62.1
 2.420  0.3814  127.2   1.617   33.5  0.2698   53.8  0.2783  -62.7
 2.440  0.3833  126.7   1.606   33.0  0.2718   53.6  0.2777  -63.2
 2.460  0.3852  126.1   1.595   32.6  0.2739   53.4  0.2770  -63.8
 2.480  0.3871  125.6   1.584   32.2  0.2759   53.2  0.2764  -64.4
 2.500  0.3891  125.1   1.573   31.7  0.2779   53.0  0.2759  -64.9
 2.520  0.3911  124.6   1.563   31.3  0.2799   52.8  0.2753  -65.5
 2.540  0.3931  124.1   1.552   30.8  0.2820   52.6  0.2748  -66.1
 2.560  0.3951  123.7   1.542   30.3  0.2840   52.5  0.2743  -66.6
 2.580  0.3972  123.2   1.531   29.9  0.2861   52.3  0.2738  -67.2
 2.600  0.3993  122.7   1.521   29.4  0.2881   52.1  0.2734  -67.8
 2.620  0.4007  122.2   1.513   29.0  0.2902   51.9  0.2726  -68.4
 2.640  0.4022  121.8   1.505   28.6  0.2922   51.7  0.2718  -69.0
 2.660  0.4037  121.3   1.497   28.2  0.2943   51.5  0.2711  -69.6
 2.680  0.4052  120.9   1.489   27.8  0.2964   51.3  0.2704  -70.2
 2.700  0.4068  120.4   1.482   27.4  0.2985   51.1  0.2697  -70.9
 2.720  0.4084  120.0   1.474   26.9  0.3005   50.9  0.2691  -71.5
 2.740  0.4100  119.5   1.466   26.5  0.3026   50.7  0.2684  -72.1
 2.760  0.4116  119.1   1.459   26.1  0.3047   50.5  0.2679  -72.7
 2.780  0.4132  118.6   1.451   25.6  0.3068   50.3  0.2673  -73.4
 2.800  0.4149  118.2   1.444   25.2  0.3089   50.1  0.2668  -74.0
 2.820  0.4170  117.7   1.436   24.8  0.3110   49.9  0.2662  -74.7
 2.840  0.4192  117.2   1.428   24.4  0.3131   49.6  0.2657  -75.3
 2.860  0.4213  116.7   1.421   24.0  0.3152   49.4  0.2652  -76.0
 2.880  0.4236  116.3   1.413   23.6  0.3173   49.2  0.2647  -76.7
 2.900  0.4258  115.8   1.406   23.2  0.3194   49.0  0.2643  -77.3
 2.920  0.4281  115.3   1.398   22.8  0.3216   48.7  0.2639  -78.0
 2.940  0.4304  114.9   1.391   22.4  0.3237   48.5  0.2635  -78.7
 2.960  0.4327  114.4   1.383   22.0  0.3258   48.3  0.2632  -79.3
 2.980  0.4350  113.9   1.376   21.5  0.3280   48.1  0.2629  -80.0
 3.000  0.4374  113.5   1.369   21.1  0.3301   47.9  0.2627  -80.7
!
!  f       NFmin   Gammaopt  rn/50
! GHz       dB    MAG  ANG    -
!
! noise parameter not available yet for this operation point!
!
! (c) 2015  Infineon Technologies AG, Munich
