! Infineon Technologies  Discrete & RF Semiconductors
! BFR93AW
! VCE =  3.5 V,  IC =  25 mA
! Common Emitter S-Parameters:                            Nov 2015
# GHz  S  MA  R  50
!  f         S11            S21            S12            S22
! GHz     MAG   ANG      MAG   ANG      MAG   ANG      MAG   ANG
 0.030  0.4308  -44.9  47.341  157.6  0.0082   74.4  0.8882  -17.8
 0.035  0.4275  -51.2  45.990  154.3  0.0093   72.7  0.8635  -20.3
 0.040  0.4294  -57.6  44.797  150.9  0.0104   71.4  0.8405  -23.0
 0.045  0.4366  -63.8  43.772  147.3  0.0115   70.4  0.8195  -25.8
 0.050  0.4486  -69.7  42.930  143.5  0.0126   69.5  0.8005  -28.7
 0.055  0.4383  -73.5  41.516  142.0  0.0133   68.2  0.7774  -29.7
 0.060  0.4300  -77.5  40.133  140.4  0.0140   67.1  0.7545  -30.8
 0.065  0.4238  -81.6  38.783  138.7  0.0147   66.0  0.7319  -31.9
 0.070  0.4198  -85.7  37.470  136.9  0.0155   65.1  0.7095  -33.1
 0.075  0.4181  -89.9  36.196  134.9  0.0162   64.3  0.6875  -34.4
 0.080  0.4188  -94.2  34.969  132.8  0.0170   63.5  0.6659  -35.7
 0.085  0.4217  -98.4  33.792  130.6  0.0177   62.8  0.6447  -37.2
 0.090  0.4269 -102.6  32.669  128.2  0.0185   62.2  0.6239  -38.7
 0.095  0.4343 -106.6  31.608  125.6  0.0192   61.6  0.6036  -40.3
 0.100  0.4437 -110.5  30.615  122.9  0.0200   61.0  0.5838  -42.1
 0.105  0.4409 -112.6  29.771  122.1  0.0204   60.9  0.5702  -42.4
 0.110  0.4386 -114.7  28.934  121.2  0.0209   60.8  0.5567  -42.8
 0.115  0.4370 -116.8  28.104  120.3  0.0213   60.7  0.5432  -43.1
 0.120  0.4360 -119.0  27.281  119.3  0.0218   60.7  0.5298  -43.5
 0.125  0.4356 -121.2  26.467  118.2  0.0222   60.6  0.5163  -43.9
 0.130  0.4359 -123.4  25.663  117.1  0.0226   60.5  0.5029  -44.3
 0.135  0.4367 -125.6  24.869  115.9  0.0230   60.4  0.4895  -44.7
 0.140  0.4382 -127.7  24.086  114.7  0.0235   60.4  0.4761  -45.2
 0.145  0.4403 -129.8  23.316  113.3  0.0239   60.3  0.4628  -45.7
 0.150  0.4430 -131.9  22.559  111.9  0.0244   60.3  0.4495  -46.2
 0.155  0.4418 -133.1  22.061  111.3  0.0249   60.5  0.4418  -46.3
 0.160  0.4409 -134.3  21.565  110.8  0.0254   60.7  0.4341  -46.4
 0.165  0.4401 -135.6  21.071  110.2  0.0258   60.9  0.4264  -46.5
 0.170  0.4396 -136.8  20.580  109.5  0.0263   61.1  0.4187  -46.6
 0.175  0.4392 -138.0  20.092  108.9  0.0268   61.2  0.4110  -46.7
 0.180  0.4391 -139.3  19.606  108.2  0.0273   61.4  0.4033  -46.8
 0.185  0.4391 -140.5  19.123  107.4  0.0278   61.6  0.3957  -46.9
 0.190  0.4394 -141.7  18.644  106.7  0.0282   61.7  0.3880  -47.0
 0.195  0.4398 -143.0  18.168  105.9  0.0287   61.9  0.3803  -47.1
 0.200  0.4405 -144.2  17.696  105.0  0.0292   62.0  0.3726  -47.2
 0.220  0.4390 -147.9  16.379  103.3  0.0307   62.9  0.3520  -47.0
 0.240  0.4394 -151.6  15.078  101.4  0.0322   63.7  0.3314  -46.7
 0.260  0.4402 -154.6  13.981   99.7  0.0339   64.5  0.3150  -46.4
 0.280  0.4408 -156.9  13.079   98.3  0.0356   65.4  0.3027  -46.0
 0.300  0.4421 -159.3  12.186   96.7  0.0374   66.1  0.2904  -45.6
 0.320  0.4415 -161.1  11.595   95.9  0.0394   66.7  0.2821  -45.2
 0.340  0.4413 -163.0  11.007   94.9  0.0414   67.2  0.2739  -44.7
 0.360  0.4416 -164.8  10.422   93.8  0.0434   67.6  0.2657  -44.3
 0.380  0.4424 -166.7   9.841   92.6  0.0455   68.1  0.2575  -43.8
 0.400  0.4436 -168.5   9.265   91.3  0.0475   68.5  0.2494  -43.3
 0.420  0.4436 -169.8   8.907   90.6  0.0493   68.9  0.2445  -43.1
 0.440  0.4438 -171.1   8.550   89.8  0.0511   69.2  0.2396  -43.0
 0.450  0.4440 -171.7   8.372   89.4  0.0520   69.4  0.2371  -42.9
 0.460  0.4443 -172.3   8.195   89.0  0.0529   69.5  0.2347  -42.8
 0.480  0.4449 -173.6   7.841   88.0  0.0548   69.8  0.2298  -42.6
 0.500  0.4458 -174.8   7.490   87.0  0.0566   70.1  0.2249  -42.4
 0.520  0.4465 -175.7   7.245   86.4  0.0587   70.4  0.2224  -42.2
 0.540  0.4473 -176.7   7.000   85.7  0.0608   70.6  0.2198  -42.1
 0.560  0.4482 -177.6   6.757   85.1  0.0628   70.8  0.2173  -41.9
 0.580  0.4492 -178.6   6.514   84.3  0.0649   71.0  0.2147  -41.8
 0.600  0.4504 -179.5   6.273   83.5  0.0670   71.2  0.2122  -41.6
 0.620  0.4506  179.6   6.099   82.9  0.0689   71.2  0.2104  -41.7
 0.640  0.4508  178.8   5.926   82.3  0.0708   71.3  0.2085  -41.8
 0.660  0.4512  177.9   5.754   81.7  0.0726   71.3  0.2067  -41.8
 0.680  0.4516  177.1   5.583   81.0  0.0745   71.4  0.2048  -41.9
 0.700  0.4522  176.2   5.412   80.3  0.0764   71.4  0.2030  -42.0
 0.720  0.4537  175.4   5.278   79.8  0.0785   71.4  0.2008  -42.3
 0.740  0.4553  174.7   5.145   79.2  0.0806   71.4  0.1986  -42.7
 0.760  0.4570  174.0   5.013   78.7  0.0826   71.5  0.1964  -43.0
 0.780  0.4588  173.2   4.881   78.0  0.0847   71.5  0.1943  -43.3
 0.800  0.4606  172.5   4.749   77.4  0.0868   71.5  0.1921  -43.7
 0.820  0.4605  171.8   4.647   76.9  0.0888   71.5  0.1915  -43.8
 0.840  0.4604  171.2   4.546   76.4  0.0907   71.6  0.1909  -43.9
 0.860  0.4604  170.5   4.445   75.8  0.0927   71.6  0.1904  -44.1
 0.880  0.4605  169.9   4.345   75.2  0.0946   71.7  0.1898  -44.2
 0.900  0.4606  169.2   4.245   74.6  0.0966   71.7  0.1892  -44.3
 0.920  0.4608  168.6   4.162   74.1  0.0984   71.6  0.1884  -44.6
 0.940  0.4611  167.9   4.079   73.6  0.1003   71.5  0.1875  -44.9
 0.960  0.4614  167.3   3.997   73.1  0.1021   71.4  0.1867  -45.3
 0.980  0.4618  166.6   3.915   72.6  0.1040   71.3  0.1859  -45.6
 1.000  0.4622  166.0   3.833   72.0  0.1058   71.2  0.1851  -45.9
 1.020  0.4635  165.5   3.767   71.5  0.1079   71.1  0.1839  -46.6
 1.040  0.4648  164.9   3.701   71.0  0.1100   70.9  0.1827  -47.3
 1.060  0.4661  164.4   3.636   70.5  0.1121   70.8  0.1816  -48.0
 1.080  0.4675  163.8   3.571   70.0  0.1142   70.7  0.1805  -48.8
 1.100  0.4689  163.3   3.506   69.4  0.1163   70.6  0.1794  -49.5
 1.120  0.4699  162.8   3.449   69.0  0.1184   70.6  0.1792  -49.8
 1.140  0.4709  162.3   3.392   68.5  0.1204   70.6  0.1789  -50.1
 1.160  0.4720  161.7   3.336   68.0  0.1225   70.6  0.1787  -50.4
 1.180  0.4731  161.2   3.280   67.5  0.1245   70.6  0.1785  -50.7
 1.200  0.4743  160.7   3.224   67.0  0.1266   70.6  0.1783  -51.0
 1.220  0.4741  160.2   3.178   66.5  0.1286   70.5  0.1780  -51.3
 1.240  0.4739  159.7   3.133   66.1  0.1306   70.3  0.1778  -51.7
 1.260  0.4737  159.1   3.088   65.6  0.1327   70.2  0.1776  -52.0
 1.280  0.4736  158.6   3.043   65.1  0.1347   70.0  0.1773  -52.4
 1.300  0.4735  158.1   2.998   64.6  0.1367   69.9  0.1771  -52.7
 1.320  0.4744  157.6   2.957   64.2  0.1387   69.8  0.1762  -53.6
 1.340  0.4753  157.1   2.917   63.7  0.1407   69.7  0.1753  -54.5
 1.360  0.4762  156.6   2.876   63.3  0.1427   69.6  0.1745  -55.4
 1.380  0.4772  156.1   2.836   62.8  0.1447   69.5  0.1737  -56.3
 1.400  0.4782  155.6   2.796   62.3  0.1467   69.4  0.1730  -57.2
 1.420  0.4792  155.2   2.760   61.9  0.1486   69.3  0.1731  -57.7
 1.440  0.4802  154.8   2.724   61.5  0.1506   69.1  0.1733  -58.2
 1.460  0.4812  154.4   2.689   61.0  0.1525   69.0  0.1734  -58.6
 1.480  0.4822  154.0   2.653   60.6  0.1545   68.8  0.1736  -59.1
 1.500  0.4833  153.6   2.618   60.1  0.1564   68.7  0.1738  -59.6
 1.520  0.4837  153.0   2.588   59.7  0.1584   68.5  0.1731  -60.1
 1.540  0.4841  152.5   2.559   59.2  0.1605   68.4  0.1725  -60.5
 1.560  0.4846  151.9   2.529   58.8  0.1625   68.2  0.1718  -61.0
 1.580  0.4851  151.4   2.500   58.3  0.1646   68.1  0.1712  -61.5
 1.600  0.4857  150.8   2.471   57.8  0.1666   67.9  0.1706  -62.0
 1.620  0.4870  150.3   2.444   57.4  0.1687   67.8  0.1705  -63.0
 1.640  0.4883  149.8   2.418   56.9  0.1707   67.6  0.1705  -64.0
 1.660  0.4896  149.3   2.392   56.5  0.1728   67.5  0.1706  -64.9
 1.680  0.4910  148.8   2.366   56.0  0.1748   67.3  0.1707  -65.9
 1.700  0.4924  148.3   2.340   55.5  0.1769   67.2  0.1708  -66.9
 1.720  0.4933  148.0   2.316   55.1  0.1789   67.1  0.1716  -67.4
 1.740  0.4942  147.6   2.293   54.7  0.1810   67.0  0.1724  -68.0
 1.760  0.4951  147.3   2.269   54.3  0.1830   66.9  0.1732  -68.5
 1.780  0.4960  146.9   2.246   53.9  0.1851   66.8  0.1740  -69.0
 1.800  0.4970  146.6   2.223   53.5  0.1871   66.7  0.1748  -69.5
 1.820  0.4969  146.1   2.202   53.1  0.1892   66.5  0.1743  -69.9
 1.840  0.4969  145.7   2.181   52.7  0.1913   66.4  0.1738  -70.4
 1.860  0.4969  145.2   2.161   52.3  0.1935   66.2  0.1733  -70.8
 1.880  0.4969  144.8   2.140   51.8  0.1956   66.1  0.1729  -71.3
 1.900  0.4970  144.3   2.120   51.4  0.1977   65.9  0.1724  -71.7
 1.920  0.4982  143.8   2.101   51.0  0.1996   65.7  0.1730  -72.6
 1.940  0.4995  143.3   2.082   50.6  0.2015   65.5  0.1736  -73.5
 1.960  0.5008  142.7   2.063   50.2  0.2033   65.3  0.1743  -74.4
 1.980  0.5022  142.2   2.044   49.7  0.2052   65.1  0.1750  -75.2
 2.000  0.5036  141.7   2.025   49.3  0.2071   64.9  0.1757  -76.1
 2.020  0.5039  141.3   2.009   48.9  0.2092   64.7  0.1758  -76.6
 2.040  0.5043  140.9   1.993   48.6  0.2113   64.6  0.1758  -77.0
 2.060  0.5046  140.6   1.976   48.2  0.2134   64.4  0.1759  -77.5
 2.080  0.5050  140.2   1.960   47.9  0.2154   64.2  0.1760  -78.0
 2.100  0.5054  139.8   1.944   47.5  0.2175   64.1  0.1762  -78.5
 2.120  0.5059  139.4   1.929   47.1  0.2196   63.9  0.1763  -78.9
 2.140  0.5063  139.0   1.913   46.7  0.2217   63.7  0.1764  -79.4
 2.160  0.5068  138.7   1.897   46.3  0.2238   63.6  0.1766  -79.9
 2.180  0.5073  138.3   1.882   45.9  0.2259   63.4  0.1767  -80.3
 2.200  0.5078  137.9   1.866   45.5  0.2280   63.3  0.1769  -80.8
 2.220  0.5089  137.5   1.852   45.1  0.2299   63.1  0.1775  -81.5
 2.240  0.5101  137.1   1.838   44.8  0.2319   62.9  0.1782  -82.1
 2.260  0.5112  136.6   1.824   44.4  0.2339   62.7  0.1788  -82.8
 2.280  0.5124  136.2   1.811   44.0  0.2358   62.5  0.1795  -83.4
 2.300  0.5137  135.8   1.797   43.7  0.2378   62.4  0.1802  -84.1
 2.320  0.5149  135.4   1.783   43.3  0.2397   62.2  0.1810  -84.7
 2.340  0.5162  135.0   1.770   42.9  0.2417   62.0  0.1817  -85.3
 2.360  0.5175  134.6   1.757   42.5  0.2437   61.8  0.1825  -86.0
 2.380  0.5188  134.2   1.743   42.1  0.2456   61.7  0.1833  -86.6
 2.400  0.5202  133.8   1.730   41.7  0.2476   61.5  0.1841  -87.2
 2.420  0.5209  133.4   1.718   41.3  0.2497   61.3  0.1839  -88.0
 2.440  0.5216  132.9   1.707   41.0  0.2517   61.1  0.1838  -88.8
 2.460  0.5224  132.5   1.696   40.6  0.2538   60.9  0.1837  -89.6
 2.480  0.5232  132.1   1.684   40.2  0.2559   60.7  0.1836  -90.4
 2.500  0.5240  131.6   1.673   39.8  0.2580   60.5  0.1836  -91.1
 2.520  0.5248  131.2   1.662   39.4  0.2600   60.3  0.1836  -91.9
 2.540  0.5257  130.8   1.651   39.0  0.2621   60.1  0.1836  -92.7
 2.560  0.5266  130.3   1.640   38.6  0.2642   60.0  0.1837  -93.5
 2.580  0.5275  129.9   1.629   38.2  0.2663   59.8  0.1838  -94.3
 2.600  0.5285  129.5   1.618   37.8  0.2684   59.6  0.1839  -95.1
 2.620  0.5296  129.2   1.609   37.5  0.2705   59.4  0.1843  -95.7
 2.640  0.5307  128.8   1.599   37.1  0.2726   59.2  0.1847  -96.2
 2.660  0.5318  128.5   1.590   36.8  0.2746   59.0  0.1852  -96.8
 2.680  0.5330  128.2   1.581   36.4  0.2767   58.8  0.1856  -97.4
 2.700  0.5341  127.8   1.572   36.1  0.2788   58.6  0.1861  -97.9
 2.720  0.5353  127.5   1.563   35.7  0.2809   58.4  0.1866  -98.5
 2.740  0.5365  127.2   1.554   35.4  0.2830   58.2  0.1871  -99.1
 2.760  0.5377  126.8   1.545   35.0  0.2851   58.1  0.1876  -99.6
 2.780  0.5390  126.5   1.536   34.7  0.2872   57.9  0.1881 -100.2
 2.800  0.5402  126.2   1.527   34.3  0.2893   57.7  0.1887 -100.7
 2.820  0.5405  125.8   1.519   34.0  0.2911   57.5  0.1894 -101.3
 2.840  0.5409  125.4   1.510   33.6  0.2929   57.3  0.1900 -101.9
 2.860  0.5413  125.0   1.502   33.3  0.2947   57.1  0.1907 -102.5
 2.880  0.5417  124.6   1.494   33.0  0.2965   56.9  0.1915 -103.1
 2.900  0.5422  124.1   1.485   32.6  0.2983   56.7  0.1922 -103.7
 2.920  0.5427  123.7   1.477   32.3  0.3001   56.5  0.1930 -104.3
 2.940  0.5432  123.3   1.469   32.0  0.3019   56.3  0.1937 -104.9
 2.960  0.5437  122.9   1.461   31.6  0.3038   56.2  0.1945 -105.5
 2.980  0.5443  122.5   1.453   31.3  0.3056   56.0  0.1954 -106.0
 3.000  0.5449  122.1   1.445   30.9  0.3074   55.8  0.1962 -106.6
 3.100  0.5498  120.3   1.410   29.4  0.3170   54.7  0.1985 -110.5
 3.200  0.5552  118.5   1.376   27.9  0.3268   53.6  0.2018 -114.3
 3.300  0.5611  116.8   1.343   26.2  0.3367   52.6  0.2059 -118.0
 3.400  0.5676  115.1   1.311   24.5  0.3466   51.6  0.2108 -121.5
 3.500  0.5745  113.4   1.280   22.7  0.3567   50.7  0.2164 -124.8
 3.600  0.5775  111.7   1.252   21.4  0.3655   49.5  0.2195 -128.7
 3.700  0.5810  110.1   1.225   20.0  0.3744   48.4  0.2236 -132.4
 3.800  0.5850  108.5   1.198   18.6  0.3835   47.3  0.2286 -136.0
 3.900  0.5894  106.9   1.173   17.1  0.3927   46.3  0.2344 -139.4
 4.000  0.5943  105.3   1.148   15.5  0.4020   45.3  0.2411 -142.7
 4.100  0.5981  103.8   1.126   14.3  0.4101   44.0  0.2458 -145.8
 4.200  0.6023  102.4   1.104   13.1  0.4183   42.8  0.2513 -148.7
 4.300  0.6069  100.9   1.082   11.8  0.4267   41.7  0.2573 -151.5
 4.400  0.6119   99.5   1.061   10.5  0.4353   40.6  0.2639 -154.2
 4.500  0.6172   98.1   1.041    9.1  0.4441   39.5  0.2711 -156.7
 4.600  0.6193   96.8   1.024    8.1  0.4515   38.4  0.2756 -159.4
 4.700  0.6217   95.5   1.008    7.0  0.4590   37.3  0.2807 -162.0
 4.800  0.6245   94.3   0.992    5.9  0.4667   36.3  0.2863 -164.6
 4.900  0.6275   93.0   0.976    4.8  0.4745   35.3  0.2925 -167.0
 5.000  0.6308   91.8   0.961    3.6  0.4825   34.3  0.2992 -169.3
 5.100  0.6344   90.5   0.947    2.7  0.4893   33.2  0.3023 -172.0
 5.200  0.6383   89.3   0.932    1.8  0.4963   32.1  0.3061 -174.5
 5.300  0.6425   88.1   0.918    0.9  0.5034   31.1  0.3105 -177.1
 5.400  0.6470   86.9   0.905   -0.0  0.5107   30.1  0.3155 -179.5
 5.500  0.6518   85.7   0.891   -1.0  0.5182   29.1  0.3210  178.1
 5.600  0.6534   84.6   0.881   -1.8  0.5246   28.0  0.3248  175.8
 5.700  0.6553   83.4   0.871   -2.7  0.5312   26.9  0.3291  173.5
 5.800  0.6575   82.3   0.861   -3.6  0.5379   25.8  0.3339  171.3
 5.900  0.6599   81.2   0.851   -4.5  0.5449   24.8  0.3392  169.2
 6.000  0.6625   80.1   0.842   -5.4  0.5520   23.8  0.3449  167.1
!
!  f       NFmin   Gammaopt  rn/50
! GHz       dB    MAG  ANG    -
!
! noise parameter not available yet for this operation point!
!
! (c) 2015  Infineon Technologies AG, Munich
