! Infineon Technologies  Discrete & RF Semiconductors
! BFR93A
! VCE = 0.50 V,  IC =  30 mA
! Common Emitter S-Parameters:                            Nov 2015
# GHz  S  MA  R  50
!  f         S11            S21            S12            S22
! GHz     MAG   ANG      MAG   ANG      MAG   ANG      MAG   ANG
 0.010  0.3756  -59.5  31.957  159.3  0.0103   70.4  0.5741  -29.9
 0.015  0.3934  -78.0  29.644  152.1  0.0140   64.4  0.5407  -42.3
 0.020  0.4467  -93.4  27.867  143.9  0.0178   60.9  0.5351  -55.6
 0.025  0.4464 -101.1  26.048  141.0  0.0195   57.9  0.4984  -61.8
 0.030  0.4542 -108.7  24.304  137.7  0.0213   55.4  0.4684  -68.8
 0.035  0.4696 -116.0  22.653  133.9  0.0231   53.3  0.4464  -76.7
 0.040  0.4920 -122.6  21.117  129.6  0.0249   51.4  0.4336  -85.2
 0.045  0.5205 -128.7  19.723  124.5  0.0267   49.9  0.4308  -94.1
 0.050  0.5540 -134.0  18.502  118.8  0.0286   48.5  0.4383 -102.8
 0.055  0.5535 -136.3  17.718  117.8  0.0294   48.6  0.4267 -105.6
 0.060  0.5539 -138.7  16.940  116.8  0.0303   48.6  0.4161 -108.6
 0.065  0.5552 -141.0  16.168  115.7  0.0311   48.6  0.4067 -111.7
 0.070  0.5574 -143.3  15.403  114.4  0.0319   48.7  0.3986 -114.9
 0.075  0.5605 -145.6  14.646  113.0  0.0327   48.7  0.3918 -118.3
 0.080  0.5645 -147.9  13.899  111.5  0.0336   48.8  0.3864 -121.7
 0.085  0.5693 -150.1  13.163  109.8  0.0344   48.8  0.3824 -125.3
 0.090  0.5751 -152.3  12.440  107.9  0.0352   48.8  0.3799 -128.9
 0.095  0.5816 -154.4  11.732  105.7  0.0361   48.9  0.3790 -132.6
 0.100  0.5889 -156.5  11.043  103.3  0.0369   48.9  0.3796 -136.2
 0.105  0.5887 -157.5  10.702  102.8  0.0377   49.4  0.3770 -137.6
 0.110  0.5886 -158.6  10.361  102.2  0.0385   49.9  0.3746 -139.0
 0.115  0.5887 -159.6  10.022  101.6  0.0392   50.4  0.3724 -140.5
 0.120  0.5891 -160.7   9.683  101.0  0.0400   50.9  0.3704 -141.9
 0.125  0.5896 -161.7   9.346  100.3  0.0408   51.4  0.3687 -143.4
 0.130  0.5903 -162.8   9.010   99.6  0.0416   51.8  0.3673 -144.9
 0.135  0.5913 -163.8   8.676   98.8  0.0424   52.2  0.3661 -146.4
 0.140  0.5924 -164.8   8.344   98.0  0.0432   52.6  0.3651 -147.9
 0.145  0.5937 -165.9   8.013   97.1  0.0440   53.0  0.3644 -149.4
 0.150  0.5952 -166.9   7.685   96.1  0.0448   53.4  0.3640 -150.9
 0.155  0.5951 -167.5   7.501   95.7  0.0457   53.9  0.3630 -151.7
 0.160  0.5952 -168.1   7.317   95.4  0.0465   54.3  0.3621 -152.6
 0.165  0.5952 -168.7   7.134   95.0  0.0474   54.8  0.3612 -153.4
 0.170  0.5954 -169.3   6.951   94.5  0.0483   55.2  0.3604 -154.3
 0.175  0.5956 -170.0   6.769   94.1  0.0491   55.6  0.3598 -155.1
 0.180  0.5959 -170.6   6.587   93.6  0.0500   56.0  0.3591 -156.0
 0.185  0.5962 -171.2   6.405   93.2  0.0509   56.3  0.3586 -156.8
 0.190  0.5967 -171.8   6.224   92.6  0.0517   56.7  0.3582 -157.7
 0.195  0.5971 -172.4   6.043   92.1  0.0526   57.1  0.3578 -158.5
 0.200  0.5977 -173.0   5.863   91.5  0.0535   57.4  0.3575 -159.4
 0.220  0.5983 -174.8   5.410   90.3  0.0571   58.5  0.3564 -161.6
 0.240  0.5995 -176.7   4.960   88.8  0.0608   59.5  0.3558 -163.8
 0.260  0.6004 -178.2   4.584   87.5  0.0645   60.4  0.3553 -165.7
 0.280  0.6008 -179.5   4.282   86.3  0.0682   61.2  0.3548 -167.3
 0.300  0.6015  179.3   3.982   85.0  0.0720   62.0  0.3546 -168.9
 0.320  0.6015  178.1   3.788   84.2  0.0759   62.4  0.3545 -170.0
 0.340  0.6018  176.9   3.595   83.3  0.0798   62.8  0.3545 -171.2
 0.360  0.6024  175.7   3.403   82.3  0.0838   63.2  0.3547 -172.3
 0.380  0.6032  174.5   3.212   81.2  0.0877   63.5  0.3550 -173.5
 0.400  0.6043  173.3   3.022   80.0  0.0916   63.8  0.3554 -174.6
 0.420  0.6049  172.3   2.909   79.3  0.0954   63.9  0.3553 -175.4
 0.440  0.6057  171.3   2.796   78.5  0.0993   64.0  0.3553 -176.2
 0.450  0.6061  170.8   2.740   78.1  0.1012   64.0  0.3553 -176.7
 0.460  0.6066  170.3   2.684   77.6  0.1031   64.1  0.3553 -177.1
 0.480  0.6078  169.3   2.572   76.7  0.1070   64.1  0.3554 -177.9
 0.500  0.6091  168.3   2.461   75.7  0.1108   64.2  0.3556 -178.7
 0.520  0.6086  167.5   2.385   75.0  0.1147   64.1  0.3560 -179.4
 0.540  0.6083  166.6   2.309   74.3  0.1186   64.1  0.3564  179.9
 0.560  0.6081  165.8   2.233   73.5  0.1225   64.0  0.3568  179.2
 0.580  0.6080  164.9   2.158   72.6  0.1264   64.0  0.3573  178.5
 0.600  0.6081  164.1   2.083   71.7  0.1303   63.9  0.3579  177.8
 0.620  0.6082  163.4   2.028   71.0  0.1342   63.7  0.3583  177.2
 0.640  0.6083  162.7   1.972   70.3  0.1380   63.6  0.3587  176.6
 0.660  0.6086  162.0   1.918   69.5  0.1419   63.4  0.3592  176.1
 0.680  0.6090  161.3   1.863   68.7  0.1457   63.2  0.3597  175.5
 0.700  0.6094  160.6   1.809   67.8  0.1496   63.1  0.3602  174.9
 0.720  0.6099  159.8   1.770   67.2  0.1534   62.9  0.3608  174.4
 0.740  0.6106  159.1   1.731   66.5  0.1572   62.7  0.3614  173.8
 0.760  0.6114  158.3   1.693   65.8  0.1609   62.5  0.3620  173.3
 0.780  0.6122  157.6   1.655   65.1  0.1647   62.3  0.3627  172.7
 0.800  0.6132  156.8   1.617   64.3  0.1685   62.1  0.3634  172.2
 0.820  0.6136  156.2   1.585   63.7  0.1722   61.8  0.3642  171.7
 0.840  0.6142  155.5   1.553   63.1  0.1759   61.5  0.3651  171.2
 0.860  0.6148  154.9   1.522   62.5  0.1796   61.2  0.3660  170.8
 0.880  0.6154  154.2   1.490   61.8  0.1833   61.0  0.3669  170.3
 0.900  0.6162  153.6   1.459   61.1  0.1870   60.7  0.3678  169.8
 0.920  0.6162  152.9   1.435   60.5  0.1907   60.4  0.3683  169.3
 0.940  0.6162  152.1   1.412   59.8  0.1943   60.1  0.3687  168.9
 0.960  0.6164  151.4   1.389   59.1  0.1980   59.8  0.3692  168.4
 0.980  0.6166  150.6   1.366   58.4  0.2017   59.5  0.3698  168.0
 1.000  0.6170  149.9   1.343   57.7  0.2054   59.2  0.3703  167.5
 1.020  0.6177  149.3   1.325   57.2  0.2089   58.9  0.3709  167.1
 1.040  0.6185  148.7   1.306   56.6  0.2124   58.6  0.3715  166.7
 1.060  0.6194  148.1   1.288   56.0  0.2159   58.3  0.3722  166.4
 1.080  0.6203  147.5   1.270   55.4  0.2195   58.0  0.3728  166.0
 1.100  0.6213  146.9   1.252   54.8  0.2230   57.7  0.3735  165.6
 1.120  0.6222  146.3   1.236   54.2  0.2265   57.3  0.3744  165.2
 1.140  0.6232  145.8   1.220   53.6  0.2299   57.0  0.3752  164.7
 1.160  0.6242  145.2   1.205   52.9  0.2334   56.6  0.3761  164.3
 1.180  0.6253  144.7   1.189   52.3  0.2369   56.3  0.3771  163.8
 1.200  0.6265  144.1   1.174   51.6  0.2404   56.0  0.3780  163.4
 1.220  0.6269  143.5   1.160   51.0  0.2437   55.6  0.3786  163.0
 1.240  0.6274  142.9   1.147   50.4  0.2470   55.3  0.3792  162.5
 1.260  0.6279  142.2   1.133   49.8  0.2503   55.0  0.3799  162.1
 1.280  0.6285  141.6   1.120   49.2  0.2536   54.6  0.3805  161.6
 1.300  0.6292  141.0   1.107   48.6  0.2569   54.3  0.3812  161.2
 1.320  0.6294  140.4   1.095   48.1  0.2603   54.0  0.3819  160.9
 1.340  0.6296  139.8   1.083   47.5  0.2636   53.7  0.3827  160.5
 1.360  0.6299  139.3   1.072   47.0  0.2670   53.4  0.3834  160.2
 1.380  0.6303  138.7   1.060   46.4  0.2704   53.1  0.3842  159.8
 1.400  0.6307  138.1   1.049   45.8  0.2738   52.8  0.3850  159.5
 1.420  0.6300  137.5   1.039   45.3  0.2770   52.4  0.3860  159.1
 1.440  0.6294  137.0   1.030   44.8  0.2801   52.1  0.3870  158.8
 1.460  0.6288  136.4   1.020   44.3  0.2833   51.8  0.3880  158.4
 1.480  0.6283  135.9   1.010   43.8  0.2865   51.4  0.3890  158.1
 1.500  0.6279  135.3   1.001   43.3  0.2897   51.1  0.3901  157.7
 1.520  0.6291  134.8   0.994   42.9  0.2926   50.8  0.3908  157.3
 1.540  0.6303  134.3   0.986   42.4  0.2956   50.4  0.3916  157.0
 1.560  0.6316  133.7   0.979   41.9  0.2986   50.1  0.3924  156.6
 1.580  0.6329  133.2   0.972   41.5  0.3015   49.8  0.3932  156.3
 1.600  0.6343  132.7   0.965   41.0  0.3045   49.5  0.3940  155.9
 1.620  0.6352  132.2   0.958   40.6  0.3074   49.1  0.3942  155.5
 1.640  0.6362  131.7   0.951   40.1  0.3103   48.8  0.3945  155.1
 1.660  0.6373  131.1   0.944   39.6  0.3132   48.5  0.3948  154.8
 1.680  0.6384  130.6   0.937   39.2  0.3161   48.1  0.3951  154.4
 1.700  0.6395  130.1   0.930   38.7  0.3190   47.8  0.3954  154.0
 1.720  0.6387  129.6   0.924   38.2  0.3220   47.4  0.3964  153.7
 1.740  0.6379  129.1   0.919   37.7  0.3251   47.1  0.3974  153.5
 1.760  0.6371  128.6   0.913   37.2  0.3281   46.8  0.3984  153.2
 1.780  0.6364  128.1   0.907   36.6  0.3312   46.4  0.3995  153.0
 1.800  0.6358  127.6   0.902   36.1  0.3343   46.1  0.4005  152.7
 1.820  0.6358  127.1   0.898   35.7  0.3371   45.8  0.4010  152.4
 1.840  0.6358  126.6   0.893   35.3  0.3398   45.4  0.4015  152.0
 1.860  0.6358  126.1   0.889   34.9  0.3426   45.1  0.4021  151.7
 1.880  0.6359  125.6   0.884   34.5  0.3454   44.8  0.4026  151.3
 1.900  0.6361  125.1   0.880   34.1  0.3482   44.5  0.4032  151.0
 1.920  0.6373  124.6   0.876   33.7  0.3510   44.1  0.4038  150.6
 1.940  0.6385  124.0   0.871   33.3  0.3538   43.8  0.4044  150.3
 1.960  0.6398  123.5   0.867   32.9  0.3567   43.5  0.4051  149.9
 1.980  0.6411  122.9   0.862   32.5  0.3595   43.1  0.4057  149.6
 2.000  0.6425  122.4   0.858   32.1  0.3624   42.8  0.4064  149.2
 2.020  0.6428  121.9   0.854   31.7  0.3650   42.4  0.4069  148.9
 2.040  0.6431  121.4   0.850   31.3  0.3676   42.1  0.4074  148.6
 2.060  0.6434  121.0   0.846   30.9  0.3702   41.8  0.4079  148.2
 2.080  0.6438  120.5   0.843   30.5  0.3728   41.4  0.4085  147.9
 2.100  0.6442  120.0   0.839   30.0  0.3754   41.1  0.4090  147.6
 2.120  0.6447  119.5   0.835   29.6  0.3781   40.8  0.4096  147.3
 2.140  0.6452  119.0   0.832   29.2  0.3808   40.4  0.4102  147.0
 2.160  0.6458  118.6   0.828   28.8  0.3834   40.1  0.4108  146.6
 2.180  0.6464  118.1   0.824   28.3  0.3861   39.8  0.4114  146.3
 2.200  0.6471  117.6   0.821   27.9  0.3888   39.5  0.4120  146.0
 2.220  0.6469  117.2   0.818   27.5  0.3913   39.1  0.4127  145.6
 2.240  0.6468  116.8   0.816   27.1  0.3937   38.7  0.4135  145.3
 2.260  0.6466  116.4   0.813   26.8  0.3962   38.4  0.4143  144.9
 2.280  0.6465  116.0   0.811   26.4  0.3987   38.0  0.4151  144.6
 2.300  0.6465  115.6   0.809   26.0  0.4013   37.6  0.4159  144.2
 2.320  0.6465  115.1   0.806   25.6  0.4038   37.3  0.4167  143.9
 2.340  0.6465  114.7   0.804   25.2  0.4063   36.9  0.4176  143.5
 2.360  0.6465  114.3   0.801   24.8  0.4089   36.6  0.4184  143.2
 2.380  0.6466  113.9   0.799   24.4  0.4115   36.2  0.4193  142.8
 2.400  0.6467  113.5   0.797   24.0  0.4141   35.9  0.4202  142.5
 2.420  0.6471  113.0   0.794   23.7  0.4163   35.5  0.4210  142.2
 2.440  0.6475  112.6   0.792   23.3  0.4184   35.2  0.4217  141.9
 2.460  0.6480  112.1   0.790   23.0  0.4206   34.8  0.4225  141.6
 2.480  0.6485  111.7   0.787   22.7  0.4228   34.5  0.4233  141.2
 2.500  0.6490  111.2   0.785   22.3  0.4250   34.2  0.4241  140.9
 2.520  0.6496  110.7   0.782   22.0  0.4272   33.8  0.4250  140.6
 2.540  0.6503  110.3   0.780   21.6  0.4295   33.5  0.4258  140.3
 2.560  0.6509  109.8   0.778   21.3  0.4317   33.2  0.4267  140.0
 2.580  0.6516  109.4   0.775   20.9  0.4340   32.8  0.4275  139.7
 2.600  0.6524  108.9   0.773   20.6  0.4363   32.5  0.4284  139.4
 2.620  0.6524  108.5   0.771   20.2  0.4381   32.2  0.4293  139.1
 2.640  0.6525  108.0   0.768   19.9  0.4400   31.8  0.4301  138.7
 2.660  0.6526  107.6   0.766   19.5  0.4419   31.5  0.4310  138.4
 2.680  0.6528  107.1   0.764   19.2  0.4438   31.1  0.4319  138.0
 2.700  0.6530  106.7   0.762   18.8  0.4457   30.8  0.4328  137.7
 2.720  0.6532  106.3   0.759   18.5  0.4476   30.5  0.4337  137.3
 2.740  0.6535  105.8   0.757   18.1  0.4495   30.2  0.4347  137.0
 2.760  0.6538  105.4   0.755   17.7  0.4515   29.8  0.4356  136.7
 2.780  0.6541  104.9   0.753   17.4  0.4534   29.5  0.4366  136.3
 2.800  0.6545  104.5   0.751   17.0  0.4554   29.2  0.4376  136.0
 2.820  0.6547  104.1   0.750   16.7  0.4572   28.8  0.4387  135.7
 2.840  0.6549  103.7   0.748   16.3  0.4590   28.5  0.4398  135.3
 2.860  0.6551  103.3   0.747   16.0  0.4609   28.1  0.4409  135.0
 2.880  0.6554  102.9   0.745   15.7  0.4628   27.8  0.4420  134.7
 2.900  0.6557  102.5   0.744   15.3  0.4646   27.4  0.4431  134.3
 2.920  0.6560  102.1   0.743   15.0  0.4665   27.1  0.4443  134.0
 2.940  0.6564  101.7   0.742   14.6  0.4684   26.7  0.4454  133.7
 2.960  0.6568  101.3   0.740   14.3  0.4704   26.4  0.4466  133.3
 2.980  0.6572  100.9   0.739   13.9  0.4723   26.0  0.4478  133.0
 3.000  0.6577  100.5   0.738   13.6  0.4743   25.7  0.4490  132.7
!
!  f       NFmin   Gammaopt  rn/50
! GHz       dB    MAG  ANG    -
!
! noise parameter not available yet for this operation point!
!
! (c) 2015  Infineon Technologies AG, Munich
