! Infineon Technologies  Discrete & RF Semiconductors
! BFR93A
! VCE =  4.0 V,  IC =  2.5 mA
! Common Emitter S-Parameters:                            Nov 2015
# GHz  S  MA  R  50
!  f         S11            S21            S12            S22
! GHz     MAG   ANG      MAG   ANG      MAG   ANG      MAG   ANG
 0.010  0.9091   -3.6   8.235  177.2  0.0044   88.5  0.9951   -1.6
 0.015  0.9063   -5.3   8.227  175.9  0.0066   86.1  0.9933   -2.3
 0.020  0.9044   -7.1   8.223  174.6  0.0088   84.9  0.9917   -3.0
 0.025  0.9006   -8.8   8.189  173.3  0.0109   83.5  0.9892   -3.7
 0.030  0.8977  -10.5   8.159  172.1  0.0129   82.5  0.9868   -4.5
 0.035  0.8955  -12.3   8.133  170.8  0.0150   81.8  0.9846   -5.2
 0.040  0.8942  -14.0   8.111  169.5  0.0171   81.3  0.9826   -6.0
 0.045  0.8937  -15.8   8.093  168.2  0.0191   80.8  0.9807   -6.7
 0.050  0.8940  -17.5   8.079  166.9  0.0212   80.5  0.9790   -7.5
 0.055  0.8867  -19.1   8.025  165.8  0.0231   78.9  0.9744   -8.1
 0.060  0.8802  -20.7   7.975  164.7  0.0250   77.6  0.9699   -8.8
 0.065  0.8743  -22.4   7.928  163.5  0.0269   76.4  0.9655   -9.5
 0.070  0.8693  -24.1   7.883  162.4  0.0289   75.5  0.9613  -10.1
 0.075  0.8649  -25.8   7.842  161.2  0.0308   74.6  0.9572  -10.8
 0.080  0.8613  -27.5   7.804  160.1  0.0328   73.8  0.9532  -11.5
 0.085  0.8585  -29.2   7.770  158.9  0.0347   73.1  0.9494  -12.1
 0.090  0.8565  -30.9   7.738  157.7  0.0367   72.5  0.9457  -12.8
 0.095  0.8553  -32.7   7.711  156.5  0.0386   72.0  0.9421  -13.5
 0.100  0.8548  -34.4   7.686  155.3  0.0406   71.5  0.9387  -14.2
 0.105  0.8472  -35.8   7.618  154.3  0.0421   70.4  0.9328  -14.7
 0.110  0.8401  -37.3   7.553  153.2  0.0436   69.5  0.9270  -15.2
 0.115  0.8336  -38.8   7.491  152.2  0.0451   68.5  0.9213  -15.8
 0.120  0.8277  -40.3   7.431  151.1  0.0466   67.7  0.9156  -16.3
 0.125  0.8224  -41.9   7.373  150.0  0.0481   66.9  0.9101  -16.9
 0.130  0.8176  -43.4   7.319  148.9  0.0497   66.1  0.9046  -17.4
 0.135  0.8135  -45.0   7.267  147.8  0.0512   65.4  0.8992  -18.0
 0.140  0.8100  -46.6   7.218  146.6  0.0528   64.7  0.8939  -18.5
 0.145  0.8071  -48.2   7.172  145.5  0.0543   64.1  0.8886  -19.1
 0.150  0.8049  -49.8   7.129  144.3  0.0559   63.5  0.8835  -19.7
 0.155  0.7974  -51.1   7.064  143.4  0.0571   62.8  0.8776  -20.1
 0.160  0.7904  -52.5   7.001  142.6  0.0583   62.1  0.8717  -20.5
 0.165  0.7838  -53.8   6.940  141.7  0.0596   61.5  0.8659  -20.9
 0.170  0.7776  -55.2   6.880  140.8  0.0608   60.8  0.8602  -21.3
 0.175  0.7719  -56.6   6.822  139.9  0.0621   60.3  0.8544  -21.7
 0.180  0.7667  -58.0   6.766  139.0  0.0633   59.7  0.8487  -22.2
 0.185  0.7620  -59.5   6.712  138.0  0.0646   59.1  0.8431  -22.6
 0.190  0.7577  -60.9   6.659  137.1  0.0659   58.6  0.8375  -23.0
 0.195  0.7540  -62.4   6.609  136.1  0.0671   58.1  0.8320  -23.5
 0.200  0.7507  -63.9   6.560  135.1  0.0684   57.6  0.8265  -23.9
 0.220  0.7269  -68.7   6.316  132.0  0.0721   55.4  0.8045  -25.2
 0.240  0.7086  -73.9   6.093  128.7  0.0759   53.4  0.7830  -26.5
 0.260  0.6914  -78.6   5.878  125.7  0.0792   51.8  0.7628  -27.6
 0.280  0.6735  -82.9   5.665  123.0  0.0819   50.3  0.7439  -28.5
 0.300  0.6596  -87.4   5.465  120.2  0.0847   49.0  0.7251  -29.5
 0.320  0.6408  -90.9   5.268  118.3  0.0866   47.9  0.7100  -30.1
 0.340  0.6245  -94.5   5.078  116.2  0.0886   46.9  0.6950  -30.7
 0.360  0.6109  -98.4   4.895  113.9  0.0906   45.9  0.6801  -31.3
 0.380  0.6002 -102.4   4.721  111.5  0.0926   45.0  0.6653  -31.9
 0.400  0.5925 -106.5   4.555  108.9  0.0947   44.1  0.6505  -32.6
 0.420  0.5797 -109.4   4.411  107.3  0.0960   43.5  0.6401  -33.0
 0.440  0.5684 -112.5   4.271  105.6  0.0973   43.0  0.6297  -33.3
 0.450  0.5634 -114.0   4.203  104.8  0.0980   42.7  0.6245  -33.5
 0.460  0.5588 -115.6   4.135  103.9  0.0986   42.4  0.6193  -33.7
 0.480  0.5510 -118.9   4.003  101.9  0.1000   41.9  0.6089  -34.1
 0.500  0.5450 -122.2   3.876   99.9  0.1013   41.4  0.5986  -34.5
 0.520  0.5367 -124.7   3.769   98.6  0.1023   41.2  0.5912  -34.8
 0.540  0.5293 -127.2   3.663   97.3  0.1032   41.0  0.5838  -35.0
 0.560  0.5230 -129.8   3.560   95.8  0.1042   40.8  0.5765  -35.3
 0.580  0.5179 -132.4   3.459   94.3  0.1051   40.6  0.5691  -35.6
 0.600  0.5138 -135.1   3.361   92.7  0.1061   40.4  0.5618  -35.9
 0.620  0.5089 -137.2   3.277   91.5  0.1070   40.4  0.5566  -36.2
 0.640  0.5047 -139.3   3.195   90.3  0.1079   40.4  0.5513  -36.4
 0.660  0.5011 -141.5   3.114   89.1  0.1088   40.3  0.5461  -36.7
 0.680  0.4984 -143.7   3.035   87.7  0.1097   40.3  0.5409  -36.9
 0.700  0.4963 -145.9   2.958   86.3  0.1106   40.3  0.5357  -37.2
 0.720  0.4932 -147.8   2.892   85.3  0.1113   40.4  0.5317  -37.5
 0.740  0.4906 -149.7   2.828   84.3  0.1121   40.6  0.5278  -37.8
 0.760  0.4885 -151.6   2.764   83.2  0.1128   40.7  0.5238  -38.1
 0.780  0.4870 -153.5   2.702   82.1  0.1136   40.9  0.5199  -38.4
 0.800  0.4860 -155.4   2.640   80.9  0.1143   41.0  0.5160  -38.7
 0.820  0.4837 -157.1   2.587   80.0  0.1151   41.2  0.5129  -39.0
 0.840  0.4818 -158.8   2.534   79.1  0.1158   41.3  0.5097  -39.3
 0.860  0.4803 -160.5   2.482   78.1  0.1166   41.5  0.5066  -39.6
 0.880  0.4793 -162.2   2.431   77.1  0.1173   41.6  0.5035  -39.9
 0.900  0.4787 -163.9   2.381   76.1  0.1181   41.8  0.5004  -40.2
 0.920  0.4773 -165.4   2.338   75.2  0.1189   42.1  0.4983  -40.5
 0.940  0.4763 -166.8   2.296   74.3  0.1197   42.3  0.4962  -40.8
 0.960  0.4755 -168.3   2.255   73.4  0.1205   42.6  0.4941  -41.2
 0.980  0.4751 -169.8   2.214   72.4  0.1213   42.8  0.4920  -41.5
 1.000  0.4750 -171.3   2.174   71.4  0.1221   43.1  0.4899  -41.8
 1.020  0.4746 -172.6   2.139   70.6  0.1231   43.4  0.4881  -42.2
 1.040  0.4744 -173.9   2.105   69.8  0.1241   43.7  0.4862  -42.6
 1.060  0.4744 -175.3   2.071   69.0  0.1252   44.0  0.4844  -43.0
 1.080  0.4747 -176.6   2.037   68.1  0.1262   44.2  0.4827  -43.4
 1.100  0.4753 -177.9   2.004   67.2  0.1272   44.5  0.4809  -43.8
 1.120  0.4759 -179.1   1.975   66.4  0.1283   44.8  0.4792  -44.2
 1.140  0.4766  179.6   1.947   65.7  0.1293   45.1  0.4775  -44.6
 1.160  0.4776  178.4   1.919   64.9  0.1304   45.4  0.4758  -45.1
 1.180  0.4789  177.1   1.892   64.0  0.1314   45.7  0.4742  -45.5
 1.200  0.4803  175.9   1.865   63.2  0.1325   46.0  0.4726  -45.9
 1.220  0.4809  174.8   1.838   62.5  0.1336   46.3  0.4715  -46.3
 1.240  0.4817  173.6   1.812   61.7  0.1347   46.6  0.4704  -46.7
 1.260  0.4826  172.5   1.785   61.0  0.1358   46.9  0.4693  -47.2
 1.280  0.4838  171.4   1.760   60.2  0.1370   47.2  0.4683  -47.6
 1.300  0.4851  170.3   1.734   59.4  0.1381   47.5  0.4673  -48.0
 1.320  0.4848  169.3   1.712   58.7  0.1393   47.8  0.4663  -48.4
 1.340  0.4847  168.3   1.690   58.0  0.1406   48.2  0.4654  -48.9
 1.360  0.4848  167.3   1.668   57.3  0.1418   48.5  0.4645  -49.3
 1.380  0.4850  166.3   1.646   56.6  0.1431   48.8  0.4636  -49.8
 1.400  0.4853  165.3   1.625   55.8  0.1443   49.1  0.4627  -50.2
 1.420  0.4859  164.4   1.604   55.2  0.1457   49.4  0.4616  -50.7
 1.440  0.4866  163.5   1.583   54.5  0.1471   49.7  0.4605  -51.2
 1.460  0.4874  162.5   1.563   53.8  0.1485   50.0  0.4595  -51.8
 1.480  0.4883  161.6   1.542   53.1  0.1499   50.2  0.4585  -52.3
 1.500  0.4894  160.7   1.522   52.4  0.1513   50.5  0.4575  -52.8
 1.520  0.4905  159.8   1.507   51.8  0.1529   50.7  0.4566  -53.4
 1.540  0.4918  158.8   1.493   51.2  0.1545   51.0  0.4556  -53.9
 1.560  0.4932  157.9   1.478   50.5  0.1560   51.2  0.4548  -54.5
 1.580  0.4947  157.0   1.464   49.9  0.1576   51.4  0.4540  -55.0
 1.600  0.4963  156.1   1.450   49.2  0.1592   51.6  0.4532  -55.6
 1.620  0.4975  155.3   1.436   48.6  0.1608   51.9  0.4525  -56.2
 1.640  0.4989  154.4   1.422   48.0  0.1625   52.1  0.4518  -56.7
 1.660  0.5004  153.6   1.408   47.4  0.1641   52.4  0.4512  -57.3
 1.680  0.5019  152.7   1.394   46.8  0.1658   52.7  0.4506  -57.8
 1.700  0.5036  151.9   1.381   46.2  0.1674   52.9  0.4500  -58.4
 1.720  0.5042  151.1   1.368   45.6  0.1692   53.1  0.4497  -59.0
 1.740  0.5048  150.3   1.356   45.0  0.1710   53.3  0.4494  -59.5
 1.760  0.5055  149.6   1.343   44.4  0.1729   53.5  0.4492  -60.1
 1.780  0.5064  148.8   1.331   43.7  0.1747   53.6  0.4490  -60.6
 1.800  0.5073  148.0   1.319   43.1  0.1765   53.8  0.4488  -61.2
 1.820  0.5077  147.3   1.307   42.6  0.1784   54.0  0.4483  -61.8
 1.840  0.5083  146.5   1.295   42.1  0.1804   54.2  0.4478  -62.4
 1.860  0.5089  145.8   1.283   41.6  0.1823   54.4  0.4474  -62.9
 1.880  0.5096  145.0   1.271   41.0  0.1843   54.6  0.4470  -63.5
 1.900  0.5104  144.3   1.259   40.5  0.1862   54.8  0.4467  -64.1
 1.920  0.5116  143.6   1.248   40.0  0.1883   54.9  0.4461  -64.7
 1.940  0.5130  142.8   1.237   39.4  0.1904   55.0  0.4455  -65.3
 1.960  0.5144  142.1   1.226   38.9  0.1926   55.2  0.4450  -65.8
 1.980  0.5158  141.4   1.216   38.4  0.1947   55.3  0.4445  -66.4
 2.000  0.5174  140.7   1.205   37.8  0.1968   55.4  0.4441  -67.0
 2.020  0.5185  140.0   1.196   37.3  0.1991   55.5  0.4436  -67.6
 2.040  0.5196  139.4   1.186   36.8  0.2014   55.5  0.4432  -68.2
 2.060  0.5208  138.7   1.177   36.4  0.2037   55.6  0.4428  -68.8
 2.080  0.5221  138.1   1.168   35.9  0.2060   55.7  0.4425  -69.4
 2.100  0.5235  137.4   1.159   35.3  0.2083   55.7  0.4422  -70.0
 2.120  0.5249  136.8   1.150   34.8  0.2107   55.8  0.4419  -70.7
 2.140  0.5264  136.1   1.142   34.3  0.2130   55.8  0.4418  -71.3
 2.160  0.5279  135.5   1.133   33.8  0.2153   55.9  0.4416  -71.9
 2.180  0.5295  134.8   1.124   33.2  0.2176   55.9  0.4415  -72.5
 2.200  0.5312  134.2   1.116   32.7  0.2199   56.0  0.4415  -73.1
 2.220  0.5319  133.6   1.109   32.3  0.2225   56.0  0.4411  -73.8
 2.240  0.5327  133.0   1.102   31.9  0.2250   56.0  0.4407  -74.4
 2.260  0.5335  132.4   1.094   31.5  0.2276   56.0  0.4403  -75.1
 2.280  0.5343  131.9   1.087   31.0  0.2301   56.0  0.4401  -75.7
 2.300  0.5353  131.3   1.080   30.6  0.2327   55.9  0.4399  -76.4
 2.320  0.5362  130.7   1.073   30.2  0.2353   55.9  0.4397  -77.1
 2.340  0.5373  130.1   1.066   29.7  0.2378   55.9  0.4396  -77.7
 2.360  0.5384  129.5   1.060   29.3  0.2404   55.9  0.4396  -78.4
 2.380  0.5395  129.0   1.053   28.9  0.2429   55.9  0.4396  -79.0
 2.400  0.5407  128.4   1.046   28.4  0.2455   55.9  0.4397  -79.7
 2.420  0.5419  127.8   1.039   28.0  0.2482   55.8  0.4392  -80.4
 2.440  0.5432  127.1   1.032   27.6  0.2508   55.7  0.4387  -81.1
 2.460  0.5445  126.5   1.025   27.2  0.2535   55.7  0.4384  -81.9
 2.480  0.5459  125.9   1.018   26.8  0.2562   55.6  0.4381  -82.6
 2.500  0.5473  125.3   1.011   26.4  0.2588   55.5  0.4378  -83.3
 2.520  0.5489  124.6   1.004   25.9  0.2615   55.5  0.4377  -84.0
 2.540  0.5505  124.0   0.997   25.5  0.2642   55.4  0.4376  -84.7
 2.560  0.5521  123.4   0.990   25.1  0.2669   55.3  0.4375  -85.5
 2.580  0.5538  122.8   0.984   24.6  0.2695   55.3  0.4376  -86.2
 2.600  0.5556  122.2   0.977   24.2  0.2722   55.2  0.4377  -86.9
 2.620  0.5560  121.6   0.972   23.8  0.2751   55.0  0.4371  -87.6
 2.640  0.5564  121.1   0.967   23.4  0.2780   54.9  0.4366  -88.4
 2.660  0.5569  120.5   0.961   23.0  0.2809   54.7  0.4362  -89.1
 2.680  0.5575  119.9   0.956   22.6  0.2838   54.6  0.4358  -89.9
 2.700  0.5581  119.3   0.951   22.2  0.2867   54.4  0.4355  -90.6
 2.720  0.5588  118.8   0.946   21.7  0.2896   54.3  0.4353  -91.4
 2.740  0.5595  118.2   0.941   21.3  0.2925   54.1  0.4352  -92.1
 2.760  0.5603  117.6   0.937   20.9  0.2954   54.0  0.4351  -92.9
 2.780  0.5611  117.1   0.932   20.4  0.2983   53.8  0.4351  -93.6
 2.800  0.5620  116.5   0.927   20.0  0.3012   53.7  0.4352  -94.4
 2.820  0.5636  115.9   0.922   19.7  0.3042   53.5  0.4348  -95.2
 2.840  0.5653  115.3   0.917   19.4  0.3073   53.3  0.4345  -96.0
 2.860  0.5671  114.8   0.913   19.0  0.3103   53.1  0.4343  -96.8
 2.880  0.5689  114.2   0.908   18.7  0.3134   52.9  0.4341  -97.6
 2.900  0.5707  113.6   0.903   18.4  0.3165   52.8  0.4341  -98.4
 2.920  0.5727  113.0   0.898   18.1  0.3195   52.6  0.4341  -99.3
 2.940  0.5746  112.5   0.894   17.7  0.3226   52.4  0.4342 -100.1
 2.960  0.5767  111.9   0.889   17.4  0.3257   52.2  0.4344 -100.9
 2.980  0.5788  111.4   0.885   17.0  0.3287   52.1  0.4347 -101.7
 3.000  0.5809  110.8   0.880   16.7  0.3318   51.9  0.4351 -102.5
!
!  f       NFmin   Gammaopt  rn/50
! GHz       dB    MAG  ANG    -
!
! noise parameter not available yet for this operation point!
!
! (c) 2015  Infineon Technologies AG, Munich
