! Infineon Technologies  Discrete & RF Semiconductors
! BFR93A
! VCE =  2.0 V,  IC =  6.0 mA
! Common Emitter S-Parameters:                            Nov 2015
# GHz  S  MA  R  50
!  f         S11            S21            S12            S22
! GHz     MAG   ANG      MAG   ANG      MAG   ANG      MAG   ANG
 0.010  0.8043   -6.5  17.500  175.3  0.0052   86.4  0.9832   -3.7
 0.015  0.7989   -9.6  17.426  173.1  0.0077   84.1  0.9788   -5.3
 0.020  0.7959  -12.7  17.379  170.8  0.0102   82.9  0.9753   -7.0
 0.025  0.7854  -15.7  17.180  168.8  0.0125   80.1  0.9655   -8.6
 0.030  0.7770  -18.7  17.002  166.8  0.0149   78.2  0.9564  -10.2
 0.035  0.7709  -21.8  16.846  164.7  0.0172   76.8  0.9481  -11.8
 0.040  0.7670  -24.9  16.713  162.6  0.0196   75.7  0.9406  -13.5
 0.045  0.7655  -28.0  16.602  160.5  0.0219   74.9  0.9339  -15.2
 0.050  0.7662  -31.2  16.515  158.3  0.0243   74.2  0.9280  -16.9
 0.055  0.7518  -33.6  16.240  156.8  0.0261   72.3  0.9141  -18.0
 0.060  0.7388  -36.1  15.977  155.3  0.0279   70.7  0.9005  -19.2
 0.065  0.7273  -38.7  15.725  153.7  0.0297   69.3  0.8873  -20.4
 0.070  0.7172  -41.4  15.486  152.0  0.0315   68.0  0.8746  -21.7
 0.075  0.7088  -44.1  15.261  150.3  0.0333   66.9  0.8622  -22.9
 0.080  0.7020  -46.9  15.049  148.6  0.0352   65.9  0.8504  -24.3
 0.085  0.6969  -49.7  14.852  146.8  0.0371   65.0  0.8389  -25.6
 0.090  0.6936  -52.6  14.669  144.9  0.0389   64.2  0.8280  -27.0
 0.095  0.6920  -55.5  14.503  143.0  0.0408   63.5  0.8175  -28.4
 0.100  0.6922  -58.4  14.352  141.1  0.0427   62.8  0.8076  -29.9
 0.105  0.6805  -60.3  14.093  140.0  0.0438   61.9  0.7947  -30.6
 0.110  0.6695  -62.3  13.840  138.8  0.0450   61.0  0.7818  -31.4
 0.115  0.6594  -64.3  13.592  137.6  0.0461   60.2  0.7692  -32.2
 0.120  0.6501  -66.4  13.351  136.4  0.0472   59.4  0.7567  -33.0
 0.125  0.6417  -68.5  13.116  135.1  0.0484   58.7  0.7443  -33.8
 0.130  0.6342  -70.8  12.888  133.7  0.0496   57.9  0.7321  -34.7
 0.135  0.6277  -73.0  12.668  132.4  0.0507   57.3  0.7201  -35.6
 0.140  0.6222  -75.3  12.455  130.9  0.0519   56.6  0.7083  -36.5
 0.145  0.6177  -77.6  12.250  129.4  0.0531   56.0  0.6966  -37.5
 0.150  0.6142  -80.0  12.054  127.9  0.0543   55.4  0.6852  -38.5
 0.155  0.6061  -81.6  11.853  127.1  0.0551   55.0  0.6754  -39.0
 0.160  0.5984  -83.2  11.655  126.2  0.0559   54.6  0.6656  -39.4
 0.165  0.5913  -84.9  11.460  125.4  0.0567   54.2  0.6559  -39.9
 0.170  0.5847  -86.6  11.267  124.4  0.0576   53.8  0.6462  -40.4
 0.175  0.5786  -88.3  11.078  123.5  0.0584   53.4  0.6365  -40.9
 0.180  0.5730  -90.1  10.891  122.5  0.0592   53.1  0.6270  -41.4
 0.185  0.5680  -91.9  10.708  121.5  0.0600   52.7  0.6174  -42.0
 0.190  0.5636  -93.7  10.528  120.5  0.0608   52.4  0.6080  -42.5
 0.195  0.5597  -95.6  10.352  119.4  0.0617   52.0  0.5986  -43.1
 0.200  0.5565  -97.5  10.179  118.3  0.0625   51.7  0.5892  -43.7
 0.220  0.5377 -102.8   9.565  115.6  0.0649   50.7  0.5590  -45.0
 0.240  0.5238 -108.5   8.974  112.6  0.0673   49.8  0.5290  -46.3
 0.260  0.5125 -113.5   8.454  109.9  0.0695   49.3  0.5032  -47.4
 0.280  0.5019 -117.7   7.994  107.7  0.0716   49.0  0.4812  -48.2
 0.300  0.4941 -122.1   7.546  105.3  0.0736   48.8  0.4593  -49.0
 0.320  0.4839 -125.4   7.205  103.8  0.0755   48.8  0.4441  -49.4
 0.340  0.4754 -128.8   6.869  102.2  0.0774   48.8  0.4288  -49.8
 0.360  0.4686 -132.4   6.540  100.4  0.0792   48.8  0.4136  -50.2
 0.380  0.4636 -136.0   6.217   98.5  0.0811   48.8  0.3985  -50.6
 0.400  0.4606 -139.7   5.902   96.3  0.0830   48.8  0.3833  -51.1
 0.420  0.4556 -142.2   5.686   95.2  0.0848   49.0  0.3741  -51.3
 0.440  0.4515 -144.8   5.473   93.9  0.0867   49.3  0.3648  -51.5
 0.450  0.4498 -146.1   5.367   93.3  0.0876   49.4  0.3602  -51.6
 0.460  0.4484 -147.4   5.262   92.6  0.0885   49.5  0.3556  -51.7
 0.480  0.4462 -150.0   5.054   91.2  0.0904   49.7  0.3463  -51.9
 0.500  0.4449 -152.7   4.850   89.6  0.0922   49.9  0.3371  -52.1
 0.520  0.4421 -154.7   4.698   88.6  0.0941   50.2  0.3309  -52.3
 0.540  0.4399 -156.7   4.547   87.6  0.0960   50.5  0.3247  -52.4
 0.560  0.4382 -158.7   4.398   86.5  0.0980   50.8  0.3186  -52.6
 0.580  0.4370 -160.7   4.251   85.3  0.0999   51.0  0.3124  -52.8
 0.600  0.4364 -162.7   4.106   84.0  0.1018   51.3  0.3062  -53.0
 0.620  0.4353 -164.3   3.994   83.1  0.1037   51.5  0.3019  -53.2
 0.640  0.4345 -165.9   3.884   82.2  0.1057   51.8  0.2975  -53.4
 0.660  0.4340 -167.5   3.774   81.2  0.1076   52.0  0.2932  -53.6
 0.680  0.4339 -169.1   3.666   80.2  0.1096   52.2  0.2889  -53.9
 0.700  0.4341 -170.7   3.559   79.1  0.1115   52.4  0.2846  -54.1
 0.720  0.4341 -172.1   3.475   78.3  0.1135   52.6  0.2813  -54.4
 0.740  0.4344 -173.5   3.392   77.5  0.1156   52.8  0.2780  -54.6
 0.760  0.4349 -175.0   3.310   76.6  0.1176   53.0  0.2747  -54.9
 0.780  0.4357 -176.4   3.229   75.7  0.1197   53.2  0.2715  -55.2
 0.800  0.4368 -177.8   3.148   74.7  0.1217   53.4  0.2682  -55.5
 0.820  0.4374 -179.0   3.082   74.0  0.1238   53.5  0.2656  -55.8
 0.840  0.4382  179.7   3.016   73.2  0.1259   53.7  0.2631  -56.2
 0.860  0.4393  178.5   2.950   72.5  0.1280   53.8  0.2605  -56.5
 0.880  0.4405  177.3   2.885   71.7  0.1301   53.9  0.2579  -56.8
 0.900  0.4419  176.1   2.821   70.8  0.1322   54.0  0.2554  -57.2
 0.920  0.4413  175.0   2.769   70.1  0.1343   54.1  0.2537  -57.6
 0.940  0.4408  173.9   2.717   69.4  0.1364   54.2  0.2520  -57.9
 0.960  0.4405  172.8   2.665   68.6  0.1386   54.2  0.2503  -58.3
 0.980  0.4404  171.7   2.614   67.8  0.1407   54.3  0.2487  -58.6
 1.000  0.4404  170.6   2.564   67.0  0.1428   54.4  0.2470  -59.0
 1.020  0.4413  169.7   2.522   66.3  0.1450   54.4  0.2455  -59.5
 1.040  0.4424  168.8   2.480   65.6  0.1472   54.5  0.2440  -60.0
 1.060  0.4435  167.9   2.438   64.9  0.1494   54.5  0.2425  -60.5
 1.080  0.4448  167.1   2.397   64.2  0.1516   54.6  0.2410  -61.0
 1.100  0.4461  166.2   2.356   63.4  0.1538   54.6  0.2396  -61.5
 1.120  0.4478  165.2   2.321   62.7  0.1560   54.6  0.2381  -62.0
 1.140  0.4495  164.3   2.286   62.1  0.1583   54.6  0.2366  -62.6
 1.160  0.4514  163.4   2.252   61.4  0.1605   54.7  0.2352  -63.1
 1.180  0.4535  162.4   2.218   60.6  0.1628   54.7  0.2337  -63.6
 1.200  0.4556  161.5   2.184   59.9  0.1650   54.7  0.2323  -64.2
 1.220  0.4562  160.6   2.152   59.3  0.1672   54.7  0.2313  -64.7
 1.240  0.4569  159.6   2.121   58.6  0.1694   54.7  0.2303  -65.2
 1.260  0.4577  158.7   2.090   57.9  0.1715   54.6  0.2293  -65.7
 1.280  0.4586  157.7   2.059   57.2  0.1737   54.6  0.2283  -66.3
 1.300  0.4597  156.8   2.028   56.5  0.1759   54.6  0.2274  -66.8
 1.320  0.4600  156.2   2.002   55.9  0.1782   54.6  0.2267  -67.4
 1.340  0.4604  155.5   1.976   55.3  0.1804   54.5  0.2261  -67.9
 1.360  0.4608  154.9   1.950   54.7  0.1827   54.5  0.2255  -68.5
 1.380  0.4613  154.2   1.924   54.1  0.1849   54.4  0.2249  -69.0
 1.400  0.4618  153.6   1.899   53.4  0.1872   54.4  0.2243  -69.6
 1.420  0.4623  152.9   1.875   52.8  0.1894   54.4  0.2234  -70.3
 1.440  0.4629  152.1   1.850   52.2  0.1917   54.3  0.2224  -71.0
 1.460  0.4636  151.4   1.826   51.6  0.1939   54.3  0.2216  -71.7
 1.480  0.4644  150.6   1.803   51.0  0.1962   54.2  0.2207  -72.4
 1.500  0.4652  149.9   1.779   50.4  0.1984   54.2  0.2199  -73.1
 1.520  0.4669  149.2   1.762   49.8  0.2007   54.1  0.2192  -73.8
 1.540  0.4686  148.6   1.745   49.3  0.2029   54.0  0.2185  -74.6
 1.560  0.4704  147.9   1.729   48.7  0.2052   53.9  0.2178  -75.3
 1.580  0.4722  147.2   1.712   48.1  0.2074   53.8  0.2172  -76.1
 1.600  0.4741  146.6   1.696   47.5  0.2097   53.7  0.2166  -76.8
 1.620  0.4759  146.0   1.679   47.0  0.2119   53.6  0.2162  -77.5
 1.640  0.4777  145.3   1.662   46.5  0.2142   53.5  0.2159  -78.2
 1.660  0.4796  144.7   1.646   45.9  0.2164   53.4  0.2156  -78.8
 1.680  0.4815  144.0   1.629   45.4  0.2187   53.3  0.2153  -79.5
 1.700  0.4835  143.4   1.613   44.8  0.2209   53.2  0.2151  -80.2
 1.720  0.4838  142.8   1.598   44.2  0.2234   53.1  0.2152  -80.9
 1.740  0.4842  142.2   1.583   43.7  0.2259   53.0  0.2153  -81.6
 1.760  0.4846  141.5   1.568   43.1  0.2283   52.8  0.2154  -82.4
 1.780  0.4851  140.9   1.553   42.5  0.2308   52.7  0.2156  -83.1
 1.800  0.4856  140.3   1.539   41.9  0.2333   52.6  0.2158  -83.8
 1.820  0.4865  139.7   1.526   41.4  0.2356   52.5  0.2155  -84.5
 1.840  0.4874  139.1   1.512   40.9  0.2379   52.4  0.2153  -85.3
 1.860  0.4884  138.4   1.499   40.4  0.2401   52.3  0.2151  -86.0
 1.880  0.4895  137.8   1.486   39.9  0.2424   52.2  0.2149  -86.8
 1.900  0.4906  137.2   1.473   39.4  0.2447   52.1  0.2148  -87.5
 1.920  0.4913  136.5   1.460   38.9  0.2471   52.0  0.2147  -88.2
 1.940  0.4920  135.8   1.448   38.4  0.2495   51.8  0.2146  -88.9
 1.960  0.4929  135.2   1.435   37.9  0.2519   51.7  0.2146  -89.6
 1.980  0.4937  134.5   1.423   37.4  0.2543   51.5  0.2146  -90.3
 2.000  0.4947  133.8   1.411   36.9  0.2567   51.4  0.2146  -91.0
 2.020  0.4960  133.3   1.401   36.4  0.2591   51.2  0.2145  -91.8
 2.040  0.4974  132.7   1.390   36.0  0.2614   51.0  0.2145  -92.5
 2.060  0.4988  132.2   1.380   35.5  0.2638   50.9  0.2146  -93.3
 2.080  0.5003  131.6   1.370   35.0  0.2662   50.7  0.2146  -94.0
 2.100  0.5018  131.1   1.360   34.5  0.2686   50.5  0.2147  -94.8
 2.120  0.5033  130.6   1.350   34.0  0.2710   50.3  0.2149  -95.6
 2.140  0.5049  130.1   1.341   33.5  0.2733   50.2  0.2150  -96.3
 2.160  0.5065  129.5   1.331   33.0  0.2757   50.0  0.2153  -97.1
 2.180  0.5082  129.0   1.321   32.5  0.2781   49.9  0.2155  -97.8
 2.200  0.5099  128.5   1.312   32.0  0.2805   49.7  0.2158  -98.6
 2.220  0.5105  128.1   1.304   31.6  0.2830   49.5  0.2159  -99.4
 2.240  0.5112  127.6   1.295   31.2  0.2856   49.3  0.2160 -100.2
 2.260  0.5119  127.2   1.287   30.8  0.2881   49.1  0.2162 -101.0
 2.280  0.5126  126.7   1.279   30.3  0.2906   48.9  0.2164 -101.9
 2.300  0.5134  126.3   1.271   29.9  0.2932   48.7  0.2166 -102.7
 2.320  0.5142  125.8   1.263   29.5  0.2957   48.5  0.2169 -103.5
 2.340  0.5150  125.4   1.255   29.0  0.2982   48.3  0.2172 -104.3
 2.360  0.5158  125.0   1.247   28.6  0.3008   48.2  0.2176 -105.1
 2.380  0.5167  124.5   1.239   28.2  0.3033   48.0  0.2180 -105.9
 2.400  0.5176  124.1   1.231   27.7  0.3059   47.8  0.2185 -106.7
 2.420  0.5189  123.6   1.223   27.3  0.3083   47.6  0.2187 -107.6
 2.440  0.5203  123.1   1.215   26.8  0.3106   47.4  0.2190 -108.4
 2.460  0.5218  122.5   1.208   26.4  0.3130   47.2  0.2193 -109.3
 2.480  0.5232  122.0   1.200   25.9  0.3154   47.0  0.2197 -110.1
 2.500  0.5247  121.5   1.192   25.4  0.3178   46.8  0.2201 -111.0
 2.520  0.5263  121.0   1.185   25.0  0.3202   46.6  0.2206 -111.8
 2.540  0.5279  120.5   1.178   24.5  0.3226   46.4  0.2211 -112.7
 2.560  0.5295  120.0   1.170   24.0  0.3250   46.2  0.2217 -113.5
 2.580  0.5312  119.5   1.163   23.5  0.3274   46.0  0.2223 -114.4
 2.600  0.5329  119.0   1.156   23.0  0.3298   45.8  0.2230 -115.2
 2.620  0.5335  118.5   1.150   22.6  0.3321   45.5  0.2232 -116.1
 2.640  0.5341  118.0   1.143   22.2  0.3345   45.3  0.2235 -117.1
 2.660  0.5348  117.5   1.137   21.8  0.3368   45.0  0.2238 -118.0
 2.680  0.5355  117.0   1.131   21.4  0.3392   44.8  0.2241 -118.9
 2.700  0.5363  116.5   1.125   21.0  0.3416   44.6  0.2246 -119.8
 2.720  0.5371  116.0   1.119   20.6  0.3439   44.3  0.2251 -120.8
 2.740  0.5379  115.6   1.113   20.2  0.3463   44.1  0.2256 -121.7
 2.760  0.5388  115.1   1.107   19.8  0.3487   43.9  0.2262 -122.6
 2.780  0.5397  114.6   1.101   19.3  0.3511   43.6  0.2269 -123.5
 2.800  0.5407  114.1   1.095   18.9  0.3535   43.4  0.2276 -124.4
 2.820  0.5420  113.6   1.090   18.5  0.3559   43.1  0.2282 -125.3
 2.840  0.5434  113.1   1.085   18.2  0.3584   42.9  0.2289 -126.3
 2.860  0.5449  112.6   1.080   17.8  0.3608   42.6  0.2297 -127.2
 2.880  0.5463  112.1   1.075   17.4  0.3633   42.4  0.2305 -128.1
 2.900  0.5478  111.7   1.070   17.0  0.3658   42.2  0.2314 -129.0
 2.920  0.5494  111.2   1.066   16.7  0.3682   41.9  0.2324 -129.9
 2.940  0.5509  110.7   1.061   16.3  0.3707   41.7  0.2334 -130.8
 2.960  0.5526  110.2   1.056   15.9  0.3732   41.5  0.2344 -131.7
 2.980  0.5542  109.8   1.052   15.5  0.3757   41.2  0.2355 -132.6
 3.000  0.5559  109.3   1.047   15.1  0.3782   41.0  0.2367 -133.5
!
!  f       NFmin   Gammaopt  rn/50
! GHz       dB    MAG  ANG    -
!
! noise parameter not available yet for this operation point!
!
! (c) 2015  Infineon Technologies AG, Munich
