! Infineon Technologies  Discrete & RF Semiconductors
! BFR93AW
! VCE =  5.0 V,  IC =  1.5 mA
! Common Emitter S-Parameters:                            Nov 2015
# GHz  S  MA  R  50
!  f         S11            S21            S12            S22
! GHz     MAG   ANG      MAG   ANG      MAG   ANG      MAG   ANG
 0.030  0.9414   -9.5   5.257  174.4  0.0108   85.0  0.9997   -2.9
 0.035  0.9411  -10.7   5.253  173.4  0.0127   83.9  0.9973   -3.3
 0.040  0.9413  -11.9   5.250  172.4  0.0146   83.1  0.9950   -3.7
 0.045  0.9418  -13.1   5.249  171.4  0.0164   82.5  0.9927   -4.1
 0.050  0.9427  -14.2   5.249  170.4  0.0183   82.0  0.9905   -4.6
 0.055  0.9392  -15.6   5.234  169.5  0.0200   80.7  0.9883   -5.0
 0.060  0.9363  -17.0   5.220  168.6  0.0218   79.6  0.9862   -5.5
 0.065  0.9339  -18.4   5.207  167.7  0.0236   78.6  0.9842   -5.9
 0.070  0.9321  -19.8   5.196  166.8  0.0254   77.8  0.9822   -6.3
 0.075  0.9309  -21.2   5.186  165.9  0.0272   77.1  0.9803   -6.7
 0.080  0.9302  -22.7   5.177  165.0  0.0290   76.5  0.9784   -7.2
 0.085  0.9301  -24.2   5.170  164.1  0.0308   76.0  0.9766   -7.6
 0.090  0.9306  -25.6   5.164  163.1  0.0326   75.5  0.9748   -8.1
 0.095  0.9317  -27.0   5.159  162.2  0.0344   75.1  0.9731   -8.5
 0.100  0.9334  -28.4   5.156  161.3  0.0362   74.7  0.9715   -9.0
 0.105  0.9279  -29.7   5.129  160.4  0.0377   73.6  0.9686   -9.4
 0.110  0.9230  -31.1   5.104  159.5  0.0392   72.6  0.9657   -9.8
 0.115  0.9186  -32.5   5.079  158.6  0.0407   71.7  0.9629  -10.2
 0.120  0.9148  -33.9   5.056  157.7  0.0422   70.8  0.9602  -10.6
 0.125  0.9115  -35.3   5.034  156.8  0.0437   70.0  0.9575  -11.0
 0.130  0.9087  -36.8   5.014  155.8  0.0452   69.2  0.9548  -11.4
 0.135  0.9065  -38.2   4.995  154.9  0.0467   68.5  0.9522  -11.8
 0.140  0.9049  -39.6   4.977  153.9  0.0483   67.8  0.9496  -12.2
 0.145  0.9039  -41.0   4.961  153.0  0.0498   67.2  0.9471  -12.6
 0.150  0.9034  -42.5   4.946  152.0  0.0514   66.6  0.9446  -13.0
 0.155  0.8993  -43.7   4.916  151.2  0.0526   65.8  0.9413  -13.3
 0.160  0.8956  -44.8   4.886  150.5  0.0539   65.1  0.9380  -13.6
 0.165  0.8922  -46.0   4.857  149.7  0.0551   64.4  0.9347  -14.0
 0.170  0.8892  -47.2   4.830  148.9  0.0564   63.8  0.9314  -14.3
 0.175  0.8867  -48.4   4.803  148.1  0.0576   63.2  0.9282  -14.6
 0.180  0.8845  -49.6   4.777  147.3  0.0589   62.6  0.9250  -15.0
 0.185  0.8827  -50.8   4.752  146.5  0.0602   62.0  0.9219  -15.3
 0.190  0.8813  -52.1   4.728  145.7  0.0614   61.4  0.9188  -15.6
 0.195  0.8803  -53.3   4.705  144.8  0.0627   60.9  0.9157  -16.0
 0.200  0.8797  -54.5   4.683  144.0  0.0640   60.4  0.9126  -16.3
 0.220  0.8620  -59.1   4.560  141.0  0.0682   57.8  0.8984  -17.4
 0.240  0.8499  -63.8   4.451  137.9  0.0726   55.5  0.8846  -18.6
 0.260  0.8380  -68.3   4.340  135.1  0.0764   53.4  0.8711  -19.6
 0.280  0.8252  -72.5   4.224  132.5  0.0796   51.4  0.8579  -20.6
 0.300  0.8170  -76.9   4.117  129.8  0.0830   49.5  0.8449  -21.5
 0.320  0.8007  -80.4   3.997  127.8  0.0851   47.9  0.8331  -22.1
 0.340  0.7874  -84.0   3.883  125.6  0.0873   46.3  0.8213  -22.8
 0.360  0.7772  -87.6   3.774  123.3  0.0895   44.9  0.8097  -23.4
 0.380  0.7704  -91.4   3.672  120.9  0.0918   43.4  0.7982  -24.2
 0.400  0.7669  -95.2   3.577  118.3  0.0941   42.1  0.7869  -24.9
 0.420  0.7548  -98.1   3.483  116.6  0.0953   40.9  0.7776  -25.4
 0.440  0.7448 -101.1   3.391  114.8  0.0966   39.8  0.7683  -25.9
 0.450  0.7405 -102.6   3.347  113.9  0.0972   39.2  0.7637  -26.2
 0.460  0.7368 -104.2   3.304  113.0  0.0979   38.6  0.7591  -26.5
 0.480  0.7310 -107.3   3.220  111.0  0.0992   37.6  0.7500  -27.0
 0.500  0.7274 -110.5   3.140  108.9  0.1006   36.5  0.7409  -27.5
 0.520  0.7200 -112.9   3.060  107.5  0.1012   35.7  0.7343  -27.9
 0.540  0.7138 -115.4   2.982  106.0  0.1017   35.0  0.7278  -28.3
 0.560  0.7090 -117.8   2.905  104.5  0.1023   34.3  0.7213  -28.7
 0.580  0.7056 -120.4   2.831  102.8  0.1030   33.5  0.7148  -29.1
 0.600  0.7035 -122.9   2.760  101.1  0.1036   32.8  0.7084  -29.5
 0.620  0.6974 -125.0   2.700   99.9  0.1038   32.3  0.7034  -29.9
 0.640  0.6923 -127.1   2.641   98.7  0.1039   31.8  0.6985  -30.2
 0.660  0.6881 -129.2   2.584   97.4  0.1041   31.4  0.6936  -30.6
 0.680  0.6848 -131.4   2.528   96.1  0.1043   30.9  0.6887  -31.0
 0.700  0.6826 -133.6   2.473   94.7  0.1045   30.4  0.6839  -31.4
 0.720  0.6790 -135.5   2.421   93.6  0.1044   30.1  0.6797  -31.8
 0.740  0.6761 -137.4   2.369   92.5  0.1043   29.8  0.6755  -32.1
 0.760  0.6740 -139.3   2.319   91.3  0.1043   29.6  0.6713  -32.5
 0.780  0.6726 -141.2   2.269   90.0  0.1042   29.3  0.6671  -32.9
 0.800  0.6720 -143.1   2.221   88.7  0.1041   29.0  0.6630  -33.3
 0.820  0.6692 -144.6   2.179   87.7  0.1038   28.9  0.6606  -33.6
 0.840  0.6668 -146.1   2.137   86.7  0.1035   28.9  0.6581  -34.0
 0.860  0.6649 -147.6   2.096   85.7  0.1033   28.8  0.6557  -34.3
 0.880  0.6635 -149.2   2.056   84.6  0.1030   28.8  0.6534  -34.7
 0.900  0.6626 -150.7   2.017   83.5  0.1027   28.7  0.6510  -35.0
 0.920  0.6609 -152.1   1.982   82.6  0.1023   28.7  0.6488  -35.4
 0.940  0.6595 -153.5   1.947   81.7  0.1018   28.8  0.6466  -35.8
 0.960  0.6586 -154.9   1.913   80.7  0.1014   28.8  0.6444  -36.1
 0.980  0.6580 -156.4   1.880   79.7  0.1009   28.9  0.6422  -36.5
 1.000  0.6579 -157.8   1.847   78.7  0.1005   28.9  0.6401  -36.9
 1.020  0.6567 -159.1   1.818   77.9  0.1002   29.1  0.6381  -37.4
 1.040  0.6559 -160.4   1.789   77.0  0.0999   29.3  0.6362  -37.9
 1.060  0.6554 -161.7   1.761   76.1  0.0995   29.5  0.6343  -38.4
 1.080  0.6552 -163.0   1.733   75.2  0.0992   29.7  0.6325  -38.9
 1.100  0.6554 -164.3   1.705   74.3  0.0989   29.9  0.6307  -39.4
 1.120  0.6552 -165.5   1.679   73.5  0.0984   30.3  0.6297  -39.8
 1.140  0.6554 -166.7   1.653   72.7  0.0979   30.6  0.6287  -40.2
 1.160  0.6558 -167.8   1.628   71.9  0.0974   31.0  0.6278  -40.6
 1.180  0.6564 -169.0   1.603   71.1  0.0969   31.4  0.6269  -41.0
 1.200  0.6574 -170.2   1.578   70.2  0.0964   31.8  0.6260  -41.4
 1.220  0.6566 -171.2   1.558   69.5  0.0961   32.4  0.6250  -41.8
 1.240  0.6560 -172.2   1.538   68.9  0.0958   33.0  0.6241  -42.2
 1.260  0.6555 -173.2   1.518   68.2  0.0955   33.6  0.6231  -42.7
 1.280  0.6553 -174.2   1.498   67.4  0.0953   34.2  0.6223  -43.1
 1.300  0.6553 -175.2   1.479   66.7  0.0950   34.8  0.6214  -43.5
 1.320  0.6552 -176.2   1.461   66.0  0.0948   35.5  0.6204  -44.0
 1.340  0.6554 -177.3   1.442   65.3  0.0946   36.2  0.6194  -44.6
 1.360  0.6558 -178.3   1.424   64.5  0.0944   36.9  0.6184  -45.1
 1.380  0.6564 -179.4   1.407   63.8  0.0943   37.6  0.6175  -45.7
 1.400  0.6572  179.6   1.389   63.0  0.0941   38.3  0.6167  -46.2
 1.420  0.6576  178.8   1.371   62.4  0.0940   39.1  0.6162  -46.6
 1.440  0.6581  177.9   1.354   61.7  0.0939   39.9  0.6158  -47.1
 1.460  0.6588  177.1   1.337   61.1  0.0938   40.8  0.6154  -47.5
 1.480  0.6596  176.2   1.320   60.4  0.0937   41.6  0.6150  -48.0
 1.500  0.6605  175.4   1.303   59.7  0.0937   42.4  0.6147  -48.4
 1.520  0.6599  174.5   1.288   59.1  0.0939   43.2  0.6139  -48.9
 1.540  0.6595  173.6   1.274   58.4  0.0942   44.1  0.6131  -49.4
 1.560  0.6593  172.6   1.260   57.8  0.0944   44.9  0.6123  -50.0
 1.580  0.6593  171.7   1.246   57.1  0.0947   45.7  0.6116  -50.5
 1.600  0.6594  170.8   1.232   56.4  0.0950   46.5  0.6110  -51.0
 1.620  0.6599  170.0   1.220   55.8  0.0955   47.4  0.6104  -51.6
 1.640  0.6605  169.2   1.208   55.2  0.0960   48.4  0.6098  -52.2
 1.660  0.6612  168.3   1.196   54.6  0.0965   49.3  0.6093  -52.9
 1.680  0.6621  167.5   1.184   53.9  0.0971   50.2  0.6089  -53.5
 1.700  0.6631  166.7   1.172   53.3  0.0977   51.1  0.6086  -54.1
 1.720  0.6636  166.0   1.160   52.8  0.0985   52.1  0.6090  -54.6
 1.740  0.6642  165.3   1.149   52.3  0.0994   53.1  0.6095  -55.0
 1.760  0.6649  164.6   1.137   51.8  0.1003   54.1  0.6100  -55.5
 1.780  0.6657  163.9   1.125   51.2  0.1012   55.1  0.6106  -55.9
 1.800  0.6666  163.2   1.114   50.7  0.1021   56.0  0.6112  -56.4
 1.820  0.6666  162.4   1.104   50.2  0.1033   56.8  0.6106  -56.9
 1.840  0.6667  161.7   1.094   49.7  0.1046   57.7  0.6100  -57.5
 1.860  0.6669  160.9   1.084   49.2  0.1059   58.5  0.6094  -58.0
 1.880  0.6672  160.2   1.075   48.7  0.1072   59.2  0.6089  -58.6
 1.900  0.6677  159.4   1.065   48.2  0.1085   60.0  0.6085  -59.1
 1.920  0.6680  158.7   1.055   47.7  0.1099   60.7  0.6085  -59.7
 1.940  0.6685  157.9   1.046   47.1  0.1114   61.4  0.6086  -60.3
 1.960  0.6690  157.2   1.037   46.6  0.1129   62.1  0.6087  -60.8
 1.980  0.6697  156.4   1.027   46.1  0.1144   62.8  0.6089  -61.4
 2.000  0.6705  155.7   1.018   45.5  0.1159   63.4  0.6091  -62.0
 2.020  0.6708  155.1   1.010   45.1  0.1178   64.1  0.6088  -62.5
 2.040  0.6711  154.4   1.001   44.7  0.1196   64.7  0.6086  -63.0
 2.060  0.6716  153.8   0.993   44.3  0.1215   65.4  0.6084  -63.5
 2.080  0.6721  153.1   0.985   43.9  0.1234   66.0  0.6083  -64.0
 2.100  0.6727  152.5   0.976   43.4  0.1253   66.6  0.6082  -64.5
 2.120  0.6735  151.8   0.968   43.0  0.1273   67.2  0.6082  -65.1
 2.140  0.6742  151.2   0.960   42.6  0.1292   67.7  0.6082  -65.6
 2.160  0.6751  150.6   0.952   42.1  0.1312   68.3  0.6082  -66.1
 2.180  0.6761  149.9   0.944   41.7  0.1331   68.8  0.6083  -66.6
 2.200  0.6771  149.3   0.936   41.2  0.1351   69.3  0.6085  -67.1
 2.220  0.6776  148.7   0.928   40.8  0.1373   69.7  0.6086  -67.7
 2.240  0.6782  148.0   0.921   40.5  0.1395   70.1  0.6088  -68.3
 2.260  0.6789  147.4   0.913   40.1  0.1418   70.5  0.6090  -68.8
 2.280  0.6797  146.7   0.906   39.7  0.1440   70.8  0.6093  -69.4
 2.300  0.6806  146.1   0.898   39.3  0.1462   71.2  0.6097  -70.0
 2.320  0.6815  145.4   0.891   38.9  0.1485   71.5  0.6101  -70.6
 2.340  0.6826  144.8   0.884   38.5  0.1507   71.9  0.6106  -71.2
 2.360  0.6837  144.2   0.876   38.1  0.1530   72.2  0.6112  -71.7
 2.380  0.6849  143.5   0.869   37.7  0.1552   72.5  0.6118  -72.3
 2.400  0.6862  142.9   0.862   37.3  0.1575   72.8  0.6125  -72.9
 2.420  0.6864  142.3   0.856   36.9  0.1604   72.9  0.6116  -73.6
 2.440  0.6867  141.6   0.851   36.6  0.1632   73.1  0.6107  -74.2
 2.460  0.6871  141.0   0.845   36.2  0.1661   73.2  0.6100  -74.9
 2.480  0.6875  140.4   0.839   35.8  0.1689   73.3  0.6093  -75.6
 2.500  0.6881  139.7   0.834   35.5  0.1718   73.4  0.6087  -76.2
 2.520  0.6887  139.1   0.828   35.1  0.1747   73.5  0.6082  -76.9
 2.540  0.6894  138.5   0.822   34.7  0.1775   73.6  0.6078  -77.6
 2.560  0.6902  137.9   0.817   34.3  0.1804   73.7  0.6074  -78.3
 2.580  0.6910  137.2   0.811   33.9  0.1832   73.8  0.6072  -78.9
 2.600  0.6920  136.6   0.806   33.5  0.1861   73.9  0.6070  -79.6
 2.620  0.6925  136.1   0.801   33.2  0.1892   73.9  0.6069  -80.2
 2.640  0.6930  135.5   0.797   33.0  0.1922   73.9  0.6068  -80.8
 2.660  0.6936  135.0   0.792   32.7  0.1953   74.0  0.6068  -81.3
 2.680  0.6942  134.4   0.787   32.5  0.1983   74.0  0.6069  -81.9
 2.700  0.6949  133.9   0.783   32.2  0.2014   74.0  0.6070  -82.5
 2.720  0.6957  133.3   0.778   31.9  0.2045   74.0  0.6072  -83.1
 2.740  0.6965  132.8   0.774   31.6  0.2075   74.0  0.6075  -83.7
 2.760  0.6974  132.3   0.769   31.4  0.2106   74.1  0.6078  -84.2
 2.780  0.6984  131.7   0.765   31.1  0.2136   74.1  0.6082  -84.8
 2.800  0.6994  131.2   0.760   30.8  0.2167   74.1  0.6086  -85.4
 2.820  0.6996  130.6   0.755   30.6  0.2196   74.0  0.6084  -86.0
 2.840  0.7000  130.1   0.751   30.4  0.2225   73.9  0.6084  -86.5
 2.860  0.7003  129.5   0.746   30.1  0.2253   73.8  0.6083  -87.1
 2.880  0.7008  129.0   0.742   29.9  0.2282   73.8  0.6083  -87.6
 2.900  0.7013  128.4   0.737   29.7  0.2311   73.7  0.6084  -88.2
 2.920  0.7019  127.9   0.733   29.5  0.2340   73.6  0.6085  -88.7
 2.940  0.7025  127.3   0.728   29.2  0.2369   73.5  0.6087  -89.3
 2.960  0.7032  126.8   0.724   29.0  0.2397   73.4  0.6090  -89.8
 2.980  0.7040  126.2   0.719   28.7  0.2426   73.4  0.6092  -90.4
 3.000  0.7048  125.7   0.715   28.5  0.2455   73.3  0.6096  -90.9
 3.100  0.7048  123.2   0.700   27.7  0.2619   71.9  0.6066  -94.3
 3.200  0.7061  120.6   0.685   26.8  0.2785   70.7  0.6056  -97.6
 3.300  0.7088  118.1   0.669   25.9  0.2951   69.6  0.6068 -101.0
 3.400  0.7129  115.6   0.655   25.0  0.3119   68.7  0.6101 -104.4
 3.500  0.7184  113.1   0.640   24.0  0.3287   67.8  0.6154 -107.7
 3.600  0.7163  110.9   0.631   23.6  0.3440   66.0  0.6115 -111.1
 3.700  0.7153  108.7   0.621   23.1  0.3596   64.4  0.6097 -114.6
 3.800  0.7153  106.6   0.612   22.7  0.3754   62.9  0.6103 -118.1
 3.900  0.7163  104.4   0.603   22.2  0.3915   61.5  0.6131 -121.6
 4.000  0.7184  102.2   0.594   21.7  0.4078   60.2  0.6181 -125.0
 4.100  0.7165  100.4   0.590   21.4  0.4208   58.2  0.6148 -128.3
 4.200  0.7153   98.5   0.586   21.2  0.4343   56.3  0.6134 -131.5
 4.300  0.7148   96.7   0.583   20.9  0.4483   54.6  0.6141 -134.8
 4.400  0.7151   94.8   0.579   20.6  0.4626   52.9  0.6168 -138.1
 4.500  0.7161   93.0   0.575   20.3  0.4773   51.4  0.6215 -141.3
 4.600  0.7127   91.5   0.576   19.9  0.4878   49.5  0.6170 -144.4
 4.700  0.7099   90.0   0.577   19.4  0.4988   47.8  0.6143 -147.5
 4.800  0.7075   88.4   0.578   19.0  0.5102   46.1  0.6134 -150.6
 4.900  0.7057   86.9   0.580   18.5  0.5220   44.4  0.6143 -153.7
 5.000  0.7044   85.3   0.581   18.1  0.5343   42.9  0.6170 -156.8
 5.100  0.7028   84.0   0.583   17.6  0.5423   41.2  0.6106 -159.7
 5.200  0.7015   82.8   0.584   17.1  0.5507   39.6  0.6058 -162.6
 5.300  0.7006   81.5   0.586   16.6  0.5596   38.0  0.6026 -165.6
 5.400  0.7000   80.2   0.588   16.1  0.5689   36.5  0.6010 -168.6
 5.500  0.6998   78.9   0.590   15.6  0.5786   35.0  0.6011 -171.6
 5.600  0.6972   77.8   0.593   14.9  0.5853   33.5  0.5965 -174.2
 5.700  0.6948   76.7   0.597   14.2  0.5925   32.0  0.5932 -176.8
 5.800  0.6927   75.6   0.600   13.5  0.6000   30.5  0.5911 -179.4
 5.900  0.6908   74.5   0.603   12.8  0.6079   29.1  0.5903  177.9
 6.000  0.6892   73.4   0.607   12.1  0.6162   27.7  0.5907  175.3
!
!  f       NFmin   Gammaopt  rn/50
! GHz       dB    MAG  ANG    -
!
! noise parameter not available yet for this operation point!
!
! (c) 2015  Infineon Technologies AG, Munich
