! Infineon Technologies  Discrete & RF Semiconductors
! BFR93A
! VCE =  1.5 V,  IC =  2.5 mA
! Common Emitter S-Parameters:                            Nov 2015
# GHz  S  MA  R  50
!  f         S11            S21            S12            S22
! GHz     MAG   ANG      MAG   ANG      MAG   ANG      MAG   ANG
 0.010  0.8998   -4.2   8.264  176.9  0.0060   88.0  0.9920   -2.1
 0.015  0.8967   -6.2   8.261  175.4  0.0090   85.5  0.9901   -3.1
 0.020  0.8948   -8.3   8.263  173.9  0.0120   84.3  0.9886   -4.1
 0.025  0.8900  -10.3   8.220  172.4  0.0149   82.5  0.9847   -5.1
 0.030  0.8862  -12.3   8.182  171.0  0.0177   81.2  0.9811   -6.1
 0.035  0.8836  -14.4   8.149  169.5  0.0206   80.3  0.9779   -7.2
 0.040  0.8821  -16.4   8.122  168.0  0.0235   79.7  0.9749   -8.2
 0.045  0.8817  -18.5   8.100  166.5  0.0264   79.1  0.9723   -9.3
 0.050  0.8824  -20.5   8.084  165.0  0.0293   78.7  0.9700  -10.3
 0.055  0.8737  -22.3   8.016  163.8  0.0318   76.9  0.9634  -11.2
 0.060  0.8660  -24.2   7.951  162.6  0.0343   75.4  0.9569  -12.0
 0.065  0.8592  -26.1   7.890  161.3  0.0369   74.1  0.9507  -12.9
 0.070  0.8533  -28.0   7.833  160.0  0.0394   73.0  0.9448  -13.8
 0.075  0.8485  -30.0   7.779  158.8  0.0420   72.0  0.9390  -14.7
 0.080  0.8446  -32.0   7.730  157.5  0.0446   71.1  0.9335  -15.6
 0.085  0.8418  -34.0   7.685  156.1  0.0472   70.3  0.9283  -16.6
 0.090  0.8399  -36.0   7.644  154.8  0.0498   69.6  0.9233  -17.5
 0.095  0.8392  -38.0   7.607  153.5  0.0524   69.0  0.9185  -18.4
 0.100  0.8394  -40.0   7.574  152.1  0.0550   68.4  0.9140  -19.4
 0.105  0.8308  -41.6   7.494  151.0  0.0569   67.2  0.9059  -20.1
 0.110  0.8228  -43.3   7.416  149.9  0.0588   66.1  0.8980  -20.8
 0.115  0.8155  -44.9   7.342  148.8  0.0608   65.1  0.8901  -21.5
 0.120  0.8089  -46.6   7.270  147.6  0.0628   64.2  0.8825  -22.2
 0.125  0.8031  -48.4   7.201  146.5  0.0648   63.3  0.8749  -22.9
 0.130  0.7980  -50.1   7.136  145.3  0.0668   62.4  0.8675  -23.7
 0.135  0.7936  -51.9   7.073  144.1  0.0688   61.6  0.8603  -24.4
 0.140  0.7900  -53.7   7.014  142.8  0.0708   60.9  0.8532  -25.2
 0.145  0.7872  -55.5   6.958  141.6  0.0728   60.2  0.8463  -26.0
 0.150  0.7852  -57.3   6.905  140.3  0.0749   59.5  0.8395  -26.8
 0.155  0.7770  -58.8   6.831  139.4  0.0763   58.8  0.8320  -27.3
 0.160  0.7693  -60.2   6.759  138.5  0.0778   58.0  0.8245  -27.8
 0.165  0.7622  -61.7   6.689  137.6  0.0793   57.4  0.8171  -28.3
 0.170  0.7556  -63.3   6.621  136.6  0.0807   56.7  0.8097  -28.9
 0.175  0.7495  -64.9   6.554  135.6  0.0822   56.1  0.8025  -29.4
 0.180  0.7440  -66.4   6.489  134.7  0.0837   55.5  0.7953  -30.0
 0.185  0.7391  -68.1   6.427  133.6  0.0852   54.9  0.7882  -30.5
 0.190  0.7348  -69.7   6.366  132.6  0.0867   54.3  0.7811  -31.1
 0.195  0.7311  -71.3   6.307  131.6  0.0883   53.7  0.7742  -31.7
 0.200  0.7280  -73.0   6.251  130.5  0.0898   53.2  0.7673  -32.3
 0.220  0.7052  -78.1   5.985  127.4  0.0939   50.9  0.7402  -33.9
 0.240  0.6882  -83.4   5.738  123.9  0.0982   48.8  0.7138  -35.7
 0.260  0.6727  -88.4   5.507  120.8  0.1019   47.0  0.6894  -37.2
 0.280  0.6572  -93.1   5.284  118.2  0.1051   45.6  0.6669  -38.3
 0.300  0.6461  -97.9   5.074  115.3  0.1083   44.2  0.6447  -39.6
 0.320  0.6287 -101.5   4.877  113.4  0.1104   43.1  0.6273  -40.4
 0.340  0.6137 -105.2   4.686  111.3  0.1125   42.1  0.6100  -41.2
 0.360  0.6016 -109.1   4.502  109.1  0.1146   41.1  0.5928  -42.0
 0.380  0.5923 -113.1   4.325  106.6  0.1168   40.2  0.5758  -42.9
 0.400  0.5861 -117.3   4.157  104.0  0.1190   39.3  0.5589  -43.9
 0.420  0.5759 -120.2   4.019  102.5  0.1203   38.7  0.5471  -44.4
 0.440  0.5673 -123.1   3.884  100.9  0.1216   38.2  0.5354  -44.9
 0.450  0.5635 -124.7   3.818  100.0  0.1223   37.9  0.5296  -45.1
 0.460  0.5602 -126.2   3.753   99.1  0.1230   37.6  0.5237  -45.4
 0.480  0.5547 -129.3   3.625   97.3  0.1243   37.1  0.5121  -45.9
 0.500  0.5509 -132.5   3.501   95.3  0.1257   36.6  0.5005  -46.5
 0.520  0.5450 -134.9   3.400   94.0  0.1268   36.4  0.4923  -46.9
 0.540  0.5400 -137.3   3.301   92.7  0.1278   36.2  0.4841  -47.3
 0.560  0.5361 -139.8   3.204   91.3  0.1289   36.0  0.4759  -47.7
 0.580  0.5331 -142.3   3.109   89.8  0.1299   35.8  0.4678  -48.2
 0.600  0.5312 -144.8   3.016   88.2  0.1310   35.6  0.4597  -48.6
 0.620  0.5274 -146.7   2.939   87.1  0.1319   35.6  0.4539  -49.0
 0.640  0.5241 -148.7   2.863   85.8  0.1328   35.6  0.4481  -49.3
 0.660  0.5215 -150.6   2.789   84.6  0.1338   35.5  0.4423  -49.7
 0.680  0.5195 -152.6   2.715   83.2  0.1347   35.5  0.4365  -50.1
 0.700  0.5181 -154.6   2.644   81.8  0.1356   35.5  0.4308  -50.5
 0.720  0.5160 -156.3   2.586   80.8  0.1364   35.6  0.4264  -50.9
 0.740  0.5144 -158.1   2.528   79.8  0.1372   35.7  0.4221  -51.3
 0.760  0.5132 -159.9   2.472   78.7  0.1379   35.8  0.4177  -51.7
 0.780  0.5126 -161.6   2.416   77.6  0.1387   35.9  0.4134  -52.1
 0.800  0.5124 -163.4   2.361   76.4  0.1395   36.0  0.4091  -52.5
 0.820  0.5114 -164.9   2.313   75.5  0.1403   36.1  0.4057  -52.9
 0.840  0.5107 -166.5   2.266   74.6  0.1411   36.3  0.4024  -53.4
 0.860  0.5105 -168.0   2.219   73.6  0.1420   36.4  0.3991  -53.8
 0.880  0.5105 -169.6   2.173   72.6  0.1428   36.6  0.3958  -54.2
 0.900  0.5110 -171.1   2.127   71.6  0.1436   36.7  0.3925  -54.7
 0.920  0.5099 -172.4   2.088   70.7  0.1445   36.9  0.3901  -55.1
 0.940  0.5092 -173.8   2.050   69.8  0.1454   37.1  0.3878  -55.5
 0.960  0.5087 -175.1   2.012   68.9  0.1463   37.3  0.3854  -55.9
 0.980  0.5084 -176.5   1.975   67.9  0.1472   37.5  0.3831  -56.4
 1.000  0.5085 -177.8   1.938   66.9  0.1481   37.7  0.3808  -56.8
 1.020  0.5089 -179.0   1.908   66.1  0.1491   38.0  0.3788  -57.3
 1.040  0.5096  179.8   1.878   65.3  0.1502   38.2  0.3769  -57.9
 1.060  0.5105  178.6   1.849   64.4  0.1512   38.5  0.3749  -58.5
 1.080  0.5116  177.4   1.820   63.5  0.1523   38.7  0.3730  -59.0
 1.100  0.5129  176.2   1.791   62.6  0.1533   39.0  0.3712  -59.6
 1.120  0.5138  175.1   1.765   61.8  0.1545   39.3  0.3695  -60.1
 1.140  0.5150  173.9   1.740   61.1  0.1557   39.5  0.3678  -60.7
 1.160  0.5163  172.8   1.714   60.3  0.1569   39.8  0.3662  -61.3
 1.180  0.5179  171.7   1.690   59.4  0.1581   40.0  0.3646  -61.8
 1.200  0.5196  170.6   1.665   58.6  0.1593   40.3  0.3630  -62.4
 1.220  0.5197  169.5   1.642   57.8  0.1605   40.6  0.3618  -63.0
 1.240  0.5199  168.5   1.620   57.1  0.1617   40.8  0.3606  -63.5
 1.260  0.5203  167.4   1.597   56.3  0.1629   41.1  0.3594  -64.1
 1.280  0.5209  166.4   1.576   55.4  0.1641   41.3  0.3583  -64.7
 1.300  0.5217  165.3   1.554   54.6  0.1653   41.6  0.3572  -65.3
 1.320  0.5220  164.4   1.534   53.9  0.1667   41.9  0.3565  -65.9
 1.340  0.5225  163.5   1.514   53.3  0.1680   42.1  0.3558  -66.5
 1.360  0.5231  162.6   1.494   52.6  0.1694   42.4  0.3551  -67.1
 1.380  0.5238  161.7   1.474   51.8  0.1708   42.6  0.3545  -67.7
 1.400  0.5247  160.8   1.455   51.1  0.1722   42.9  0.3539  -68.3
 1.420  0.5246  159.9   1.437   50.4  0.1737   43.2  0.3528  -69.0
 1.440  0.5246  159.0   1.420   49.8  0.1752   43.4  0.3518  -69.6
 1.460  0.5247  158.2   1.403   49.1  0.1767   43.7  0.3508  -70.3
 1.480  0.5250  157.3   1.386   48.3  0.1783   43.9  0.3499  -71.0
 1.500  0.5254  156.4   1.369   47.6  0.1798   44.2  0.3490  -71.7
 1.520  0.5271  155.7   1.356   47.0  0.1814   44.4  0.3483  -72.4
 1.540  0.5288  155.0   1.342   46.4  0.1831   44.6  0.3477  -73.2
 1.560  0.5307  154.3   1.329   45.8  0.1847   44.8  0.3472  -73.9
 1.580  0.5326  153.6   1.316   45.2  0.1864   45.0  0.3467  -74.7
 1.600  0.5346  152.9   1.303   44.6  0.1880   45.2  0.3463  -75.4
 1.620  0.5363  152.0   1.291   44.0  0.1898   45.4  0.3457  -76.1
 1.640  0.5381  151.2   1.279   43.4  0.1916   45.6  0.3452  -76.8
 1.660  0.5401  150.4   1.267   42.8  0.1935   45.8  0.3448  -77.5
 1.680  0.5421  149.5   1.255   42.1  0.1953   45.9  0.3444  -78.2
 1.700  0.5443  148.7   1.244   41.5  0.1971   46.1  0.3440  -78.9
 1.720  0.5445  148.0   1.233   40.9  0.1991   46.2  0.3442  -79.6
 1.740  0.5449  147.3   1.222   40.3  0.2011   46.4  0.3444  -80.3
 1.760  0.5453  146.7   1.211   39.7  0.2031   46.5  0.3446  -81.1
 1.780  0.5457  146.0   1.200   39.1  0.2051   46.7  0.3449  -81.8
 1.800  0.5463  145.3   1.189   38.5  0.2071   46.8  0.3453  -82.5
 1.820  0.5463  144.6   1.179   38.0  0.2092   47.0  0.3450  -83.3
 1.840  0.5464  143.9   1.169   37.5  0.2113   47.1  0.3448  -84.0
 1.860  0.5465  143.1   1.159   37.0  0.2134   47.3  0.3447  -84.8
 1.880  0.5468  142.4   1.149   36.4  0.2155   47.4  0.3446  -85.5
 1.900  0.5471  141.7   1.139   35.9  0.2176   47.6  0.3446  -86.3
 1.920  0.5491  141.0   1.130   35.4  0.2198   47.7  0.3444  -87.0
 1.940  0.5513  140.3   1.121   34.9  0.2221   47.8  0.3443  -87.8
 1.960  0.5535  139.6   1.112   34.4  0.2243   47.8  0.3442  -88.5
 1.980  0.5557  139.0   1.103   33.8  0.2266   47.9  0.3442  -89.3
 2.000  0.5581  138.3   1.094   33.3  0.2288   48.0  0.3443  -90.0
 2.020  0.5591  137.6   1.086   32.8  0.2312   48.0  0.3442  -90.8
 2.040  0.5602  137.0   1.077   32.4  0.2336   48.1  0.3442  -91.5
 2.060  0.5613  136.3   1.069   31.9  0.2360   48.1  0.3443  -92.3
 2.080  0.5625  135.7   1.061   31.4  0.2384   48.1  0.3444  -93.1
 2.100  0.5638  135.1   1.053   30.9  0.2408   48.2  0.3446  -93.9
 2.120  0.5652  134.4   1.045   30.4  0.2433   48.2  0.3449  -94.6
 2.140  0.5666  133.8   1.037   29.9  0.2457   48.2  0.3452  -95.4
 2.160  0.5681  133.2   1.029   29.4  0.2481   48.2  0.3456  -96.2
 2.180  0.5697  132.5   1.022   28.9  0.2505   48.3  0.3460  -96.9
 2.200  0.5713  131.9   1.014   28.4  0.2529   48.3  0.3465  -97.7
 2.220  0.5718  131.3   1.008   28.0  0.2556   48.2  0.3465  -98.5
 2.240  0.5723  130.7   1.002   27.6  0.2584   48.2  0.3466  -99.4
 2.260  0.5730  130.1   0.996   27.2  0.2611   48.1  0.3468 -100.2
 2.280  0.5736  129.6   0.990   26.8  0.2639   48.0  0.3471 -101.0
 2.300  0.5744  129.0   0.984   26.4  0.2666   48.0  0.3474 -101.9
 2.320  0.5752  128.4   0.978   25.9  0.2693   47.9  0.3478 -102.7
 2.340  0.5760  127.8   0.972   25.5  0.2721   47.9  0.3483 -103.5
 2.360  0.5769  127.2   0.966   25.1  0.2748   47.8  0.3488 -104.4
 2.380  0.5779  126.7   0.961   24.6  0.2776   47.8  0.3494 -105.2
 2.400  0.5789  126.1   0.955   24.2  0.2803   47.7  0.3501 -106.0
 2.420  0.5799  125.5   0.949   23.8  0.2830   47.6  0.3502 -106.9
 2.440  0.5810  124.9   0.943   23.4  0.2858   47.5  0.3505 -107.7
 2.460  0.5822  124.3   0.937   23.0  0.2885   47.4  0.3508 -108.6
 2.480  0.5834  123.7   0.932   22.6  0.2913   47.3  0.3511 -109.4
 2.500  0.5847  123.2   0.926   22.2  0.2940   47.2  0.3516 -110.3
 2.520  0.5860  122.6   0.920   21.8  0.2968   47.1  0.3521 -111.1
 2.540  0.5874  122.0   0.915   21.4  0.2995   47.0  0.3527 -112.0
 2.560  0.5888  121.4   0.909   21.0  0.3023   46.9  0.3534 -112.8
 2.580  0.5903  120.9   0.903   20.5  0.3050   46.8  0.3542 -113.7
 2.600  0.5919  120.3   0.898   20.1  0.3078   46.7  0.3550 -114.5
 2.620  0.5923  119.8   0.893   19.7  0.3107   46.5  0.3551 -115.4
 2.640  0.5927  119.3   0.888   19.4  0.3135   46.3  0.3552 -116.3
 2.660  0.5932  118.7   0.884   19.0  0.3164   46.2  0.3555 -117.2
 2.680  0.5938  118.2   0.879   18.6  0.3193   46.0  0.3558 -118.1
 2.700  0.5944  117.7   0.874   18.2  0.3222   45.8  0.3562 -119.0
 2.720  0.5950  117.2   0.870   17.8  0.3250   45.6  0.3567 -119.9
 2.740  0.5957  116.6   0.865   17.4  0.3279   45.5  0.3573 -120.8
 2.760  0.5965  116.1   0.861   17.0  0.3308   45.3  0.3580 -121.7
 2.780  0.5973  115.6   0.856   16.6  0.3337   45.2  0.3587 -122.6
 2.800  0.5981  115.1   0.852   16.2  0.3366   45.0  0.3596 -123.5
 2.820  0.5990  114.5   0.848   15.9  0.3396   44.8  0.3601 -124.4
 2.840  0.6000  114.0   0.844   15.6  0.3426   44.6  0.3608 -125.4
 2.860  0.6010  113.4   0.840   15.3  0.3456   44.3  0.3615 -126.3
 2.880  0.6021  112.8   0.836   15.0  0.3486   44.1  0.3623 -127.2
 2.900  0.6032  112.3   0.832   14.7  0.3516   43.9  0.3632 -128.1
 2.920  0.6044  111.7   0.828   14.4  0.3547   43.7  0.3642 -129.0
 2.940  0.6057  111.2   0.824   14.1  0.3577   43.5  0.3653 -129.9
 2.960  0.6070  110.6   0.821   13.8  0.3607   43.3  0.3665 -130.8
 2.980  0.6084  110.0   0.817   13.5  0.3638   43.1  0.3677 -131.7
 3.000  0.6098  109.5   0.813   13.2  0.3668   42.9  0.3691 -132.6
!
!  f       NFmin   Gammaopt  rn/50
! GHz       dB    MAG  ANG    -
!
! noise parameter not available yet for this operation point!
!
! (c) 2015  Infineon Technologies AG, Munich
