! Infineon Technologies  Discrete & RF Semiconductors
! BFR93A
! VCE = 0.50 V,  IC =  15 mA
! Common Emitter S-Parameters:                            Nov 2015
# GHz  S  MA  R  50
!  f         S11            S21            S12            S22
! GHz     MAG   ANG      MAG   ANG      MAG   ANG      MAG   ANG
 0.010  0.5836  -22.3  31.462  168.0  0.0086   81.8  0.9077  -12.6
 0.015  0.5666  -32.3  30.421  162.9  0.0125   76.1  0.8831  -18.5
 0.020  0.5674  -42.5  29.642  157.4  0.0164   73.1  0.8683  -24.6
 0.025  0.5443  -49.1  28.424  154.3  0.0189   69.0  0.8276  -28.5
 0.030  0.5290  -56.2  27.294  151.0  0.0216   65.8  0.7910  -32.7
 0.035  0.5223  -63.6  26.264  147.4  0.0242   63.4  0.7591  -37.3
 0.040  0.5245  -71.1  25.346  143.5  0.0269   61.4  0.7325  -42.3
 0.045  0.5354  -78.4  24.552  139.4  0.0297   59.8  0.7119  -47.6
 0.050  0.5546  -85.3  23.894  135.0  0.0324   58.5  0.6978  -53.2
 0.055  0.5433  -88.8  23.047  133.6  0.0336   57.3  0.6707  -55.2
 0.060  0.5341  -92.4  22.213  132.2  0.0348   56.2  0.6444  -57.3
 0.065  0.5270  -96.1  21.395  130.6  0.0361   55.1  0.6191  -59.6
 0.070  0.5223  -99.9  20.595  128.9  0.0373   54.2  0.5950  -62.1
 0.075  0.5198 -103.7  19.813  127.1  0.0386   53.3  0.5720  -64.9
 0.080  0.5198 -107.6  19.054  125.1  0.0399   52.4  0.5505  -67.8
 0.085  0.5221 -111.5  18.318  123.0  0.0411   51.6  0.5305  -71.0
 0.090  0.5267 -115.3  17.611  120.7  0.0424   50.9  0.5123  -74.4
 0.095  0.5336 -119.0  16.934  118.2  0.0437   50.2  0.4960  -78.0
 0.100  0.5427 -122.6  16.292  115.5  0.0450   49.5  0.4818  -81.9
 0.105  0.5387 -124.5  15.822  114.7  0.0457   49.4  0.4692  -83.3
 0.110  0.5352 -126.3  15.354  113.9  0.0465   49.4  0.4568  -84.7
 0.115  0.5323 -128.3  14.890  113.0  0.0472   49.3  0.4448  -86.2
 0.120  0.5300 -130.2  14.430  112.1  0.0480   49.2  0.4331  -87.9
 0.125  0.5283 -132.1  13.974  111.1  0.0487   49.2  0.4218  -89.6
 0.130  0.5272 -134.1  13.522  110.1  0.0494   49.1  0.4108  -91.3
 0.135  0.5268 -136.0  13.075  109.0  0.0502   49.1  0.4003  -93.2
 0.140  0.5269 -138.0  12.633  107.8  0.0509   49.0  0.3902  -95.2
 0.145  0.5277 -140.0  12.197  106.5  0.0517   49.0  0.3806  -97.3
 0.150  0.5291 -141.9  11.768  105.1  0.0524   48.9  0.3716  -99.5
 0.155  0.5279 -143.1  11.501  104.6  0.0531   49.1  0.3649 -100.6
 0.160  0.5270 -144.2  11.234  104.1  0.0538   49.3  0.3583 -101.7
 0.165  0.5262 -145.4  10.969  103.5  0.0545   49.5  0.3519 -102.8
 0.170  0.5257 -146.6  10.705  102.9  0.0552   49.7  0.3456 -104.0
 0.175  0.5254 -147.8  10.441  102.3  0.0558   49.9  0.3395 -105.2
 0.180  0.5253 -149.0  10.180  101.7  0.0565   50.0  0.3335 -106.5
 0.185  0.5255 -150.2   9.919  101.0  0.0572   50.2  0.3277 -107.8
 0.190  0.5259 -151.3   9.660  100.3  0.0579   50.4  0.3221 -109.2
 0.195  0.5265 -152.5   9.403   99.5  0.0586   50.5  0.3166 -110.6
 0.200  0.5273 -153.7   9.147   98.7  0.0593   50.7  0.3114 -112.1
 0.220  0.5257 -156.9   8.454   97.0  0.0623   51.5  0.2969 -115.8
 0.240  0.5258 -160.1   7.770   95.0  0.0652   52.3  0.2837 -119.8
 0.260  0.5258 -162.8   7.196   93.2  0.0682   53.0  0.2730 -123.4
 0.280  0.5250 -164.9   6.726   91.7  0.0713   53.7  0.2642 -126.5
 0.300  0.5249 -167.1   6.261   90.1  0.0743   54.4  0.2562 -129.7
 0.320  0.5243 -168.9   5.955   89.1  0.0775   55.1  0.2510 -131.9
 0.340  0.5242 -170.7   5.651   88.1  0.0808   55.7  0.2462 -134.2
 0.360  0.5247 -172.6   5.349   86.9  0.0840   56.3  0.2418 -136.6
 0.380  0.5257 -174.4   5.049   85.6  0.0872   56.9  0.2378 -139.1
 0.400  0.5272 -176.2   4.753   84.1  0.0905   57.4  0.2343 -141.6
 0.420  0.5275 -177.6   4.571   83.3  0.0937   57.7  0.2318 -143.2
 0.440  0.5282 -179.1   4.390   82.3  0.0970   58.0  0.2295 -144.8
 0.450  0.5286 -179.8   4.299   81.9  0.0986   58.2  0.2284 -145.6
 0.460  0.5291  179.5   4.210   81.4  0.1002   58.3  0.2273 -146.4
 0.480  0.5305  178.0   4.031   80.3  0.1035   58.6  0.2254 -148.1
 0.500  0.5321  176.6   3.854   79.1  0.1067   58.8  0.2236 -149.8
 0.520  0.5321  175.5   3.729   78.3  0.1100   58.9  0.2225 -151.1
 0.540  0.5322  174.5   3.606   77.5  0.1134   59.0  0.2216 -152.4
 0.560  0.5325  173.4   3.482   76.6  0.1167   59.1  0.2207 -153.8
 0.580  0.5330  172.4   3.360   75.7  0.1201   59.2  0.2200 -155.1
 0.600  0.5337  171.3   3.239   74.7  0.1234   59.3  0.2194 -156.5
 0.620  0.5337  170.4   3.150   74.0  0.1269   59.3  0.2191 -157.5
 0.640  0.5338  169.5   3.062   73.2  0.1303   59.3  0.2188 -158.6
 0.660  0.5341  168.7   2.974   72.4  0.1338   59.2  0.2186 -159.6
 0.680  0.5345  167.8   2.887   71.5  0.1372   59.2  0.2185 -160.7
 0.700  0.5350  166.9   2.800   70.6  0.1407   59.2  0.2184 -161.7
 0.720  0.5356  166.0   2.734   69.9  0.1440   59.1  0.2185 -162.6
 0.740  0.5364  165.2   2.669   69.2  0.1473   59.0  0.2187 -163.5
 0.760  0.5372  164.3   2.604   68.4  0.1506   58.9  0.2190 -164.5
 0.780  0.5382  163.5   2.539   67.6  0.1539   58.9  0.2192 -165.4
 0.800  0.5393  162.6   2.475   66.8  0.1572   58.8  0.2196 -166.3
 0.820  0.5397  161.8   2.424   66.2  0.1605   58.6  0.2202 -167.1
 0.840  0.5402  161.0   2.372   65.5  0.1638   58.5  0.2208 -167.9
 0.860  0.5408  160.2   2.322   64.8  0.1672   58.4  0.2215 -168.7
 0.880  0.5416  159.4   2.271   64.1  0.1705   58.2  0.2222 -169.4
 0.900  0.5424  158.6   2.221   63.4  0.1738   58.1  0.2229 -170.2
 0.920  0.5427  157.8   2.181   62.8  0.1771   57.9  0.2233 -170.8
 0.940  0.5431  157.1   2.141   62.1  0.1804   57.7  0.2237 -171.5
 0.960  0.5436  156.3   2.101   61.4  0.1838   57.5  0.2241 -172.1
 0.980  0.5442  155.6   2.062   60.7  0.1871   57.4  0.2246 -172.8
 1.000  0.5449  154.8   2.023   59.9  0.1904   57.2  0.2251 -173.4
 1.020  0.5461  154.2   1.991   59.3  0.1936   57.0  0.2259 -174.0
 1.040  0.5473  153.5   1.959   58.6  0.1969   56.8  0.2267 -174.5
 1.060  0.5486  152.9   1.928   58.0  0.2001   56.6  0.2276 -175.1
 1.080  0.5500  152.2   1.897   57.3  0.2034   56.4  0.2284 -175.6
 1.100  0.5514  151.6   1.866   56.6  0.2066   56.2  0.2293 -176.2
 1.120  0.5524  150.9   1.839   56.0  0.2098   55.9  0.2302 -176.8
 1.140  0.5536  150.2   1.812   55.4  0.2130   55.7  0.2312 -177.4
 1.160  0.5548  149.6   1.785   54.7  0.2162   55.4  0.2322 -178.0
 1.180  0.5560  148.9   1.758   54.1  0.2194   55.1  0.2332 -178.5
 1.200  0.5574  148.2   1.732   53.4  0.2226   54.9  0.2342 -179.1
 1.220  0.5581  147.6   1.708   52.8  0.2256   54.6  0.2349 -179.6
 1.240  0.5588  146.9   1.684   52.2  0.2285   54.4  0.2357  179.8
 1.260  0.5596  146.3   1.661   51.5  0.2315   54.1  0.2365  179.3
 1.280  0.5605  145.6   1.637   50.9  0.2345   53.8  0.2373  178.8
 1.300  0.5614  145.0   1.614   50.2  0.2375   53.6  0.2381  178.3
 1.320  0.5612  144.4   1.594   49.6  0.2406   53.3  0.2390  177.9
 1.340  0.5611  143.8   1.575   49.1  0.2438   53.1  0.2400  177.4
 1.360  0.5610  143.3   1.556   48.5  0.2470   52.8  0.2409  177.0
 1.380  0.5610  142.7   1.537   47.9  0.2501   52.5  0.2419  176.5
 1.400  0.5611  142.1   1.518   47.3  0.2533   52.3  0.2429  176.1
 1.420  0.5615  141.5   1.500   46.8  0.2562   52.0  0.2441  175.7
 1.440  0.5620  140.9   1.482   46.2  0.2591   51.8  0.2453  175.2
 1.460  0.5625  140.4   1.465   45.7  0.2620   51.6  0.2465  174.8
 1.480  0.5631  139.8   1.447   45.1  0.2650   51.3  0.2478  174.3
 1.500  0.5637  139.2   1.430   44.5  0.2679   51.1  0.2490  173.9
 1.520  0.5649  138.6   1.417   44.0  0.2708   50.8  0.2502  173.5
 1.540  0.5661  138.1   1.404   43.5  0.2736   50.5  0.2513  173.0
 1.560  0.5674  137.5   1.392   43.0  0.2765   50.2  0.2525  172.6
 1.580  0.5688  137.0   1.379   42.4  0.2794   49.9  0.2537  172.1
 1.600  0.5702  136.4   1.367   41.9  0.2823   49.6  0.2549  171.7
 1.620  0.5720  135.9   1.355   41.4  0.2850   49.3  0.2556  171.3
 1.640  0.5738  135.3   1.342   40.9  0.2876   49.0  0.2563  170.9
 1.660  0.5757  134.8   1.330   40.4  0.2903   48.7  0.2571  170.6
 1.680  0.5777  134.2   1.318   39.9  0.2930   48.5  0.2578  170.2
 1.700  0.5797  133.7   1.306   39.4  0.2957   48.2  0.2586  169.8
 1.720  0.5793  133.2   1.295   38.9  0.2987   47.9  0.2598  169.5
 1.740  0.5789  132.6   1.284   38.3  0.3017   47.6  0.2610  169.2
 1.760  0.5786  132.1   1.273   37.7  0.3047   47.3  0.2622  168.9
 1.780  0.5784  131.5   1.263   37.2  0.3078   47.1  0.2635  168.6
 1.800  0.5782  131.0   1.252   36.6  0.3108   46.8  0.2647  168.3
 1.820  0.5782  130.5   1.242   36.2  0.3135   46.5  0.2656  168.0
 1.840  0.5783  130.1   1.233   35.7  0.3161   46.2  0.2666  167.6
 1.860  0.5784  129.6   1.224   35.3  0.3188   45.9  0.2676  167.3
 1.880  0.5786  129.2   1.214   34.9  0.3215   45.7  0.2685  166.9
 1.900  0.5788  128.7   1.205   34.4  0.3242   45.4  0.2695  166.6
 1.920  0.5795  128.2   1.197   33.9  0.3269   45.1  0.2704  166.2
 1.940  0.5803  127.7   1.189   33.4  0.3295   44.8  0.2713  165.8
 1.960  0.5812  127.1   1.181   32.9  0.3322   44.5  0.2722  165.5
 1.980  0.5821  126.6   1.173   32.4  0.3349   44.3  0.2731  165.1
 2.000  0.5830  126.1   1.165   31.9  0.3376   44.0  0.2740  164.7
 2.020  0.5835  125.6   1.157   31.5  0.3401   43.7  0.2749  164.3
 2.040  0.5840  125.1   1.150   31.0  0.3427   43.4  0.2758  164.0
 2.060  0.5846  124.6   1.142   30.6  0.3452   43.1  0.2767  163.7
 2.080  0.5853  124.1   1.135   30.2  0.3478   42.7  0.2777  163.3
 2.100  0.5859  123.6   1.127   29.7  0.3503   42.4  0.2786  163.0
 2.120  0.5867  123.1   1.120   29.3  0.3529   42.1  0.2796  162.6
 2.140  0.5874  122.6   1.112   28.8  0.3555   41.9  0.2805  162.3
 2.160  0.5882  122.1   1.105   28.3  0.3581   41.6  0.2815  162.0
 2.180  0.5891  121.6   1.098   27.9  0.3607   41.3  0.2825  161.6
 2.200  0.5900  121.1   1.091   27.4  0.3633   41.0  0.2835  161.3
 2.220  0.5900  120.7   1.085   27.0  0.3657   40.7  0.2846  160.9
 2.240  0.5900  120.2   1.080   26.6  0.3682   40.3  0.2858  160.5
 2.260  0.5901  119.8   1.074   26.2  0.3706   40.0  0.2869  160.2
 2.280  0.5902  119.4   1.069   25.7  0.3731   39.7  0.2881  159.8
 2.300  0.5903  118.9   1.063   25.3  0.3756   39.3  0.2893  159.4
 2.320  0.5905  118.5   1.058   24.9  0.3781   39.0  0.2905  159.0
 2.340  0.5907  118.1   1.053   24.4  0.3806   38.7  0.2917  158.7
 2.360  0.5909  117.7   1.047   24.0  0.3831   38.4  0.2929  158.3
 2.380  0.5912  117.2   1.042   23.5  0.3857   38.1  0.2942  158.0
 2.400  0.5915  116.8   1.037   23.1  0.3882   37.8  0.2954  157.6
 2.420  0.5926  116.4   1.031   22.7  0.3904   37.5  0.2966  157.3
 2.440  0.5937  115.9   1.026   22.3  0.3926   37.2  0.2979  156.9
 2.460  0.5949  115.5   1.021   21.9  0.3949   36.8  0.2992  156.6
 2.480  0.5960  115.1   1.015   21.6  0.3971   36.5  0.3004  156.2
 2.500  0.5972  114.7   1.010   21.2  0.3994   36.2  0.3017  155.9
 2.520  0.5985  114.3   1.005   20.8  0.4017   35.9  0.3030  155.6
 2.540  0.5998  113.8   0.999   20.3  0.4040   35.6  0.3043  155.3
 2.560  0.6011  113.4   0.994   19.9  0.4063   35.3  0.3056  154.9
 2.580  0.6024  113.0   0.989   19.5  0.4086   35.0  0.3070  154.6
 2.600  0.6038  112.6   0.984   19.1  0.4109   34.7  0.3083  154.3
 2.620  0.6042  112.1   0.980   18.7  0.4129   34.4  0.3096  153.9
 2.640  0.6046  111.7   0.976   18.4  0.4149   34.1  0.3110  153.5
 2.660  0.6050  111.2   0.972   18.0  0.4169   33.8  0.3124  153.1
 2.680  0.6055  110.8   0.968   17.6  0.4190   33.5  0.3137  152.7
 2.700  0.6061  110.3   0.964   17.2  0.4210   33.2  0.3151  152.4
 2.720  0.6066  109.8   0.961   16.9  0.4231   32.9  0.3165  152.0
 2.740  0.6072  109.4   0.957   16.5  0.4251   32.6  0.3180  151.6
 2.760  0.6079  108.9   0.953   16.1  0.4272   32.4  0.3194  151.2
 2.780  0.6086  108.5   0.950   15.7  0.4293   32.1  0.3208  150.9
 2.800  0.6093  108.0   0.946   15.3  0.4314   31.8  0.3223  150.5
 2.820  0.6102  107.5   0.942   15.0  0.4334   31.4  0.3239  150.1
 2.840  0.6111  107.1   0.938   14.6  0.4353   31.1  0.3255  149.8
 2.860  0.6121  106.6   0.935   14.3  0.4373   30.7  0.3271  149.4
 2.880  0.6131  106.2   0.931   14.0  0.4393   30.4  0.3287  149.0
 2.900  0.6141  105.7   0.927   13.6  0.4414   30.1  0.3303  148.7
 2.920  0.6152  105.3   0.923   13.3  0.4434   29.7  0.3320  148.3
 2.940  0.6163  104.8   0.920   12.9  0.4454   29.4  0.3336  147.9
 2.960  0.6175  104.4   0.916   12.6  0.4475   29.1  0.3353  147.6
 2.980  0.6187  103.9   0.913   12.3  0.4496   28.7  0.3370  147.2
 3.000  0.6199  103.5   0.909   11.9  0.4517   28.4  0.3387  146.9
!
!  f       NFmin   Gammaopt  rn/50
! GHz       dB    MAG  ANG    -
!
! noise parameter not available yet for this operation point!
!
! (c) 2015  Infineon Technologies AG, Munich
