! Infineon Technologies  Discrete & RF Semiconductors
! BFR93A
! VCE =  5.0 V,  IC =  8.0 mA
! Common Emitter S-Parameters:                            Nov 2015
# GHz  S  MA  R  50
!  f         S11            S21            S12            S22
! GHz     MAG   ANG      MAG   ANG      MAG   ANG      MAG   ANG
 0.010  0.7860   -6.2  21.711  175.1  0.0038   87.4  0.9837   -3.2
 0.015  0.7810   -9.2  21.600  172.9  0.0056   84.5  0.9796   -4.7
 0.020  0.7782  -12.3  21.523  170.6  0.0074   83.0  0.9762   -6.2
 0.025  0.7673  -15.1  21.270  168.6  0.0091   80.5  0.9669   -7.6
 0.030  0.7583  -18.1  21.044  166.5  0.0108   78.8  0.9582   -9.0
 0.035  0.7513  -21.0  20.846  164.4  0.0125   77.5  0.9501  -10.4
 0.040  0.7464  -24.1  20.678  162.2  0.0142   76.5  0.9426  -11.8
 0.045  0.7436  -27.1  20.539  160.0  0.0160   75.8  0.9357  -13.3
 0.050  0.7429  -30.2  20.431  157.8  0.0177   75.2  0.9294  -14.8
 0.055  0.7281  -32.5  20.075  156.3  0.0190   73.6  0.9164  -15.8
 0.060  0.7146  -34.9  19.733  154.8  0.0203   72.2  0.9036  -16.7
 0.065  0.7023  -37.3  19.405  153.2  0.0216   70.9  0.8911  -17.7
 0.070  0.6914  -39.9  19.093  151.5  0.0229   69.8  0.8788  -18.8
 0.075  0.6819  -42.5  18.797  149.8  0.0243   68.8  0.8669  -19.8
 0.080  0.6738  -45.2  18.518  148.1  0.0256   68.0  0.8553  -20.9
 0.085  0.6673  -48.0  18.257  146.3  0.0269   67.2  0.8440  -22.1
 0.090  0.6624  -50.8  18.014  144.4  0.0283   66.4  0.8330  -23.2
 0.095  0.6591  -53.6  17.791  142.5  0.0296   65.8  0.8224  -24.4
 0.100  0.6574  -56.5  17.588  140.6  0.0310   65.2  0.8121  -25.6
 0.105  0.6454  -58.3  17.261  139.5  0.0318   64.4  0.8001  -26.1
 0.110  0.6341  -60.1  16.940  138.4  0.0327   63.7  0.7883  -26.7
 0.115  0.6234  -62.0  16.627  137.2  0.0335   63.0  0.7765  -27.3
 0.120  0.6134  -63.9  16.321  135.9  0.0343   62.3  0.7647  -27.9
 0.125  0.6042  -66.0  16.023  134.6  0.0352   61.7  0.7531  -28.5
 0.130  0.5957  -68.0  15.733  133.3  0.0361   61.1  0.7416  -29.1
 0.135  0.5881  -70.2  15.452  131.9  0.0369   60.5  0.7301  -29.8
 0.140  0.5813  -72.4  15.180  130.5  0.0378   59.9  0.7188  -30.5
 0.145  0.5753  -74.6  14.918  129.0  0.0386   59.4  0.7075  -31.2
 0.150  0.5703  -76.9  14.666  127.5  0.0395   58.9  0.6964  -31.9
 0.155  0.5619  -78.4  14.416  126.7  0.0402   58.6  0.6876  -32.2
 0.160  0.5538  -79.9  14.169  125.9  0.0408   58.3  0.6787  -32.5
 0.165  0.5462  -81.5  13.925  125.0  0.0415   58.0  0.6699  -32.8
 0.170  0.5390  -83.2  13.684  124.2  0.0421   57.8  0.6611  -33.1
 0.175  0.5323  -84.8  13.447  123.3  0.0428   57.5  0.6523  -33.4
 0.180  0.5260  -86.6  13.213  122.3  0.0434   57.2  0.6436  -33.7
 0.185  0.5202  -88.3  12.983  121.3  0.0441   57.0  0.6349  -34.0
 0.190  0.5149  -90.1  12.756  120.3  0.0448   56.8  0.6262  -34.4
 0.195  0.5101  -91.9  12.534  119.3  0.0454   56.5  0.6175  -34.7
 0.200  0.5059  -93.8  12.316  118.2  0.0461   56.3  0.6088  -35.1
 0.220  0.4848  -98.9  11.562  115.6  0.0481   55.7  0.5828  -35.7
 0.240  0.4679 -104.3  10.835  112.6  0.0502   55.2  0.5568  -36.3
 0.260  0.4542 -109.2  10.196  110.0  0.0521   54.9  0.5344  -36.7
 0.280  0.4420 -113.4   9.630  107.9  0.0540   54.9  0.5155  -36.9
 0.300  0.4324 -117.8   9.079  105.6  0.0558   54.9  0.4966  -37.2
 0.320  0.4217 -121.1   8.668  104.2  0.0577   55.1  0.4840  -37.2
 0.340  0.4125 -124.5   8.263  102.7  0.0595   55.3  0.4714  -37.2
 0.360  0.4048 -128.1   7.863  101.1  0.0614   55.5  0.4589  -37.2
 0.380  0.3988 -131.8   7.471   99.2  0.0632   55.7  0.4463  -37.2
 0.400  0.3945 -135.6   7.088   97.2  0.0651   55.9  0.4337  -37.2
 0.420  0.3885 -138.1   6.826   96.1  0.0669   56.2  0.4264  -37.1
 0.440  0.3832 -140.7   6.567   94.9  0.0687   56.5  0.4192  -37.1
 0.450  0.3809 -142.0   6.439   94.3  0.0696   56.7  0.4155  -37.1
 0.460  0.3788 -143.3   6.311   93.7  0.0706   56.8  0.4119  -37.0
 0.480  0.3752 -146.0   6.058   92.3  0.0724   57.1  0.4047  -37.0
 0.500  0.3724 -148.8   5.809   90.8  0.0742   57.4  0.3974  -36.9
 0.520  0.3699 -150.9   5.627   89.9  0.0761   57.7  0.3925  -36.9
 0.540  0.3680 -153.0   5.447   88.9  0.0780   58.0  0.3876  -36.9
 0.560  0.3665 -155.1   5.268   87.9  0.0800   58.2  0.3827  -36.8
 0.580  0.3655 -157.3   5.092   86.8  0.0819   58.5  0.3778  -36.8
 0.600  0.3651 -159.4   4.917   85.6  0.0838   58.7  0.3729  -36.8
 0.620  0.3635 -161.1   4.783   84.8  0.0857   58.9  0.3696  -36.9
 0.640  0.3623 -162.7   4.650   83.9  0.0877   59.1  0.3662  -37.0
 0.660  0.3613 -164.4   4.518   82.9  0.0896   59.3  0.3629  -37.0
 0.680  0.3607 -166.1   4.388   82.0  0.0916   59.4  0.3595  -37.1
 0.700  0.3604 -167.8   4.259   80.9  0.0935   59.6  0.3562  -37.2
 0.720  0.3604 -169.2   4.159   80.2  0.0955   59.8  0.3537  -37.3
 0.740  0.3606 -170.7   4.059   79.4  0.0974   60.0  0.3512  -37.5
 0.760  0.3611 -172.1   3.960   78.6  0.0994   60.2  0.3487  -37.6
 0.780  0.3618 -173.6   3.862   77.7  0.1013   60.4  0.3462  -37.8
 0.800  0.3627 -175.0   3.765   76.8  0.1033   60.6  0.3437  -37.9
 0.820  0.3626 -176.3   3.684   76.1  0.1053   60.7  0.3416  -38.1
 0.840  0.3627 -177.6   3.603   75.5  0.1074   60.8  0.3396  -38.3
 0.860  0.3629 -178.8   3.523   74.7  0.1094   60.8  0.3375  -38.5
 0.880  0.3634  179.9   3.444   74.0  0.1115   60.9  0.3355  -38.7
 0.900  0.3640  178.6   3.365   73.2  0.1135   61.0  0.3334  -38.9
 0.920  0.3641  177.5   3.302   72.5  0.1156   61.0  0.3320  -39.1
 0.940  0.3644  176.3   3.239   71.8  0.1176   61.0  0.3306  -39.4
 0.960  0.3648  175.2   3.177   71.1  0.1197   61.0  0.3292  -39.6
 0.980  0.3653  174.0   3.115   70.4  0.1217   61.0  0.3279  -39.9
 1.000  0.3660  172.9   3.054   69.6  0.1238   61.0  0.3265  -40.1
 1.020  0.3669  171.9   3.003   69.0  0.1259   61.0  0.3251  -40.4
 1.040  0.3679  171.0   2.953   68.3  0.1280   61.0  0.3238  -40.7
 1.060  0.3690  170.0   2.903   67.6  0.1302   61.1  0.3224  -41.1
 1.080  0.3703  169.0   2.853   66.9  0.1323   61.1  0.3211  -41.4
 1.100  0.3716  168.1   2.804   66.2  0.1344   61.1  0.3198  -41.7
 1.120  0.3727  167.1   2.761   65.6  0.1365   61.1  0.3184  -42.1
 1.140  0.3739  166.1   2.719   65.0  0.1386   61.1  0.3170  -42.4
 1.160  0.3753  165.1   2.676   64.4  0.1406   61.0  0.3157  -42.8
 1.180  0.3767  164.1   2.635   63.8  0.1427   61.0  0.3143  -43.1
 1.200  0.3783  163.1   2.593   63.1  0.1448   61.0  0.3130  -43.5
 1.220  0.3795  162.2   2.555   62.5  0.1469   60.9  0.3121  -43.9
 1.240  0.3809  161.4   2.518   61.8  0.1490   60.9  0.3112  -44.2
 1.260  0.3823  160.5   2.481   61.2  0.1510   60.8  0.3103  -44.6
 1.280  0.3838  159.6   2.444   60.5  0.1531   60.8  0.3094  -44.9
 1.300  0.3854  158.8   2.408   59.8  0.1552   60.7  0.3085  -45.3
 1.320  0.3859  158.1   2.375   59.3  0.1573   60.6  0.3077  -45.7
 1.340  0.3864  157.4   2.343   58.7  0.1594   60.6  0.3069  -46.1
 1.360  0.3870  156.6   2.311   58.1  0.1615   60.5  0.3061  -46.4
 1.380  0.3876  155.9   2.279   57.5  0.1636   60.5  0.3053  -46.8
 1.400  0.3883  155.2   2.247   56.9  0.1657   60.4  0.3045  -47.2
 1.420  0.3891  154.4   2.218   56.3  0.1679   60.3  0.3033  -47.7
 1.440  0.3900  153.6   2.189   55.7  0.1701   60.2  0.3022  -48.1
 1.460  0.3909  152.8   2.160   55.1  0.1723   60.2  0.3010  -48.6
 1.480  0.3919  152.0   2.132   54.5  0.1745   60.1  0.2999  -49.1
 1.500  0.3930  151.2   2.104   53.9  0.1767   60.0  0.2988  -49.6
 1.520  0.3946  150.5   2.083   53.4  0.1788   59.9  0.2979  -50.1
 1.540  0.3963  149.9   2.063   52.9  0.1808   59.8  0.2970  -50.6
 1.560  0.3981  149.3   2.042   52.4  0.1829   59.6  0.2962  -51.1
 1.580  0.3999  148.6   2.022   51.8  0.1849   59.5  0.2953  -51.6
 1.600  0.4017  148.0   2.002   51.3  0.1870   59.4  0.2945  -52.1
 1.620  0.4032  147.3   1.982   50.8  0.1891   59.3  0.2938  -52.6
 1.640  0.4048  146.6   1.962   50.2  0.1913   59.2  0.2931  -53.1
 1.660  0.4064  145.9   1.943   49.7  0.1934   59.1  0.2924  -53.6
 1.680  0.4081  145.2   1.923   49.1  0.1956   59.0  0.2917  -54.1
 1.700  0.4099  144.5   1.904   48.5  0.1977   58.9  0.2911  -54.6
 1.720  0.4111  144.0   1.885   48.0  0.2000   58.7  0.2907  -55.1
 1.740  0.4124  143.4   1.866   47.5  0.2022   58.6  0.2904  -55.6
 1.760  0.4137  142.9   1.848   46.9  0.2045   58.4  0.2901  -56.2
 1.780  0.4150  142.3   1.829   46.4  0.2067   58.3  0.2898  -56.7
 1.800  0.4164  141.8   1.811   45.8  0.2090   58.1  0.2895  -57.2
 1.820  0.4168  141.2   1.795   45.3  0.2111   58.0  0.2889  -57.7
 1.840  0.4172  140.6   1.779   44.8  0.2132   57.9  0.2883  -58.2
 1.860  0.4177  140.1   1.763   44.3  0.2153   57.8  0.2877  -58.8
 1.880  0.4182  139.5   1.747   43.8  0.2174   57.7  0.2872  -59.3
 1.900  0.4187  138.9   1.731   43.3  0.2195   57.6  0.2867  -59.8
 1.920  0.4203  138.3   1.716   42.8  0.2217   57.5  0.2862  -60.3
 1.940  0.4220  137.7   1.701   42.3  0.2239   57.3  0.2856  -60.8
 1.960  0.4237  137.1   1.687   41.8  0.2262   57.2  0.2851  -61.3
 1.980  0.4255  136.5   1.672   41.2  0.2284   57.0  0.2847  -61.8
 2.000  0.4273  135.9   1.658   40.7  0.2306   56.9  0.2842  -62.3
 2.020  0.4286  135.3   1.645   40.3  0.2328   56.7  0.2837  -62.9
 2.040  0.4300  134.8   1.632   39.8  0.2350   56.6  0.2833  -63.4
 2.060  0.4313  134.2   1.619   39.4  0.2373   56.4  0.2829  -64.0
 2.080  0.4328  133.7   1.607   38.9  0.2395   56.2  0.2825  -64.6
 2.100  0.4342  133.1   1.594   38.4  0.2417   56.1  0.2822  -65.1
 2.120  0.4358  132.6   1.582   38.0  0.2440   55.9  0.2818  -65.7
 2.140  0.4373  132.0   1.569   37.5  0.2462   55.7  0.2815  -66.3
 2.160  0.4389  131.5   1.557   37.0  0.2484   55.6  0.2813  -66.8
 2.180  0.4405  130.9   1.545   36.5  0.2507   55.4  0.2810  -67.4
 2.200  0.4422  130.4   1.533   36.0  0.2529   55.3  0.2808  -68.0
 2.220  0.4431  129.9   1.523   35.6  0.2552   55.1  0.2804  -68.6
 2.240  0.4441  129.4   1.512   35.1  0.2574   54.9  0.2800  -69.2
 2.260  0.4451  129.0   1.502   34.7  0.2597   54.7  0.2796  -69.8
 2.280  0.4461  128.5   1.492   34.2  0.2620   54.5  0.2793  -70.4
 2.300  0.4471  128.0   1.482   33.8  0.2643   54.4  0.2790  -71.0
 2.320  0.4482  127.6   1.472   33.3  0.2665   54.2  0.2787  -71.6
 2.340  0.4493  127.1   1.463   32.8  0.2688   54.0  0.2784  -72.2
 2.360  0.4504  126.6   1.453   32.4  0.2711   53.8  0.2782  -72.8
 2.380  0.4516  126.2   1.443   31.9  0.2734   53.7  0.2781  -73.4
 2.400  0.4528  125.7   1.434   31.4  0.2757   53.5  0.2779  -74.0
 2.420  0.4541  125.2   1.424   31.0  0.2779   53.3  0.2774  -74.7
 2.440  0.4555  124.7   1.415   30.5  0.2802   53.1  0.2770  -75.3
 2.460  0.4569  124.2   1.405   30.1  0.2824   52.9  0.2766  -76.0
 2.480  0.4583  123.7   1.396   29.7  0.2847   52.7  0.2762  -76.7
 2.500  0.4598  123.2   1.386   29.2  0.2870   52.5  0.2759  -77.3
 2.520  0.4613  122.7   1.377   28.8  0.2892   52.3  0.2756  -78.0
 2.540  0.4628  122.2   1.368   28.3  0.2915   52.1  0.2754  -78.7
 2.560  0.4644  121.7   1.359   27.8  0.2938   52.0  0.2752  -79.3
 2.580  0.4660  121.2   1.350   27.4  0.2960   51.8  0.2750  -80.0
 2.600  0.4676  120.7   1.341   26.9  0.2983   51.6  0.2749  -80.7
 2.620  0.4688  120.2   1.334   26.5  0.3005   51.4  0.2742  -81.4
 2.640  0.4701  119.8   1.327   26.1  0.3028   51.2  0.2736  -82.2
 2.660  0.4714  119.3   1.320   25.7  0.3050   50.9  0.2730  -82.9
 2.680  0.4727  118.8   1.313   25.2  0.3072   50.7  0.2724  -83.6
 2.700  0.4740  118.4   1.306   24.8  0.3095   50.5  0.2719  -84.4
 2.720  0.4754  117.9   1.299   24.4  0.3118   50.3  0.2715  -85.1
 2.740  0.4768  117.5   1.293   23.9  0.3140   50.1  0.2711  -85.9
 2.760  0.4782  117.0   1.286   23.5  0.3163   49.9  0.2707  -86.6
 2.780  0.4797  116.5   1.279   23.1  0.3185   49.7  0.2704  -87.3
 2.800  0.4812  116.1   1.273   22.6  0.3208   49.5  0.2701  -88.1
 2.820  0.4829  115.6   1.266   22.2  0.3232   49.3  0.2698  -88.9
 2.840  0.4846  115.0   1.259   21.9  0.3256   49.0  0.2695  -89.7
 2.860  0.4864  114.5   1.253   21.5  0.3281   48.8  0.2693  -90.4
 2.880  0.4882  114.0   1.246   21.1  0.3305   48.6  0.2692  -91.2
 2.900  0.4900  113.5   1.239   20.7  0.3329   48.4  0.2691  -92.0
 2.920  0.4919  113.0   1.233   20.3  0.3354   48.1  0.2690  -92.8
 2.940  0.4938  112.5   1.226   19.9  0.3378   47.9  0.2690  -93.6
 2.960  0.4958  112.0   1.220   19.5  0.3403   47.7  0.2691  -94.3
 2.980  0.4978  111.5   1.213   19.1  0.3427   47.5  0.2692  -95.1
 3.000  0.4998  111.0   1.207   18.7  0.3452   47.3  0.2693  -95.9
!
!  f       NFmin   Gammaopt  rn/50
! GHz       dB    MAG  ANG    -
!
! noise parameter not available yet for this operation point!
!
! (c) 2015  Infineon Technologies AG, Munich
