! Infineon Technologies  Discrete & RF Semiconductors
! BFR93A
! VCE =  4.0 V,  IC =  10 mA
! Common Emitter S-Parameters:                            Nov 2015
# GHz  S  MA  R  50
!  f         S11            S21            S12            S22
! GHz     MAG   ANG      MAG   ANG      MAG   ANG      MAG   ANG
 0.010  0.7421   -7.4  25.686  174.4  0.0040   86.3  0.9794   -4.0
 0.015  0.7355  -10.9  25.493  171.8  0.0059   83.3  0.9731   -5.9
 0.020  0.7318  -14.5  25.353  169.2  0.0078   81.7  0.9678   -7.8
 0.025  0.7181  -17.8  24.959  166.9  0.0095   79.3  0.9551   -9.4
 0.030  0.7069  -21.2  24.606  164.6  0.0112   77.6  0.9432  -11.1
 0.035  0.6983  -24.8  24.294  162.2  0.0130   76.4  0.9321  -12.9
 0.040  0.6925  -28.4  24.026  159.8  0.0147   75.4  0.9219  -14.6
 0.045  0.6894  -32.0  23.803  157.2  0.0165   74.7  0.9126  -16.5
 0.050  0.6891  -35.7  23.626  154.7  0.0182   74.1  0.9042  -18.3
 0.055  0.6728  -38.2  23.128  153.2  0.0194   72.4  0.8880  -19.3
 0.060  0.6578  -40.8  22.647  151.6  0.0207   70.9  0.8722  -20.4
 0.065  0.6443  -43.6  22.185  149.9  0.0219   69.5  0.8567  -21.5
 0.070  0.6324  -46.5  21.742  148.1  0.0232   68.3  0.8415  -22.7
 0.075  0.6221  -49.4  21.321  146.3  0.0244   67.2  0.8267  -23.9
 0.080  0.6135  -52.5  20.921  144.4  0.0257   66.3  0.8122  -25.2
 0.085  0.6067  -55.6  20.545  142.5  0.0270   65.4  0.7981  -26.4
 0.090  0.6017  -58.8  20.194  140.5  0.0283   64.6  0.7845  -27.8
 0.095  0.5986  -62.0  19.869  138.4  0.0296   63.9  0.7713  -29.2
 0.100  0.5975  -65.3  19.572  136.2  0.0309   63.2  0.7586  -30.6
 0.105  0.5859  -67.2  19.156  135.1  0.0317   62.6  0.7453  -31.1
 0.110  0.5749  -69.1  18.747  134.0  0.0325   62.0  0.7321  -31.7
 0.115  0.5646  -71.2  18.346  132.8  0.0332   61.4  0.7190  -32.3
 0.120  0.5550  -73.3  17.953  131.6  0.0340   60.9  0.7059  -32.9
 0.125  0.5462  -75.4  17.568  130.3  0.0348   60.4  0.6929  -33.5
 0.130  0.5382  -77.7  17.193  129.0  0.0356   59.9  0.6801  -34.2
 0.135  0.5311  -80.0  16.827  127.6  0.0364   59.4  0.6673  -34.9
 0.140  0.5249  -82.3  16.472  126.1  0.0372   58.9  0.6546  -35.6
 0.145  0.5195  -84.7  16.128  124.6  0.0380   58.5  0.6420  -36.3
 0.150  0.5151  -87.2  15.796  123.0  0.0388   58.1  0.6295  -37.1
 0.155  0.5079  -88.7  15.500  122.3  0.0394   57.9  0.6204  -37.4
 0.160  0.5010  -90.3  15.207  121.5  0.0400   57.7  0.6113  -37.6
 0.165  0.4945  -91.9  14.916  120.7  0.0406   57.5  0.6022  -37.9
 0.170  0.4884  -93.5  14.629  119.9  0.0412   57.4  0.5931  -38.2
 0.175  0.4827  -95.2  14.345  119.0  0.0418   57.2  0.5840  -38.5
 0.180  0.4775  -96.9  14.064  118.1  0.0425   57.0  0.5749  -38.8
 0.185  0.4726  -98.6  13.787  117.1  0.0431   56.9  0.5659  -39.1
 0.190  0.4682 -100.4  13.514  116.2  0.0437   56.7  0.5569  -39.4
 0.195  0.4643 -102.3  13.245  115.2  0.0443   56.5  0.5479  -39.8
 0.200  0.4609 -104.1  12.980  114.1  0.0449   56.4  0.5389  -40.1
 0.220  0.4443 -109.2  12.131  111.7  0.0471   56.3  0.5127  -40.6
 0.240  0.4315 -114.7  11.306  108.9  0.0493   56.2  0.4866  -41.2
 0.260  0.4212 -119.5  10.592  106.5  0.0514   56.3  0.4645  -41.6
 0.280  0.4121 -123.6   9.973  104.6  0.0533   56.5  0.4463  -41.7
 0.300  0.4051 -127.8   9.367  102.5  0.0552   56.8  0.4281  -41.8
 0.320  0.3972 -130.9   8.930  101.2  0.0572   57.2  0.4162  -41.7
 0.340  0.3906 -134.1   8.498   99.8  0.0592   57.5  0.4043  -41.7
 0.360  0.3852 -137.4   8.071   98.3  0.0613   57.9  0.3924  -41.6
 0.380  0.3811 -140.8   7.651   96.5  0.0633   58.2  0.3805  -41.6
 0.400  0.3784 -144.3   7.239   94.6  0.0653   58.5  0.3686  -41.5
 0.420  0.3747 -146.8   6.968   93.6  0.0674   58.8  0.3618  -41.4
 0.440  0.3716 -149.3   6.699   92.5  0.0695   59.1  0.3551  -41.3
 0.450  0.3704 -150.6   6.566   91.9  0.0706   59.3  0.3517  -41.3
 0.460  0.3693 -151.8   6.433   91.4  0.0717   59.4  0.3483  -41.2
 0.480  0.3677 -154.4   6.170   90.1  0.0738   59.7  0.3416  -41.1
 0.500  0.3669 -157.0   5.910   88.7  0.0759   59.9  0.3348  -41.0
 0.520  0.3654 -158.8   5.722   87.8  0.0781   60.2  0.3301  -41.0
 0.540  0.3643 -160.7   5.536   86.9  0.0802   60.4  0.3255  -41.0
 0.560  0.3636 -162.6   5.351   86.0  0.0824   60.7  0.3208  -40.9
 0.580  0.3633 -164.4   5.168   84.9  0.0845   60.9  0.3162  -40.9
 0.600  0.3634 -166.3   4.987   83.8  0.0867   61.1  0.3115  -40.9
 0.620  0.3626 -167.8   4.850   83.0  0.0889   61.3  0.3084  -41.0
 0.640  0.3621 -169.2   4.714   82.2  0.0911   61.4  0.3053  -41.0
 0.660  0.3618 -170.7   4.579   81.3  0.0934   61.5  0.3023  -41.1
 0.680  0.3617 -172.1   4.446   80.4  0.0956   61.7  0.2992  -41.1
 0.700  0.3619 -173.6   4.313   79.4  0.0978   61.8  0.2961  -41.2
 0.720  0.3616 -175.0   4.211   78.7  0.1000   61.9  0.2937  -41.3
 0.740  0.3616 -176.4   4.109   78.0  0.1022   62.0  0.2913  -41.5
 0.760  0.3617 -177.7   4.008   77.2  0.1044   62.1  0.2889  -41.6
 0.780  0.3621 -179.1   3.907   76.4  0.1066   62.2  0.2865  -41.8
 0.800  0.3627  179.5   3.808   75.5  0.1088   62.3  0.2841  -41.9
 0.820  0.3635  178.3   3.726   74.9  0.1110   62.3  0.2821  -42.1
 0.840  0.3645  177.2   3.644   74.2  0.1133   62.3  0.2801  -42.3
 0.860  0.3657  176.0   3.563   73.6  0.1155   62.4  0.2781  -42.6
 0.880  0.3670  174.8   3.482   72.8  0.1178   62.4  0.2761  -42.8
 0.900  0.3684  173.7   3.402   72.1  0.1200   62.4  0.2741  -43.0
 0.920  0.3683  172.7   3.338   71.5  0.1223   62.4  0.2728  -43.3
 0.940  0.3683  171.8   3.275   70.8  0.1246   62.3  0.2715  -43.5
 0.960  0.3684  170.8   3.212   70.1  0.1269   62.3  0.2702  -43.8
 0.980  0.3686  169.9   3.150   69.4  0.1292   62.2  0.2689  -44.0
 1.000  0.3689  168.9   3.088   68.6  0.1315   62.2  0.2676  -44.3
 1.020  0.3702  168.0   3.036   68.0  0.1338   62.1  0.2662  -44.7
 1.040  0.3716  167.0   2.985   67.3  0.1360   62.1  0.2648  -45.0
 1.060  0.3731  166.1   2.934   66.7  0.1383   62.0  0.2634  -45.4
 1.080  0.3747  165.2   2.883   66.0  0.1405   62.0  0.2621  -45.8
 1.100  0.3764  164.3   2.833   65.3  0.1428   61.9  0.2607  -46.2
 1.120  0.3778  163.4   2.791   64.7  0.1451   61.8  0.2594  -46.6
 1.140  0.3794  162.6   2.748   64.1  0.1474   61.7  0.2581  -46.9
 1.160  0.3810  161.7   2.707   63.5  0.1497   61.7  0.2569  -47.3
 1.180  0.3827  160.8   2.665   62.9  0.1520   61.6  0.2556  -47.7
 1.200  0.3845  160.0   2.624   62.2  0.1543   61.5  0.2544  -48.1
 1.220  0.3854  159.1   2.585   61.6  0.1565   61.4  0.2534  -48.5
 1.240  0.3864  158.3   2.546   61.0  0.1588   61.3  0.2524  -48.9
 1.260  0.3875  157.4   2.507   60.3  0.1610   61.2  0.2514  -49.4
 1.280  0.3886  156.6   2.469   59.7  0.1633   61.1  0.2505  -49.8
 1.300  0.3899  155.7   2.431   59.0  0.1655   61.0  0.2495  -50.2
 1.320  0.3909  155.0   2.399   58.5  0.1678   60.9  0.2488  -50.6
 1.340  0.3920  154.4   2.366   57.9  0.1701   60.8  0.2481  -51.0
 1.360  0.3931  153.7   2.334   57.3  0.1724   60.6  0.2474  -51.4
 1.380  0.3943  153.1   2.303   56.7  0.1747   60.5  0.2468  -51.8
 1.400  0.3955  152.4   2.271   56.1  0.1770   60.4  0.2461  -52.2
 1.420  0.3958  151.7   2.242   55.5  0.1793   60.2  0.2449  -52.7
 1.440  0.3962  151.0   2.213   55.0  0.1816   60.1  0.2438  -53.3
 1.460  0.3966  150.3   2.184   54.4  0.1838   59.9  0.2426  -53.9
 1.480  0.3971  149.6   2.155   53.8  0.1861   59.8  0.2415  -54.4
 1.500  0.3977  148.9   2.127   53.2  0.1884   59.6  0.2404  -55.0
 1.520  0.3997  148.2   2.105   52.7  0.1906   59.5  0.2395  -55.6
 1.540  0.4017  147.5   2.084   52.2  0.1929   59.3  0.2386  -56.1
 1.560  0.4038  146.8   2.062   51.7  0.1951   59.2  0.2377  -56.7
 1.580  0.4059  146.2   2.041   51.1  0.1974   59.0  0.2368  -57.2
 1.600  0.4081  145.5   2.020   50.6  0.1996   58.9  0.2360  -57.8
 1.620  0.4097  144.9   2.000   50.1  0.2018   58.8  0.2354  -58.3
 1.640  0.4114  144.3   1.980   49.6  0.2041   58.6  0.2347  -58.9
 1.660  0.4132  143.7   1.960   49.1  0.2063   58.5  0.2341  -59.4
 1.680  0.4150  143.1   1.940   48.6  0.2086   58.3  0.2336  -60.0
 1.700  0.4168  142.5   1.921   48.1  0.2108   58.2  0.2330  -60.5
 1.720  0.4170  141.9   1.903   47.5  0.2131   58.0  0.2327  -61.1
 1.740  0.4173  141.4   1.884   46.9  0.2154   57.8  0.2324  -61.7
 1.760  0.4176  140.8   1.866   46.3  0.2177   57.6  0.2321  -62.3
 1.780  0.4180  140.3   1.849   45.7  0.2200   57.5  0.2319  -62.9
 1.800  0.4184  139.7   1.831   45.1  0.2223   57.3  0.2317  -63.5
 1.820  0.4194  139.2   1.814   44.7  0.2246   57.1  0.2311  -64.1
 1.840  0.4203  138.7   1.798   44.3  0.2268   57.0  0.2305  -64.7
 1.860  0.4214  138.1   1.781   43.9  0.2291   56.8  0.2300  -65.2
 1.880  0.4224  137.6   1.764   43.4  0.2313   56.7  0.2295  -65.8
 1.900  0.4235  137.1   1.748   43.0  0.2336   56.5  0.2290  -66.4
 1.920  0.4250  136.5   1.733   42.5  0.2358   56.3  0.2285  -67.0
 1.940  0.4265  135.8   1.718   42.0  0.2381   56.1  0.2280  -67.5
 1.960  0.4281  135.2   1.704   41.5  0.2403   55.9  0.2276  -68.1
 1.980  0.4297  134.6   1.689   41.0  0.2426   55.8  0.2271  -68.6
 2.000  0.4314  134.0   1.675   40.5  0.2448   55.6  0.2267  -69.2
 2.020  0.4326  133.5   1.662   40.0  0.2471   55.4  0.2263  -69.8
 2.040  0.4339  133.0   1.649   39.6  0.2494   55.2  0.2259  -70.4
 2.060  0.4352  132.5   1.636   39.1  0.2517   55.0  0.2255  -71.0
 2.080  0.4365  132.0   1.623   38.6  0.2540   54.8  0.2252  -71.7
 2.100  0.4379  131.5   1.610   38.1  0.2563   54.6  0.2249  -72.3
 2.120  0.4393  131.0   1.597   37.7  0.2586   54.4  0.2246  -72.9
 2.140  0.4407  130.5   1.585   37.2  0.2609   54.2  0.2243  -73.5
 2.160  0.4422  130.1   1.572   36.6  0.2632   54.1  0.2241  -74.1
 2.180  0.4437  129.6   1.560   36.1  0.2655   53.9  0.2239  -74.8
 2.200  0.4452  129.1   1.548   35.6  0.2678   53.7  0.2237  -75.4
 2.220  0.4461  128.6   1.538   35.2  0.2701   53.5  0.2233  -76.1
 2.240  0.4470  128.2   1.527   34.7  0.2724   53.2  0.2230  -76.7
 2.260  0.4480  127.7   1.517   34.3  0.2747   53.0  0.2227  -77.4
 2.280  0.4490  127.3   1.507   33.9  0.2770   52.8  0.2224  -78.1
 2.300  0.4500  126.8   1.497   33.4  0.2793   52.6  0.2222  -78.8
 2.320  0.4510  126.4   1.487   33.0  0.2817   52.3  0.2220  -79.5
 2.340  0.4521  125.9   1.478   32.5  0.2840   52.1  0.2218  -80.1
 2.360  0.4532  125.5   1.468   32.0  0.2863   51.9  0.2217  -80.8
 2.380  0.4543  125.0   1.458   31.6  0.2887   51.7  0.2216  -81.5
 2.400  0.4555  124.6   1.449   31.1  0.2910   51.5  0.2215  -82.2
 2.420  0.4569  124.1   1.439   30.7  0.2932   51.3  0.2211  -83.0
 2.440  0.4584  123.6   1.430   30.3  0.2955   51.1  0.2208  -83.7
 2.460  0.4599  123.1   1.421   29.8  0.2977   50.8  0.2205  -84.5
 2.480  0.4614  122.6   1.411   29.4  0.3000   50.6  0.2203  -85.2
 2.500  0.4630  122.2   1.402   29.0  0.3022   50.4  0.2201  -86.0
 2.520  0.4646  121.7   1.393   28.5  0.3045   50.2  0.2199  -86.7
 2.540  0.4662  121.2   1.384   28.1  0.3067   50.0  0.2198  -87.5
 2.560  0.4679  120.7   1.375   27.6  0.3090   49.8  0.2197  -88.3
 2.580  0.4696  120.3   1.366   27.2  0.3112   49.6  0.2196  -89.0
 2.600  0.4713  119.8   1.357   26.7  0.3135   49.4  0.2196  -89.8
 2.620  0.4724  119.3   1.349   26.3  0.3157   49.2  0.2191  -90.6
 2.640  0.4734  118.9   1.342   25.9  0.3180   48.9  0.2186  -91.4
 2.660  0.4745  118.4   1.334   25.4  0.3202   48.7  0.2182  -92.3
 2.680  0.4757  117.9   1.327   25.0  0.3224   48.4  0.2179  -93.1
 2.700  0.4769  117.5   1.320   24.6  0.3247   48.2  0.2175  -93.9
 2.720  0.4781  117.0   1.312   24.1  0.3269   48.0  0.2173  -94.8
 2.740  0.4793  116.6   1.305   23.7  0.3292   47.8  0.2170  -95.6
 2.760  0.4806  116.1   1.298   23.2  0.3315   47.5  0.2168  -96.4
 2.780  0.4819  115.6   1.291   22.8  0.3337   47.3  0.2167  -97.3
 2.800  0.4832  115.2   1.284   22.3  0.3360   47.1  0.2166  -98.1
 2.820  0.4848  114.7   1.278   21.9  0.3383   46.8  0.2165  -99.0
 2.840  0.4863  114.2   1.272   21.6  0.3406   46.6  0.2165  -99.8
 2.860  0.4880  113.7   1.265   21.2  0.3429   46.3  0.2165 -100.7
 2.880  0.4896  113.2   1.259   20.8  0.3452   46.1  0.2166 -101.6
 2.900  0.4914  112.7   1.253   20.4  0.3475   45.8  0.2167 -102.5
 2.920  0.4931  112.2   1.247   20.1  0.3498   45.6  0.2168 -103.3
 2.940  0.4949  111.7   1.241   19.7  0.3522   45.3  0.2171 -104.2
 2.960  0.4967  111.3   1.236   19.3  0.3545   45.1  0.2173 -105.1
 2.980  0.4985  110.8   1.230   18.9  0.3569   44.8  0.2176 -105.9
 3.000  0.5004  110.3   1.224   18.5  0.3592   44.6  0.2180 -106.8
!
!  f       NFmin   Gammaopt  rn/50
! GHz       dB    MAG  ANG    -
!
! noise parameter not available yet for this operation point!
!
! (c) 2015  Infineon Technologies AG, Munich
