! Infineon Technologies  Discrete & RF Semiconductors
! BFR93A
! VCE =  2.5 V,  IC =  2.5 mA
! Common Emitter S-Parameters:                            Nov 2015
# GHz  S  MA  R  50
!  f         S11            S21            S12            S22
! GHz     MAG   ANG      MAG   ANG      MAG   ANG      MAG   ANG
 0.010  0.9040   -3.9   8.275  177.1  0.0051   88.5  0.9930   -1.8
 0.015  0.9008   -5.7   8.257  175.7  0.0076   86.1  0.9918   -2.6
 0.020  0.8985   -7.6   8.245  174.2  0.0101   84.9  0.9908   -3.5
 0.025  0.8941   -9.5   8.208  172.9  0.0125   83.1  0.9877   -4.4
 0.030  0.8908  -11.4   8.176  171.5  0.0150   81.8  0.9848   -5.2
 0.035  0.8883  -13.3   8.149  170.1  0.0174   80.9  0.9821   -6.1
 0.040  0.8869  -15.2   8.126  168.8  0.0199   80.2  0.9796   -6.9
 0.045  0.8865  -17.1   8.107  167.4  0.0223   79.7  0.9774   -7.8
 0.050  0.8870  -19.0   8.094  166.0  0.0248   79.3  0.9754   -8.7
 0.055  0.8795  -20.7   8.035  164.9  0.0270   77.7  0.9699   -9.4
 0.060  0.8727  -22.4   7.980  163.7  0.0292   76.3  0.9645  -10.2
 0.065  0.8668  -24.2   7.927  162.5  0.0314   75.1  0.9593  -11.0
 0.070  0.8616  -26.0   7.879  161.3  0.0336   74.1  0.9543  -11.7
 0.075  0.8573  -27.8   7.833  160.1  0.0358   73.2  0.9495  -12.5
 0.080  0.8539  -29.6   7.791  158.9  0.0380   72.4  0.9448  -13.3
 0.085  0.8513  -31.4   7.753  157.7  0.0403   71.7  0.9404  -14.1
 0.090  0.8496  -33.2   7.718  156.4  0.0425   71.1  0.9360  -14.9
 0.095  0.8488  -35.1   7.687  155.2  0.0447   70.5  0.9319  -15.7
 0.100  0.8488  -36.9   7.660  153.9  0.0470   70.0  0.9280  -16.5
 0.105  0.8407  -38.4   7.586  152.8  0.0487   68.9  0.9211  -17.1
 0.110  0.8332  -40.0   7.515  151.8  0.0503   67.9  0.9143  -17.7
 0.115  0.8263  -41.5   7.447  150.7  0.0520   66.9  0.9077  -18.3
 0.120  0.8201  -43.1   7.381  149.6  0.0537   66.0  0.9011  -19.0
 0.125  0.8145  -44.7   7.318  148.4  0.0555   65.2  0.8947  -19.6
 0.130  0.8095  -46.4   7.258  147.3  0.0572   64.4  0.8883  -20.2
 0.135  0.8052  -48.0   7.201  146.1  0.0589   63.7  0.8821  -20.9
 0.140  0.8016  -49.7   7.147  144.9  0.0607   63.0  0.8760  -21.5
 0.145  0.7987  -51.4   7.097  143.7  0.0624   62.3  0.8700  -22.2
 0.150  0.7965  -53.1   7.049  142.5  0.0642   61.7  0.8641  -22.9
 0.155  0.7887  -54.5   6.980  141.6  0.0655   61.0  0.8574  -23.3
 0.160  0.7814  -55.9   6.912  140.8  0.0669   60.3  0.8508  -23.8
 0.165  0.7746  -57.3   6.846  139.9  0.0683   59.6  0.8442  -24.2
 0.170  0.7682  -58.7   6.781  138.9  0.0696   59.0  0.8377  -24.7
 0.175  0.7623  -60.2   6.718  138.0  0.0710   58.4  0.8313  -25.2
 0.180  0.7570  -61.7   6.657  137.1  0.0724   57.8  0.8248  -25.6
 0.185  0.7521  -63.2   6.598  136.1  0.0738   57.2  0.8185  -26.1
 0.190  0.7478  -64.7   6.541  135.1  0.0752   56.6  0.8122  -26.6
 0.195  0.7440  -66.2   6.486  134.1  0.0766   56.1  0.8060  -27.1
 0.200  0.7408  -67.8   6.433  133.1  0.0780   55.6  0.7998  -27.6
 0.220  0.7168  -72.8   6.180  130.0  0.0819   53.4  0.7756  -29.0
 0.240  0.6986  -78.1   5.947  126.6  0.0859   51.4  0.7519  -30.6
 0.260  0.6821  -83.1   5.726  123.5  0.0893   49.7  0.7298  -31.9
 0.280  0.6656  -87.5   5.508  120.9  0.0922   48.2  0.7089  -32.9
 0.300  0.6534  -92.2   5.303  118.0  0.0952   46.8  0.6883  -34.0
 0.320  0.6353  -95.7   5.105  116.1  0.0973   45.8  0.6720  -34.7
 0.340  0.6198  -99.4   4.913  114.0  0.0994   44.8  0.6558  -35.3
 0.360  0.6070 -103.3   4.728  111.7  0.1015   43.8  0.6398  -36.1
 0.380  0.5971 -107.4   4.551  109.3  0.1037   42.9  0.6238  -36.8
 0.400  0.5903 -111.5   4.383  106.7  0.1059   42.0  0.6079  -37.6
 0.420  0.5786 -114.4   4.241  105.1  0.1072   41.4  0.5967  -38.0
 0.440  0.5684 -117.4   4.103  103.5  0.1085   40.8  0.5856  -38.4
 0.450  0.5639 -119.0   4.035  102.6  0.1092   40.6  0.5801  -38.6
 0.460  0.5598 -120.5   3.968  101.7  0.1099   40.3  0.5745  -38.8
 0.480  0.5529 -123.7   3.837   99.8  0.1112   39.7  0.5634  -39.2
 0.500  0.5478 -127.0   3.711   97.8  0.1126   39.2  0.5524  -39.7
 0.520  0.5406 -129.5   3.606   96.5  0.1136   39.0  0.5444  -40.0
 0.540  0.5344 -132.0   3.504   95.2  0.1146   38.7  0.5365  -40.3
 0.560  0.5293 -134.6   3.403   93.7  0.1155   38.5  0.5285  -40.7
 0.580  0.5253 -137.2   3.305   92.2  0.1165   38.3  0.5206  -41.0
 0.600  0.5224 -139.9   3.209   90.6  0.1175   38.1  0.5127  -41.4
 0.620  0.5180 -141.9   3.128   89.5  0.1184   38.1  0.5072  -41.7
 0.640  0.5142 -143.9   3.049   88.3  0.1193   38.1  0.5017  -42.0
 0.660  0.5111 -145.9   2.971   87.0  0.1203   38.1  0.4962  -42.3
 0.680  0.5086 -147.9   2.894   85.7  0.1212   38.1  0.4907  -42.7
 0.700  0.5067 -150.0   2.819   84.3  0.1221   38.1  0.4852  -43.0
 0.720  0.5041 -151.9   2.756   83.3  0.1229   38.2  0.4810  -43.3
 0.740  0.5020 -153.7   2.694   82.2  0.1236   38.3  0.4768  -43.6
 0.760  0.5005 -155.6   2.634   81.2  0.1244   38.5  0.4727  -43.9
 0.780  0.4995 -157.5   2.574   80.0  0.1251   38.6  0.4685  -44.3
 0.800  0.4990 -159.4   2.515   78.8  0.1259   38.7  0.4644  -44.6
 0.820  0.4975 -161.0   2.464   77.9  0.1267   38.9  0.4611  -44.9
 0.840  0.4964 -162.6   2.413   77.0  0.1275   39.0  0.4579  -45.3
 0.860  0.4956 -164.2   2.364   76.0  0.1284   39.2  0.4547  -45.7
 0.880  0.4953 -165.9   2.314   75.0  0.1292   39.3  0.4515  -46.0
 0.900  0.4954 -167.5   2.266   74.0  0.1300   39.5  0.4483  -46.4
 0.920  0.4943 -168.9   2.225   73.1  0.1309   39.7  0.4460  -46.8
 0.940  0.4934 -170.3   2.184   72.2  0.1318   39.9  0.4438  -47.1
 0.960  0.4929 -171.7   2.144   71.3  0.1328   40.2  0.4415  -47.5
 0.980  0.4926 -173.1   2.105   70.3  0.1337   40.4  0.4393  -47.8
 1.000  0.4927 -174.5   2.066   69.3  0.1346   40.6  0.4371  -48.2
 1.020  0.4930 -175.8   2.034   68.5  0.1356   40.9  0.4351  -48.7
 1.040  0.4935 -177.1   2.003   67.7  0.1366   41.2  0.4331  -49.1
 1.060  0.4943 -178.4   1.972   66.9  0.1375   41.5  0.4311  -49.6
 1.080  0.4953 -179.6   1.941   66.0  0.1385   41.7  0.4291  -50.0
 1.100  0.4966  179.1   1.911   65.1  0.1395   42.0  0.4272  -50.5
 1.120  0.4968  178.0   1.883   64.4  0.1407   42.3  0.4255  -51.0
 1.140  0.4971  176.9   1.856   63.6  0.1418   42.6  0.4238  -51.4
 1.160  0.4977  175.7   1.829   62.8  0.1430   42.9  0.4221  -51.9
 1.180  0.4985  174.6   1.802   62.0  0.1442   43.1  0.4204  -52.4
 1.200  0.4994  173.5   1.776   61.2  0.1454   43.4  0.4188  -52.9
 1.220  0.4996  172.4   1.751   60.5  0.1465   43.7  0.4176  -53.4
 1.240  0.5000  171.2   1.726   59.7  0.1477   43.9  0.4164  -53.9
 1.260  0.5006  170.1   1.702   58.9  0.1488   44.2  0.4152  -54.4
 1.280  0.5014  168.9   1.678   58.1  0.1500   44.4  0.4141  -54.9
 1.300  0.5024  167.8   1.654   57.3  0.1511   44.7  0.4130  -55.4
 1.320  0.5025  166.9   1.633   56.6  0.1524   45.0  0.4121  -55.9
 1.340  0.5026  166.0   1.611   55.9  0.1538   45.4  0.4113  -56.4
 1.360  0.5029  165.1   1.590   55.2  0.1551   45.7  0.4104  -56.9
 1.380  0.5034  164.2   1.569   54.5  0.1565   46.0  0.4097  -57.4
 1.400  0.5039  163.3   1.549   53.7  0.1578   46.3  0.4089  -57.9
 1.420  0.5044  162.4   1.529   53.0  0.1592   46.5  0.4078  -58.5
 1.440  0.5051  161.5   1.510   52.4  0.1606   46.8  0.4066  -59.1
 1.460  0.5059  160.5   1.491   51.7  0.1620   47.0  0.4056  -59.7
 1.480  0.5068  159.6   1.472   50.9  0.1634   47.3  0.4046  -60.3
 1.500  0.5079  158.7   1.453   50.2  0.1648   47.5  0.4036  -60.9
 1.520  0.5095  157.8   1.439   49.6  0.1664   47.7  0.4027  -61.5
 1.540  0.5112  157.0   1.426   49.0  0.1680   48.0  0.4019  -62.1
 1.560  0.5130  156.1   1.412   48.4  0.1697   48.2  0.4011  -62.8
 1.580  0.5149  155.2   1.399   47.8  0.1713   48.4  0.4003  -63.4
 1.600  0.5169  154.4   1.386   47.2  0.1729   48.6  0.3996  -64.0
 1.620  0.5176  153.6   1.373   46.6  0.1746   48.8  0.3989  -64.6
 1.640  0.5185  152.8   1.360   46.0  0.1764   49.1  0.3983  -65.2
 1.660  0.5195  151.9   1.347   45.4  0.1781   49.3  0.3977  -65.9
 1.680  0.5205  151.1   1.334   44.7  0.1799   49.5  0.3971  -66.5
 1.700  0.5217  150.3   1.321   44.1  0.1816   49.7  0.3966  -67.1
 1.720  0.5218  149.6   1.309   43.5  0.1835   49.9  0.3964  -67.7
 1.740  0.5220  148.9   1.297   42.9  0.1854   50.0  0.3963  -68.4
 1.760  0.5223  148.1   1.285   42.3  0.1874   50.2  0.3962  -69.0
 1.780  0.5227  147.4   1.274   41.7  0.1893   50.3  0.3962  -69.7
 1.800  0.5231  146.7   1.262   41.1  0.1912   50.5  0.3962  -70.3
 1.820  0.5242  146.0   1.251   40.6  0.1932   50.7  0.3957  -71.0
 1.840  0.5253  145.3   1.239   40.1  0.1951   50.8  0.3953  -71.6
 1.860  0.5266  144.6   1.228   39.6  0.1971   51.0  0.3949  -72.3
 1.880  0.5279  143.9   1.217   39.0  0.1990   51.1  0.3946  -72.9
 1.900  0.5293  143.2   1.206   38.5  0.2010   51.3  0.3943  -73.6
 1.920  0.5310  142.5   1.196   38.0  0.2032   51.4  0.3938  -74.2
 1.940  0.5328  141.7   1.186   37.4  0.2055   51.6  0.3934  -74.9
 1.960  0.5346  141.0   1.176   36.8  0.2077   51.7  0.3931  -75.5
 1.980  0.5366  140.3   1.166   36.3  0.2100   51.9  0.3928  -76.2
 2.000  0.5386  139.6   1.156   35.7  0.2122   52.0  0.3925  -76.8
 2.020  0.5396  138.9   1.147   35.2  0.2146   52.0  0.3921  -77.5
 2.040  0.5407  138.3   1.139   34.7  0.2170   52.1  0.3918  -78.2
 2.060  0.5418  137.6   1.130   34.2  0.2194   52.1  0.3916  -78.9
 2.080  0.5430  137.0   1.122   33.8  0.2218   52.1  0.3914  -79.6
 2.100  0.5443  136.4   1.113   33.2  0.2242   52.2  0.3912  -80.3
 2.120  0.5456  135.7   1.105   32.7  0.2266   52.2  0.3911  -81.0
 2.140  0.5470  135.1   1.097   32.2  0.2290   52.2  0.3911  -81.7
 2.160  0.5485  134.5   1.089   31.7  0.2314   52.2  0.3912  -82.4
 2.180  0.5500  133.8   1.081   31.1  0.2338   52.3  0.3912  -83.1
 2.200  0.5516  133.2   1.073   30.6  0.2362   52.3  0.3914  -83.8
 2.220  0.5521  132.6   1.066   30.2  0.2388   52.3  0.3911  -84.5
 2.240  0.5527  132.0   1.059   29.8  0.2414   52.2  0.3909  -85.3
 2.260  0.5534  131.4   1.051   29.4  0.2441   52.2  0.3907  -86.0
 2.280  0.5541  130.8   1.044   29.0  0.2467   52.2  0.3906  -86.7
 2.300  0.5549  130.2   1.037   28.6  0.2493   52.1  0.3906  -87.4
 2.320  0.5557  129.6   1.030   28.1  0.2519   52.1  0.3906  -88.2
 2.340  0.5566  129.0   1.023   27.7  0.2545   52.1  0.3907  -88.9
 2.360  0.5576  128.4   1.017   27.3  0.2572   52.1  0.3908  -89.6
 2.380  0.5586  127.8   1.010   26.8  0.2598   52.0  0.3910  -90.4
 2.400  0.5597  127.2   1.003   26.4  0.2624   52.0  0.3913  -91.1
 2.420  0.5610  126.6   0.997   26.0  0.2652   51.9  0.3910  -91.9
 2.440  0.5623  126.0   0.990   25.6  0.2680   51.8  0.3908  -92.7
 2.460  0.5637  125.4   0.984   25.2  0.2707   51.7  0.3907  -93.5
 2.480  0.5651  124.8   0.978   24.8  0.2735   51.6  0.3906  -94.3
 2.500  0.5666  124.3   0.972   24.4  0.2763   51.5  0.3907  -95.1
 2.520  0.5682  123.7   0.966   24.0  0.2791   51.4  0.3908  -95.8
 2.540  0.5698  123.1   0.960   23.6  0.2819   51.4  0.3909  -96.6
 2.560  0.5715  122.5   0.954   23.2  0.2846   51.3  0.3912  -97.4
 2.580  0.5732  122.0   0.948   22.7  0.2874   51.2  0.3915  -98.2
 2.600  0.5750  121.4   0.942   22.3  0.2902   51.1  0.3919  -99.0
 2.620  0.5754  120.9   0.937   21.9  0.2931   50.9  0.3915  -99.8
 2.640  0.5759  120.3   0.932   21.5  0.2959   50.8  0.3912 -100.7
 2.660  0.5764  119.8   0.927   21.1  0.2988   50.6  0.3910 -101.5
 2.680  0.5770  119.2   0.923   20.7  0.3017   50.5  0.3909 -102.4
 2.700  0.5777  118.7   0.918   20.4  0.3045   50.3  0.3909 -103.2
 2.720  0.5783  118.1   0.913   19.9  0.3074   50.2  0.3909 -104.0
 2.740  0.5791  117.6   0.909   19.5  0.3103   50.0  0.3911 -104.9
 2.760  0.5799  117.1   0.904   19.1  0.3131   49.9  0.3913 -105.7
 2.780  0.5807  116.5   0.899   18.7  0.3160   49.7  0.3916 -106.6
 2.800  0.5816  116.0   0.895   18.3  0.3189   49.6  0.3920 -107.4
 2.820  0.5828  115.4   0.890   18.0  0.3219   49.4  0.3920 -108.3
 2.840  0.5840  114.9   0.886   17.7  0.3249   49.1  0.3920 -109.1
 2.860  0.5853  114.3   0.882   17.4  0.3279   48.9  0.3921 -110.0
 2.880  0.5867  113.7   0.877   17.1  0.3309   48.7  0.3924 -110.9
 2.900  0.5881  113.2   0.873   16.8  0.3339   48.5  0.3927 -111.8
 2.920  0.5896  112.6   0.868   16.5  0.3370   48.3  0.3931 -112.6
 2.940  0.5911  112.1   0.864   16.2  0.3400   48.1  0.3936 -113.5
 2.960  0.5927  111.5   0.860   15.8  0.3430   47.9  0.3942 -114.4
 2.980  0.5943  110.9   0.855   15.5  0.3461   47.7  0.3948 -115.2
 3.000  0.5960  110.4   0.851   15.2  0.3491   47.5  0.3956 -116.1
!
!  f       NFmin   Gammaopt  rn/50
! GHz       dB    MAG  ANG    -
!
! noise parameter not available yet for this operation point!
!
! (c) 2015  Infineon Technologies AG, Munich
