! Infineon Technologies  Discrete & RF Semiconductors
! BFR93A
! VCE = 0.50 V,  IC =  25 mA
! Common Emitter S-Parameters:                            Nov 2015
# GHz  S  MA  R  50
!  f         S11            S21            S12            S22
! GHz     MAG   ANG      MAG   ANG      MAG   ANG      MAG   ANG
 0.010  0.4218  -45.7  33.727  161.9  0.0094   74.3  0.7335  -21.6
 0.015  0.4215  -62.0  31.731  155.2  0.0131   68.4  0.6977  -30.9
 0.020  0.4538  -77.1  30.216  147.8  0.0169   65.2  0.6819  -40.9
 0.025  0.4460  -85.0  28.501  144.8  0.0188   61.9  0.6376  -45.8
 0.030  0.4469  -93.1  26.874  141.4  0.0208   59.3  0.5986  -51.5
 0.035  0.4565 -101.0  25.355  137.6  0.0228   57.1  0.5663  -57.8
 0.040  0.4743 -108.4  23.962  133.3  0.0248   55.2  0.5417  -64.9
 0.045  0.4994 -115.2  22.718  128.5  0.0268   53.6  0.5259  -72.4
 0.050  0.5308 -121.2  21.651  123.2  0.0289   52.3  0.5197  -80.3
 0.055  0.5281 -123.9  20.809  122.1  0.0298   51.9  0.5000  -82.8
 0.060  0.5267 -126.7  19.975  120.9  0.0307   51.6  0.4812  -85.4
 0.065  0.5264 -129.4  19.151  119.7  0.0316   51.2  0.4636  -88.3
 0.070  0.5273 -132.2  18.336  118.3  0.0326   50.9  0.4473  -91.4
 0.075  0.5295 -134.9  17.534  116.8  0.0335   50.6  0.4323  -94.7
 0.080  0.5329 -137.6  16.745  115.1  0.0344   50.3  0.4188  -98.2
 0.085  0.5374 -140.2  15.971  113.3  0.0353   50.0  0.4071 -101.9
 0.090  0.5430 -142.9  15.215  111.3  0.0363   49.8  0.3972 -105.9
 0.095  0.5498 -145.4  14.480  109.0  0.0372   49.5  0.3892 -110.0
 0.100  0.5576 -147.9  13.769  106.6  0.0381   49.3  0.3834 -114.3
 0.105  0.5566 -149.2  13.360  106.0  0.0388   49.7  0.3771 -115.9
 0.110  0.5559 -150.4  12.953  105.4  0.0396   50.1  0.3712 -117.5
 0.115  0.5554 -151.7  12.548  104.7  0.0403   50.5  0.3655 -119.2
 0.120  0.5552 -153.0  12.144  104.0  0.0410   50.9  0.3602 -121.0
 0.125  0.5553 -154.3  11.742  103.3  0.0418   51.2  0.3552 -122.8
 0.130  0.5557 -155.5  11.343  102.5  0.0425   51.5  0.3506 -124.6
 0.135  0.5563 -156.8  10.945  101.6  0.0433   51.9  0.3464 -126.5
 0.140  0.5573 -158.1  10.551  100.7  0.0440   52.2  0.3426 -128.5
 0.145  0.5584 -159.3  10.159   99.7  0.0448   52.5  0.3391 -130.5
 0.150  0.5599 -160.6   9.771   98.6  0.0455   52.8  0.3361 -132.5
 0.155  0.5597 -161.4   9.545   98.2  0.0463   53.2  0.3333 -133.6
 0.160  0.5597 -162.1   9.320   97.8  0.0471   53.6  0.3306 -134.6
 0.165  0.5597 -162.9   9.096   97.3  0.0479   54.0  0.3280 -135.7
 0.170  0.5598 -163.6   8.872   96.9  0.0488   54.3  0.3256 -136.9
 0.175  0.5600 -164.4   8.649   96.4  0.0496   54.7  0.3232 -138.0
 0.180  0.5603 -165.1   8.426   95.9  0.0504   55.0  0.3210 -139.2
 0.185  0.5607 -165.9   8.204   95.3  0.0512   55.4  0.3190 -140.3
 0.190  0.5612 -166.6   7.983   94.7  0.0520   55.7  0.3171 -141.5
 0.195  0.5618 -167.4   7.762   94.1  0.0529   56.0  0.3153 -142.7
 0.200  0.5625 -168.1   7.543   93.5  0.0537   56.3  0.3136 -143.9
 0.220  0.5629 -170.2   6.969   92.1  0.0571   57.4  0.3092 -147.0
 0.240  0.5641 -172.3   6.400   90.5  0.0606   58.4  0.3058 -150.1
 0.260  0.5648 -174.1   5.923   89.0  0.0640   59.2  0.3030 -152.8
 0.280  0.5646 -175.6   5.538   87.8  0.0675   60.0  0.3005 -155.0
 0.300  0.5648 -177.1   5.155   86.4  0.0710   60.7  0.2984 -157.3
 0.320  0.5649 -178.4   4.904   85.6  0.0747   61.2  0.2973 -158.9
 0.340  0.5652 -179.8   4.654   84.6  0.0785   61.7  0.2964 -160.4
 0.360  0.5659  178.9   4.406   83.6  0.0822   62.1  0.2957 -162.0
 0.380  0.5669  177.5   4.159   82.4  0.0860   62.5  0.2952 -163.6
 0.400  0.5682  176.2   3.914   81.1  0.0897   62.9  0.2950 -165.2
 0.420  0.5684  175.1   3.764   80.3  0.0934   63.0  0.2945 -166.3
 0.440  0.5689  174.0   3.616   79.5  0.0971   63.2  0.2941 -167.4
 0.450  0.5692  173.4   3.542   79.0  0.0989   63.2  0.2939 -167.9
 0.460  0.5696  172.9   3.468   78.6  0.1008   63.3  0.2938 -168.4
 0.480  0.5704  171.8   3.321   77.6  0.1045   63.4  0.2936 -169.5
 0.500  0.5715  170.7   3.175   76.5  0.1082   63.5  0.2935 -170.6
 0.520  0.5717  169.8   3.074   75.8  0.1120   63.5  0.2937 -171.5
 0.540  0.5721  168.9   2.973   75.0  0.1157   63.5  0.2940 -172.4
 0.560  0.5726  168.1   2.873   74.2  0.1195   63.4  0.2944 -173.3
 0.580  0.5732  167.2   2.773   73.3  0.1232   63.4  0.2949 -174.2
 0.600  0.5740  166.3   2.674   72.4  0.1270   63.4  0.2954 -175.1
 0.620  0.5742  165.5   2.601   71.7  0.1308   63.2  0.2957 -175.8
 0.640  0.5744  164.7   2.528   71.0  0.1345   63.1  0.2961 -176.5
 0.660  0.5748  164.0   2.456   70.2  0.1383   63.0  0.2965 -177.1
 0.680  0.5753  163.2   2.384   69.4  0.1420   62.8  0.2970 -177.8
 0.700  0.5759  162.4   2.313   68.5  0.1458   62.7  0.2975 -178.5
 0.720  0.5760  161.7   2.260   67.8  0.1494   62.5  0.2980 -179.1
 0.740  0.5762  160.9   2.208   67.2  0.1530   62.4  0.2985 -179.8
 0.760  0.5765  160.2   2.155   66.4  0.1565   62.2  0.2991  179.6
 0.780  0.5769  159.4   2.103   65.7  0.1601   62.0  0.2997  178.9
 0.800  0.5774  158.7   2.052   64.9  0.1637   61.9  0.3004  178.3
 0.820  0.5784  158.0   2.010   64.3  0.1673   61.6  0.3013  177.8
 0.840  0.5795  157.2   1.969   63.6  0.1710   61.3  0.3023  177.2
 0.860  0.5808  156.5   1.928   62.9  0.1746   61.1  0.3033  176.7
 0.880  0.5821  155.7   1.887   62.2  0.1783   60.8  0.3043  176.1
 0.900  0.5835  155.0   1.847   61.5  0.1819   60.6  0.3054  175.6
 0.920  0.5834  154.3   1.815   60.9  0.1855   60.3  0.3059  175.1
 0.940  0.5834  153.6   1.783   60.3  0.1890   60.0  0.3064  174.6
 0.960  0.5835  152.8   1.751   59.6  0.1926   59.7  0.3069  174.1
 0.980  0.5837  152.1   1.720   58.9  0.1962   59.5  0.3075  173.6
 1.000  0.5840  151.4   1.689   58.2  0.1998   59.2  0.3081  173.1
 1.020  0.5853  150.8   1.662   57.6  0.2032   58.9  0.3089  172.7
 1.040  0.5867  150.3   1.636   57.0  0.2065   58.6  0.3097  172.3
 1.060  0.5882  149.7   1.610   56.4  0.2099   58.3  0.3106  171.8
 1.080  0.5896  149.2   1.584   55.8  0.2133   58.1  0.3114  171.4
 1.100  0.5912  148.6   1.558   55.1  0.2167   57.8  0.3123  171.0
 1.120  0.5920  148.0   1.537   54.5  0.2201   57.5  0.3132  170.5
 1.140  0.5929  147.3   1.517   53.8  0.2236   57.1  0.3142  170.0
 1.160  0.5938  146.7   1.497   53.2  0.2270   56.8  0.3152  169.6
 1.180  0.5948  146.0   1.477   52.5  0.2304   56.5  0.3162  169.1
 1.200  0.5959  145.4   1.457   51.8  0.2339   56.2  0.3172  168.6
 1.220  0.5961  144.8   1.437   51.2  0.2370   55.9  0.3179  168.2
 1.240  0.5965  144.2   1.418   50.6  0.2402   55.6  0.3185  167.8
 1.260  0.5968  143.5   1.399   50.0  0.2434   55.3  0.3192  167.3
 1.280  0.5973  142.9   1.380   49.4  0.2465   55.0  0.3200  166.9
 1.300  0.5978  142.3   1.361   48.7  0.2497   54.7  0.3207  166.5
 1.320  0.5977  141.7   1.346   48.2  0.2530   54.4  0.3216  166.1
 1.340  0.5977  141.2   1.331   47.6  0.2563   54.0  0.3225  165.7
 1.360  0.5978  140.6   1.316   47.1  0.2596   53.7  0.3234  165.4
 1.380  0.5979  140.1   1.301   46.5  0.2629   53.4  0.3243  165.0
 1.400  0.5981  139.5   1.286   45.9  0.2662   53.1  0.3252  164.6
 1.420  0.5980  138.9   1.272   45.4  0.2693   52.8  0.3263  164.2
 1.440  0.5980  138.4   1.257   44.9  0.2725   52.5  0.3274  163.9
 1.460  0.5980  137.8   1.243   44.3  0.2756   52.2  0.3285  163.5
 1.480  0.5981  137.3   1.229   43.8  0.2787   51.9  0.3297  163.2
 1.500  0.5982  136.7   1.215   43.2  0.2819   51.6  0.3308  162.8
 1.520  0.5995  136.2   1.204   42.7  0.2847   51.3  0.3319  162.4
 1.540  0.6009  135.7   1.194   42.2  0.2876   50.9  0.3329  162.0
 1.560  0.6024  135.1   1.184   41.7  0.2905   50.6  0.3340  161.7
 1.580  0.6039  134.6   1.173   41.2  0.2933   50.3  0.3351  161.3
 1.600  0.6054  134.1   1.163   40.7  0.2962   50.0  0.3362  160.9
 1.620  0.6066  133.6   1.153   40.3  0.2990   49.7  0.3367  160.5
 1.640  0.6079  133.1   1.143   39.8  0.3019   49.3  0.3372  160.2
 1.660  0.6093  132.5   1.133   39.3  0.3048   49.0  0.3377  159.8
 1.680  0.6107  132.0   1.124   38.9  0.3076   48.7  0.3382  159.5
 1.700  0.6121  131.5   1.114   38.4  0.3105   48.4  0.3387  159.1
 1.720  0.6120  131.0   1.106   37.9  0.3135   48.0  0.3397  158.8
 1.740  0.6119  130.4   1.098   37.3  0.3165   47.7  0.3407  158.5
 1.760  0.6119  129.9   1.090   36.7  0.3195   47.4  0.3417  158.3
 1.780  0.6119  129.3   1.083   36.2  0.3225   47.0  0.3428  158.0
 1.800  0.6120  128.8   1.075   35.6  0.3255   46.7  0.3438  157.7
 1.820  0.6115  128.3   1.068   35.2  0.3283   46.4  0.3446  157.4
 1.840  0.6110  127.9   1.061   34.8  0.3311   46.1  0.3454  157.1
 1.860  0.6105  127.4   1.054   34.4  0.3339   45.8  0.3462  156.7
 1.880  0.6101  127.0   1.047   33.9  0.3367   45.5  0.3471  156.4
 1.900  0.6097  126.5   1.040   33.5  0.3395   45.2  0.3479  156.1
 1.920  0.6110  126.0   1.034   33.1  0.3423   44.9  0.3487  155.7
 1.940  0.6123  125.5   1.027   32.6  0.3451   44.6  0.3495  155.4
 1.960  0.6136  125.0   1.021   32.2  0.3479   44.3  0.3503  155.0
 1.980  0.6150  124.5   1.015   31.8  0.3508   44.0  0.3511  154.7
 2.000  0.6165  124.0   1.009   31.3  0.3536   43.7  0.3519  154.3
 2.020  0.6166  123.5   1.003   30.9  0.3562   43.3  0.3526  154.0
 2.040  0.6168  123.0   0.997   30.5  0.3587   43.0  0.3533  153.6
 2.060  0.6171  122.5   0.991   30.1  0.3613   42.7  0.3541  153.3
 2.080  0.6174  122.0   0.985   29.7  0.3639   42.3  0.3548  153.0
 2.100  0.6177  121.5   0.979   29.3  0.3665   42.0  0.3556  152.6
 2.120  0.6181  121.1   0.973   28.8  0.3691   41.7  0.3563  152.3
 2.140  0.6185  120.6   0.967   28.4  0.3717   41.3  0.3571  152.0
 2.160  0.6189  120.1   0.961   28.0  0.3744   41.0  0.3579  151.6
 2.180  0.6194  119.6   0.956   27.5  0.3770   40.7  0.3587  151.3
 2.200  0.6200  119.1   0.950   27.1  0.3797   40.4  0.3595  151.0
 2.220  0.6201  118.7   0.946   26.7  0.3822   40.0  0.3604  150.7
 2.240  0.6203  118.2   0.942   26.3  0.3846   39.6  0.3614  150.3
 2.260  0.6205  117.8   0.938   26.0  0.3871   39.3  0.3624  150.0
 2.280  0.6207  117.3   0.935   25.6  0.3896   38.9  0.3633  149.6
 2.300  0.6209  116.9   0.931   25.2  0.3922   38.5  0.3643  149.3
 2.320  0.6212  116.5   0.927   24.8  0.3947   38.2  0.3653  148.9
 2.340  0.6216  116.0   0.924   24.4  0.3972   37.8  0.3664  148.6
 2.360  0.6219  115.6   0.920   24.0  0.3998   37.5  0.3674  148.3
 2.380  0.6224  115.1   0.917   23.6  0.4024   37.1  0.3684  147.9
 2.400  0.6228  114.7   0.913   23.2  0.4050   36.8  0.3695  147.6
 2.420  0.6236  114.3   0.909   22.8  0.4072   36.5  0.3705  147.3
 2.440  0.6245  113.8   0.905   22.4  0.4094   36.2  0.3715  146.9
 2.460  0.6253  113.4   0.901   22.1  0.4117   35.8  0.3726  146.6
 2.480  0.6263  113.0   0.897   21.7  0.4139   35.5  0.3736  146.3
 2.500  0.6272  112.5   0.893   21.3  0.4161   35.2  0.3747  146.0
 2.520  0.6282  112.1   0.890   20.9  0.4184   34.9  0.3757  145.7
 2.540  0.6292  111.7   0.886   20.5  0.4207   34.6  0.3768  145.3
 2.560  0.6303  111.2   0.882   20.1  0.4230   34.3  0.3779  145.0
 2.580  0.6314  110.8   0.879   19.7  0.4253   34.0  0.3790  144.7
 2.600  0.6325  110.4   0.875   19.3  0.4276   33.7  0.3801  144.4
 2.620  0.6326  109.9   0.872   19.0  0.4295   33.4  0.3812  144.0
 2.640  0.6328  109.5   0.868   18.6  0.4314   33.0  0.3823  143.7
 2.660  0.6329  109.0   0.865   18.3  0.4333   32.7  0.3834  143.3
 2.680  0.6332  108.6   0.862   17.9  0.4352   32.3  0.3846  143.0
 2.700  0.6334  108.1   0.859   17.6  0.4372   32.0  0.3857  142.6
 2.720  0.6337  107.6   0.855   17.2  0.4391   31.7  0.3869  142.3
 2.740  0.6341  107.2   0.852   16.9  0.4411   31.4  0.3881  141.9
 2.760  0.6345  106.7   0.849   16.5  0.4431   31.0  0.3893  141.6
 2.780  0.6349  106.3   0.846   16.2  0.4451   30.7  0.3905  141.2
 2.800  0.6354  105.8   0.843   15.8  0.4471   30.4  0.3917  140.9
 2.820  0.6361  105.4   0.841   15.5  0.4490   30.0  0.3929  140.6
 2.840  0.6368  105.0   0.839   15.2  0.4509   29.7  0.3942  140.2
 2.860  0.6375  104.6   0.836   14.8  0.4529   29.3  0.3955  139.9
 2.880  0.6383  104.1   0.834   14.5  0.4548   29.0  0.3967  139.6
 2.900  0.6391  103.7   0.832   14.2  0.4568   28.6  0.3980  139.2
 2.920  0.6399  103.3   0.830   13.8  0.4588   28.3  0.3993  138.9
 2.940  0.6408  102.9   0.828   13.5  0.4608   27.9  0.4007  138.6
 2.960  0.6417  102.5   0.826   13.2  0.4628   27.6  0.4020  138.2
 2.980  0.6426  102.1   0.824   12.8  0.4648   27.2  0.4033  137.9
 3.000  0.6436  101.7   0.822   12.5  0.4669   26.9  0.4047  137.6
!
!  f       NFmin   Gammaopt  rn/50
! GHz       dB    MAG  ANG    -
!
! noise parameter not available yet for this operation point!
!
! (c) 2015  Infineon Technologies AG, Munich
