! Infineon Technologies  Discrete & RF Semiconductors
! BFR93AW
! VCE =  1.0 V,  IC =  80 mA
! Common Emitter S-Parameters:                            Nov 2015
# GHz  S  MA  R  50
!  f         S11            S21            S12            S22
! GHz     MAG   ANG      MAG   ANG      MAG   ANG      MAG   ANG
 0.030  0.6068 -152.4  24.373  130.4  0.0117   52.3  0.2770 -101.2
 0.035  0.6358 -155.5  22.009  127.1  0.0125   51.5  0.2728 -109.5
 0.040  0.6664 -158.3  19.733  123.1  0.0133   50.8  0.2744 -117.9
 0.045  0.6985 -160.9  17.583  118.0  0.0141   50.2  0.2817 -126.0
 0.050  0.7319 -163.3  15.612  111.5  0.0150   49.7  0.2944 -133.6
 0.055  0.7350 -164.4  14.860  110.8  0.0156   50.7  0.2921 -135.9
 0.060  0.7384 -165.5  14.111  110.1  0.0163   51.7  0.2902 -138.2
 0.065  0.7421 -166.6  13.365  109.3  0.0169   52.6  0.2888 -140.5
 0.070  0.7461 -167.7  12.622  108.3  0.0176   53.4  0.2879 -142.8
 0.075  0.7503 -168.8  11.883  107.2  0.0182   54.2  0.2875 -145.1
 0.080  0.7547 -169.8  11.148  106.0  0.0189   54.9  0.2875 -147.5
 0.085  0.7594 -170.9  10.419  104.7  0.0196   55.6  0.2881 -149.9
 0.090  0.7644 -171.9   9.697  103.1  0.0203   56.2  0.2891 -152.2
 0.095  0.7696 -172.9   8.983  101.3  0.0209   56.8  0.2906 -154.5
 0.100  0.7751 -173.9   8.280   99.1  0.0216   57.3  0.2925 -156.8
 0.105  0.7760 -174.3   8.008   98.8  0.0222   58.0  0.2921 -157.6
 0.110  0.7769 -174.7   7.737   98.4  0.0229   58.6  0.2918 -158.5
 0.115  0.7778 -175.1   7.466   98.1  0.0236   59.2  0.2915 -159.3
 0.120  0.7788 -175.5   7.196   97.7  0.0243   59.8  0.2913 -160.1
 0.125  0.7798 -175.9   6.926   97.3  0.0249   60.4  0.2912 -160.9
 0.130  0.7808 -176.3   6.656   96.8  0.0256   60.9  0.2911 -161.8
 0.135  0.7819 -176.7   6.387   96.3  0.0262   61.4  0.2911 -162.6
 0.140  0.7830 -177.1   6.118   95.7  0.0269   61.8  0.2911 -163.4
 0.145  0.7842 -177.5   5.850   95.1  0.0276   62.3  0.2912 -164.3
 0.150  0.7854 -177.9   5.582   94.5  0.0283   62.7  0.2914 -165.1
 0.155  0.7851 -178.2   5.446   94.2  0.0290   63.2  0.2913 -165.6
 0.160  0.7848 -178.5   5.311   94.0  0.0297   63.7  0.2911 -166.0
 0.165  0.7846 -178.8   5.175   93.7  0.0304   64.1  0.2910 -166.5
 0.170  0.7843 -179.1   5.040   93.4  0.0311   64.6  0.2910 -167.0
 0.175  0.7841 -179.4   4.904   93.0  0.0318   65.0  0.2909 -167.4
 0.180  0.7839 -179.7   4.769   92.7  0.0325   65.4  0.2909 -167.9
 0.185  0.7838 -180.0   4.634   92.3  0.0333   65.8  0.2908 -168.4
 0.190  0.7836  179.7   4.500   91.9  0.0340   66.1  0.2908 -168.9
 0.195  0.7835  179.4   4.365   91.5  0.0347   66.5  0.2909 -169.3
 0.200  0.7834  179.1   4.231   91.1  0.0354   66.8  0.2909 -169.8
 0.220  0.7838  178.1   3.900   90.4  0.0383   68.1  0.2913 -171.0
 0.240  0.7846  177.0   3.569   89.5  0.0413   69.2  0.2919 -172.3
 0.260  0.7848  176.1   3.294   88.7  0.0444   70.0  0.2922 -173.3
 0.280  0.7845  175.4   3.075   87.9  0.0475   70.5  0.2921 -174.0
 0.300  0.7844  174.6   2.857   87.0  0.0506   70.9  0.2921 -174.8
 0.320  0.7843  173.9   2.720   86.5  0.0536   71.1  0.2922 -175.5
 0.340  0.7843  173.2   2.583   85.9  0.0566   71.3  0.2924 -176.2
 0.360  0.7845  172.4   2.447   85.3  0.0596   71.5  0.2926 -176.9
 0.380  0.7848  171.7   2.311   84.5  0.0626   71.6  0.2928 -177.6
 0.400  0.7852  171.0   2.176   83.7  0.0656   71.7  0.2931 -178.3
 0.420  0.7847  170.4   2.095   83.2  0.0686   71.8  0.2941 -178.8
 0.440  0.7843  169.9   2.015   82.7  0.0715   71.9  0.2951 -179.3
 0.450  0.7841  169.6   1.975   82.4  0.0730   72.0  0.2956 -179.5
 0.460  0.7839  169.3   1.935   82.1  0.0745   72.0  0.2961 -179.7
 0.480  0.7837  168.7   1.855   81.4  0.0775   72.1  0.2971  179.8
 0.500  0.7835  168.1   1.776   80.7  0.0805   72.2  0.2982  179.3
 0.520  0.7832  167.6   1.724   80.2  0.0835   72.1  0.2986  179.0
 0.540  0.7831  167.0   1.672   79.8  0.0865   72.0  0.2991  178.6
 0.560  0.7829  166.5   1.620   79.2  0.0894   71.9  0.2995  178.3
 0.580  0.7829  165.9   1.568   78.7  0.0924   71.9  0.3000  177.9
 0.600  0.7829  165.4   1.516   78.1  0.0954   71.8  0.3005  177.6
 0.620  0.7822  164.8   1.479   77.5  0.0984   71.6  0.3012  177.3
 0.640  0.7816  164.1   1.443   77.0  0.1015   71.4  0.3018  177.0
 0.660  0.7811  163.5   1.407   76.3  0.1045   71.2  0.3025  176.6
 0.680  0.7807  162.8   1.371   75.7  0.1076   71.1  0.3032  176.3
 0.700  0.7804  162.2   1.335   75.0  0.1106   70.9  0.3039  176.0
 0.720  0.7806  161.7   1.307   74.5  0.1136   70.8  0.3054  175.7
 0.740  0.7809  161.1   1.279   74.1  0.1165   70.6  0.3068  175.5
 0.760  0.7812  160.6   1.251   73.6  0.1195   70.5  0.3083  175.2
 0.780  0.7816  160.0   1.224   73.0  0.1224   70.4  0.3098  175.0
 0.800  0.7821  159.5   1.196   72.5  0.1254   70.3  0.3113  174.7
 0.820  0.7818  159.0   1.176   72.0  0.1284   70.1  0.3115  174.5
 0.840  0.7815  158.5   1.156   71.5  0.1314   69.9  0.3118  174.2
 0.860  0.7813  158.0   1.136   71.0  0.1343   69.7  0.3121  174.0
 0.880  0.7812  157.5   1.117   70.5  0.1373   69.5  0.3123  173.7
 0.900  0.7811  157.0   1.097   69.9  0.1403   69.3  0.3126  173.5
 0.920  0.7808  156.4   1.081   69.4  0.1432   69.0  0.3134  173.2
 0.940  0.7806  155.9   1.064   68.9  0.1461   68.8  0.3142  172.9
 0.960  0.7804  155.3   1.048   68.4  0.1489   68.6  0.3150  172.6
 0.980  0.7803  154.8   1.032   67.9  0.1518   68.3  0.3158  172.3
 1.000  0.7803  154.2   1.016   67.3  0.1547   68.1  0.3166  172.0
 1.020  0.7802  153.7   1.003   66.8  0.1576   67.9  0.3183  171.8
 1.040  0.7801  153.3   0.990   66.3  0.1604   67.6  0.3201  171.7
 1.060  0.7800  152.8   0.977   65.8  0.1633   67.4  0.3218  171.5
 1.080  0.7800  152.4   0.965   65.3  0.1661   67.2  0.3236  171.4
 1.100  0.7801  151.9   0.952   64.8  0.1690   67.0  0.3253  171.2
 1.120  0.7804  151.4   0.941   64.4  0.1717   66.7  0.3257  171.0
 1.140  0.7808  150.9   0.931   64.0  0.1744   66.5  0.3260  170.8
 1.160  0.7812  150.5   0.920   63.5  0.1772   66.3  0.3264  170.7
 1.180  0.7817  150.0   0.909   63.1  0.1799   66.0  0.3267  170.5
 1.200  0.7822  149.5   0.899   62.6  0.1826   65.8  0.3271  170.3
 1.220  0.7813  149.0   0.891   62.1  0.1856   65.5  0.3275  169.9
 1.240  0.7805  148.5   0.883   61.5  0.1886   65.2  0.3280  169.6
 1.260  0.7798  147.9   0.875   60.9  0.1916   64.9  0.3284  169.2
 1.280  0.7791  147.4   0.868   60.4  0.1946   64.6  0.3289  168.9
 1.300  0.7785  146.9   0.860   59.8  0.1976   64.3  0.3294  168.5
 1.320  0.7782  146.4   0.853   59.4  0.2002   64.0  0.3312  168.4
 1.340  0.7779  145.9   0.845   58.9  0.2027   63.8  0.3330  168.2
 1.360  0.7777  145.4   0.838   58.5  0.2053   63.5  0.3348  168.1
 1.380  0.7775  144.9   0.830   58.1  0.2079   63.2  0.3366  167.9
 1.400  0.7774  144.4   0.823   57.6  0.2105   63.0  0.3384  167.8
 1.420  0.7777  144.0   0.817   57.2  0.2132   62.8  0.3390  167.6
 1.440  0.7779  143.6   0.811   56.8  0.2159   62.5  0.3396  167.5
 1.460  0.7783  143.3   0.805   56.4  0.2186   62.3  0.3402  167.3
 1.480  0.7786  142.9   0.799   56.0  0.2213   62.1  0.3408  167.2
 1.500  0.7790  142.5   0.793   55.6  0.2240   61.9  0.3414  167.0
 1.520  0.7781  141.9   0.788   55.1  0.2267   61.6  0.3420  166.6
 1.540  0.7773  141.4   0.783   54.7  0.2294   61.2  0.3427  166.2
 1.560  0.7766  140.8   0.778   54.2  0.2321   60.9  0.3433  165.9
 1.580  0.7760  140.3   0.773   53.7  0.2349   60.6  0.3440  165.5
 1.600  0.7754  139.7   0.768   53.2  0.2376   60.3  0.3447  165.1
 1.620  0.7751  139.3   0.763   52.8  0.2402   60.0  0.3461  165.1
 1.640  0.7748  138.9   0.758   52.4  0.2427   59.8  0.3475  165.0
 1.660  0.7746  138.4   0.753   52.0  0.2453   59.6  0.3488  165.0
 1.680  0.7744  138.0   0.749   51.6  0.2478   59.3  0.3502  164.9
 1.700  0.7742  137.6   0.744   51.2  0.2504   59.1  0.3516  164.9
 1.720  0.7745  137.2   0.741   50.8  0.2530   58.9  0.3521  164.8
 1.740  0.7748  136.8   0.738   50.5  0.2556   58.6  0.3527  164.7
 1.760  0.7752  136.4   0.734   50.1  0.2582   58.4  0.3532  164.6
 1.780  0.7756  136.0   0.731   49.8  0.2609   58.1  0.3538  164.5
 1.800  0.7761  135.6   0.728   49.4  0.2635   57.9  0.3543  164.4
 1.820  0.7750  135.1   0.725   49.0  0.2661   57.6  0.3548  164.0
 1.840  0.7740  134.7   0.721   48.6  0.2686   57.2  0.3552  163.6
 1.860  0.7730  134.2   0.718   48.2  0.2712   56.9  0.3557  163.1
 1.880  0.7720  133.8   0.715   47.7  0.2738   56.6  0.3563  162.7
 1.900  0.7711  133.3   0.712   47.3  0.2764   56.3  0.3568  162.3
 1.920  0.7712  132.8   0.709   46.9  0.2788   56.0  0.3579  162.2
 1.940  0.7713  132.4   0.706   46.6  0.2811   55.8  0.3589  162.2
 1.960  0.7714  131.9   0.702   46.2  0.2835   55.5  0.3600  162.1
 1.980  0.7716  131.5   0.699   45.8  0.2859   55.3  0.3610  162.1
 2.000  0.7719  131.0   0.696   45.4  0.2883   55.0  0.3621  162.0
 2.020  0.7714  130.6   0.694   45.1  0.2908   54.7  0.3626  161.7
 2.040  0.7708  130.2   0.692   44.8  0.2933   54.4  0.3631  161.4
 2.060  0.7704  129.7   0.690   44.4  0.2958   54.1  0.3637  161.1
 2.080  0.7700  129.3   0.688   44.1  0.2983   53.8  0.3642  160.8
 2.100  0.7696  128.9   0.686   43.8  0.3009   53.5  0.3648  160.5
 2.120  0.7692  128.5   0.684   43.4  0.3034   53.3  0.3653  160.2
 2.140  0.7689  128.1   0.682   43.1  0.3059   53.0  0.3659  160.0
 2.160  0.7687  127.6   0.680   42.8  0.3085   52.7  0.3665  159.7
 2.180  0.7685  127.2   0.678   42.4  0.3110   52.5  0.3671  159.4
 2.200  0.7683  126.8   0.676   42.1  0.3136   52.2  0.3677  159.1
 2.220  0.7682  126.4   0.674   41.8  0.3159   51.9  0.3683  158.9
 2.240  0.7681  126.0   0.672   41.5  0.3181   51.7  0.3689  158.8
 2.260  0.7680  125.6   0.670   41.2  0.3204   51.4  0.3696  158.6
 2.280  0.7680  125.2   0.669   40.9  0.3226   51.2  0.3702  158.5
 2.300  0.7681  124.8   0.667   40.6  0.3249   50.9  0.3708  158.3
 2.320  0.7681  124.5   0.665   40.3  0.3272   50.7  0.3714  158.1
 2.340  0.7682  124.1   0.663   40.0  0.3295   50.4  0.3721  158.0
 2.360  0.7683  123.7   0.661   39.7  0.3318   50.2  0.3727  157.8
 2.380  0.7685  123.3   0.660   39.4  0.3341   49.9  0.3734  157.7
 2.400  0.7687  122.9   0.658   39.1  0.3364   49.7  0.3740  157.5
 2.420  0.7682  122.5   0.656   38.8  0.3385   49.4  0.3752  157.2
 2.440  0.7678  122.0   0.655   38.5  0.3407   49.1  0.3764  156.9
 2.460  0.7675  121.6   0.653   38.1  0.3428   48.8  0.3776  156.5
 2.480  0.7671  121.1   0.651   37.8  0.3450   48.5  0.3788  156.2
 2.500  0.7669  120.7   0.650   37.5  0.3472   48.2  0.3800  155.9
 2.520  0.7666  120.2   0.648   37.1  0.3494   47.9  0.3812  155.6
 2.540  0.7665  119.8   0.647   36.8  0.3516   47.6  0.3825  155.3
 2.560  0.7663  119.3   0.645   36.5  0.3538   47.3  0.3838  155.0
 2.580  0.7662  118.9   0.644   36.1  0.3560   47.0  0.3850  154.7
 2.600  0.7662  118.4   0.642   35.8  0.3582   46.7  0.3863  154.4
 2.620  0.7662  118.0   0.641   35.5  0.3603   46.4  0.3867  154.1
 2.640  0.7662  117.7   0.640   35.2  0.3623   46.1  0.3870  153.9
 2.660  0.7663  117.3   0.639   34.9  0.3644   45.8  0.3874  153.6
 2.680  0.7664  117.0   0.638   34.6  0.3665   45.5  0.3878  153.3
 2.700  0.7665  116.6   0.637   34.4  0.3686   45.2  0.3881  153.0
 2.720  0.7667  116.2   0.636   34.1  0.3707   44.9  0.3885  152.8
 2.740  0.7669  115.9   0.636   33.8  0.3728   44.6  0.3889  152.5
 2.760  0.7671  115.5   0.635   33.5  0.3749   44.4  0.3894  152.2
 2.780  0.7673  115.2   0.634   33.2  0.3771   44.1  0.3898  152.0
 2.800  0.7676  114.8   0.633   32.9  0.3792   43.8  0.3902  151.7
 2.820  0.7670  114.4   0.632   32.6  0.3811   43.5  0.3909  151.5
 2.840  0.7665  114.0   0.632   32.4  0.3830   43.3  0.3916  151.3
 2.860  0.7659  113.6   0.631   32.1  0.3849   43.0  0.3923  151.1
 2.880  0.7655  113.2   0.630   31.8  0.3869   42.7  0.3931  150.9
 2.900  0.7650  112.9   0.630   31.6  0.3888   42.5  0.3938  150.6
 2.920  0.7646  112.5   0.629   31.3  0.3907   42.2  0.3945  150.4
 2.940  0.7642  112.1   0.629   31.0  0.3927   42.0  0.3953  150.2
 2.960  0.7639  111.7   0.628   30.7  0.3947   41.7  0.3960  150.0
 2.980  0.7636  111.3   0.628   30.5  0.3966   41.4  0.3967  149.8
 3.000  0.7633  110.9   0.627   30.2  0.3986   41.2  0.3975  149.6
 3.100  0.7613  109.1   0.623   29.0  0.4067   39.7  0.4021  148.3
 3.200  0.7600  107.4   0.620   27.7  0.4150   38.3  0.4070  147.0
 3.300  0.7595  105.6   0.617   26.5  0.4235   37.0  0.4120  145.7
 3.400  0.7596  103.9   0.614   25.2  0.4323   35.7  0.4173  144.5
 3.500  0.7605  102.1   0.612   23.9  0.4413   34.4  0.4227  143.3
 3.600  0.7570  100.6   0.609   22.8  0.4471   33.0  0.4278  141.9
 3.700  0.7540   99.0   0.607   21.7  0.4531   31.7  0.4332  140.5
 3.800  0.7516   97.4   0.605   20.6  0.4593   30.5  0.4388  139.1
 3.900  0.7497   95.9   0.603   19.5  0.4658   29.2  0.4447  137.8
 4.000  0.7484   94.3   0.601   18.4  0.4725   28.0  0.4508  136.5
 4.100  0.7471   92.9   0.599   17.5  0.4772   26.7  0.4529  135.3
 4.200  0.7462   91.6   0.598   16.5  0.4822   25.5  0.4551  134.2
 4.300  0.7457   90.2   0.596   15.6  0.4874   24.3  0.4575  133.0
 4.400  0.7456   88.9   0.595   14.6  0.4928   23.1  0.4601  131.9
 4.500  0.7460   87.5   0.594   13.7  0.4984   21.9  0.4629  130.8
 4.600  0.7430   86.4   0.593   12.8  0.5017   20.9  0.4636  129.7
 4.700  0.7403   85.2   0.593   11.9  0.5052   19.9  0.4645  128.5
 4.800  0.7379   84.1   0.592   11.1  0.5088   18.9  0.4656  127.4
 4.900  0.7357   83.0   0.592   10.2  0.5125   18.0  0.4669  126.3
 5.000  0.7339   81.8   0.592    9.3  0.5164   17.0  0.4683  125.2
 5.100  0.7334   80.8   0.591    8.5  0.5197   16.1  0.4696  124.0
 5.200  0.7332   79.8   0.590    7.7  0.5231   15.2  0.4712  122.8
 5.300  0.7331   78.7   0.590    7.0  0.5267   14.3  0.4730  121.6
 5.400  0.7334   77.7   0.589    6.2  0.5304   13.5  0.4749  120.4
 5.500  0.7338   76.7   0.589    5.4  0.5342   12.6  0.4771  119.2
 5.600  0.7320   75.7   0.589    4.6  0.5376   11.7  0.4787  118.1
 5.700  0.7304   74.8   0.590    3.9  0.5412   10.8  0.4805  117.1
 5.800  0.7291   73.8   0.590    3.1  0.5449    9.9  0.4824  116.0
 5.900  0.7279   72.8   0.591    2.4  0.5487    9.0  0.4845  114.9
 6.000  0.7270   71.8   0.592    1.6  0.5527    8.1  0.4868  113.9
!
!  f       NFmin   Gammaopt  rn/50
! GHz       dB    MAG  ANG    -
!
! noise parameter not available yet for this operation point!
!
! (c) 2015  Infineon Technologies AG, Munich
