! Infineon Technologies  Discrete & RF Semiconductors
! BFR93A
! VCE =  1.5 V,  IC =  10 mA
! Common Emitter S-Parameters:                            Nov 2015
# GHz  S  MA  R  50
!  f         S11            S21            S12            S22
! GHz     MAG   ANG      MAG   ANG      MAG   ANG      MAG   ANG
 0.010  0.7076   -9.6  26.009  173.5  0.0056   84.4  0.9690   -5.7
 0.015  0.6991  -14.2  25.747  170.5  0.0082   81.5  0.9601   -8.4
 0.020  0.6952  -18.8  25.558  167.4  0.0108   80.0  0.9534  -11.1
 0.025  0.6784  -22.9  25.036  164.9  0.0130   76.9  0.9346  -13.4
 0.030  0.6652  -27.2  24.564  162.2  0.0152   74.7  0.9174  -15.7
 0.035  0.6558  -31.6  24.147  159.5  0.0174   73.0  0.9017  -18.1
 0.040  0.6504  -36.1  23.786  156.7  0.0197   71.7  0.8878  -20.7
 0.045  0.6491  -40.6  23.485  153.8  0.0219   70.7  0.8756  -23.2
 0.050  0.6519  -45.2  23.246  150.8  0.0242   69.9  0.8652  -25.9
 0.055  0.6345  -48.1  22.656  149.2  0.0256   68.2  0.8440  -27.3
 0.060  0.6188  -51.2  22.084  147.6  0.0271   66.6  0.8233  -28.7
 0.065  0.6050  -54.5  21.532  145.8  0.0286   65.3  0.8032  -30.2
 0.070  0.5933  -57.9  21.000  144.0  0.0301   64.0  0.7836  -31.8
 0.075  0.5837  -61.4  20.491  142.1  0.0316   62.9  0.7647  -33.4
 0.080  0.5764  -65.0  20.006  140.1  0.0331   61.9  0.7464  -35.2
 0.085  0.5715  -68.7  19.548  137.9  0.0347   61.0  0.7289  -37.0
 0.090  0.5690  -72.5  19.117  135.7  0.0362   60.1  0.7121  -38.9
 0.095  0.5689  -76.3  18.716  133.4  0.0377   59.3  0.6962  -40.9
 0.100  0.5713  -80.0  18.347  131.0  0.0393   58.6  0.6811  -43.0
 0.105  0.5610  -82.1  17.910  130.0  0.0401   58.0  0.6659  -43.8
 0.110  0.5515  -84.3  17.480  128.9  0.0410   57.5  0.6508  -44.6
 0.115  0.5428  -86.6  17.056  127.8  0.0418   57.0  0.6359  -45.4
 0.120  0.5350  -88.9  16.639  126.6  0.0427   56.4  0.6210  -46.3
 0.125  0.5281  -91.3  16.229  125.3  0.0436   56.0  0.6064  -47.2
 0.130  0.5222  -93.7  15.828  124.0  0.0444   55.5  0.5919  -48.2
 0.135  0.5172  -96.3  15.435  122.6  0.0453   55.0  0.5776  -49.2
 0.140  0.5133  -98.8  15.052  121.1  0.0462   54.6  0.5635  -50.3
 0.145  0.5104 -101.4  14.680  119.6  0.0470   54.2  0.5496  -51.4
 0.150  0.5085 -104.0  14.318  118.0  0.0479   53.8  0.5359  -52.6
 0.155  0.5034 -105.6  14.029  117.3  0.0486   53.7  0.5259  -53.1
 0.160  0.4987 -107.2  13.742  116.6  0.0492   53.6  0.5160  -53.5
 0.165  0.4944 -108.8  13.457  115.8  0.0499   53.4  0.5061  -54.0
 0.170  0.4905 -110.5  13.174  115.1  0.0505   53.3  0.4962  -54.5
 0.175  0.4870 -112.2  12.894  114.3  0.0512   53.2  0.4864  -55.1
 0.180  0.4840 -113.9  12.617  113.4  0.0519   53.1  0.4766  -55.6
 0.185  0.4813 -115.6  12.343  112.5  0.0525   53.0  0.4669  -56.2
 0.190  0.4792 -117.4  12.071  111.6  0.0532   52.9  0.4572  -56.8
 0.195  0.4775 -119.1  11.803  110.6  0.0538   52.8  0.4476  -57.4
 0.200  0.4762 -120.9  11.539  109.6  0.0545   52.7  0.4380  -58.1
 0.220  0.4654 -125.8  10.738  107.3  0.0569   52.7  0.4105  -59.4
 0.240  0.4583 -131.0   9.956  104.7  0.0593   52.6  0.3831  -60.9
 0.260  0.4532 -135.3   9.289  102.4  0.0616   52.8  0.3600  -62.1
 0.280  0.4487 -138.9   8.725  100.6  0.0639   53.2  0.3407  -62.9
 0.300  0.4459 -142.5   8.171   98.6  0.0661   53.5  0.3216  -63.9
 0.320  0.4415 -145.3   7.783   97.4  0.0685   54.0  0.3088  -64.4
 0.340  0.4381 -148.2   7.398   96.1  0.0708   54.4  0.2960  -64.9
 0.360  0.4359 -151.2   7.018   94.6  0.0732   54.8  0.2833  -65.5
 0.380  0.4349 -154.1   6.643   92.9  0.0755   55.2  0.2706  -66.1
 0.400  0.4350 -157.1   6.274   91.1  0.0779   55.6  0.2579  -66.8
 0.420  0.4331 -159.2   6.035   90.1  0.0803   56.0  0.2505  -67.1
 0.440  0.4318 -161.2   5.797   89.1  0.0828   56.3  0.2430  -67.5
 0.450  0.4313 -162.3   5.679   88.5  0.0840   56.5  0.2393  -67.6
 0.460  0.4310 -163.3   5.562   88.0  0.0852   56.6  0.2356  -67.8
 0.480  0.4308 -165.4   5.328   86.7  0.0877   56.9  0.2282  -68.2
 0.500  0.4312 -167.5   5.098   85.4  0.0901   57.2  0.2208  -68.6
 0.520  0.4305 -169.1   4.935   84.6  0.0927   57.5  0.2156  -68.9
 0.540  0.4300 -170.6   4.773   83.7  0.0952   57.7  0.2105  -69.3
 0.560  0.4299 -172.2   4.612   82.7  0.0978   58.0  0.2054  -69.7
 0.580  0.4302 -173.7   4.453   81.7  0.1003   58.2  0.2002  -70.1
 0.600  0.4307 -175.3   4.295   80.6  0.1029   58.4  0.1951  -70.5
 0.620  0.4309 -176.6   4.176   79.8  0.1055   58.5  0.1917  -70.9
 0.640  0.4313 -177.8   4.058   79.0  0.1081   58.6  0.1883  -71.3
 0.660  0.4319 -179.1   3.941   78.2  0.1107   58.7  0.1849  -71.8
 0.680  0.4327  179.7   3.825   77.3  0.1133   58.8  0.1815  -72.2
 0.700  0.4337  178.4   3.710   76.3  0.1159   58.9  0.1781  -72.7
 0.720  0.4338  177.3   3.622   75.6  0.1185   59.0  0.1754  -73.2
 0.740  0.4341  176.2   3.534   74.8  0.1211   59.1  0.1728  -73.7
 0.760  0.4345  175.2   3.448   74.0  0.1238   59.2  0.1701  -74.2
 0.780  0.4351  174.1   3.361   73.2  0.1264   59.2  0.1675  -74.7
 0.800  0.4358  173.0   3.276   72.3  0.1290   59.3  0.1649  -75.2
 0.820  0.4364  171.9   3.206   71.7  0.1316   59.3  0.1629  -75.8
 0.840  0.4372  170.9   3.136   71.0  0.1342   59.2  0.1610  -76.4
 0.860  0.4381  169.8   3.066   70.3  0.1368   59.2  0.1591  -77.0
 0.880  0.4392  168.8   2.997   69.6  0.1394   59.1  0.1572  -77.6
 0.900  0.4404  167.7   2.929   68.8  0.1420   59.1  0.1553  -78.2
 0.920  0.4407  166.8   2.874   68.2  0.1447   59.0  0.1539  -78.8
 0.940  0.4410  165.9   2.820   67.5  0.1473   59.0  0.1526  -79.3
 0.960  0.4415  164.9   2.766   66.8  0.1500   58.9  0.1512  -79.9
 0.980  0.4421  164.0   2.713   66.1  0.1526   58.9  0.1499  -80.5
 1.000  0.4428  163.1   2.660   65.3  0.1553   58.8  0.1486  -81.1
 1.020  0.4439  162.4   2.616   64.7  0.1579   58.7  0.1476  -81.9
 1.040  0.4450  161.6   2.573   64.0  0.1606   58.6  0.1466  -82.6
 1.060  0.4462  160.9   2.530   63.4  0.1632   58.5  0.1456  -83.4
 1.080  0.4475  160.2   2.487   62.7  0.1659   58.4  0.1446  -84.2
 1.100  0.4488  159.5   2.445   62.0  0.1685   58.3  0.1437  -85.0
 1.120  0.4504  158.7   2.408   61.4  0.1711   58.2  0.1427  -85.8
 1.140  0.4522  157.9   2.372   60.8  0.1738   58.0  0.1418  -86.6
 1.160  0.4540  157.1   2.336   60.1  0.1764   57.9  0.1409  -87.4
 1.180  0.4559  156.3   2.300   59.5  0.1791   57.8  0.1400  -88.3
 1.200  0.4579  155.5   2.264   58.8  0.1817   57.7  0.1391  -89.1
 1.220  0.4586  154.7   2.231   58.2  0.1842   57.5  0.1384  -89.9
 1.240  0.4594  153.9   2.198   57.5  0.1867   57.4  0.1377  -90.6
 1.260  0.4603  153.2   2.166   56.8  0.1893   57.2  0.1371  -91.4
 1.280  0.4613  152.4   2.134   56.1  0.1918   57.1  0.1365  -92.2
 1.300  0.4624  151.6   2.102   55.4  0.1943   56.9  0.1359  -93.0
 1.320  0.4627  151.0   2.074   54.9  0.1969   56.8  0.1358  -93.7
 1.340  0.4631  150.3   2.047   54.3  0.1995   56.6  0.1356  -94.5
 1.360  0.4636  149.7   2.020   53.8  0.2022   56.5  0.1355  -95.2
 1.380  0.4641  149.0   1.993   53.2  0.2048   56.3  0.1355  -96.0
 1.400  0.4647  148.4   1.966   52.6  0.2074   56.2  0.1354  -96.7
 1.420  0.4653  147.8   1.942   52.1  0.2100   56.0  0.1351  -97.7
 1.440  0.4660  147.2   1.918   51.5  0.2126   55.8  0.1348  -98.7
 1.460  0.4667  146.6   1.894   51.0  0.2153   55.6  0.1346  -99.7
 1.480  0.4675  146.0   1.870   50.4  0.2179   55.5  0.1344 -100.7
 1.500  0.4683  145.4   1.847   49.8  0.2205   55.3  0.1343 -101.7
 1.520  0.4700  144.8   1.828   49.3  0.2230   55.1  0.1343 -102.7
 1.540  0.4718  144.1   1.809   48.7  0.2255   54.9  0.1343 -103.7
 1.560  0.4736  143.5   1.791   48.2  0.2281   54.7  0.1343 -104.6
 1.580  0.4755  142.9   1.772   47.6  0.2306   54.5  0.1344 -105.6
 1.600  0.4774  142.3   1.754   47.0  0.2331   54.3  0.1345 -106.6
 1.620  0.4791  141.7   1.737   46.5  0.2355   54.1  0.1346 -107.4
 1.640  0.4808  141.0   1.720   46.0  0.2379   53.9  0.1347 -108.3
 1.660  0.4826  140.4   1.703   45.4  0.2404   53.7  0.1348 -109.1
 1.680  0.4845  139.7   1.686   44.9  0.2428   53.5  0.1350 -110.0
 1.700  0.4864  139.1   1.670   44.3  0.2452   53.3  0.1352 -110.8
 1.720  0.4865  138.6   1.654   43.8  0.2478   53.1  0.1358 -111.6
 1.740  0.4866  138.0   1.638   43.3  0.2504   52.8  0.1364 -112.5
 1.760  0.4867  137.5   1.623   42.7  0.2530   52.6  0.1371 -113.3
 1.780  0.4869  136.9   1.607   42.2  0.2557   52.4  0.1378 -114.1
 1.800  0.4871  136.4   1.592   41.6  0.2583   52.2  0.1385 -114.9
 1.820  0.4879  135.9   1.579   41.1  0.2608   52.0  0.1389 -115.8
 1.840  0.4887  135.4   1.566   40.7  0.2633   51.8  0.1394 -116.6
 1.860  0.4896  134.8   1.553   40.2  0.2657   51.6  0.1399 -117.4
 1.880  0.4905  134.3   1.540   39.7  0.2682   51.4  0.1404 -118.3
 1.900  0.4915  133.8   1.527   39.2  0.2707   51.2  0.1410 -119.1
 1.920  0.4929  133.3   1.514   38.7  0.2731   51.0  0.1413 -119.9
 1.940  0.4942  132.7   1.501   38.3  0.2755   50.8  0.1416 -120.8
 1.960  0.4957  132.2   1.488   37.8  0.2779   50.6  0.1420 -121.6
 1.980  0.4972  131.6   1.476   37.3  0.2804   50.4  0.1424 -122.4
 2.000  0.4987  131.1   1.463   36.8  0.2828   50.2  0.1428 -123.2
 2.020  0.4997  130.6   1.452   36.3  0.2853   49.9  0.1433 -124.0
 2.040  0.5007  130.1   1.441   35.9  0.2877   49.7  0.1439 -124.8
 2.060  0.5018  129.6   1.430   35.4  0.2902   49.4  0.1444 -125.6
 2.080  0.5029  129.1   1.420   34.9  0.2927   49.2  0.1450 -126.4
 2.100  0.5040  128.6   1.409   34.4  0.2952   48.9  0.1457 -127.2
 2.120  0.5052  128.1   1.399   33.9  0.2977   48.7  0.1463 -128.0
 2.140  0.5064  127.6   1.388   33.4  0.3002   48.5  0.1470 -128.7
 2.160  0.5077  127.1   1.378   32.9  0.3027   48.2  0.1477 -129.5
 2.180  0.5090  126.6   1.368   32.3  0.3052   48.0  0.1484 -130.3
 2.200  0.5103  126.1   1.358   31.8  0.3077   47.8  0.1492 -131.0
 2.220  0.5109  125.6   1.350   31.4  0.3102   47.5  0.1499 -131.8
 2.240  0.5115  125.2   1.342   31.0  0.3126   47.3  0.1507 -132.7
 2.260  0.5121  124.7   1.334   30.6  0.3151   47.0  0.1515 -133.5
 2.280  0.5128  124.3   1.326   30.2  0.3175   46.8  0.1523 -134.3
 2.300  0.5135  123.8   1.318   29.8  0.3200   46.5  0.1531 -135.1
 2.320  0.5142  123.4   1.310   29.4  0.3225   46.3  0.1540 -135.9
 2.340  0.5149  122.9   1.303   29.0  0.3250   46.0  0.1549 -136.7
 2.360  0.5157  122.5   1.295   28.6  0.3275   45.8  0.1558 -137.5
 2.380  0.5165  122.0   1.287   28.1  0.3300   45.5  0.1568 -138.2
 2.400  0.5174  121.6   1.280   27.7  0.3325   45.3  0.1578 -139.0
 2.420  0.5189  121.1   1.272   27.3  0.3348   45.0  0.1588 -139.9
 2.440  0.5205  120.6   1.263   26.8  0.3371   44.8  0.1597 -140.7
 2.460  0.5221  120.2   1.255   26.4  0.3394   44.5  0.1608 -141.6
 2.480  0.5237  119.7   1.247   25.9  0.3417   44.2  0.1618 -142.4
 2.500  0.5254  119.2   1.239   25.5  0.3440   44.0  0.1629 -143.2
 2.520  0.5271  118.7   1.231   25.0  0.3463   43.7  0.1641 -144.1
 2.540  0.5288  118.3   1.223   24.5  0.3486   43.4  0.1652 -144.9
 2.560  0.5306  117.8   1.215   24.1  0.3509   43.2  0.1664 -145.7
 2.580  0.5324  117.4   1.208   23.6  0.3533   42.9  0.1676 -146.4
 2.600  0.5342  116.9   1.200   23.1  0.3556   42.7  0.1689 -147.2
 2.620  0.5347  116.4   1.194   22.7  0.3578   42.4  0.1699 -148.1
 2.640  0.5353  115.9   1.188   22.3  0.3601   42.1  0.1709 -149.0
 2.660  0.5360  115.4   1.182   21.9  0.3623   41.9  0.1720 -149.8
 2.680  0.5366  115.0   1.176   21.5  0.3646   41.6  0.1730 -150.7
 2.700  0.5373  114.5   1.170   21.1  0.3668   41.3  0.1742 -151.5
 2.720  0.5381  114.0   1.164   20.7  0.3691   41.0  0.1754 -152.4
 2.740  0.5388  113.5   1.159   20.3  0.3714   40.8  0.1766 -153.2
 2.760  0.5397  113.0   1.153   19.9  0.3737   40.5  0.1778 -154.0
 2.780  0.5405  112.6   1.148   19.4  0.3760   40.3  0.1791 -154.8
 2.800  0.5414  112.1   1.142   19.0  0.3783   40.0  0.1804 -155.6
 2.820  0.5426  111.7   1.136   18.6  0.3805   39.7  0.1818 -156.5
 2.840  0.5439  111.3   1.131   18.3  0.3828   39.4  0.1832 -157.3
 2.860  0.5452  110.8   1.126   17.9  0.3850   39.1  0.1847 -158.1
 2.880  0.5465  110.4   1.120   17.5  0.3873   38.8  0.1862 -159.0
 2.900  0.5478  110.0   1.115   17.1  0.3895   38.6  0.1877 -159.8
 2.920  0.5492  109.6   1.110   16.8  0.3918   38.3  0.1893 -160.6
 2.940  0.5506  109.2   1.104   16.4  0.3941   38.0  0.1909 -161.3
 2.960  0.5520  108.8   1.099   16.0  0.3964   37.7  0.1926 -162.1
 2.980  0.5534  108.4   1.094   15.6  0.3987   37.5  0.1943 -162.9
 3.000  0.5549  108.0   1.089   15.2  0.4010   37.2  0.1960 -163.6
!
!  f       NFmin   Gammaopt  rn/50
! GHz       dB    MAG  ANG    -
!
! noise parameter not available yet for this operation point!
!
! (c) 2015  Infineon Technologies AG, Munich
